!Date: 10/28/2005, 12:30 PM

!Vgs = -8.000000E+0
!Vds = 0.000000E+0
!Ig = -7.328100E-5
!Id = 1.526200E-5

# HZ S RI R 50
1.000000E+8	9.907227E-1	-3.854370E-2	3.008842E-4	1.367283E-2	1.021385E-3	1.298618E-2	9.316711E-1	-1.129150E-2
3.245000E+8	9.774475E-1	-1.117249E-1	7.480621E-3	4.316711E-2	7.699966E-3	4.366684E-2	9.150391E-1	-9.246826E-2
5.490000E+8	9.609680E-1	-1.812744E-1	1.631546E-2	7.063293E-2	1.683807E-2	7.138824E-2	9.073181E-1	-1.528625E-1
7.735000E+8	9.403992E-1	-2.485046E-1	2.874756E-2	9.586716E-2	2.886200E-2	9.601593E-2	8.884888E-1	-2.113647E-1
9.980000E+8	9.159546E-1	-3.107300E-1	4.351807E-2	1.184959E-1	4.380035E-2	1.186714E-1	8.674316E-1	-2.632751E-1
1.222500E+9	8.870239E-1	-3.717041E-1	6.072998E-2	1.389694E-1	6.063843E-2	1.389160E-1	8.436279E-1	-3.161621E-1
1.447000E+9	8.548584E-1	-4.287720E-1	7.963562E-2	1.567841E-1	7.882690E-2	1.566467E-1	8.168030E-1	-3.645935E-1
1.671500E+9	8.186035E-1	-4.815063E-1	9.886169E-2	1.730804E-1	9.910583E-2	1.729355E-1	7.870483E-1	-4.092712E-1
1.896000E+9	7.806702E-1	-5.290222E-1	1.220703E-1	1.868668E-1	1.219635E-1	1.867218E-1	7.589722E-1	-4.490356E-1
2.120500E+9	7.418213E-1	-5.734253E-1	1.467133E-1	1.966934E-1	1.460724E-1	1.967239E-1	7.279053E-1	-4.900208E-1
2.345000E+9	6.988220E-1	-6.148987E-1	1.706772E-1	2.029572E-1	1.708755E-1	2.031860E-1	6.950989E-1	-5.272522E-1
2.569500E+9	6.565857E-1	-6.493835E-1	1.939468E-1	2.062149E-1	1.941223E-1	2.066498E-1	6.617432E-1	-5.611877E-1
2.794000E+9	6.140747E-1	-6.829224E-1	2.173996E-1	2.074966E-1	2.170715E-1	2.077332E-1	6.271362E-1	-5.912781E-1
3.018500E+9	5.703125E-1	-7.112122E-1	2.407074E-1	2.061768E-1	2.406464E-1	2.060852E-1	5.905762E-1	-6.217651E-1
3.243000E+9	5.267029E-1	-7.368774E-1	2.623901E-1	2.022552E-1	2.623138E-1	2.026672E-1	5.544128E-1	-6.469421E-1
3.467500E+9	4.841003E-1	-7.591248E-1	2.827759E-1	1.979218E-1	2.826691E-1	1.977386E-1	5.191040E-1	-6.693115E-1
3.692000E+9	4.417114E-1	-7.781677E-1	3.028412E-1	1.911621E-1	3.029327E-1	1.912231E-1	4.823303E-1	-6.912842E-1
3.916500E+9	3.988342E-1	-7.945251E-1	3.215790E-1	1.820984E-1	3.214874E-1	1.823578E-1	4.452820E-1	-7.080994E-1
4.141000E+9	3.591003E-1	-8.086243E-1	3.395386E-1	1.732025E-1	3.396606E-1	1.730957E-1	4.116211E-1	-7.236938E-1
4.365500E+9	3.202820E-1	-8.205566E-1	3.554687E-1	1.622925E-1	3.556519E-1	1.623535E-1	3.771973E-1	-7.384033E-1
4.590000E+9	2.796021E-1	-8.311157E-1	3.711548E-1	1.501007E-1	3.706207E-1	1.503448E-1	3.418274E-1	-7.508545E-1
4.814500E+9	2.422485E-1	-8.379517E-1	3.851013E-1	1.371613E-1	3.850861E-1	1.375885E-1	3.088684E-1	-7.620544E-1
5.039000E+9	2.054138E-1	-8.447571E-1	3.981171E-1	1.228638E-1	3.976440E-1	1.232758E-1	2.754517E-1	-7.734375E-1
5.263500E+9	1.689758E-1	-8.485413E-1	4.089050E-1	1.087494E-1	4.091949E-1	1.092529E-1	2.410889E-1	-7.801819E-1
5.488000E+9	1.359863E-1	-8.512573E-1	4.191742E-1	9.449768E-2	4.183807E-1	9.434509E-2	2.101440E-1	-7.869568E-1
5.712500E+9	1.008301E-1	-8.537292E-1	4.277954E-1	7.850647E-2	4.281311E-1	7.928467E-2	1.795349E-1	-7.934875E-1
5.937000E+9	6.976318E-2	-8.525085E-1	4.354706E-1	6.321716E-2	4.348602E-1	6.359863E-2	1.480103E-1	-7.983398E-1
6.161500E+9	3.991699E-2	-8.531799E-1	4.417114E-1	4.820251E-2	4.417419E-1	4.847717E-2	1.180420E-1	-8.017578E-1
6.386000E+9	8.026123E-3	-8.527832E-1	4.468384E-1	3.205872E-2	4.466858E-1	3.254700E-2	8.825684E-2	-8.048096E-1
6.610500E+9	-1.937866E-2	-8.513489E-1	4.506073E-1	1.696777E-2	4.505768E-1	1.763916E-2	5.749512E-2	-8.065186E-1
6.835000E+9	-4.849243E-2	-8.486633E-1	4.539642E-1	2.182007E-3	4.542999E-1	2.456665E-3	2.862549E-2	-8.061523E-1
7.059500E+9	-7.388306E-2	-8.443909E-1	4.555969E-1	-1.239014E-2	4.559631E-1	-1.119995E-2	4.425049E-3	-8.053589E-1
7.284000E+9	-1.001587E-1	-8.413086E-1	4.569397E-1	-2.734375E-2	4.572754E-1	-2.729797E-2	-2.545166E-2	-8.053589E-1
7.508500E+9	-1.264343E-1	-8.368835E-1	4.580688E-1	-4.212952E-2	4.574738E-1	-4.176331E-2	-5.227661E-2	-8.010254E-1
7.733000E+9	-1.505127E-1	-8.311462E-1	4.568787E-1	-5.557251E-2	4.574738E-1	-5.564880E-2	-7.626343E-2	-7.993469E-1
7.957500E+9	-1.740112E-1	-8.256531E-1	4.566345E-1	-6.997681E-2	4.559326E-1	-6.967163E-2	-1.038208E-1	-7.979431E-1
8.182000E+9	-1.956787E-1	-8.200073E-1	4.551086E-1	-8.348083E-2	4.554749E-1	-8.312988E-2	-1.277771E-1	-7.940674E-1
8.406500E+9	-2.181091E-1	-8.142395E-1	4.527130E-1	-9.666443E-2	4.530182E-1	-9.643555E-2	-1.526794E-1	-7.890015E-1
8.631000E+9	-2.407532E-1	-8.079224E-1	4.508667E-1	-1.094513E-1	4.499817E-1	-1.092224E-1	-1.766663E-1	-7.845154E-1
8.855500E+9	-2.601929E-1	-8.013000E-1	4.475555E-1	-1.216888E-1	4.467316E-1	-1.216736E-1	-1.998291E-1	-7.777100E-1
9.080001E+9	-2.794495E-1	-7.958679E-1	4.436646E-1	-1.339264E-1	4.434967E-1	-1.332397E-1	-2.214355E-1	-7.709961E-1
9.304500E+9	-2.993164E-1	-7.874146E-1	4.390869E-1	-1.449890E-1	4.392242E-1	-1.449280E-1	-2.427368E-1	-7.651978E-1
9.529000E+9	-3.168335E-1	-7.813721E-1	4.356232E-1	-1.562653E-1	4.350739E-1	-1.560822E-1	-2.660522E-1	-7.571106E-1
9.753500E+9	-3.371582E-1	-7.734070E-1	4.300842E-1	-1.672821E-1	4.301910E-1	-1.669312E-1	-2.845459E-1	-7.495422E-1
9.978000E+9	-3.527222E-1	-7.666321E-1	4.252167E-1	-1.774139E-1	4.243164E-1	-1.772614E-1	-3.051147E-1	-7.435303E-1
1.020250E+10	-3.702087E-1	-7.594299E-1	4.193726E-1	-1.882172E-1	4.199371E-1	-1.877899E-1	-3.256836E-1	-7.338867E-1
1.042700E+10	-3.865967E-1	-7.511902E-1	4.134979E-1	-1.978149E-1	4.140625E-1	-1.975098E-1	-3.436279E-1	-7.266846E-1
1.065150E+10	-4.013672E-1	-7.439880E-1	4.080048E-1	-2.063904E-1	4.080963E-1	-2.057800E-1	-3.619080E-1	-7.189026E-1
1.087600E+10	-4.175110E-1	-7.358704E-1	4.016876E-1	-2.148285E-1	4.018097E-1	-2.147980E-1	-3.802185E-1	-7.092285E-1
1.110050E+10	-4.328918E-1	-7.272034E-1	3.954468E-1	-2.245483E-1	3.955688E-1	-2.236023E-1	-3.987427E-1	-6.996155E-1
1.132500E+10	-4.469604E-1	-7.203979E-1	3.884583E-1	-2.315369E-1	3.889008E-1	-2.317352E-1	-4.151001E-1	-6.917419E-1
1.154950E+10	-4.617310E-1	-7.114868E-1	3.818970E-1	-2.390289E-1	3.824005E-1	-2.394409E-1	-4.338074E-1	-6.821289E-1
1.177400E+10	-4.748230E-1	-7.033081E-1	3.763885E-1	-2.475281E-1	3.764801E-1	-2.462616E-1	-4.488525E-1	-6.705627E-1
1.199850E+10	-4.888611E-1	-6.949158E-1	3.698425E-1	-2.543945E-1	3.687286E-1	-2.541809E-1	-4.632263E-1	-6.622620E-1
1.222300E+10	-5.008240E-1	-6.869202E-1	3.624115E-1	-2.612000E-1	3.618164E-1	-2.605286E-1	-4.803162E-1	-6.518860E-1
1.244750E+10	-5.141602E-1	-6.791077E-1	3.543396E-1	-2.673645E-1	3.549652E-1	-2.670135E-1	-4.954529E-1	-6.391907E-1
1.267200E+10	-5.256958E-1	-6.704102E-1	3.481750E-1	-2.734680E-1	3.481750E-1	-2.734985E-1	-5.081177E-1	-6.318970E-1
1.289650E+10	-5.375366E-1	-6.622925E-1	3.417664E-1	-2.785950E-1	3.405914E-1	-2.782593E-1	-5.238953E-1	-6.204529E-1
1.312100E+10	-5.499268E-1	-6.553650E-1	3.330536E-1	-2.848969E-1	3.346558E-1	-2.844543E-1	-5.374451E-1	-6.072388E-1
1.334550E+10	-5.600586E-1	-6.458740E-1	3.271790E-1	-2.891998E-1	3.275299E-1	-2.897339E-1	-5.487671E-1	-5.985718E-1
1.357000E+10	-5.727844E-1	-6.369324E-1	3.197937E-1	-2.955017E-1	3.185425E-1	-2.948456E-1	-5.635376E-1	-5.900879E-1
1.379450E+10	-5.809631E-1	-6.297302E-1	3.134308E-1	-3.001404E-1	3.136597E-1	-2.998047E-1	-5.763855E-1	-5.740662E-1
1.401900E+10	-5.904541E-1	-6.218567E-1	3.060455E-1	-3.036652E-1	3.059692E-1	-3.032074E-1	-5.850525E-1	-5.654297E-1
1.424350E+10	-6.021729E-1	-6.126404E-1	2.987366E-1	-3.078003E-1	2.982941E-1	-3.074951E-1	-5.994873E-1	-5.529480E-1
1.446800E+10	-6.103516E-1	-6.058044E-1	2.917480E-1	-3.120270E-1	2.926636E-1	-3.122864E-1	-6.097412E-1	-5.391846E-1
1.469250E+10	-6.200867E-1	-5.969543E-1	2.839508E-1	-3.175201E-1	2.848816E-1	-3.151855E-1	-6.192017E-1	-5.294495E-1
1.491700E+10	-6.297607E-1	-5.890198E-1	2.780151E-1	-3.191528E-1	2.769928E-1	-3.195190E-1	-6.320801E-1	-5.205994E-1
1.514150E+10	-6.387939E-1	-5.806885E-1	2.704315E-1	-3.224792E-1	2.691498E-1	-3.226166E-1	-6.427307E-1	-5.047607E-1
1.536600E+10	-6.475525E-1	-5.725708E-1	2.621307E-1	-3.263855E-1	2.622223E-1	-3.270416E-1	-6.500854E-1	-4.936523E-1
1.559050E+10	-6.565247E-1	-5.645142E-1	2.555847E-1	-3.284607E-1	2.551880E-1	-3.285675E-1	-6.602783E-1	-4.840698E-1
1.581500E+10	-6.644592E-1	-5.567017E-1	2.476807E-1	-3.323059E-1	2.481995E-1	-3.302460E-1	-6.719666E-1	-4.691772E-1
1.603950E+10	-6.736145E-1	-5.479126E-1	2.423401E-1	-3.340912E-1	2.420349E-1	-3.336639E-1	-6.792908E-1	-4.587097E-1
1.626400E+10	-6.819458E-1	-5.401001E-1	2.343292E-1	-3.351288E-1	2.349396E-1	-3.348389E-1	-6.891174E-1	-4.467773E-1
1.648850E+10	-6.891785E-1	-5.321960E-1	2.269287E-1	-3.379211E-1	2.274780E-1	-3.383026E-1	-6.977539E-1	-4.310303E-1
1.671300E+10	-6.962280E-1	-5.231018E-1	2.203674E-1	-3.409271E-1	2.201843E-1	-3.392639E-1	-7.033081E-1	-4.206238E-1
1.693750E+10	-7.020264E-1	-5.165100E-1	2.139587E-1	-3.422394E-1	2.141266E-1	-3.417511E-1	-7.129517E-1	-4.101257E-1
1.716200E+10	-7.093506E-1	-5.073547E-1	2.078400E-1	-3.451691E-1	2.077942E-1	-3.436890E-1	-7.196045E-1	-3.949585E-1
1.738650E+10	-7.168579E-1	-5.000000E-1	2.002563E-1	-3.458252E-1	1.999359E-1	-3.443146E-1	-7.249756E-1	-3.828430E-1
1.761100E+10	-7.243652E-1	-4.924927E-1	1.930695E-1	-3.462830E-1	1.941986E-1	-3.465729E-1	-7.339478E-1	-3.734131E-1
1.783550E+10	-7.327881E-1	-4.836731E-1	1.885986E-1	-3.467102E-1	1.873016E-1	-3.466492E-1	-7.417603E-1	-3.566895E-1
1.806000E+10	-7.379761E-1	-4.760132E-1	1.816711E-1	-3.488464E-1	1.818237E-1	-3.481598E-1	-7.465515E-1	-3.460388E-1
1.828450E+10	-7.438354E-1	-4.666443E-1	1.743774E-1	-3.495789E-1	1.759796E-1	-3.488464E-1	-7.525330E-1	-3.364258E-1
1.850900E+10	-7.498474E-1	-4.595337E-1	1.702118E-1	-3.513336E-1	1.692047E-1	-3.485870E-1	-7.600403E-1	-3.209229E-1
1.873350E+10	-7.566223E-1	-4.512024E-1	1.639404E-1	-3.512573E-1	1.632690E-1	-3.516083E-1	-7.637329E-1	-3.077393E-1
1.895800E+10	-7.619324E-1	-4.438782E-1	1.559143E-1	-3.513947E-1	1.563263E-1	-3.511810E-1	-7.680664E-1	-3.005066E-1
1.918250E+10	-7.674866E-1	-4.356079E-1	1.499939E-1	-3.519135E-1	1.513062E-1	-3.517151E-1	-7.756653E-1	-2.868958E-1
1.940700E+10	-7.720642E-1	-4.263916E-1	1.428070E-1	-3.512878E-1	1.434937E-1	-3.517303E-1	-7.789612E-1	-2.696533E-1
1.963150E+10	-7.795105E-1	-4.197388E-1	1.394958E-1	-3.529053E-1	1.377106E-1	-3.527832E-1	-7.797852E-1	-2.615356E-1
1.985600E+10	-7.848816E-1	-4.111633E-1	1.328278E-1	-3.529968E-1	1.327515E-1	-3.511963E-1	-7.862244E-1	-2.485046E-1
2.008050E+10	-7.876282E-1	-4.037476E-1	1.263580E-1	-3.515778E-1	1.264496E-1	-3.508606E-1	-7.918701E-1	-2.327576E-1
2.030500E+10	-7.933044E-1	-3.973999E-1	1.203156E-1	-3.507385E-1	1.202393E-1	-3.508606E-1	-7.923889E-1	-2.222595E-1
2.052950E+10	-7.986450E-1	-3.888245E-1	1.155701E-1	-3.528137E-1	1.138000E-1	-3.504333E-1	-7.980957E-1	-2.106628E-1
2.075400E+10	-8.039246E-1	-3.817139E-1	1.099854E-1	-3.524628E-1	1.101990E-1	-3.529663E-1	-8.022766E-1	-1.974182E-1
2.097850E+10	-8.094788E-1	-3.742981E-1	1.044159E-1	-3.523560E-1	1.043243E-1	-3.523865E-1	-8.030090E-1	-1.863403E-1
2.120300E+10	-8.126831E-1	-3.654785E-1	9.974670E-2	-3.510437E-1	9.924316E-2	-3.500214E-1	-8.069763E-1	-1.764526E-1
2.142750E+10	-8.192749E-1	-3.574524E-1	9.269714E-2	-3.506470E-1	9.292603E-2	-3.497162E-1	-8.105469E-1	-1.622009E-1
2.165200E+10	-8.207703E-1	-3.490601E-1	8.833313E-2	-3.492432E-1	8.892822E-2	-3.491669E-1	-8.112488E-1	-1.510315E-1
2.187650E+10	-8.269653E-1	-3.424683E-1	8.294678E-2	-3.489227E-1	8.351135E-2	-3.486938E-1	-8.164673E-1	-1.404419E-1
2.210100E+10	-8.317261E-1	-3.312378E-1	7.754517E-2	-3.483582E-1	7.800293E-2	-3.480530E-1	-8.200378E-1	-1.239624E-1
2.232550E+10	-8.344421E-1	-3.245544E-1	7.336426E-2	-3.476562E-1	7.308960E-2	-3.480377E-1	-8.194275E-1	-1.097107E-1
2.255000E+10	-8.385620E-1	-3.177795E-1	6.852722E-2	-3.487701E-1	6.799316E-2	-3.456268E-1	-8.222961E-1	-1.033325E-1
2.277450E+10	-8.407898E-1	-3.074341E-1	6.330872E-2	-3.462372E-1	6.211853E-2	-3.453522E-1	-8.249512E-1	-8.627319E-2
2.299900E+10	-8.447876E-1	-3.016052E-1	5.793762E-2	-3.459778E-1	5.903625E-2	-3.463287E-1	-8.230896E-1	-7.476807E-2
2.322350E+10	-8.502197E-1	-2.938843E-1	5.235291E-2	-3.450012E-1	5.265808E-2	-3.470917E-1	-8.277283E-1	-6.475830E-2
2.344800E+10	-8.507080E-1	-2.872925E-1	4.862976E-2	-3.451996E-1	4.910278E-2	-3.446808E-1	-8.283081E-1	-5.020142E-2
2.367250E+10	-8.563538E-1	-2.786255E-1	4.064941E-2	-3.434753E-1	4.415894E-2	-3.441620E-1	-8.261414E-1	-3.662109E-2
2.389700E+10	-8.560791E-1	-2.705078E-1	3.689575E-2	-3.421478E-1	3.895569E-2	-3.422089E-1	-8.285522E-1	-2.865601E-2
2.412150E+10	-8.591003E-1	-2.647705E-1	3.355408E-2	-3.399658E-1	3.269958E-2	-3.386078E-1	-8.277893E-1	-1.202393E-2
2.434600E+10	-8.614807E-1	-2.554321E-1	2.775574E-2	-3.386536E-1	2.970886E-2	-3.380280E-1	-8.231812E-1	2.441406E-4
2.457050E+10	-8.622131E-1	-2.507019E-1	2.523804E-2	-3.386993E-1	2.487183E-2	-3.381195E-1	-8.257446E-1	1.089478E-2
2.479500E+10	-8.677979E-1	-2.428894E-1	2.195740E-2	-3.370972E-1	2.175903E-2	-3.354034E-1	-8.253784E-1	2.624512E-2
2.501950E+10	-8.703613E-1	-2.381592E-1	1.762390E-2	-3.368225E-1	1.643372E-2	-3.363495E-1	-8.199158E-1	3.799438E-2
2.524400E+10	-8.738098E-1	-2.308350E-1	1.123047E-2	-3.338776E-1	1.222229E-2	-3.340454E-1	-8.202820E-1	4.620361E-2
2.546850E+10	-8.749084E-1	-2.184143E-1	6.622314E-3	-3.322601E-1	9.689331E-3	-3.324127E-1	-8.171692E-1	6.143188E-2
2.569300E+10	-8.779297E-1	-2.174988E-1	4.806519E-3	-3.303833E-1	4.287720E-3	-3.300476E-1	-8.162842E-1	6.820679E-2
2.591750E+10	-8.816528E-1	-2.069702E-1	-4.882813E-4	-3.284302E-1	-1.831055E-4	-3.283234E-1	-8.183594E-1	8.074951E-2
2.614200E+10	-8.809509E-1	-2.011719E-1	-3.326416E-3	-3.259125E-1	-1.205444E-3	-3.271484E-1	-8.175659E-1	9.228516E-2
2.636650E+10	-8.862000E-1	-1.932373E-1	-9.140015E-3	-3.273773E-1	-5.249023E-3	-3.252411E-1	-8.141479E-1	1.082764E-1
2.659100E+10	-8.868103E-1	-1.866760E-1	-1.150513E-2	-3.246307E-1	-1.043701E-2	-3.247223E-1	-8.099060E-1	1.173706E-1
2.681550E+10	-8.894958E-1	-1.812134E-1	-1.426697E-2	-3.237305E-1	-1.440430E-2	-3.237762E-1	-8.088989E-1	1.270447E-1
2.704000E+10	-8.909912E-1	-1.705933E-1	-1.831055E-2	-3.223419E-1	-1.840210E-2	-3.222351E-1	-8.063354E-1	1.448364E-1
2.726450E+10	-8.930664E-1	-1.645203E-1	-2.183533E-2	-3.242950E-1	-2.255249E-2	-3.196106E-1	-7.989502E-1	1.495056E-1
2.748900E+10	-8.940735E-1	-1.598206E-1	-2.661133E-2	-3.192596E-1	-2.536011E-2	-3.194427E-1	-7.948608E-1	1.618347E-1
2.771350E+10	-8.963013E-1	-1.516418E-1	-3.114319E-2	-3.137817E-1	-3.271484E-2	-3.162079E-1	-7.912292E-1	1.742859E-1
2.793800E+10	-8.997803E-1	-1.457214E-1	-3.480530E-2	-3.176727E-1	-3.266907E-2	-3.173218E-1	-7.915955E-1	1.820984E-1
2.816250E+10	-9.013672E-1	-1.397400E-1	-3.732300E-2	-3.138123E-1	-3.967285E-2	-3.134003E-1	-7.871704E-1	1.967773E-1
2.838700E+10	-9.006042E-1	-1.289673E-1	-4.124451E-2	-3.110352E-1	-4.124451E-2	-3.105774E-1	-7.829285E-1	2.093201E-1
2.861150E+10	-9.029236E-1	-1.230164E-1	-4.769897E-2	-3.112640E-1	-4.699707E-2	-3.120880E-1	-7.779541E-1	2.165222E-1
2.883600E+10	-9.035645E-1	-1.162415E-1	-5.036926E-2	-3.091583E-1	-5.155945E-2	-3.090057E-1	-7.747192E-1	2.266235E-1
2.906050E+10	-9.076233E-1	-1.120911E-1	-5.363464E-2	-3.054352E-1	-5.110168E-2	-3.058014E-1	-7.680969E-1	2.374878E-1
2.928500E+10	-9.088135E-1	-1.036072E-1	-5.895996E-2	-3.030701E-1	-5.702209E-2	-3.025513E-1	-7.662354E-1	2.432251E-1
2.950950E+10	-9.078979E-1	-9.558105E-2	-5.802917E-2	-3.039093E-1	-5.812073E-2	-3.021240E-1	-7.620544E-1	2.564697E-1
2.973400E+10	-9.120178E-1	-9.030151E-2	-6.217957E-2	-3.026428E-1	-5.975342E-2	-3.016357E-1	-7.566528E-1	2.685547E-1
2.995850E+10	-9.107666E-1	-7.980347E-2	-6.542969E-2	-2.973175E-1	-6.378174E-2	-3.001404E-1	-7.544861E-1	2.783508E-1
3.018300E+10	-9.122009E-1	-7.611084E-2	-6.860352E-2	-2.981415E-1	-6.922913E-2	-2.969971E-1	-7.489014E-1	2.945557E-1
3.040750E+10	-9.142456E-1	-6.762695E-2	-7.348633E-2	-2.954407E-1	-6.983948E-2	-2.926331E-1	-7.418213E-1	3.026733E-1
3.063200E+10	-9.106445E-1	-6.149292E-2	-7.623291E-2	-2.935791E-1	-7.249451E-2	-2.920380E-1	-7.388916E-1	3.133850E-1
3.085650E+10	-9.117432E-1	-5.465698E-2	-7.839966E-2	-2.903748E-1	-7.743835E-2	-2.940216E-1	-7.341003E-1	3.273010E-1
3.108100E+10	-9.154663E-1	-4.800415E-2	-8.248901E-2	-2.900696E-1	-8.236694E-2	-2.899933E-1	-7.243347E-1	3.365784E-1
3.130550E+10	-9.143066E-1	-4.196167E-2	-8.409119E-2	-2.838287E-1	-8.671570E-2	-2.882843E-1	-7.150269E-1	3.437805E-1
3.153000E+10	-9.159241E-1	-3.762817E-2	-8.451843E-2	-2.860107E-1	-8.996582E-2	-2.876740E-1	-7.073364E-1	3.513489E-1
3.175450E+10	-9.166870E-1	-2.731323E-2	-9.240723E-2	-2.832184E-1	-8.827209E-2	-2.845154E-1	-7.008362E-1	3.664246E-1
3.197900E+10	-9.175415E-1	-2.471924E-2	-9.629822E-2	-2.786255E-1	-9.396362E-2	-2.797089E-1	-6.904907E-1	3.752747E-1
3.220350E+10	-9.180603E-1	-1.254272E-2	-9.599304E-2	-2.824554E-1	-9.910583E-2	-2.800903E-1	-6.908264E-1	3.816223E-1
3.242800E+10	-9.227600E-1	-9.094238E-3	-9.982300E-2	-2.798309E-1	-9.617615E-2	-2.800903E-1	-6.773376E-1	3.931274E-1
3.265250E+10	-9.167480E-1	3.173828E-3	-1.032562E-1	-2.751312E-1	-1.043701E-1	-2.713165E-1	-6.704712E-1	4.037170E-1
3.287700E+10	-9.237671E-1	5.249023E-3	-9.986877E-2	-2.738647E-1	-1.036987E-1	-2.726288E-1	-6.656494E-1	4.075012E-1
3.310150E+10	-9.201355E-1	1.339722E-2	-1.066589E-1	-2.698517E-1	-1.100616E-1	-2.694702E-1	-6.563416E-1	4.148254E-1
3.332600E+10	-9.153748E-1	1.968384E-2	-1.095428E-1	-2.691956E-1	-1.129303E-1	-2.649078E-1	-6.466675E-1	4.274902E-1
3.355050E+10	-9.176941E-1	2.560425E-2	-1.153412E-1	-2.643890E-1	-1.132965E-1	-2.626648E-1	-6.390076E-1	4.310913E-1
3.377500E+10	-9.205933E-1	3.359985E-2	-1.186371E-1	-2.618561E-1	-1.144714E-1	-2.618713E-1	-6.331787E-1	4.382629E-1
3.399950E+10	-9.204712E-1	4.110718E-2	-1.151123E-1	-2.617645E-1	-1.175995E-1	-2.605896E-1	-6.311340E-1	4.470215E-1
3.422400E+10	-9.180603E-1	4.476929E-2	-1.196747E-1	-2.637177E-1	-1.207886E-1	-2.598419E-1	-6.152954E-1	4.602356E-1
3.444850E+10	-9.211731E-1	5.505371E-2	-1.247253E-1	-2.591248E-1	-1.250458E-1	-2.578125E-1	-6.116333E-1	4.649658E-1
3.467300E+10	-9.157715E-1	6.167603E-2	-1.223755E-1	-2.534637E-1	-1.247406E-1	-2.561951E-1	-6.032410E-1	4.756775E-1
3.489750E+10	-9.205017E-1	6.927490E-2	-1.251831E-1	-2.539520E-1	-1.291809E-1	-2.519226E-1	-5.938416E-1	4.897461E-1
3.512200E+10	-9.190063E-1	7.287598E-2	-1.297913E-1	-2.502594E-1	-1.273041E-1	-2.501221E-1	-5.781860E-1	4.903259E-1
3.534650E+10	-9.187622E-1	7.513428E-2	-1.347809E-1	-2.510529E-1	-1.327972E-1	-2.541962E-1	-5.753479E-1	5.023193E-1
3.557100E+10	-9.151917E-1	8.151245E-2	-1.349869E-1	-2.499008E-1	-1.342087E-1	-2.456589E-1	-5.556335E-1	5.120544E-1
3.579550E+10	-9.178162E-1	8.706665E-2	-1.457062E-1	-2.462921E-1	-1.394501E-1	-2.432556E-1	-5.477905E-1	5.169373E-1
3.602000E+10	-9.191895E-1	9.674072E-2	-1.444778E-1	-2.452927E-1	-1.442261E-1	-2.420654E-1	-5.403748E-1	5.209351E-1
3.624450E+10	-9.104004E-1	1.045532E-1	-1.429443E-1	-2.421112E-1	-1.445694E-1	-2.423935E-1	-5.296936E-1	5.222778E-1
3.646900E+10	-9.147644E-1	1.132507E-1	-1.462936E-1	-2.389908E-1	-1.478271E-1	-2.355118E-1	-5.209656E-1	5.396423E-1
3.669350E+10	-9.156799E-1	1.153564E-1	-1.499329E-1	-2.388382E-1	-1.462784E-1	-2.347260E-1	-5.020142E-1	5.454102E-1
3.691800E+10	-9.127808E-1	1.228638E-1	-1.525269E-1	-2.332535E-1	-1.521301E-1	-2.368469E-1	-4.925232E-1	5.536499E-1
3.714250E+10	-9.133606E-1	1.277771E-1	-1.574097E-1	-2.314606E-1	-1.523056E-1	-2.270584E-1	-4.766541E-1	5.593262E-1
3.736700E+10	-9.067993E-1	1.344299E-1	-1.549683E-1	-2.268219E-1	-1.582031E-1	-2.322083E-1	-4.673157E-1	5.632629E-1
3.759150E+10	-9.046631E-1	1.421814E-1	-1.615677E-1	-2.297211E-1	-1.588821E-1	-2.269592E-1	-4.592590E-1	5.689697E-1
3.781600E+10	-9.096680E-1	1.520996E-1	-1.644897E-1	-2.244034E-1	-1.605225E-1	-2.256165E-1	-4.532776E-1	5.751953E-1
3.804050E+10	-9.096985E-1	1.488953E-1	-1.638107E-1	-2.212524E-1	-1.663284E-1	-2.283859E-1	-4.280701E-1	5.823364E-1
3.826500E+10	-9.047546E-1	1.600342E-1	-1.705551E-1	-2.200775E-1	-1.616364E-1	-2.188187E-1	-4.169006E-1	5.856934E-1
3.848950E+10	-9.022522E-1	1.622009E-1	-1.677017E-1	-2.194061E-1	-1.696930E-1	-2.177505E-1	-4.039612E-1	5.926819E-1
3.871400E+10	-9.037170E-1	1.699524E-1	-1.702423E-1	-2.123108E-1	-1.729507E-1	-2.124329E-1	-3.860168E-1	5.925293E-1
3.893850E+10	-9.032593E-1	1.768799E-1	-1.743546E-1	-2.144012E-1	-1.702805E-1	-2.100143E-1	-3.765259E-1	5.835266E-1
