!Date: 10/28/2005, 2:03 PM

!Vgs = 1.950000E+0
!Vds = 0.000000E+0
!Ig = 1.000020E-1
!Id = -3.239600E-2

# HZ S RI R 50
1.000000E+8	-9.225769E-1	-2.166748E-3	2.835560E-2	9.679794E-4	2.829552E-2	4.224777E-4	-9.282227E-1	-6.958008E-3
3.245000E+8	-9.250793E-1	2.563477E-3	2.772808E-2	-9.317398E-4	2.829456E-2	-4.587173E-4	-9.312134E-1	8.697510E-3
5.490000E+8	-9.257812E-1	7.873535E-3	2.754879E-2	-7.982254E-4	2.803612E-2	-7.505417E-4	-9.244080E-1	2.096558E-2
7.735000E+8	-9.260254E-1	1.147461E-2	2.767754E-2	-1.420021E-3	2.782154E-2	-1.307487E-3	-9.239807E-1	2.920532E-2
9.980000E+8	-9.254456E-1	1.358032E-2	2.800941E-2	-1.523972E-3	2.780724E-2	-1.390457E-3	-9.222107E-1	3.625488E-2
1.222500E+9	-9.255981E-1	1.763916E-2	2.763748E-2	-2.046585E-3	2.768040E-2	-2.033234E-3	-9.214172E-1	4.281616E-2
1.447000E+9	-9.252625E-1	2.072144E-2	2.775955E-2	-2.308846E-3	2.768326E-2	-2.135277E-3	-9.200439E-1	5.047607E-2
1.671500E+9	-9.241943E-1	2.398682E-2	2.756691E-2	-2.474785E-3	2.757168E-2	-3.032684E-3	-9.190674E-1	5.706787E-2
1.896000E+9	-9.244385E-1	2.804565E-2	2.749252E-2	-3.095627E-3	2.737236E-2	-3.021240E-3	-9.173889E-1	6.555176E-2
2.120500E+9	-9.243164E-1	3.033447E-2	2.736378E-2	-3.310204E-3	2.732277E-2	-3.407478E-3	-9.165955E-1	7.293701E-2
2.345000E+9	-9.237366E-1	3.463745E-2	2.746773E-2	-3.528595E-3	2.734089E-2	-3.610611E-3	-9.141846E-1	7.937622E-2
2.569500E+9	-9.230347E-1	3.692627E-2	2.710915E-2	-4.187584E-3	2.674294E-2	-4.055023E-3	-9.132080E-1	8.569336E-2
2.794000E+9	-9.231262E-1	4.025269E-2	2.688217E-2	-4.315376E-3	2.722073E-2	-4.361153E-3	-9.113770E-1	9.335327E-2
3.018500E+9	-9.224854E-1	4.327393E-2	2.672005E-2	-4.320145E-3	2.680206E-2	-4.542351E-3	-9.093018E-1	9.918213E-2
3.243000E+9	-9.217834E-1	4.684448E-2	2.653122E-2	-4.700661E-3	2.654839E-2	-5.196571E-3	-9.084778E-1	1.064758E-1
3.467500E+9	-9.223633E-1	4.949951E-2	2.637482E-2	-4.866600E-3	2.637672E-2	-5.041122E-3	-9.059753E-1	1.138916E-1
3.692000E+9	-9.218140E-1	5.282593E-2	2.612495E-2	-5.348206E-3	2.618122E-2	-5.434036E-3	-9.041138E-1	1.193237E-1
3.916500E+9	-9.204407E-1	5.575562E-2	2.579975E-2	-5.767822E-3	2.613163E-2	-5.663872E-3	-9.025269E-1	1.264343E-1
4.141000E+9	-9.211426E-1	5.868530E-2	2.606487E-2	-6.304741E-3	2.589703E-2	-6.078720E-3	-8.995972E-1	1.344299E-1
4.365500E+9	-9.199219E-1	6.152344E-2	2.554798E-2	-5.836487E-3	2.533722E-2	-6.242752E-3	-8.976440E-1	1.390381E-1
4.590000E+9	-9.199219E-1	6.448364E-2	2.530193E-2	-6.505966E-3	2.515030E-2	-6.281853E-3	-8.957825E-1	1.465149E-1
4.814500E+9	-9.193115E-1	6.838989E-2	2.528572E-2	-6.387711E-3	2.524185E-2	-6.817818E-3	-8.936462E-1	1.537781E-1
5.039000E+9	-9.180908E-1	7.043457E-2	2.474308E-2	-7.326126E-3	2.476406E-2	-6.848335E-3	-8.906555E-1	1.583862E-1
5.263500E+9	-9.188232E-1	7.440186E-2	2.474594E-2	-7.078171E-3	2.462673E-2	-7.238388E-3	-8.898621E-1	1.648865E-1
5.488000E+9	-9.171143E-1	7.711792E-2	2.439690E-2	-7.502556E-3	2.455521E-2	-7.431030E-3	-8.862305E-1	1.730957E-1
5.712500E+9	-9.177246E-1	7.937622E-2	2.394485E-2	-7.621765E-3	2.390575E-2	-7.394791E-3	-8.835449E-1	1.769714E-1
5.937000E+9	-9.166260E-1	8.413696E-2	2.385712E-2	-7.618904E-3	2.380753E-2	-8.048058E-3	-8.817139E-1	1.843567E-1
6.161500E+9	-9.164124E-1	8.578491E-2	2.418232E-2	-7.807732E-3	2.359295E-2	-8.310318E-3	-8.788147E-1	1.923523E-1
6.386000E+9	-9.161987E-1	8.999634E-2	2.368355E-2	-7.863045E-3	2.299881E-2	-8.019447E-3	-8.755188E-1	1.970520E-1
6.610500E+9	-9.140625E-1	9.262085E-2	2.292538E-2	-8.416176E-3	2.315712E-2	-8.278847E-3	-8.739624E-1	2.025757E-1
6.835000E+9	-9.148560E-1	9.463501E-2	2.260303E-2	-8.580208E-3	2.282238E-2	-8.476257E-3	-8.704529E-1	2.107239E-1
7.059500E+9	-9.139099E-1	9.664917E-2	2.179909E-2	-8.908272E-3	2.253437E-2	-8.906364E-3	-8.661804E-1	2.150879E-1
7.284000E+9	-9.125977E-1	9.945679E-2	2.174950E-2	-9.393692E-3	2.162361E-2	-8.682251E-3	-8.642578E-1	2.180176E-1
7.508500E+9	-9.130554E-1	1.029358E-1	2.162075E-2	-9.496689E-3	2.169514E-2	-9.499550E-3	-8.610535E-1	2.276306E-1
7.733000E+9	-9.116821E-1	1.057434E-1	2.125645E-2	-9.104729E-3	2.180004E-2	-9.080887E-3	-8.548889E-1	2.317810E-1
7.957500E+9	-9.112549E-1	1.091919E-1	2.090549E-2	-9.469986E-3	2.114296E-2	-9.389877E-3	-8.548889E-1	2.355042E-1
8.182000E+9	-9.113770E-1	1.119385E-1	2.102757E-2	-9.043694E-3	2.036858E-2	-8.971214E-3	-8.511047E-1	2.428589E-1
8.406500E+9	-9.099731E-1	1.141052E-1	2.008533E-2	-9.211540E-3	2.019310E-2	-9.595871E-3	-8.467102E-1	2.476196E-1
8.631000E+9	-9.093018E-1	1.179810E-1	1.986790E-2	-9.393692E-3	1.929188E-2	-9.147644E-3	-8.448181E-1	2.523804E-1
8.855500E+9	-9.090576E-1	1.209412E-1	1.969719E-2	-9.625435E-3	1.948833E-2	-9.493828E-3	-8.414917E-1	2.594910E-1
9.080001E+9	-9.084167E-1	1.226807E-1	1.915169E-2	-9.391785E-3	1.905251E-2	-9.828568E-3	-8.363342E-1	2.658691E-1
9.304500E+9	-9.077454E-1	1.271057E-1	1.912594E-2	-1.011658E-2	1.865482E-2	-9.498596E-3	-8.335876E-1	2.687683E-1
9.529000E+9	-9.068298E-1	1.287842E-1	1.842022E-2	-9.190559E-3	1.794243E-2	-9.836197E-3	-8.317261E-1	2.741699E-1
9.753500E+9	-9.061279E-1	1.315002E-1	1.744938E-2	-9.293556E-3	1.837730E-2	-9.887695E-3	-8.256226E-1	2.798767E-1
9.978000E+9	-9.047852E-1	1.350098E-1	1.755905E-2	-9.810448E-3	1.765633E-2	-9.719849E-3	-8.227539E-1	2.828674E-1
1.020250E+10	-9.053955E-1	1.375427E-1	1.696968E-2	-9.473801E-3	1.698208E-2	-9.252548E-3	-8.200684E-1	2.887878E-1
1.042700E+10	-9.042664E-1	1.404114E-1	1.719952E-2	-9.288788E-3	1.680374E-2	-8.850098E-3	-8.144226E-1	2.955322E-1
1.065150E+10	-9.035034E-1	1.432190E-1	1.634884E-2	-8.786201E-3	1.696968E-2	-8.771896E-3	-8.115845E-1	2.973633E-1
1.087600E+10	-9.034119E-1	1.458435E-1	1.645279E-2	-8.249283E-3	1.633739E-2	-8.860588E-3	-8.100891E-1	3.030090E-1
1.110050E+10	-9.021301E-1	1.494446E-1	1.579571E-2	-8.469582E-3	1.541996E-2	-9.032249E-3	-8.038635E-1	3.090210E-1
1.132500E+10	-9.011230E-1	1.515808E-1	1.618481E-2	-8.856773E-3	1.659775E-2	-8.252144E-3	-7.999878E-1	3.106995E-1
1.154950E+10	-9.016724E-1	1.554871E-1	1.566029E-2	-8.187294E-3	1.507092E-2	-8.608341E-3	-7.989807E-1	3.150330E-1
1.177400E+10	-8.993225E-1	1.575012E-1	1.487112E-2	-8.028507E-3	1.462841E-2	-7.526398E-3	-7.935486E-1	3.225098E-1
1.199850E+10	-8.998718E-1	1.601562E-1	1.535988E-2	-7.402897E-3	1.459408E-2	-8.171082E-3	-7.886047E-1	3.243103E-1
1.222300E+10	-8.983459E-1	1.635742E-1	1.488829E-2	-7.042885E-3	1.441193E-2	-8.781433E-3	-7.873230E-1	3.282776E-1
1.244750E+10	-8.974304E-1	1.655579E-1	1.468849E-2	-7.485390E-3	1.437521E-2	-7.972717E-3	-7.820129E-1	3.350220E-1
1.267200E+10	-8.976135E-1	1.697083E-1	1.501942E-2	-7.347107E-3	1.383114E-2	-7.579803E-3	-7.763977E-1	3.362427E-1
1.289650E+10	-8.953552E-1	1.716309E-1	1.456261E-2	-6.982803E-3	1.422977E-2	-6.762981E-3	-7.775269E-1	3.388977E-1
1.312100E+10	-8.954468E-1	1.732788E-1	1.371622E-2	-6.961823E-3	1.378155E-2	-6.596565E-3	-7.722778E-1	3.469238E-1
1.334550E+10	-8.947754E-1	1.773071E-1	1.411009E-2	-7.341385E-3	1.364946E-2	-6.526947E-3	-7.648926E-1	3.483582E-1
1.357000E+10	-8.936157E-1	1.766968E-1	1.389360E-2	-5.180836E-3	1.320887E-2	-6.258965E-3	-7.650757E-1	3.489075E-1
1.379450E+10	-8.927307E-1	1.820679E-1	1.285458E-2	-6.690979E-3	1.314640E-2	-5.408287E-3	-7.620850E-1	3.582764E-1
1.401900E+10	-8.916626E-1	1.845703E-1	1.351500E-2	-6.743908E-3	1.343822E-2	-5.641937E-3	-7.555542E-1	3.604736E-1
1.424350E+10	-8.906555E-1	1.877136E-1	1.227283E-2	-6.134987E-3	1.332378E-2	-5.684376E-3	-7.552490E-1	3.608398E-1
1.446800E+10	-8.905334E-1	1.900940E-1	1.273441E-2	-5.514622E-3	1.264334E-2	-5.455494E-3	-7.515564E-1	3.708801E-1
1.469250E+10	-8.876953E-1	1.931458E-1	1.263762E-2	-5.095482E-3	1.257563E-2	-5.156517E-3	-7.435608E-1	3.728333E-1
1.491700E+10	-8.878479E-1	1.957703E-1	1.306868E-2	-5.133152E-3	1.204300E-2	-4.546642E-3	-7.427368E-1	3.733521E-1
1.514150E+10	-8.865356E-1	1.987000E-1	1.239443E-2	-5.513668E-3	1.230288E-2	-4.829407E-3	-7.409973E-1	3.802490E-1
1.536600E+10	-8.855591E-1	2.013550E-1	1.153898E-2	-4.115105E-3	1.215696E-2	-4.548550E-3	-7.316895E-1	3.837891E-1
1.559050E+10	-8.852234E-1	2.047424E-1	1.310253E-2	-3.689289E-3	1.244020E-2	-3.690243E-3	-7.310791E-1	3.843079E-1
1.581500E+10	-8.841248E-1	2.075806E-1	1.142502E-2	-4.233837E-3	1.221132E-2	-4.854202E-3	-7.290344E-1	3.895874E-1
1.603950E+10	-8.824768E-1	2.097473E-1	1.216745E-2	-3.693104E-3	1.144266E-2	-3.567696E-3	-7.217712E-1	3.936462E-1
1.626400E+10	-8.813171E-1	2.131653E-1	1.275110E-2	-3.036976E-3	1.240492E-2	-3.726959E-3	-7.211304E-1	3.939209E-1
1.648850E+10	-8.807983E-1	2.152710E-1	1.212025E-2	-2.943039E-3	1.135921E-2	-3.552437E-3	-7.181091E-1	3.992004E-1
1.671300E+10	-8.793945E-1	2.178345E-1	1.178360E-2	-2.897263E-3	1.127911E-2	-2.792835E-3	-7.110596E-1	4.017639E-1
1.693750E+10	-8.799133E-1	2.198792E-1	1.181602E-2	-2.488136E-3	1.172590E-2	-2.731323E-3	-7.106018E-1	4.027100E-1
1.716200E+10	-8.786316E-1	2.233582E-1	1.063871E-2	-3.152370E-3	1.182222E-2	-2.308369E-3	-7.081604E-1	4.106445E-1
1.738650E+10	-8.778381E-1	2.256165E-1	1.179266E-2	-3.051281E-3	1.175880E-2	-1.200199E-3	-7.004089E-1	4.122925E-1
1.761100E+10	-8.765259E-1	2.287598E-1	1.275826E-2	-2.096176E-3	1.210594E-2	-2.773285E-3	-7.013855E-1	4.130554E-1
1.783550E+10	-8.752136E-1	2.319946E-1	1.102591E-2	-3.002167E-3	1.133537E-2	-1.361370E-3	-6.987000E-1	4.205017E-1
1.806000E+10	-8.748169E-1	2.332153E-1	1.180553E-2	-3.356934E-4	1.235485E-2	-2.212048E-3	-6.904907E-1	4.249268E-1
1.828450E+10	-8.726807E-1	2.365417E-1	1.327181E-2	-6.632805E-4	1.230812E-2	-1.864433E-3	-6.875610E-1	4.241638E-1
1.850900E+10	-8.717651E-1	2.393494E-1	1.048470E-2	-5.254745E-4	1.202440E-2	-1.374245E-3	-6.866455E-1	4.283447E-1
1.873350E+10	-8.700867E-1	2.420349E-1	1.211786E-2	-1.060963E-3	1.196337E-2	-3.862381E-4	-6.817932E-1	4.360046E-1
1.895800E+10	-8.695374E-1	2.433777E-1	1.249456E-2	6.608963E-4	1.169491E-2	-3.657341E-4	-6.765442E-1	4.331970E-1
1.918250E+10	-8.690796E-1	2.475586E-1	1.176453E-2	-1.270294E-3	1.120663E-2	-9.016991E-4	-6.781921E-1	4.365540E-1
1.940700E+10	-8.674011E-1	2.520447E-1	1.095533E-2	-4.024506E-4	1.176310E-2	-1.859665E-5	-6.708069E-1	4.443359E-1
1.963150E+10	-8.654480E-1	2.527466E-1	1.262856E-2	-1.314640E-3	1.143360E-2	-5.221367E-4	-6.632080E-1	4.425049E-1
1.985600E+10	-8.661499E-1	2.546387E-1	1.337624E-2	3.862381E-4	1.241493E-2	-2.107620E-4	-6.637878E-1	4.452515E-1
2.008050E+10	-8.631897E-1	2.559509E-1	1.292992E-2	1.471519E-3	1.337862E-2	8.325577E-4	-6.604614E-1	4.543457E-1
2.030500E+10	-8.632812E-1	2.589722E-1	1.330614E-2	5.578995E-4	1.247025E-2	3.538132E-4	-6.537781E-1	4.534302E-1
2.052950E+10	-8.617554E-1	2.606201E-1	1.414490E-2	1.240253E-3	1.236105E-2	3.767014E-4	-6.542358E-1	4.539795E-1
2.075400E+10	-8.616638E-1	2.640076E-1	1.217318E-2	9.598732E-4	1.196623E-2	9.374619E-4	-6.503601E-1	4.624634E-1
2.097850E+10	-8.595886E-1	2.674561E-1	1.172447E-2	3.461838E-4	1.170969E-2	1.038074E-3	-6.429443E-1	4.645691E-1
2.120300E+10	-8.559875E-1	2.677917E-1	1.228237E-2	1.058102E-3	1.044798E-2	1.442432E-3	-6.430969E-1	4.605408E-1
2.142750E+10	-8.581848E-1	2.726440E-1	1.275539E-2	1.591206E-3	1.276684E-2	1.649857E-4	-6.416321E-1	4.710083E-1
2.165200E+10	-8.568420E-1	2.760620E-1	1.438951E-2	2.478123E-3	1.225662E-2	3.343582E-3	-6.346130E-1	4.738464E-1
2.187650E+10	-8.542480E-1	2.773743E-1	1.172161E-2	2.112865E-3	1.296520E-2	1.964569E-4	-6.335754E-1	4.738159E-1
2.210100E+10	-8.536987E-1	2.791443E-1	1.414394E-2	1.403809E-3	1.309586E-2	2.030373E-3	-6.275940E-1	4.783936E-1
2.232550E+10	-8.524170E-1	2.812195E-1	1.353407E-2	2.632618E-3	1.352978E-2	2.121925E-3	-6.224060E-1	4.856262E-1
2.255000E+10	-8.530884E-1	2.851257E-1	1.541471E-2	2.659321E-3	1.540089E-2	2.636909E-3	-6.199646E-1	4.832458E-1
2.277450E+10	-8.495789E-1	2.868347E-1	1.431227E-2	2.747536E-3	1.462889E-2	2.525330E-3	-6.182251E-1	4.898376E-1
2.299900E+10	-8.507080E-1	2.889099E-1	1.369572E-2	7.424355E-4	1.336765E-2	2.619267E-3	-6.087036E-1	4.932556E-1
2.322350E+10	-8.474426E-1	2.924805E-1	1.189137E-2	2.786636E-3	1.429796E-2	2.195358E-3	-6.066284E-1	4.902039E-1
2.344800E+10	-8.465881E-1	2.926941E-1	1.446962E-2	3.496170E-3	1.342297E-2	1.675606E-3	-6.065979E-1	5.003052E-1
2.367250E+10	-8.456116E-1	2.978210E-1	1.338863E-2	2.899170E-3	1.510715E-2	2.233028E-3	-5.953064E-1	5.007935E-1
2.389700E+10	-8.433533E-1	2.967834E-1	1.502800E-2	2.361298E-3	1.421452E-2	3.333092E-3	-5.965576E-1	5.006714E-1
2.412150E+10	-8.433533E-1	3.009644E-1	1.533651E-2	3.758430E-3	1.444244E-2	2.305031E-3	-5.910645E-1	5.097046E-1
2.434600E+10	-8.414307E-1	3.050842E-1	1.423216E-2	3.487110E-3	1.548290E-2	1.788139E-3	-5.819092E-1	5.072327E-1
2.457050E+10	-8.410034E-1	3.050537E-1	1.382160E-2	2.529621E-3	1.449347E-2	2.092361E-3	-5.845642E-1	5.098267E-1
2.479500E+10	-8.417053E-1	3.085327E-1	1.305151E-2	4.398346E-3	1.349020E-2	2.788544E-3	-5.771179E-1	5.180664E-1
2.501950E+10	-8.366699E-1	3.118896E-1	1.399708E-2	3.058434E-3	1.387215E-2	3.818512E-3	-5.689392E-1	5.156250E-1
2.524400E+10	-8.367615E-1	3.140564E-1	1.601219E-2	4.080772E-3	1.283169E-2	5.078793E-3	-5.698242E-1	5.150757E-1
2.546850E+10	-8.370667E-1	3.183289E-1	1.420355E-2	6.898880E-3	1.359320E-2	4.209042E-3	-5.638733E-1	5.236206E-1
2.569300E+10	-8.338013E-1	3.179932E-1	1.542521E-2	6.718636E-3	1.419830E-2	5.763054E-3	-5.575867E-1	5.209045E-1
2.591750E+10	-8.335571E-1	3.228760E-1	1.428127E-2	2.988815E-3	1.725006E-2	5.663872E-3	-5.545044E-1	5.223694E-1
2.614200E+10	-8.320923E-1	3.257446E-1	1.589298E-2	3.529549E-3	1.596832E-2	4.025459E-3	-5.558777E-1	5.288391E-1
2.636650E+10	-8.306274E-1	3.254089E-1	1.622868E-2	4.962921E-3	1.518011E-2	4.622459E-3	-5.490112E-1	5.319824E-1
2.659100E+10	-8.298950E-1	3.292847E-1	1.682568E-2	5.242348E-3	1.570129E-2	5.675316E-3	-5.422668E-1	5.334167E-1
2.681550E+10	-8.273621E-1	3.280334E-1	1.570702E-2	5.509377E-3	1.505280E-2	5.072117E-3	-5.428162E-1	5.328979E-1
2.704000E+10	-8.288574E-1	3.334656E-1	1.799965E-2	5.074501E-3	1.625443E-2	5.787849E-3	-5.372620E-1	5.421448E-1
2.726450E+10	-8.258667E-1	3.380127E-1	1.746273E-2	5.175591E-3	1.778126E-2	6.785393E-3	-5.239563E-1	5.395813E-1
2.748900E+10	-8.247070E-1	3.373718E-1	1.573944E-2	6.801605E-3	1.827240E-2	6.406784E-3	-5.234375E-1	5.398254E-1
2.771350E+10	-8.242493E-1	3.394775E-1	1.842117E-2	5.594254E-3	1.682472E-2	6.552696E-3	-5.195618E-1	5.448303E-1
2.793800E+10	-8.227234E-1	3.395691E-1	1.997375E-2	5.253792E-3	1.853848E-2	6.497383E-3	-5.156860E-1	5.418091E-1
2.816250E+10	-8.196106E-1	3.446045E-1	1.731205E-2	4.584312E-3	1.647854E-2	5.829811E-3	-5.130005E-1	5.440369E-1
2.838700E+10	-8.176270E-1	3.448486E-1	1.778412E-2	3.058434E-3	1.655483E-2	7.445335E-3	-5.084534E-1	5.502319E-1
2.861150E+10	-8.180237E-1	3.507385E-1	1.732063E-2	4.904747E-3	1.524973E-2	7.024288E-3	-4.997559E-1	5.513306E-1
2.883600E+10	-8.177490E-1	3.532715E-1	1.697159E-2	4.176140E-3	1.765442E-2	6.282806E-3	-5.026550E-1	5.511780E-1
2.906050E+10	-8.179321E-1	3.534241E-1	1.843834E-2	5.574226E-3	1.848698E-2	6.054878E-3	-4.965515E-1	5.558167E-1
2.928500E+10	-8.150024E-1	3.581238E-1	1.953793E-2	5.180359E-3	1.699066E-2	5.193710E-3	-4.880371E-1	5.545654E-1
2.950950E+10	-8.119812E-1	3.609009E-1	1.918030E-2	6.375313E-3	2.157211E-2	7.579803E-3	-4.893494E-1	5.563354E-1
2.973400E+10	-8.148804E-1	3.615723E-1	1.928711E-2	5.558968E-3	1.920223E-2	6.324768E-3	-4.860840E-1	5.631409E-1
2.995850E+10	-8.072205E-1	3.636169E-1	2.320099E-2	1.356125E-3	1.878548E-2	4.033089E-3	-4.834900E-1	5.628357E-1
3.018300E+10	-8.070068E-1	3.662109E-1	2.181339E-2	7.348061E-3	1.819420E-2	8.404732E-3	-4.787292E-1	5.683289E-1
3.040750E+10	-8.083191E-1	3.668518E-1	2.081013E-2	3.337860E-3	2.060318E-2	6.525040E-3	-4.688721E-1	5.711365E-1
3.063200E+10	-8.074951E-1	3.711243E-1	1.999855E-2	6.726265E-3	2.187061E-2	6.092072E-3	-4.726562E-1	5.682983E-1
3.085650E+10	-8.047485E-1	3.734436E-1	2.191830E-2	3.989220E-3	1.790428E-2	4.945755E-3	-4.622803E-1	5.729370E-1
3.108100E+10	-8.009949E-1	3.736267E-1	1.671028E-2	4.305840E-3	1.973057E-2	5.002022E-3	-4.530029E-1	5.768127E-1
3.130550E+10	-8.038940E-1	3.798218E-1	2.118206E-2	5.796432E-3	2.033043E-2	5.621910E-3	-4.460449E-1	5.756836E-1
3.153000E+10	-8.045349E-1	3.796997E-1	2.257061E-2	7.282257E-3	1.829147E-2	4.356384E-3	-4.478149E-1	5.738525E-1
3.175450E+10	-7.974548E-1	3.823853E-1	2.204227E-2	2.641678E-3	2.096653E-2	1.096249E-2	-4.469299E-1	5.854797E-1
3.197900E+10	-7.976990E-1	3.810425E-1	1.818466E-2	1.802444E-3	2.460003E-2	8.318901E-3	-4.288940E-1	5.794678E-1
3.220350E+10	-7.976685E-1	3.866577E-1	1.950741E-2	6.874084E-3	2.382183E-2	6.509781E-3	-4.288635E-1	5.767822E-1
3.242800E+10	-7.957153E-1	3.890381E-1	1.948547E-2	6.217957E-3	2.110004E-2	6.233215E-3	-4.237671E-1	5.890808E-1
3.265250E+10	-7.961426E-1	3.981628E-1	2.305126E-2	7.498741E-3	2.103996E-2	4.270554E-3	-4.183044E-1	5.829163E-1
3.287700E+10	-7.944336E-1	3.952026E-1	2.317142E-2	6.245613E-3	2.321815E-2	6.470680E-3	-4.206238E-1	5.903931E-1
3.310150E+10	-7.933044E-1	3.999634E-1	2.264595E-2	3.516197E-3	2.595901E-2	6.850243E-3	-4.094543E-1	5.876465E-1
3.332600E+10	-7.898865E-1	4.037476E-1	2.390003E-2	5.969048E-3	2.398682E-2	7.902145E-3	-4.092712E-1	5.843811E-1
3.355050E+10	-7.891235E-1	4.042969E-1	2.697849E-2	9.352684E-3	2.356434E-2	8.810997E-3	-4.040527E-1	5.912781E-1
3.377500E+10	-7.846985E-1	4.073181E-1	2.719975E-2	7.090569E-3	2.561283E-2	4.947662E-3	-3.973389E-1	5.889282E-1
3.399950E+10	-7.859497E-1	4.077759E-1	2.254295E-2	5.606651E-3	2.324104E-2	4.844666E-3	-4.016724E-1	5.920715E-1
3.422400E+10	-7.852478E-1	4.148865E-1	2.812195E-2	6.408691E-3	2.408028E-2	5.791664E-3	-3.893738E-1	6.018372E-1
3.444850E+10	-7.850952E-1	4.140015E-1	2.271557E-2	7.028580E-3	2.673244E-2	3.079414E-3	-3.856506E-1	5.980835E-1
3.467300E+10	-7.837830E-1	4.169922E-1	2.738953E-2	8.245468E-3	2.421474E-2	6.629944E-3	-3.876648E-1	5.979004E-1
3.489750E+10	-7.821960E-1	4.185181E-1	2.213478E-2	1.272202E-3	2.515984E-2	3.079414E-3	-3.762817E-1	6.039124E-1
3.512200E+10	-7.790222E-1	4.162598E-1	2.126503E-2	7.336617E-3	2.588177E-2	4.911423E-3	-3.688354E-1	5.971680E-1
3.534650E+10	-7.755127E-1	4.237671E-1	2.775860E-2	3.610611E-3	2.503300E-2	4.517555E-3	-3.755188E-1	6.005249E-1
3.557100E+10	-7.768555E-1	4.227600E-1	2.484894E-2	3.306389E-3	2.517891E-2	5.787849E-3	-3.600159E-1	6.105957E-1
3.579550E+10	-7.732544E-1	4.284668E-1	2.108669E-2	3.850937E-3	2.601814E-2	4.089355E-3	-3.515625E-1	6.009521E-1
3.602000E+10	-7.742615E-1	4.311523E-1	2.416420E-2	5.882263E-3	2.363014E-2	1.535416E-4	-3.613586E-1	6.056213E-1
3.624450E+10	-7.721252E-1	4.349670E-1	2.322102E-2	9.131432E-3	2.591419E-2	2.311707E-3	-3.537598E-1	6.073608E-1
3.646900E+10	-7.722473E-1	4.373474E-1	3.032398E-2	4.608154E-3	2.712250E-2	4.844666E-3	-3.396912E-1	6.087036E-1
3.669350E+10	-7.691345E-1	4.379578E-1	2.492142E-2	9.727478E-4	2.869987E-2	2.926826E-3	-3.365479E-1	6.063843E-1
3.691800E+10	-7.681885E-1	4.412842E-1	2.929211E-2	4.176140E-3	2.517605E-2	5.198479E-3	-3.322144E-1	6.109619E-1
3.714250E+10	-7.639465E-1	4.413757E-1	2.509689E-2	1.875877E-3	1.973152E-2	7.740021E-3	-3.276062E-1	6.106262E-1
3.736700E+10	-7.608643E-1	4.432983E-1	2.560329E-2	3.781319E-3	2.908707E-2	4.549980E-3	-3.268127E-1	6.132812E-1
3.759150E+10	-7.615662E-1	4.407043E-1	3.097630E-2	7.574081E-3	2.642441E-2	3.048897E-3	-3.156738E-1	6.111450E-1
3.781600E+10	-7.585754E-1	4.527893E-1	2.592468E-2	4.096985E-3	2.991772E-2	4.825592E-3	-3.160400E-1	6.126099E-1
3.804050E+10	-7.651367E-1	4.470520E-1	3.230476E-2	3.894806E-3	3.114128E-2	1.798630E-3	-3.073730E-1	6.232605E-1
3.826500E+10	-7.595825E-1	4.572754E-1	3.198242E-2	5.821228E-3	2.707005E-2	-6.303787E-4	-2.984924E-1	6.161804E-1
3.848950E+10	-7.571106E-1	4.571838E-1	2.340317E-2	9.497643E-3	2.560711E-2	1.172066E-3	-2.989197E-1	6.160583E-1
3.871400E+10	-7.534485E-1	4.531555E-1	2.901363E-2	2.869606E-3	2.685642E-2	3.795624E-4	-2.920532E-1	6.159973E-1
3.893850E+10	-7.502441E-1	4.555359E-1	2.865124E-2	3.500938E-3	2.949142E-2	2.946854E-4	-2.859192E-1	6.159363E-1
3.916300E+10	-7.568970E-1	4.658813E-1	2.770901E-2	1.025295E-2	2.923012E-2	6.480217E-3	-2.861938E-1	6.138000E-1
3.938750E+10	-7.499695E-1	4.633179E-1	3.031445E-2	-2.136230E-3	2.828312E-2	2.426147E-3	-2.793884E-1	6.204834E-1
3.961200E+10	-7.495422E-1	4.640808E-1	2.730274E-2	5.731583E-4	2.891159E-2	5.912781E-4	-2.626343E-1	6.184082E-1
