!Date: 10/28/2005, 12:34 PM

!Vgs = -2.000000E+0
!Vds = 1.000000E+0
!Ig = -1.188900E-5
!Id = 3.306300E-1

# HZ S RI R 50
1.000000E+8	9.771423E-1	-1.634827E-1	-2.738800E-1	1.489258E-2	1.074553E-3	2.221942E-3	-8.846130E-1	-8.612061E-2
3.245000E+8	8.594666E-1	-4.730530E-1	-2.433472E-1	7.161713E-2	2.767563E-3	1.097059E-2	-9.238586E-1	-2.239990E-2
5.490000E+8	6.675720E-1	-7.101440E-1	-2.088242E-1	1.124191E-1	7.031441E-3	1.427841E-2	-8.926392E-1	1.834106E-2
7.735000E+8	4.444580E-1	-8.603210E-1	-1.731339E-1	1.373978E-1	1.202869E-2	1.742744E-2	-8.978882E-1	2.307129E-2
9.980000E+8	2.296753E-1	-9.361267E-1	-1.386566E-1	1.489182E-1	1.687813E-2	1.870728E-2	-8.973389E-1	3.485107E-2
1.222500E+9	3.591919E-2	-9.602051E-1	-1.081924E-1	1.522293E-1	2.094650E-2	1.860332E-2	-8.901978E-1	3.863525E-2
1.447000E+9	-1.273499E-1	-9.493103E-1	-8.235168E-2	1.501923E-1	2.464485E-2	1.798820E-2	-8.907776E-1	4.644775E-2
1.671500E+9	-2.616272E-1	-9.194641E-1	-6.108093E-2	1.455383E-1	2.723789E-2	1.716805E-2	-8.887634E-1	5.233765E-2
1.896000E+9	-3.718872E-1	-8.794556E-1	-4.396057E-2	1.393509E-1	2.964687E-2	1.535320E-2	-8.882446E-1	6.021118E-2
2.120500E+9	-4.615784E-1	-8.352356E-1	-2.986145E-2	1.321945E-1	3.162575E-2	1.428413E-2	-8.886108E-1	6.686401E-2
2.345000E+9	-5.361938E-1	-7.876892E-1	-1.840210E-2	1.246681E-1	3.301620E-2	1.281929E-2	-8.879395E-1	7.492065E-2
2.569500E+9	-5.942993E-1	-7.412415E-1	-9.201050E-3	1.176949E-1	3.439903E-2	1.114464E-2	-8.851929E-1	8.123779E-2
2.794000E+9	-6.441650E-1	-6.997681E-1	-1.274109E-3	1.106110E-1	3.537560E-2	9.346008E-3	-8.842773E-1	8.847046E-2
3.018500E+9	-6.850891E-1	-6.581421E-1	4.680634E-3	1.041298E-1	3.588104E-2	8.478165E-3	-8.830872E-1	9.585571E-2
3.243000E+9	-7.200623E-1	-6.192932E-1	1.058960E-2	9.804535E-2	3.632355E-2	7.604599E-3	-8.809814E-1	1.020203E-1
3.467500E+9	-7.493286E-1	-5.838318E-1	1.470947E-2	9.225464E-2	3.689575E-2	5.945206E-3	-8.794861E-1	1.097107E-1
3.692000E+9	-7.733765E-1	-5.505371E-1	1.837921E-2	8.739090E-2	3.719139E-2	4.966736E-3	-8.768921E-1	1.152954E-1
3.916500E+9	-7.947083E-1	-5.187988E-1	2.178955E-2	8.220673E-2	3.777695E-2	3.284454E-3	-8.760986E-1	1.221313E-1
4.141000E+9	-8.131714E-1	-4.889832E-1	2.453995E-2	7.750702E-2	3.797150E-2	2.933502E-3	-8.740540E-1	1.294250E-1
4.365500E+9	-8.279114E-1	-4.612427E-1	2.687454E-2	7.335281E-2	3.759003E-2	1.691818E-3	-8.722839E-1	1.352234E-1
4.590000E+9	-8.411865E-1	-4.361267E-1	2.830505E-2	6.910706E-2	3.759575E-2	9.822845E-4	-8.704224E-1	1.425171E-1
4.814500E+9	-8.525696E-1	-4.134521E-1	3.044891E-2	6.534195E-2	3.784752E-2	-1.773834E-4	-8.679504E-1	1.493225E-1
5.039000E+9	-8.639526E-1	-3.902893E-1	3.144073E-2	6.245613E-2	3.819656E-2	-1.184464E-3	-8.661804E-1	1.551208E-1
5.263500E+9	-8.732605E-1	-3.680115E-1	3.310013E-2	5.918503E-2	3.796387E-2	-1.718521E-3	-8.638916E-1	1.624451E-1
5.488000E+9	-8.793945E-1	-3.482056E-1	3.339195E-2	5.564690E-2	3.818703E-2	-2.960205E-3	-8.617249E-1	1.692810E-1
5.712500E+9	-8.871460E-1	-3.296204E-1	3.491020E-2	5.337334E-2	3.781319E-2	-3.400803E-3	-8.597107E-1	1.757812E-1
5.937000E+9	-8.930359E-1	-3.107300E-1	3.558159E-2	4.961967E-2	3.771973E-2	-4.770279E-3	-8.567200E-1	1.814880E-1
6.161500E+9	-8.988647E-1	-2.955017E-1	3.628540E-2	4.737854E-2	3.761101E-2	-5.529404E-3	-8.547363E-1	1.900940E-1
6.386000E+9	-9.039307E-1	-2.780457E-1	3.644943E-2	4.462242E-2	3.724670E-2	-5.733490E-3	-8.504639E-1	1.956482E-1
6.610500E+9	-9.079285E-1	-2.630920E-1	3.720856E-2	4.239464E-2	3.701401E-2	-6.643295E-3	-8.493042E-1	2.003784E-1
6.835000E+9	-9.125671E-1	-2.487793E-1	3.712082E-2	4.023552E-2	3.647614E-2	-7.678986E-3	-8.453979E-1	2.095337E-1
7.059500E+9	-9.151306E-1	-2.351990E-1	3.671074E-2	3.835487E-2	3.664970E-2	-7.701874E-3	-8.400269E-1	2.128296E-1
7.284000E+9	-9.182434E-1	-2.215881E-1	3.761482E-2	3.643227E-2	3.599167E-2	-7.873535E-3	-8.402710E-1	2.179565E-1
7.508500E+9	-9.224548E-1	-2.078247E-1	3.690910E-2	3.460121E-2	3.562927E-2	-9.016037E-3	-8.339844E-1	2.240906E-1
7.733000E+9	-9.233093E-1	-1.966553E-1	3.718948E-2	3.237724E-2	3.543472E-2	-9.300232E-3	-8.323364E-1	2.279358E-1
7.957500E+9	-9.264526E-1	-1.833191E-1	3.775215E-2	3.094292E-2	3.481483E-2	-1.010323E-2	-8.303223E-1	2.356873E-1
8.182000E+9	-9.276428E-1	-1.719971E-1	3.748512E-2	2.924728E-2	3.497505E-2	-1.112747E-2	-8.283691E-1	2.403870E-1
8.406500E+9	-9.298401E-1	-1.614685E-1	3.675461E-2	2.832413E-2	3.428268E-2	-1.055336E-2	-8.235168E-1	2.482300E-1
8.631000E+9	-9.309692E-1	-1.498718E-1	3.758812E-2	2.639198E-2	3.345871E-2	-1.198578E-2	-8.205872E-1	2.519531E-1
8.855500E+9	-9.324646E-1	-1.401672E-1	3.766060E-2	2.548599E-2	3.344536E-2	-1.257896E-2	-8.172913E-1	2.594299E-1
9.080001E+9	-9.341736E-1	-1.313171E-1	3.684807E-2	2.417564E-2	3.347778E-2	-1.272202E-2	-8.123779E-1	2.658386E-1
9.304500E+9	-9.344177E-1	-1.185303E-1	3.685951E-2	2.180099E-2	3.223419E-2	-1.365280E-2	-8.088684E-1	2.692871E-1
9.529000E+9	-9.352417E-1	-1.116943E-1	3.658485E-2	2.109528E-2	3.163910E-2	-1.312828E-2	-8.059998E-1	2.752075E-1
9.753500E+9	-9.371338E-1	-1.020203E-1	3.543472E-2	2.062798E-2	3.144646E-2	-1.394653E-2	-8.005981E-1	2.812195E-1
9.978000E+9	-9.373779E-1	-9.252930E-2	3.528404E-2	1.849174E-2	3.106308E-2	-1.433277E-2	-7.973022E-1	2.844849E-1
1.020250E+10	-9.383850E-1	-8.450317E-2	3.578758E-2	1.828575E-2	3.092480E-2	-1.440620E-2	-7.950134E-1	2.908936E-1
1.042700E+10	-9.393005E-1	-7.482910E-2	3.512955E-2	1.689529E-2	2.965832E-2	-1.435661E-2	-7.893677E-1	2.961731E-1
1.065150E+10	-9.393921E-1	-6.674194E-2	3.454781E-2	1.680183E-2	2.933979E-2	-1.506329E-2	-7.866516E-1	2.997742E-1
1.087600E+10	-9.407043E-1	-5.862427E-2	3.492737E-2	1.550484E-2	2.892685E-2	-1.481915E-2	-7.833557E-1	3.047791E-1
1.110050E+10	-9.403992E-1	-4.986572E-2	3.485870E-2	1.458359E-2	2.804184E-2	-1.553726E-2	-7.778320E-1	3.097229E-1
1.132500E+10	-9.400635E-1	-4.183960E-2	3.315544E-2	1.389313E-2	2.829552E-2	-1.524639E-2	-7.740173E-1	3.130798E-1
1.154950E+10	-9.405518E-1	-3.417969E-2	3.347015E-2	1.421547E-2	2.719307E-2	-1.562023E-2	-7.718811E-1	3.169556E-1
1.177400E+10	-9.385376E-1	-2.691650E-2	3.276443E-2	1.308823E-2	2.689552E-2	-1.576424E-2	-7.670898E-1	3.242187E-1
1.199850E+10	-9.396057E-1	-1.943970E-2	3.222847E-2	1.245689E-2	2.658749E-2	-1.483536E-2	-7.623596E-1	3.273315E-1
1.222300E+10	-9.390564E-1	-1.208496E-2	3.287888E-2	1.191139E-2	2.715206E-2	-1.587200E-2	-7.594299E-1	3.311157E-1
1.244750E+10	-9.394531E-1	-5.279541E-3	3.241920E-2	1.084709E-2	2.584648E-2	-1.586914E-2	-7.548828E-1	3.369751E-1
1.267200E+10	-9.391479E-1	1.953125E-3	3.189850E-2	1.155090E-2	2.541065E-2	-1.642704E-2	-7.491760E-1	3.394470E-1
1.289650E+10	-9.381409E-1	8.178711E-3	3.122616E-2	1.017952E-2	2.542114E-2	-1.614475E-2	-7.486267E-1	3.425293E-1
1.312100E+10	-9.385071E-1	1.464844E-2	3.058624E-2	9.438515E-3	2.474499E-2	-1.571083E-2	-7.439880E-1	3.494568E-1
1.334550E+10	-9.379578E-1	2.124023E-2	3.048801E-2	9.124756E-3	2.455521E-2	-1.581001E-2	-7.389221E-1	3.533936E-1
1.357000E+10	-9.367065E-1	2.737427E-2	3.012562E-2	9.644508E-3	2.393055E-2	-1.658249E-2	-7.358093E-1	3.535767E-1
1.379450E+10	-9.380493E-1	3.463745E-2	3.065681E-2	8.229256E-3	2.374649E-2	-1.598358E-2	-7.337341E-1	3.608704E-1
1.401900E+10	-9.365845E-1	3.973389E-2	3.015709E-2	8.102417E-3	2.340031E-2	-1.700592E-2	-7.271118E-1	3.633423E-1
1.424350E+10	-9.353333E-1	4.595947E-2	2.970219E-2	7.357597E-3	2.225590E-2	-1.618004E-2	-7.237854E-1	3.674622E-1
1.446800E+10	-9.356689E-1	5.389404E-2	3.064823E-2	8.247375E-3	2.175045E-2	-1.623440E-2	-7.203979E-1	3.732910E-1
1.469250E+10	-9.341125E-1	6.011963E-2	2.981281E-2	7.441521E-3	2.220154E-2	-1.703167E-2	-7.143250E-1	3.757629E-1
1.491700E+10	-9.327393E-1	6.494141E-2	2.934361E-2	6.329536E-3	2.104759E-2	-1.669216E-2	-7.109680E-1	3.767700E-1
1.514150E+10	-9.327087E-1	7.293701E-2	2.853107E-2	6.663322E-3	2.132320E-2	-1.659203E-2	-7.076416E-1	3.838196E-1
1.536600E+10	-9.302673E-1	7.818604E-2	2.912140E-2	6.228447E-3	2.077103E-2	-1.593590E-2	-7.011414E-1	3.876648E-1
1.559050E+10	-9.285583E-1	8.343506E-2	2.783489E-2	6.235123E-3	2.099419E-2	-1.629066E-2	-6.986389E-1	3.867798E-1
1.581500E+10	-9.293213E-1	8.871460E-2	2.852058E-2	6.556511E-3	1.991558E-2	-1.613808E-2	-6.966248E-1	3.919067E-1
1.603950E+10	-9.266968E-1	9.634399E-2	2.782726E-2	4.634857E-3	2.002048E-2	-1.644611E-2	-6.900635E-1	3.966370E-1
1.626400E+10	-9.273682E-1	1.013794E-1	2.760029E-2	5.732536E-3	1.978111E-2	-1.648235E-2	-6.888428E-1	3.965759E-1
1.648850E+10	-9.253540E-1	1.070862E-1	2.723026E-2	3.918648E-3	1.904297E-2	-1.665878E-2	-6.835022E-1	4.013672E-1
1.671300E+10	-9.235229E-1	1.127625E-1	2.586174E-2	4.501343E-3	1.880169E-2	-1.721096E-2	-6.789551E-1	4.060974E-1
1.693750E+10	-9.239807E-1	1.167603E-1	2.758694E-2	4.638672E-3	1.843929E-2	-1.680851E-2	-6.755371E-1	4.063721E-1
1.716200E+10	-9.225159E-1	1.227417E-1	2.714634E-2	4.347801E-3	1.780128E-2	-1.633167E-2	-6.726990E-1	4.124146E-1
1.738650E+10	-9.189148E-1	1.294250E-1	2.669811E-2	4.254341E-3	1.778793E-2	-1.722145E-2	-6.662292E-1	4.164124E-1
1.761100E+10	-9.190369E-1	1.345520E-1	2.594757E-2	4.776955E-3	1.716709E-2	-1.691246E-2	-6.654663E-1	4.158325E-1
1.783550E+10	-9.158325E-1	1.413879E-1	2.504730E-2	3.469467E-3	1.661301E-2	-1.745033E-2	-6.639099E-1	4.223328E-1
1.806000E+10	-9.167175E-1	1.458740E-1	2.657700E-2	3.268242E-3	1.590729E-2	-1.622105E-2	-6.555786E-1	4.267883E-1
1.828450E+10	-9.134216E-1	1.515503E-1	2.527618E-2	3.911018E-3	1.489067E-2	-1.617718E-2	-6.523437E-1	4.264832E-1
1.850900E+10	-9.122620E-1	1.569214E-1	2.590084E-2	3.926277E-3	1.558495E-2	-1.686096E-2	-6.503296E-1	4.312744E-1
1.873350E+10	-9.100952E-1	1.607056E-1	2.447414E-2	2.768517E-3	1.508808E-2	-1.656723E-2	-6.437683E-1	4.363403E-1
1.895800E+10	-9.070740E-1	1.669006E-1	2.470207E-2	3.216743E-3	1.629543E-2	-1.689911E-2	-6.402893E-1	4.367371E-1
1.918250E+10	-9.060364E-1	1.720276E-1	2.447510E-2	4.354477E-3	1.475048E-2	-1.610565E-2	-6.368713E-1	4.377747E-1
1.940700E+10	-9.042969E-1	1.750793E-1	2.477932E-2	3.919601E-3	1.362514E-2	-1.785374E-2	-6.299438E-1	4.453430E-1
1.963150E+10	-9.023437E-1	1.810913E-1	2.380085E-2	4.483223E-3	1.356125E-2	-1.571941E-2	-6.272583E-1	4.448547E-1
1.985600E+10	-8.999023E-1	1.866455E-1	2.355862E-2	3.240585E-3	1.447487E-2	-1.652718E-2	-6.263733E-1	4.466248E-1
2.008050E+10	-8.987732E-1	1.904907E-1	2.263355E-2	2.711296E-3	1.325035E-2	-1.666546E-2	-6.206055E-1	4.542847E-1
2.030500E+10	-8.948364E-1	1.958923E-1	2.323341E-2	3.680229E-3	1.346970E-2	-1.612091E-2	-6.150513E-1	4.532471E-1
2.052950E+10	-8.935242E-1	2.003479E-1	2.360439E-2	2.414703E-3	1.297855E-2	-1.611423E-2	-6.152344E-1	4.560242E-1
2.075400E+10	-8.905640E-1	2.049866E-1	2.428722E-2	3.852844E-3	1.242256E-2	-1.467037E-2	-6.097412E-1	4.619446E-1
2.097850E+10	-8.887634E-1	2.094116E-1	2.226067E-2	2.409935E-3	1.157379E-2	-1.564026E-2	-6.012573E-1	4.644470E-1
2.120300E+10	-8.859863E-1	2.131348E-1	2.250767E-2	9.737015E-4	1.249695E-2	-1.531219E-2	-6.021118E-1	4.630737E-1
2.142750E+10	-8.851929E-1	2.187500E-1	2.507782E-2	4.342079E-3	1.050854E-2	-1.518440E-2	-5.980225E-1	4.686279E-1
2.165200E+10	-8.798828E-1	2.244873E-1	2.439880E-2	4.535675E-3	1.064396E-2	-1.553774E-2	-5.924377E-1	4.705200E-1
2.187650E+10	-8.780212E-1	2.259521E-1	2.347565E-2	1.258850E-3	9.299278E-3	-1.443100E-2	-5.891113E-1	4.722595E-1
2.210100E+10	-8.744202E-1	2.311096E-1	2.355194E-2	3.493309E-3	8.951187E-3	-1.541567E-2	-5.881958E-1	4.800720E-1
2.232550E+10	-8.733215E-1	2.363586E-1	2.253437E-2	3.738403E-3	7.662773E-3	-1.715183E-2	-5.804749E-1	4.825134E-1
2.255000E+10	-8.698425E-1	2.387390E-1	2.226925E-2	1.745224E-3	8.266926E-3	-1.442480E-2	-5.763550E-1	4.816284E-1
2.277450E+10	-8.671265E-1	2.435303E-1	2.371883E-2	2.162933E-3	8.452415E-3	-1.320934E-2	-5.717773E-1	4.870605E-1
2.299900E+10	-8.616028E-1	2.473450E-1	1.962185E-2	3.369331E-3	7.312298E-3	-1.373863E-2	-5.663757E-1	4.885559E-1
2.322350E+10	-8.597717E-1	2.506104E-1	2.100182E-2	2.464294E-3	6.315231E-3	-1.502562E-2	-5.623169E-1	4.880066E-1
2.344800E+10	-8.569031E-1	2.526245E-1	2.233410E-2	2.320290E-3	5.560398E-3	-1.373625E-2	-5.596619E-1	4.929810E-1
2.367250E+10	-8.536072E-1	2.564087E-1	1.864338E-2	2.269745E-3	6.282330E-3	-1.273727E-2	-5.517273E-1	4.978638E-1
2.389700E+10	-8.481445E-1	2.614136E-1	1.997089E-2	3.499985E-3	2.303123E-3	-1.273870E-2	-5.501404E-1	4.957886E-1
2.412150E+10	-8.450012E-1	2.643433E-1	1.930714E-2	2.710342E-3	4.077911E-3	-1.231432E-2	-5.450745E-1	5.010986E-1
2.434600E+10	-8.414612E-1	2.670593E-1	2.058983E-2	2.695084E-3	4.426479E-3	-1.194382E-2	-5.379028E-1	5.025330E-1
2.457050E+10	-8.387756E-1	2.702637E-1	1.830864E-2	2.456665E-3	1.631737E-3	-1.359606E-2	-5.336304E-1	5.034485E-1
2.479500E+10	-8.362732E-1	2.738037E-1	1.949501E-2	4.145622E-3	-2.066612E-3	-1.043558E-2	-5.291443E-1	5.086975E-1
2.501950E+10	-8.311157E-1	2.734070E-1	1.745319E-2	4.597664E-3	2.502441E-3	-9.417534E-3	-5.215759E-1	5.104370E-1
2.524400E+10	-8.280945E-1	2.751465E-1	1.803780E-2	5.270958E-3	1.676083E-3	-8.983612E-3	-5.194397E-1	5.108032E-1
2.546850E+10	-8.252869E-1	2.798157E-1	1.815414E-2	4.607201E-3	-7.071495E-4	-8.420944E-3	-5.132751E-1	5.140076E-1
2.569300E+10	-8.211670E-1	2.799683E-1	1.781464E-2	7.299423E-3	1.409054E-4	-6.391048E-3	-5.095825E-1	5.122070E-1
2.591750E+10	-8.183289E-1	2.831726E-1	1.823616E-2	4.920959E-3	-6.916523E-4	-6.521225E-3	-5.048828E-1	5.119629E-1
2.614200E+10	-8.137512E-1	2.856140E-1	1.792145E-2	5.397797E-3	-9.512901E-5	-6.950855E-3	-5.071411E-1	5.167847E-1
2.636650E+10	-8.116760E-1	2.846069E-1	1.820755E-2	6.723404E-3	-7.169247E-4	-4.925966E-3	-4.989014E-1	5.213013E-1
2.659100E+10	-8.078613E-1	2.872620E-1	1.799011E-2	5.673409E-3	4.532337E-4	-4.776955E-3	-4.918823E-1	5.227356E-1
2.681550E+10	-8.042603E-1	2.865601E-1	1.801205E-2	7.964134E-3	-8.825064E-4	-3.168344E-3	-4.914551E-1	5.195007E-1
2.704000E+10	-8.040161E-1	2.882385E-1	1.755047E-2	6.384850E-3	-6.986260E-4	-1.319647E-3	-4.865723E-1	5.286560E-1
2.726450E+10	-7.984314E-1	2.908630E-1	1.834583E-2	9.607315E-3	-1.990795E-3	-2.007842E-3	-4.736633E-1	5.259094E-1
2.748900E+10	-7.970581E-1	2.887268E-1	1.718044E-2	7.616043E-3	-6.006658E-4	5.382895E-4	-4.736023E-1	5.262451E-1
2.771350E+10	-7.937927E-1	2.924194E-1	1.895332E-2	9.794235E-3	-7.258654E-4	2.674818E-3	-4.641724E-1	5.267334E-1
2.793800E+10	-7.898865E-1	2.922363E-1	1.787949E-2	7.729530E-3	1.627564E-3	1.432300E-4	-4.657593E-1	5.285034E-1
2.816250E+10	-7.901917E-1	2.904663E-1	1.810074E-2	8.555412E-3	5.090237E-5	1.387060E-3	-4.652100E-1	5.298767E-1
2.838700E+10	-7.860413E-1	2.923584E-1	1.753235E-2	1.106262E-2	9.473562E-4	3.163457E-3	-4.576416E-1	5.332947E-1
2.861150E+10	-7.865906E-1	2.921448E-1	1.780224E-2	1.001740E-2	-1.314521E-3	3.286362E-3	-4.500732E-1	5.331726E-1
2.883600E+10	-7.839661E-1	2.933044E-1	1.962376E-2	1.151657E-2	8.382797E-4	4.913807E-3	-4.487305E-1	5.346680E-1
2.906050E+10	-7.820435E-1	2.933655E-1	1.880074E-2	1.037121E-2	9.040833E-4	6.862402E-3	-4.452820E-1	5.364685E-1
2.928500E+10	-7.831116E-1	2.938232E-1	2.009964E-2	1.218033E-2	1.784801E-3	9.551525E-3	-4.399109E-1	5.357971E-1
2.950950E+10	-7.806091E-1	2.976379E-1	2.043343E-2	1.111412E-2	4.568577E-3	1.146126E-2	-4.376831E-1	5.367737E-1
2.973400E+10	-7.788086E-1	2.960205E-1	2.010822E-2	1.185513E-2	1.914024E-3	1.101780E-2	-4.317322E-1	5.410767E-1
2.995850E+10	-7.799988E-1	2.952881E-1	2.316189E-2	1.004982E-2	2.858639E-3	1.263428E-2	-4.305725E-1	5.399780E-1
3.018300E+10	-7.759094E-1	2.967224E-1	2.085781E-2	1.582909E-2	2.705574E-3	1.064539E-2	-4.270935E-1	5.474548E-1
3.040750E+10	-7.794495E-1	2.964172E-1	1.994610E-2	1.510239E-2	4.787445E-3	1.086092E-2	-4.190369E-1	5.472107E-1
3.063200E+10	-7.751770E-1	2.976379E-1	2.117252E-2	1.289463E-2	6.646156E-3	1.393557E-2	-4.194641E-1	5.485229E-1
3.085650E+10	-7.773743E-1	2.963257E-1	2.252960E-2	1.283741E-2	4.167080E-3	1.234484E-2	-4.114685E-1	5.489502E-1
3.108100E+10	-7.769165E-1	2.990417E-1	2.372837E-2	1.393604E-2	7.305622E-3	1.433802E-2	-4.034729E-1	5.525513E-1
3.130550E+10	-7.712097E-1	3.012695E-1	2.422333E-2	1.398373E-2	6.404877E-3	1.227427E-2	-3.943787E-1	5.531921E-1
3.153000E+10	-7.773132E-1	3.002014E-1	2.502060E-2	1.299000E-2	5.472183E-3	1.966095E-2	-3.942261E-1	5.484009E-1
3.175450E+10	-7.749634E-1	2.985840E-1	2.341557E-2	1.600933E-2	1.016521E-2	2.219963E-2	-3.943787E-1	5.543518E-1
3.197900E+10	-7.756653E-1	3.026428E-1	2.331638E-2	1.416397E-2	1.246500E-2	1.300430E-2	-3.827515E-1	5.531921E-1
3.220350E+10	-7.766113E-1	3.095398E-1	2.765751E-2	1.249218E-2	1.347160E-2	1.702595E-2	-3.757935E-1	5.577698E-1
3.242800E+10	-7.778625E-1	3.001404E-1	2.709007E-2	1.360798E-2	1.159191E-2	1.669216E-2	-3.772583E-1	5.570374E-1
3.265250E+10	-7.780151E-1	3.085327E-1	2.748871E-2	1.470566E-2	1.027346E-2	1.547003E-2	-3.723450E-1	5.562744E-1
3.287700E+10	-7.767029E-1	3.112793E-1	3.102970E-2	1.703739E-2	1.560593E-2	1.907349E-2	-3.690796E-1	5.591736E-1
3.310150E+10	-7.792053E-1	3.128357E-1	2.519035E-2	1.324081E-2	1.611042E-2	1.923180E-2	-3.615723E-1	5.567017E-1
3.332600E+10	-7.749939E-1	3.141479E-1	2.985764E-2	1.578712E-2	1.643467E-2	1.664543E-2	-3.620300E-1	5.577087E-1
3.355050E+10	-7.764893E-1	3.140564E-1	2.871418E-2	1.553059E-2	1.677513E-2	1.855183E-2	-3.548279E-1	5.568237E-1
3.377500E+10	-7.761230E-1	3.182678E-1	3.153801E-2	1.440048E-2	1.891899E-2	1.922512E-2	-3.494568E-1	5.559692E-1
3.399950E+10	-7.776489E-1	3.204956E-1	3.263855E-2	1.283264E-2	1.614094E-2	1.780033E-2	-3.503723E-1	5.571899E-1
3.422400E+10	-7.753601E-1	3.248596E-1	2.860165E-2	9.110451E-3	2.407455E-2	1.481056E-2	-3.431091E-1	5.659790E-1
3.444850E+10	-7.768250E-1	3.242798E-1	3.256798E-2	1.356125E-2	1.984596E-2	2.001572E-2	-3.392944E-1	5.588379E-1
3.467300E+10	-7.741699E-1	3.287659E-1	3.189278E-2	1.378822E-2	2.136707E-2	1.665497E-2	-3.367310E-1	5.638428E-1
3.489750E+10	-7.758484E-1	3.283691E-1	3.201294E-2	9.363174E-3	2.197456E-2	1.743603E-2	-3.329163E-1	5.659790E-1
3.512200E+10	-7.780151E-1	3.327332E-1	3.546143E-2	1.388359E-2	2.140236E-2	1.189041E-2	-3.288269E-1	5.605774E-1
3.534650E+10	-7.784424E-1	3.335571E-1	3.342247E-2	1.271057E-2	2.545547E-2	1.837826E-2	-3.242493E-1	5.640564E-1
3.557100E+10	-7.779236E-1	3.352051E-1	2.870941E-2	9.033203E-3	2.997780E-2	1.521873E-2	-3.142090E-1	5.652466E-1
3.579550E+10	-7.763977E-1	3.350220E-1	3.743935E-2	9.078979E-3	2.569389E-2	1.563835E-2	-3.083191E-1	5.672913E-1
3.602000E+10	-7.822571E-1	3.453064E-1	3.295517E-2	1.421547E-2	2.426529E-2	1.791763E-2	-3.040771E-1	5.650635E-1
3.624450E+10	-7.744141E-1	3.445435E-1	3.864098E-2	9.786606E-3	2.827168E-2	1.198769E-2	-2.998047E-1	5.631409E-1
3.646900E+10	-7.720642E-1	3.469543E-1	3.481865E-2	7.423401E-3	2.939510E-2	1.561069E-2	-3.002930E-1	5.679016E-1
3.669350E+10	-7.776184E-1	3.520508E-1	3.399658E-2	1.091385E-2	2.744293E-2	1.720428E-2	-2.904358E-1	5.675049E-1
3.691800E+10	-7.750244E-1	3.548584E-1	3.964233E-2	7.068634E-3	2.719784E-2	1.377392E-2	-2.951355E-1	5.692749E-1
3.714250E+10	-7.758484E-1	3.534241E-1	3.712463E-2	1.482773E-2	2.503586E-2	1.486778E-2	-2.849121E-1	5.715027E-1
3.736700E+10	-7.720642E-1	3.606567E-1	3.350449E-2	9.948730E-3	3.093338E-2	1.641464E-2	-2.797546E-1	5.718994E-1
3.759150E+10	-7.714539E-1	3.616638E-1	3.919601E-2	8.373260E-3	2.720833E-2	1.177406E-2	-2.834473E-1	5.695190E-1
3.781600E+10	-7.680969E-1	3.666077E-1	3.763962E-2	8.634567E-3	2.950573E-2	9.871483E-3	-2.772522E-1	5.704041E-1
3.804050E+10	-7.742310E-1	3.670654E-1	4.007530E-2	9.420395E-3	2.995300E-2	1.506805E-2	-2.612000E-1	5.693359E-1
3.826500E+10	-7.691650E-1	3.715210E-1	3.377914E-2	8.222580E-3	2.941990E-2	1.175213E-2	-2.602234E-1	5.754089E-1
3.848950E+10	-7.716370E-1	3.766479E-1	3.880501E-2	6.658554E-3	3.368187E-2	7.032394E-3	-2.549133E-1	5.726929E-1
3.871400E+10	-7.695312E-1	3.726196E-1	3.931427E-2	6.286621E-3	3.300095E-2	6.809235E-3	-2.447205E-1	5.720825E-1
3.893850E+10	-7.665405E-1	3.818054E-1	3.652954E-2	6.784439E-3	3.517342E-2	6.109238E-3	-2.442627E-1	5.730896E-1
3.916300E+10	-7.722778E-1	3.837585E-1	4.378510E-2	8.943558E-3	3.098011E-2	1.113796E-2	-2.454224E-1	5.721436E-1
3.938750E+10	-7.701416E-1	3.824768E-1	3.325081E-2	3.927231E-3	3.366280E-2	8.331299E-3	-2.466736E-1	5.708008E-1
3.961200E+10	-7.677612E-1	3.875122E-1	4.483795E-2	-6.332397E-4	3.050041E-2	9.206772E-3	-2.294617E-1	5.803528E-1
