!Date: 10/28/2005, 12:34 PM

!Vgs = -4.000000E+0
!Vds = 1.000000E+0
!Ig = -1.915100E-5
!Id = 1.144500E-1

# HZ S RI R 50
1.000000E+8	9.564514E-1	-2.200928E-1	-7.316650E+0	7.341309E-1	2.466202E-3	8.680344E-3	-1.156311E-1	-6.974030E-2
3.245000E+8	7.499390E-1	-6.074829E-1	-6.139893E+0	2.418701E+0	1.386261E-2	3.028011E-2	-2.093582E-1	-1.479111E-1
5.490000E+8	4.423523E-1	-8.331299E-1	-5.092773E+0	3.568604E+0	2.941704E-2	4.041100E-2	-2.695465E-1	-1.900635E-1
7.735000E+8	1.503601E-1	-9.177551E-1	-4.009033E+0	3.964600E+0	4.388237E-2	4.295158E-2	-3.381195E-1	-2.070618E-1
9.980000E+8	-7.955933E-2	-9.152832E-1	-2.997559E+0	3.921143E+0	5.563164E-2	4.155922E-2	-3.925781E-1	-1.987610E-1
1.222500E+9	-2.599487E-1	-8.729553E-1	-2.244263E+0	3.806396E+0	6.423187E-2	3.781128E-2	-4.290314E-1	-1.894073E-1
1.447000E+9	-3.951111E-1	-8.163757E-1	-1.694580E+0	3.590332E+0	7.056427E-2	3.422165E-2	-4.598236E-1	-1.721954E-1
1.671500E+9	-4.954529E-1	-7.566833E-1	-1.266113E+0	3.334717E+0	7.535934E-2	3.024292E-2	-4.815369E-1	-1.577454E-1
1.896000E+9	-5.720520E-1	-6.970215E-1	-9.367676E-1	3.095093E+0	7.921982E-2	2.629852E-2	-4.986877E-1	-1.420135E-1
2.120500E+9	-6.305542E-1	-6.428833E-1	-6.894531E-1	2.870850E+0	8.198929E-2	2.249908E-2	-5.117493E-1	-1.279297E-1
2.345000E+9	-6.764832E-1	-5.908508E-1	-4.945068E-1	2.671265E+0	8.412170E-2	1.901627E-2	-5.207520E-1	-1.153870E-1
2.569500E+9	-7.090454E-1	-5.454712E-1	-3.408203E-1	2.477295E+0	8.578491E-2	1.506424E-2	-5.284424E-1	-1.037903E-1
2.794000E+9	-7.382812E-1	-5.071411E-1	-2.221680E-1	2.311890E+0	8.666229E-2	1.249313E-2	-5.342712E-1	-9.213257E-2
3.018500E+9	-7.604370E-1	-4.697266E-1	-1.236572E-1	2.161743E+0	8.791351E-2	9.574890E-3	-5.395813E-1	-8.203125E-2
3.243000E+9	-7.796631E-1	-4.364319E-1	-4.077148E-2	2.026733E+0	8.814621E-2	7.038116E-3	-5.443726E-1	-7.321167E-2
3.467500E+9	-7.955627E-1	-4.069824E-1	2.642822E-2	1.911499E+0	8.868408E-2	4.161835E-3	-5.465393E-1	-6.500244E-2
3.692000E+9	-8.083801E-1	-3.798523E-1	8.404541E-2	1.796875E+0	8.876801E-2	2.101898E-3	-5.490112E-1	-5.844116E-2
3.916500E+9	-8.195801E-1	-3.544617E-1	1.304932E-1	1.693970E+0	8.892059E-2	-3.814697E-4	-5.523376E-1	-5.087280E-2
4.141000E+9	-8.296509E-1	-3.302002E-1	1.707153E-1	1.600769E+0	8.962250E-2	-2.437592E-3	-5.540161E-1	-4.370117E-2
4.365500E+9	-8.357849E-1	-3.097229E-1	2.061157E-1	1.521362E+0	8.927536E-2	-4.478455E-3	-5.556030E-1	-3.677368E-2
4.590000E+9	-8.426208E-1	-2.905884E-1	2.348633E-1	1.441650E+0	8.950806E-2	-5.924225E-3	-5.576172E-1	-3.085327E-2
4.814500E+9	-8.491821E-1	-2.722473E-1	2.587891E-1	1.368408E+0	8.969879E-2	-8.056641E-3	-5.588684E-1	-2.444458E-2
5.039000E+9	-8.545532E-1	-2.550049E-1	2.808838E-1	1.303040E+0	8.959961E-2	-1.030350E-2	-5.593567E-1	-2.053833E-2
5.263500E+9	-8.589478E-1	-2.381287E-1	2.984009E-1	1.240967E+0	8.905029E-2	-1.172256E-2	-5.612793E-1	-1.403809E-2
5.488000E+9	-8.618469E-1	-2.244263E-1	3.151245E-1	1.184875E+0	8.879089E-2	-1.366043E-2	-5.615234E-1	-8.697510E-3
5.712500E+9	-8.653259E-1	-2.098694E-1	3.300171E-1	1.131104E+0	8.854675E-2	-1.499557E-2	-5.630188E-1	-3.692627E-3
5.937000E+9	-8.687439E-1	-1.959229E-1	3.429565E-1	1.082397E+0	8.835602E-2	-1.687241E-2	-5.636597E-1	7.019043E-4
6.161500E+9	-8.710022E-1	-1.840210E-1	3.533936E-1	1.036987E+0	8.810806E-2	-1.857758E-2	-5.643616E-1	7.507324E-3
6.386000E+9	-8.740845E-1	-1.713257E-1	3.631592E-1	9.915161E-1	8.760834E-2	-1.990128E-2	-5.632629E-1	1.077271E-2
6.610500E+9	-8.758240E-1	-1.600037E-1	3.712158E-1	9.486694E-1	8.734131E-2	-2.174377E-2	-5.651245E-1	1.437378E-2
6.835000E+9	-8.781738E-1	-1.500854E-1	3.786621E-1	9.074402E-1	8.696365E-2	-2.314377E-2	-5.659180E-1	2.090454E-2
7.059500E+9	-8.785095E-1	-1.396484E-1	3.847046E-1	8.721619E-1	8.642197E-2	-2.433014E-2	-5.629578E-1	2.316284E-2
7.284000E+9	-8.798828E-1	-1.291199E-1	3.903503E-1	8.392944E-1	8.592987E-2	-2.556610E-2	-5.653076E-1	2.667236E-2
7.508500E+9	-8.814697E-1	-1.197815E-1	3.952332E-1	8.048401E-1	8.512878E-2	-2.763748E-2	-5.645752E-1	3.256226E-2
7.733000E+9	-8.822021E-1	-1.101990E-1	3.978577E-1	7.729797E-1	8.475494E-2	-2.857208E-2	-5.641785E-1	3.494263E-2
7.957500E+9	-8.830872E-1	-1.003418E-1	4.020996E-1	7.419739E-1	8.428192E-2	-3.075409E-2	-5.649109E-1	3.848267E-2
8.182000E+9	-8.844604E-1	-9.121704E-2	4.067688E-1	7.155762E-1	8.361053E-2	-3.167725E-2	-5.650940E-1	4.187012E-2
8.406500E+9	-8.840027E-1	-8.432007E-2	4.075317E-1	6.886902E-1	8.265305E-2	-3.313828E-2	-5.639343E-1	4.663086E-2
8.631000E+9	-8.853760E-1	-7.550049E-2	4.098816E-1	6.610413E-1	8.209610E-2	-3.509140E-2	-5.656128E-1	5.007935E-2
8.855500E+9	-8.851318E-1	-6.817627E-2	4.122925E-1	6.359863E-1	8.127975E-2	-3.533554E-2	-5.661011E-1	5.447388E-2
9.080001E+9	-8.857422E-1	-6.137085E-2	4.110413E-1	6.103821E-1	8.044815E-2	-3.638840E-2	-5.650024E-1	5.996704E-2
9.304500E+9	-8.857727E-1	-5.157471E-2	4.126892E-1	5.882263E-1	7.955933E-2	-3.821945E-2	-5.643616E-1	6.240845E-2
9.529000E+9	-8.857117E-1	-4.650879E-2	4.133606E-1	5.659180E-1	7.897949E-2	-3.943253E-2	-5.645752E-1	6.588745E-2
9.753500E+9	-8.867493E-1	-3.945923E-2	4.133301E-1	5.456543E-1	7.748795E-2	-4.016876E-2	-5.631409E-1	7.064819E-2
9.978000E+9	-8.856812E-1	-3.189087E-2	4.125061E-1	5.252686E-1	7.657242E-2	-4.141617E-2	-5.630188E-1	7.250977E-2
1.020250E+10	-8.865967E-1	-2.609253E-2	4.115601E-1	5.046082E-1	7.623672E-2	-4.268646E-2	-5.638428E-1	7.757568E-2
1.042700E+10	-8.872070E-1	-1.934814E-2	4.114227E-1	4.867706E-1	7.537842E-2	-4.316330E-2	-5.612793E-1	8.102417E-2
1.065150E+10	-8.862610E-1	-1.254272E-2	4.109955E-1	4.685364E-1	7.436371E-2	-4.464340E-2	-5.608521E-1	8.273315E-2
1.087600E+10	-8.866882E-1	-6.469727E-3	4.108582E-1	4.523468E-1	7.359314E-2	-4.500198E-2	-5.614624E-1	8.627319E-2
1.110050E+10	-8.868408E-1	-6.103516E-5	4.085083E-1	4.343109E-1	7.269287E-2	-4.666519E-2	-5.599060E-1	9.054565E-2
1.132500E+10	-8.857117E-1	5.859375E-3	4.081421E-1	4.187469E-1	7.168579E-2	-4.726410E-2	-5.593262E-1	9.271240E-2
1.154950E+10	-8.857422E-1	1.278687E-2	4.059143E-1	4.023285E-1	7.061005E-2	-4.723358E-2	-5.604248E-1	9.616089E-2
1.177400E+10	-8.840637E-1	1.776123E-2	4.043732E-1	3.875580E-1	7.012558E-2	-4.850006E-2	-5.590515E-1	1.004944E-1
1.199850E+10	-8.850098E-1	2.319336E-2	4.037323E-1	3.734131E-1	6.828690E-2	-4.916763E-2	-5.570374E-1	1.015320E-1
1.222300E+10	-8.840637E-1	2.832031E-2	4.019928E-1	3.594360E-1	6.769562E-2	-5.049515E-2	-5.587769E-1	1.052551E-1
1.244750E+10	-8.834839E-1	3.350830E-2	3.988342E-1	3.453064E-1	6.639862E-2	-5.158615E-2	-5.570984E-1	1.105652E-1
1.267200E+10	-8.838196E-1	3.881836E-2	3.969116E-1	3.317871E-1	6.599045E-2	-5.259323E-2	-5.553589E-1	1.108093E-1
1.289650E+10	-8.819580E-1	4.364014E-2	3.928833E-1	3.191681E-1	6.499863E-2	-5.255127E-2	-5.578918E-1	1.137695E-1
1.312100E+10	-8.824768E-1	4.913330E-2	3.915863E-1	3.074799E-1	6.429291E-2	-5.297089E-2	-5.557861E-1	1.185303E-1
1.334550E+10	-8.818970E-1	5.459595E-2	3.905487E-1	2.957916E-1	6.267166E-2	-5.442810E-2	-5.536804E-1	1.203003E-1
1.357000E+10	-8.807983E-1	5.801392E-2	3.867645E-1	2.843933E-1	6.195641E-2	-5.470848E-2	-5.543213E-1	1.205750E-1
1.379450E+10	-8.800964E-1	6.365967E-2	3.851624E-1	2.725067E-1	5.993843E-2	-5.537033E-2	-5.570984E-1	1.276855E-1
1.401900E+10	-8.798828E-1	6.994629E-2	3.827209E-1	2.634125E-1	5.915642E-2	-5.669594E-2	-5.527039E-1	1.292419E-1
1.424350E+10	-8.796082E-1	7.388306E-2	3.779755E-1	2.521820E-1	6.017303E-2	-5.717087E-2	-5.528259E-1	1.320801E-1
1.446800E+10	-8.782043E-1	7.992554E-2	3.766174E-1	2.420044E-1	5.769348E-2	-5.704117E-2	-5.524902E-1	1.382141E-1
1.469250E+10	-8.770752E-1	8.386230E-2	3.725281E-1	2.317963E-1	5.710983E-2	-5.751801E-2	-5.490417E-1	1.406860E-1
1.491700E+10	-8.756714E-1	8.895874E-2	3.709106E-1	2.215576E-1	5.628395E-2	-5.857086E-2	-5.504150E-1	1.409607E-1
1.514150E+10	-8.760681E-1	9.277344E-2	3.681335E-1	2.139893E-1	5.422783E-2	-5.883217E-2	-5.501709E-1	1.454773E-1
1.536600E+10	-8.739014E-1	9.774780E-2	3.656464E-1	2.037354E-1	5.267906E-2	-6.038666E-2	-5.471497E-1	1.495056E-1
1.559050E+10	-8.730774E-1	1.007996E-1	3.627777E-1	1.959076E-1	5.118370E-2	-5.916023E-2	-5.459595E-1	1.489258E-1
1.581500E+10	-8.711853E-1	1.065674E-1	3.574524E-1	1.859283E-1	5.184364E-2	-6.048965E-2	-5.468445E-1	1.536865E-1
1.603950E+10	-8.718872E-1	1.107788E-1	3.553772E-1	1.784210E-1	5.121040E-2	-6.159592E-2	-5.452271E-1	1.573181E-1
1.626400E+10	-8.698120E-1	1.163330E-1	3.525085E-1	1.702728E-1	4.770851E-2	-6.154251E-2	-5.469666E-1	1.576538E-1
1.648850E+10	-8.707581E-1	1.196594E-1	3.490753E-1	1.629333E-1	4.741478E-2	-6.138229E-2	-5.448303E-1	1.641846E-1
1.671300E+10	-8.681946E-1	1.240540E-1	3.460541E-1	1.552277E-1	4.692841E-2	-6.217384E-2	-5.437317E-1	1.653137E-1
1.693750E+10	-8.686523E-1	1.284485E-1	3.424530E-1	1.484375E-1	4.465103E-2	-6.207466E-2	-5.435791E-1	1.669922E-1
1.716200E+10	-8.674316E-1	1.322937E-1	3.387451E-1	1.416779E-1	4.521942E-2	-6.319809E-2	-5.424805E-1	1.717529E-1
1.738650E+10	-8.665161E-1	1.368103E-1	3.365021E-1	1.349640E-1	4.336166E-2	-6.342316E-2	-5.403442E-1	1.748352E-1
1.761100E+10	-8.655396E-1	1.409912E-1	3.325043E-1	1.292419E-1	4.123306E-2	-6.307220E-2	-5.402832E-1	1.764526E-1
1.783550E+10	-8.636475E-1	1.454773E-1	3.305817E-1	1.217346E-1	4.040527E-2	-6.404114E-2	-5.416260E-1	1.824341E-1
1.806000E+10	-8.630981E-1	1.490479E-1	3.273468E-1	1.161957E-1	3.978348E-2	-6.431198E-2	-5.363464E-1	1.849976E-1
1.828450E+10	-8.612671E-1	1.550293E-1	3.230438E-1	1.097107E-1	3.889084E-2	-6.477737E-2	-5.368042E-1	1.849976E-1
1.850900E+10	-8.592224E-1	1.591187E-1	3.193207E-1	1.040039E-1	3.691101E-2	-6.406403E-2	-5.379333E-1	1.914978E-1
1.873350E+10	-8.588867E-1	1.614685E-1	3.189240E-1	9.930420E-2	3.726959E-2	-6.399918E-2	-5.337219E-1	1.963196E-1
1.895800E+10	-8.563232E-1	1.655273E-1	3.148499E-1	9.339905E-2	3.546143E-2	-6.461716E-2	-5.342102E-1	1.940613E-1
1.918250E+10	-8.559875E-1	1.694031E-1	3.113251E-1	8.839417E-2	3.356171E-2	-6.442642E-2	-5.348206E-1	1.993408E-1
1.940700E+10	-8.530884E-1	1.751099E-1	3.079224E-1	8.465576E-2	3.348541E-2	-6.618118E-2	-5.301208E-1	2.038879E-1
1.963150E+10	-8.533020E-1	1.763000E-1	3.034668E-1	7.862854E-2	3.159714E-2	-6.465912E-2	-5.301819E-1	2.047119E-1
1.985600E+10	-8.517151E-1	1.802673E-1	3.003998E-1	7.373047E-2	3.096008E-2	-6.511307E-2	-5.309448E-1	2.088623E-1
2.008050E+10	-8.493042E-1	1.826477E-1	2.983856E-1	6.990051E-2	2.866745E-2	-6.654358E-2	-5.291138E-1	2.146606E-1
2.030500E+10	-8.490906E-1	1.864624E-1	2.962646E-1	6.547546E-2	2.806091E-2	-6.473541E-2	-5.247803E-1	2.148132E-1
2.052950E+10	-8.481750E-1	1.906433E-1	2.915649E-1	5.975342E-2	2.642059E-2	-6.619263E-2	-5.266418E-1	2.185669E-1
2.075400E+10	-8.457642E-1	1.944275E-1	2.886810E-1	5.751038E-2	2.612305E-2	-6.632233E-2	-5.269775E-1	2.232056E-1
2.097850E+10	-8.452454E-1	2.000427E-1	2.865295E-1	5.256653E-2	2.437210E-2	-6.598663E-2	-5.216675E-1	2.256470E-1
2.120300E+10	-8.435059E-1	2.008667E-1	2.843933E-1	5.276489E-2	2.201462E-2	-6.475067E-2	-5.242310E-1	2.229309E-1
2.142750E+10	-8.423157E-1	2.070312E-1	2.795715E-1	4.608154E-2	2.211761E-2	-6.501389E-2	-5.242615E-1	2.295837E-1
2.165200E+10	-8.414917E-1	2.100525E-1	2.779999E-1	4.338074E-2	1.974869E-2	-6.509018E-2	-5.189819E-1	2.326965E-1
2.187650E+10	-8.373413E-1	2.110596E-1	2.735443E-1	4.032898E-2	1.763916E-2	-6.607437E-2	-5.208435E-1	2.346802E-1
2.210100E+10	-8.367004E-1	2.180481E-1	2.693481E-1	3.587341E-2	1.747894E-2	-6.452942E-2	-5.223083E-1	2.426453E-1
2.232550E+10	-8.361511E-1	2.185364E-1	2.706146E-1	3.503418E-2	1.703262E-2	-6.509018E-2	-5.152893E-1	2.455139E-1
2.255000E+10	-8.342590E-1	2.240906E-1	2.673035E-1	2.943420E-2	1.511765E-2	-6.577682E-2	-5.144348E-1	2.472839E-1
2.277450E+10	-8.316956E-1	2.276917E-1	2.637634E-1	2.862549E-2	1.517105E-2	-6.528473E-2	-5.144958E-1	2.509766E-1
2.299900E+10	-8.304138E-1	2.296753E-1	2.613678E-1	2.363586E-2	1.222229E-2	-6.499863E-2	-5.097656E-1	2.554626E-1
2.322350E+10	-8.285522E-1	2.340088E-1	2.600555E-1	2.136230E-2	1.047516E-2	-6.427002E-2	-5.102539E-1	2.541504E-1
2.344800E+10	-8.286438E-1	2.351990E-1	2.560425E-1	2.043152E-2	8.922577E-3	-6.435013E-2	-5.097656E-1	2.620544E-1
2.367250E+10	-8.255615E-1	2.403259E-1	2.531738E-1	1.768494E-2	7.732391E-3	-6.423950E-2	-5.042114E-1	2.636414E-1
2.389700E+10	-8.231812E-1	2.438965E-1	2.516174E-1	1.281738E-2	6.774902E-3	-6.315231E-2	-5.061035E-1	2.649536E-1
2.412150E+10	-8.218079E-1	2.459412E-1	2.495193E-1	1.293945E-2	5.571365E-3	-6.054687E-2	-5.011902E-1	2.718201E-1
2.434600E+10	-8.193665E-1	2.500000E-1	2.463684E-1	1.128387E-2	3.311157E-3	-6.117439E-2	-4.978943E-1	2.728424E-1
2.457050E+10	-8.160400E-1	2.543640E-1	2.420959E-1	8.163452E-3	3.477097E-3	-6.226349E-2	-4.968109E-1	2.737885E-1
2.479500E+10	-8.175354E-1	2.561646E-1	2.423477E-1	6.553650E-3	7.305145E-4	-6.114960E-2	-4.958649E-1	2.833252E-1
2.501950E+10	-8.119202E-1	2.573242E-1	2.386246E-1	4.592896E-3	8.983612E-4	-6.033897E-2	-4.894409E-1	2.831421E-1
2.524400E+10	-8.100586E-1	2.606812E-1	2.368393E-1	3.158569E-3	-2.342224E-3	-5.803299E-2	-4.907990E-1	2.843933E-1
2.546850E+10	-8.081970E-1	2.662964E-1	2.368011E-1	1.144409E-3	-1.800537E-3	-5.767632E-2	-4.882202E-1	2.898865E-1
2.569300E+10	-8.071594E-1	2.673340E-1	2.354355E-1	6.256104E-4	-1.583099E-3	-5.624580E-2	-4.873505E-1	2.888031E-1
2.591750E+10	-8.052368E-1	2.719116E-1	2.326202E-1	-2.967834E-3	-2.309799E-3	-5.554199E-2	-4.853668E-1	2.910919E-1
2.614200E+10	-8.038330E-1	2.729492E-1	2.314987E-1	-2.929687E-3	-4.650116E-3	-5.463219E-2	-4.859314E-1	2.953033E-1
2.636650E+10	-8.011169E-1	2.750549E-1	2.285156E-1	-4.882812E-3	-5.399704E-3	-5.462837E-2	-4.823303E-1	3.008118E-1
2.659100E+10	-7.974854E-1	2.775269E-1	2.294083E-1	-6.530762E-3	-7.205963E-3	-5.221558E-2	-4.783630E-1	3.029633E-1
2.681550E+10	-7.960205E-1	2.799072E-1	2.276230E-1	-7.225037E-3	-7.942200E-3	-5.315590E-2	-4.802704E-1	3.051605E-1
2.704000E+10	-7.939453E-1	2.843323E-1	2.265320E-1	-1.066589E-2	-7.307053E-3	-5.015564E-2	-4.778137E-1	3.125763E-1
2.726450E+10	-7.896729E-1	2.848816E-1	2.241440E-1	-1.274109E-2	-8.693695E-3	-5.152130E-2	-4.701080E-1	3.114777E-1
2.748900E+10	-7.891846E-1	2.854004E-1	2.256851E-1	-1.148987E-2	-1.377487E-2	-5.127335E-2	-4.706268E-1	3.165588E-1
2.771350E+10	-7.855530E-1	2.897339E-1	2.229767E-1	-1.372528E-2	-1.088715E-2	-4.585838E-2	-4.661865E-1	3.143616E-1
2.793800E+10	-7.859497E-1	2.946167E-1	2.203140E-1	-1.557922E-2	-1.256752E-2	-4.927444E-2	-4.653625E-1	3.194427E-1
2.816250E+10	-7.839661E-1	2.948914E-1	2.206573E-1	-1.615906E-2	-1.367378E-2	-4.766846E-2	-4.638062E-1	3.208313E-1
2.838700E+10	-7.829895E-1	2.957153E-1	2.195892E-1	-1.864624E-2	-1.686668E-2	-4.528809E-2	-4.593353E-1	3.274231E-1
2.861150E+10	-7.803650E-1	3.000183E-1	2.187347E-1	-2.125549E-2	-1.614571E-2	-4.431725E-2	-4.526367E-1	3.298035E-1
2.883600E+10	-7.770386E-1	3.030701E-1	2.202530E-1	-1.999664E-2	-1.694870E-2	-4.117966E-2	-4.562683E-1	3.298187E-1
2.906050E+10	-7.757568E-1	3.044128E-1	2.172546E-1	-2.183533E-2	-1.604080E-2	-3.928185E-2	-4.532013E-1	3.359985E-1
2.928500E+10	-7.747192E-1	3.073120E-1	2.172165E-1	-2.129364E-2	-1.616859E-2	-4.089546E-2	-4.475555E-1	3.364563E-1
2.950950E+10	-7.694397E-1	3.093872E-1	2.200470E-1	-2.548218E-2	-1.498604E-2	-3.774834E-2	-4.492950E-1	3.462982E-1
2.973400E+10	-7.709045E-1	3.131409E-1	2.194901E-1	-2.661896E-2	-1.747513E-2	-3.666878E-2	-4.445648E-1	3.453064E-1
2.995850E+10	-7.674255E-1	3.118286E-1	2.164307E-1	-3.117371E-2	-1.842880E-2	-3.598022E-2	-4.440155E-1	3.518066E-1
3.018300E+10	-7.641602E-1	3.128052E-1	2.158051E-1	-2.930450E-2	-2.039719E-2	-3.668213E-2	-4.419403E-1	3.553467E-1
3.040750E+10	-7.608337E-1	3.158264E-1	2.185898E-1	-3.083038E-2	-1.755714E-2	-3.358650E-2	-4.412384E-1	3.584595E-1
3.063200E+10	-7.590637E-1	3.153687E-1	2.183075E-1	-3.527832E-2	-1.816177E-2	-2.967072E-2	-4.341736E-1	3.620605E-1
3.085650E+10	-7.564697E-1	3.179932E-1	2.180939E-1	-3.665924E-2	-1.928329E-2	-3.118324E-2	-4.301453E-1	3.687744E-1
3.108100E+10	-7.558899E-1	3.214111E-1	2.182922E-1	-3.658295E-2	-2.020168E-2	-2.952480E-2	-4.246368E-1	3.702850E-1
3.130550E+10	-7.508545E-1	3.236694E-1	2.157745E-1	-3.781128E-2	-1.932430E-2	-2.410698E-2	-4.198608E-1	3.766937E-1
3.153000E+10	-7.536621E-1	3.245239E-1	2.192001E-1	-4.122925E-2	-2.146530E-2	-2.749157E-2	-4.187622E-1	3.726654E-1
3.175450E+10	-7.482910E-1	3.262329E-1	2.146912E-1	-4.467010E-2	-2.134609E-2	-2.296734E-2	-4.163666E-1	3.827362E-1
3.197900E+10	-7.474670E-1	3.263550E-1	2.175217E-1	-4.754639E-2	-2.263260E-2	-2.036476E-2	-4.111481E-1	3.851013E-1
3.220350E+10	-7.482910E-1	3.283691E-1	2.179871E-1	-4.423523E-2	-2.059746E-2	-2.327347E-2	-4.068451E-1	3.874207E-1
3.242800E+10	-7.480469E-1	3.315735E-1	2.164307E-1	-4.920959E-2	-2.092266E-2	-1.892948E-2	-4.015350E-1	3.935089E-1
3.265250E+10	-7.457886E-1	3.328857E-1	2.195129E-1	-5.535889E-2	-2.355099E-2	-1.915359E-2	-3.977509E-1	3.903198E-1
3.287700E+10	-7.399292E-1	3.367615E-1	2.176361E-1	-5.680084E-2	-1.681519E-2	-1.709461E-2	-3.930664E-1	3.974152E-1
3.310150E+10	-7.411804E-1	3.363342E-1	2.177277E-1	-6.216431E-2	-2.050209E-2	-1.350021E-2	-3.889618E-1	4.002075E-1
3.332600E+10	-7.367554E-1	3.340149E-1	2.190323E-1	-6.420135E-2	-2.117634E-2	-1.471519E-2	-3.854065E-1	4.002533E-1
3.355050E+10	-7.327881E-1	3.356018E-1	2.226410E-1	-6.740570E-2	-1.591396E-2	-1.319218E-2	-3.842773E-1	4.054260E-1
3.377500E+10	-7.357178E-1	3.399353E-1	2.172623E-1	-6.777954E-2	-1.603413E-2	-1.021099E-2	-3.729401E-1	4.032593E-1
3.399950E+10	-7.305908E-1	3.384094E-1	2.187119E-1	-7.516479E-2	-1.760578E-2	-9.922981E-3	-3.721771E-1	4.118042E-1
3.422400E+10	-7.337036E-1	3.432312E-1	2.182693E-1	-7.709503E-2	-1.405096E-2	-7.345676E-3	-3.693848E-1	4.227753E-1
3.444850E+10	-7.291565E-1	3.439331E-1	2.216721E-1	-8.421326E-2	-1.421452E-2	-9.002209E-3	-3.647766E-1	4.180908E-1
3.467300E+10	-7.311096E-1	3.423157E-1	2.218552E-1	-8.740234E-2	-1.195478E-2	-6.257534E-3	-3.593750E-1	4.229889E-1
3.489750E+10	-7.261047E-1	3.454895E-1	2.172775E-1	-8.580780E-2	-1.311827E-2	-6.884098E-3	-3.532562E-1	4.264832E-1
3.512200E+10	-7.294006E-1	3.456116E-1	2.139130E-1	-9.058380E-2	-1.379633E-2	-5.590439E-3	-3.505096E-1	4.253540E-1
3.534650E+10	-7.222900E-1	3.489685E-1	2.183685E-1	-9.679413E-2	-1.496220E-2	-1.126289E-3	-3.432159E-1	4.360199E-1
3.557100E+10	-7.255249E-1	3.476868E-1	2.123871E-1	-1.013641E-1	-6.932735E-3	-1.415253E-3	-3.336792E-1	4.343567E-1
3.579550E+10	-7.271118E-1	3.477173E-1	2.167740E-1	-1.048203E-1	-9.151936E-3	-2.575397E-3	-3.291473E-1	4.347229E-1
3.602000E+10	-7.248230E-1	3.495178E-1	2.131119E-1	-1.076508E-1	-9.616375E-3	1.813889E-3	-3.257141E-1	4.389038E-1
3.624450E+10	-7.211304E-1	3.535156E-1	2.113953E-1	-1.115799E-1	-1.122665E-2	-3.848076E-4	-3.132324E-1	4.340515E-1
3.646900E+10	-7.173462E-1	3.556824E-1	2.091980E-1	-1.205215E-1	-7.435083E-3	3.345251E-3	-3.101807E-1	4.399719E-1
3.669350E+10	-7.195435E-1	3.564758E-1	2.098160E-1	-1.249771E-1	-1.685739E-3	1.924694E-3	-2.996368E-1	4.447479E-1
3.691800E+10	-7.190552E-1	3.545227E-1	2.062912E-1	-1.268311E-1	-6.012917E-3	1.822948E-3	-2.946625E-1	4.478912E-1
3.714250E+10	-7.198486E-1	3.554382E-1	2.038574E-1	-1.273956E-1	-8.070946E-3	1.770020E-3	-2.889862E-1	4.470978E-1
3.736700E+10	-7.160034E-1	3.588562E-1	2.032547E-1	-1.350403E-1	-2.546787E-3	4.459381E-3	-2.808685E-1	4.476929E-1
3.759150E+10	-7.153625E-1	3.606262E-1	1.983566E-1	-1.390305E-1	-6.245136E-3	3.752232E-3	-2.747040E-1	4.492187E-1
3.781600E+10	-7.158813E-1	3.626709E-1	1.941376E-1	-1.416855E-1	4.622221E-3	4.944086E-3	-2.722626E-1	4.457092E-1
3.804050E+10	-7.160339E-1	3.629761E-1	1.939240E-1	-1.494217E-1	2.567768E-3	4.862547E-3	-2.590332E-1	4.531097E-1
3.826500E+10	-7.108154E-1	3.675842E-1	1.908188E-1	-1.451721E-1	1.208067E-3	4.638433E-3	-2.494659E-1	4.528809E-1
3.848950E+10	-7.114563E-1	3.651428E-1	1.896896E-1	-1.538544E-1	-1.310825E-3	8.672237E-3	-2.423859E-1	4.553223E-1
3.871400E+10	-7.125244E-1	3.639526E-1	1.850357E-1	-1.591797E-1	3.767490E-3	7.750988E-3	-2.318268E-1	4.475403E-1
3.893850E+10	-7.161865E-1	3.712769E-1	1.825027E-1	-1.621933E-1	4.847288E-3	4.558563E-3	-2.194672E-1	4.461212E-1
3.916300E+10	-7.134094E-1	3.706055E-1	1.740646E-1	-1.605759E-1	1.123571E-2	9.123325E-3	-2.228394E-1	4.484406E-1
3.938750E+10	-7.079468E-1	3.656616E-1	1.746216E-1	-1.698837E-1	6.219864E-3	7.487059E-3	-2.237091E-1	4.430695E-1
