!Date: 10/28/2005, 12:34 PM

!Vgs = -7.000000E+0
!Vds = 0.000000E+0
!Ig = -5.094800E-5
!Id = 1.080800E-5

# HZ S RI R 50
1.000000E+8	9.910889E-1	-4.119873E-2	6.666183E-4	1.516724E-2	2.641678E-3	1.409435E-2	9.246826E-1	-1.074219E-2
3.245000E+8	9.768677E-1	-1.174011E-1	7.633209E-3	4.606247E-2	7.682800E-3	4.649544E-2	9.086609E-1	-9.619141E-2
5.490000E+8	9.591675E-1	-1.899719E-1	1.777649E-2	7.502747E-2	1.776886E-2	7.537079E-2	8.999634E-1	-1.564636E-1
7.735000E+8	9.363403E-1	-2.606506E-1	3.114319E-2	1.015244E-1	3.130722E-2	1.017113E-1	8.801270E-1	-2.160645E-1
9.980000E+8	9.100952E-1	-3.253784E-1	4.730225E-2	1.248093E-1	4.761505E-2	1.253891E-1	8.578186E-1	-2.696838E-1
1.222500E+9	8.782043E-1	-3.887634E-1	6.591797E-2	1.457977E-1	6.600952E-2	1.460724E-1	8.333740E-1	-3.233948E-1
1.447000E+9	8.428650E-1	-4.470825E-1	8.649445E-2	1.639481E-1	8.629608E-2	1.637802E-1	8.049316E-1	-3.722839E-1
1.671500E+9	8.035583E-1	-5.010376E-1	1.073685E-1	1.804047E-1	1.081848E-1	1.803513E-1	7.738953E-1	-4.168701E-1
1.896000E+9	7.625427E-1	-5.494080E-1	1.322098E-1	1.938934E-1	1.328049E-1	1.942368E-1	7.447205E-1	-4.572144E-1
2.120500E+9	7.208252E-1	-5.938721E-1	1.581955E-1	2.032623E-1	1.580048E-1	2.035599E-1	7.125549E-1	-4.973450E-1
2.345000E+9	6.747742E-1	-6.352234E-1	1.839523E-1	2.089081E-1	1.843033E-1	2.085876E-1	6.778870E-1	-5.347290E-1
2.569500E+9	6.300049E-1	-6.686707E-1	2.084503E-1	2.107162E-1	2.090530E-1	2.115479E-1	6.431580E-1	-5.675659E-1
2.794000E+9	5.839844E-1	-7.020874E-1	2.324982E-1	2.110977E-1	2.333832E-1	2.109375E-1	6.076660E-1	-5.977173E-1
3.018500E+9	5.381775E-1	-7.285767E-1	2.566528E-1	2.082825E-1	2.572021E-1	2.079620E-1	5.706177E-1	-6.268616E-1
3.243000E+9	4.932251E-1	-7.530518E-1	2.790527E-1	2.029114E-1	2.799072E-1	2.031860E-1	5.328369E-1	-6.517639E-1
3.467500E+9	4.485779E-1	-7.740784E-1	3.003998E-1	1.968536E-1	3.006287E-1	1.967010E-1	4.965210E-1	-6.720581E-1
3.692000E+9	4.047241E-1	-7.916565E-1	3.204803E-1	1.889648E-1	3.206329E-1	1.882782E-1	4.598083E-1	-6.938477E-1
3.916500E+9	3.605042E-1	-8.058167E-1	3.387604E-1	1.781006E-1	3.392181E-1	1.783600E-1	4.224854E-1	-7.095642E-1
4.141000E+9	3.192139E-1	-8.177490E-1	3.567505E-1	1.677094E-1	3.573151E-1	1.674042E-1	3.882446E-1	-7.246094E-1
4.365500E+9	2.798462E-1	-8.282471E-1	3.727417E-1	1.553040E-1	3.730164E-1	1.553497E-1	3.539734E-1	-7.380066E-1
4.590000E+9	2.388611E-1	-8.369446E-1	3.872986E-1	1.419983E-1	3.880463E-1	1.415100E-1	3.182373E-1	-7.504883E-1
4.814500E+9	2.009888E-1	-8.421936E-1	4.008484E-1	1.275940E-1	4.013519E-1	1.278534E-1	2.849121E-1	-7.605591E-1
5.039000E+9	1.638184E-1	-8.471680E-1	4.131317E-1	1.129913E-1	4.135437E-1	1.127319E-1	2.526855E-1	-7.701416E-1
5.263500E+9	1.276245E-1	-8.487854E-1	4.239655E-1	9.722900E-2	4.242249E-1	9.690857E-2	2.186890E-1	-7.771606E-1
5.488000E+9	9.417725E-2	-8.502808E-1	4.329071E-1	8.164978E-2	4.329071E-1	8.140564E-2	1.880188E-1	-7.830200E-1
5.712500E+9	5.978394E-2	-8.509521E-1	4.416351E-1	6.613159E-2	4.409027E-1	6.550598E-2	1.571045E-1	-7.886353E-1
5.937000E+9	2.819824E-2	-8.490295E-1	4.478912E-1	4.922485E-2	4.478149E-1	4.920959E-2	1.251221E-1	-7.924805E-1
6.161500E+9	-1.617432E-3	-8.482361E-1	4.529724E-1	3.350830E-2	4.531250E-1	3.298950E-2	9.567261E-2	-7.958984E-1
6.386000E+9	-3.283691E-2	-8.456726E-1	4.575043E-1	1.759338E-2	4.571838E-1	1.724243E-2	6.576538E-2	-7.980347E-1
6.610500E+9	-5.957031E-2	-8.436279E-1	4.602356E-1	9.307861E-4	4.603882E-1	1.480103E-3	3.594971E-2	-7.996521E-1
6.835000E+9	-8.843994E-2	-8.393860E-1	4.624634E-1	-1.399231E-2	4.627838E-1	-1.385498E-2	7.690430E-3	-7.983093E-1
7.059500E+9	-1.136475E-1	-8.341675E-1	4.637299E-1	-2.848816E-2	4.638367E-1	-2.839661E-2	-1.696777E-2	-7.977905E-1
7.284000E+9	-1.400757E-1	-8.306274E-1	4.642487E-1	-4.393005E-2	4.636688E-1	-4.417419E-2	-4.718018E-2	-7.971191E-1
7.508500E+9	-1.652527E-1	-8.250122E-1	4.634247E-1	-5.909729E-2	4.638824E-1	-5.876160E-2	-7.275391E-2	-7.922668E-1
7.733000E+9	-1.881409E-1	-8.177490E-1	4.625397E-1	-7.279968E-2	4.621124E-1	-7.302856E-2	-9.661865E-2	-7.904968E-1
7.957500E+9	-2.124939E-1	-8.117981E-1	4.603882E-1	-8.638000E-2	4.609528E-1	-8.697510E-2	-1.236267E-1	-7.882690E-1
8.182000E+9	-2.330933E-1	-8.058472E-1	4.588928E-1	-9.942627E-2	4.588318E-1	-1.003723E-1	-1.477051E-1	-7.839050E-1
8.406500E+9	-2.540588E-1	-7.993469E-1	4.552917E-1	-1.128693E-1	4.553070E-1	-1.130219E-1	-1.720581E-1	-7.778931E-1
8.631000E+9	-2.767334E-1	-7.924194E-1	4.519501E-1	-1.262054E-1	4.520569E-1	-1.261749E-1	-1.963806E-1	-7.735291E-1
8.855500E+9	-2.953186E-1	-7.854309E-1	4.484253E-1	-1.382751E-1	4.479370E-1	-1.392212E-1	-2.191467E-1	-7.674255E-1
9.080001E+9	-3.139954E-1	-7.785339E-1	4.433746E-1	-1.499176E-1	4.434204E-1	-1.499176E-1	-2.407532E-1	-7.598572E-1
9.304500E+9	-3.342285E-1	-7.700806E-1	4.386902E-1	-1.608734E-1	4.383240E-1	-1.618195E-1	-2.625427E-1	-7.544250E-1
9.529000E+9	-3.507996E-1	-7.638550E-1	4.333801E-1	-1.724091E-1	4.332733E-1	-1.729126E-1	-2.842102E-1	-7.463074E-1
9.753500E+9	-3.692932E-1	-7.552795E-1	4.284515E-1	-1.829834E-1	4.288483E-1	-1.830292E-1	-3.033447E-1	-7.370300E-1
9.978000E+9	-3.852539E-1	-7.467041E-1	4.219208E-1	-1.930084E-1	4.224548E-1	-1.939850E-1	-3.221741E-1	-7.306824E-1
1.020250E+10	-4.017639E-1	-7.394104E-1	4.161072E-1	-2.025757E-1	4.160156E-1	-2.035065E-1	-3.435059E-1	-7.214050E-1
1.042700E+10	-4.180603E-1	-7.312927E-1	4.096527E-1	-2.123718E-1	4.099121E-1	-2.126770E-1	-3.609924E-1	-7.129211E-1
1.065150E+10	-4.321289E-1	-7.232056E-1	4.037781E-1	-2.209473E-1	4.037170E-1	-2.199097E-1	-3.789062E-1	-7.052307E-1
1.087600E+10	-4.470520E-1	-7.144165E-1	3.968353E-1	-2.294464E-1	3.963318E-1	-2.299042E-1	-3.963623E-1	-6.965332E-1
1.110050E+10	-4.617920E-1	-7.062073E-1	3.899994E-1	-2.379913E-1	3.895416E-1	-2.380829E-1	-4.143066E-1	-6.871643E-1
1.132500E+10	-4.759521E-1	-6.981201E-1	3.838654E-1	-2.458649E-1	3.830872E-1	-2.455902E-1	-4.299011E-1	-6.784973E-1
1.154950E+10	-4.897766E-1	-6.892090E-1	3.758087E-1	-2.530365E-1	3.756256E-1	-2.527008E-1	-4.497375E-1	-6.659241E-1
1.177400E+10	-5.026855E-1	-6.814575E-1	3.687897E-1	-2.595215E-1	3.695526E-1	-2.598572E-1	-4.636841E-1	-6.557312E-1
1.199850E+10	-5.173035E-1	-6.730042E-1	3.628082E-1	-2.666321E-1	3.628540E-1	-2.674408E-1	-4.768372E-1	-6.482239E-1
1.222300E+10	-5.274048E-1	-6.648254E-1	3.553009E-1	-2.735138E-1	3.553009E-1	-2.727966E-1	-4.945374E-1	-6.366577E-1
1.244750E+10	-5.400085E-1	-6.564026E-1	3.475647E-1	-2.797546E-1	3.470459E-1	-2.786407E-1	-5.104065E-1	-6.247253E-1
1.267200E+10	-5.519714E-1	-6.473694E-1	3.407898E-1	-2.845612E-1	3.396454E-1	-2.850952E-1	-5.228882E-1	-6.166077E-1
1.289650E+10	-5.625916E-1	-6.394043E-1	3.331146E-1	-2.895050E-1	3.328552E-1	-2.895355E-1	-5.378418E-1	-6.054993E-1
1.312100E+10	-5.744019E-1	-6.310425E-1	3.261108E-1	-2.953033E-1	3.254547E-1	-2.945862E-1	-5.505676E-1	-5.914612E-1
1.334550E+10	-5.848389E-1	-6.227112E-1	3.174438E-1	-3.002777E-1	3.181915E-1	-2.995911E-1	-5.620728E-1	-5.830688E-1
1.357000E+10	-5.962830E-1	-6.137085E-1	3.109589E-1	-3.047485E-1	3.099518E-1	-3.050995E-1	-5.773010E-1	-5.741272E-1
1.379450E+10	-6.037292E-1	-6.071167E-1	3.035431E-1	-3.089905E-1	3.037720E-1	-3.091278E-1	-5.885925E-1	-5.586548E-1
1.401900E+10	-6.138000E-1	-5.979309E-1	2.967224E-1	-3.132477E-1	2.970276E-1	-3.127136E-1	-5.988159E-1	-5.481873E-1
1.424350E+10	-6.249695E-1	-5.897522E-1	2.891846E-1	-3.168488E-1	2.888489E-1	-3.163452E-1	-6.119995E-1	-5.380249E-1
1.446800E+10	-6.327820E-1	-5.820007E-1	2.817841E-1	-3.206177E-1	2.816467E-1	-3.191681E-1	-6.231384E-1	-5.225220E-1
1.469250E+10	-6.421509E-1	-5.732422E-1	2.739105E-1	-3.238068E-1	2.742462E-1	-3.247833E-1	-6.316528E-1	-5.126953E-1
1.491700E+10	-6.514282E-1	-5.643311E-1	2.665710E-1	-3.277435E-1	2.668915E-1	-3.266907E-1	-6.441956E-1	-5.035095E-1
1.514150E+10	-6.594849E-1	-5.556335E-1	2.603760E-1	-3.309479E-1	2.595825E-1	-3.292694E-1	-6.548462E-1	-4.875488E-1
1.536600E+10	-6.689758E-1	-5.476074E-1	2.514038E-1	-3.327026E-1	2.524261E-1	-3.321381E-1	-6.617432E-1	-4.764099E-1
1.559050E+10	-6.776428E-1	-5.388489E-1	2.441559E-1	-3.346252E-1	2.461243E-1	-3.357086E-1	-6.721802E-1	-4.668274E-1
1.581500E+10	-6.832275E-1	-5.318298E-1	2.368927E-1	-3.382263E-1	2.380219E-1	-3.367157E-1	-6.828918E-1	-4.520264E-1
1.603950E+10	-6.911011E-1	-5.227356E-1	2.303925E-1	-3.400116E-1	2.314911E-1	-3.397369E-1	-6.891479E-1	-4.400330E-1
1.626400E+10	-6.996155E-1	-5.154419E-1	2.245331E-1	-3.416901E-1	2.239990E-1	-3.419800E-1	-6.993408E-1	-4.298096E-1
1.648850E+10	-7.071228E-1	-5.069885E-1	2.176056E-1	-3.430634E-1	2.160797E-1	-3.430176E-1	-7.077942E-1	-4.156494E-1
1.671300E+10	-7.135315E-1	-4.979858E-1	2.102661E-1	-3.445129E-1	2.099762E-1	-3.442993E-1	-7.133179E-1	-4.028015E-1
1.693750E+10	-7.212524E-1	-4.905396E-1	2.033539E-1	-3.470001E-1	2.039795E-1	-3.459320E-1	-7.208557E-1	-3.922729E-1
1.716200E+10	-7.274780E-1	-4.819641E-1	1.967010E-1	-3.476410E-1	1.961823E-1	-3.479614E-1	-7.281189E-1	-3.779297E-1
1.738650E+10	-7.353516E-1	-4.731140E-1	1.895142E-1	-3.478088E-1	1.894836E-1	-3.477631E-1	-7.350464E-1	-3.654480E-1
1.761100E+10	-7.412415E-1	-4.661560E-1	1.844940E-1	-3.491669E-1	1.831055E-1	-3.495026E-1	-7.422485E-1	-3.553467E-1
1.783550E+10	-7.482910E-1	-4.574280E-1	1.776123E-1	-3.503876E-1	1.778259E-1	-3.508911E-1	-7.496643E-1	-3.392029E-1
1.806000E+10	-7.543945E-1	-4.495850E-1	1.714020E-1	-3.526154E-1	1.714478E-1	-3.524475E-1	-7.530823E-1	-3.282471E-1
1.828450E+10	-7.587280E-1	-4.426270E-1	1.646118E-1	-3.515930E-1	1.654205E-1	-3.516541E-1	-7.604980E-1	-3.200378E-1
1.850900E+10	-7.657166E-1	-4.335632E-1	1.589661E-1	-3.537292E-1	1.586151E-1	-3.529663E-1	-7.662048E-1	-3.034668E-1
1.873350E+10	-7.712708E-1	-4.256897E-1	1.522064E-1	-3.529816E-1	1.524963E-1	-3.539276E-1	-7.700500E-1	-2.896118E-1
1.895800E+10	-7.752380E-1	-4.176025E-1	1.450653E-1	-3.533478E-1	1.454163E-1	-3.528595E-1	-7.758179E-1	-2.817688E-1
1.918250E+10	-7.822571E-1	-4.108582E-1	1.394348E-1	-3.545990E-1	1.399994E-1	-3.536530E-1	-7.819824E-1	-2.685547E-1
1.940700E+10	-7.863464E-1	-4.022217E-1	1.331635E-1	-3.560028E-1	1.333008E-1	-3.546143E-1	-7.834778E-1	-2.511902E-1
1.963150E+10	-7.926025E-1	-3.937073E-1	1.272125E-1	-3.530731E-1	1.282501E-1	-3.543396E-1	-7.869568E-1	-2.433167E-1
1.985600E+10	-7.986450E-1	-3.854980E-1	1.210937E-1	-3.528595E-1	1.219482E-1	-3.525543E-1	-7.951050E-1	-2.281799E-1
2.008050E+10	-8.017578E-1	-3.789368E-1	1.164703E-1	-3.533478E-1	1.162872E-1	-3.514862E-1	-7.952881E-1	-2.143250E-1
2.030500E+10	-8.068848E-1	-3.710632E-1	1.119232E-1	-3.520203E-1	1.110840E-1	-3.526001E-1	-7.965088E-1	-2.052612E-1
2.052950E+10	-8.126526E-1	-3.637085E-1	1.035767E-1	-3.527679E-1	1.058197E-1	-3.513184E-1	-8.018494E-1	-1.936035E-1
2.075400E+10	-8.162231E-1	-3.567200E-1	1.007690E-1	-3.516998E-1	1.001282E-1	-3.508301E-1	-8.055725E-1	-1.793823E-1
2.097850E+10	-8.204651E-1	-3.484497E-1	9.460449E-2	-3.515015E-1	9.425354E-2	-3.519440E-1	-8.049927E-1	-1.682434E-1
2.120300E+10	-8.227234E-1	-3.399658E-1	8.859253E-2	-3.504944E-1	8.888245E-2	-3.489227E-1	-8.107910E-1	-1.571655E-1
2.142750E+10	-8.285828E-1	-3.320007E-1	8.361816E-2	-3.505707E-1	8.561707E-2	-3.498688E-1	-8.137817E-1	-1.435547E-1
2.165200E+10	-8.346863E-1	-3.229980E-1	7.778931E-2	-3.478241E-1	7.867432E-2	-3.477936E-1	-8.180542E-1	-1.322327E-1
2.187650E+10	-8.379211E-1	-3.177185E-1	7.492065E-2	-3.474731E-1	7.574463E-2	-3.487091E-1	-8.204041E-1	-1.196594E-1
2.210100E+10	-8.427429E-1	-3.065491E-1	6.924438E-2	-3.504028E-1	6.878662E-2	-3.475342E-1	-8.210144E-1	-1.054993E-1
2.232550E+10	-8.446655E-1	-2.989807E-1	6.388855E-2	-3.453827E-1	6.278992E-2	-3.473206E-1	-8.215637E-1	-9.509277E-2
2.255000E+10	-8.494263E-1	-2.913208E-1	5.766296E-2	-3.459015E-1	6.010437E-2	-3.457031E-1	-8.231506E-1	-8.337402E-2
2.277450E+10	-8.521118E-1	-2.825928E-1	5.374146E-2	-3.464355E-1	5.364990E-2	-3.440857E-1	-8.254089E-1	-6.787109E-2
2.299900E+10	-8.554687E-1	-2.771301E-1	4.904175E-2	-3.447418E-1	4.907227E-2	-3.441772E-1	-8.237915E-1	-5.664062E-2
2.322350E+10	-8.561707E-1	-2.675781E-1	4.429626E-2	-3.420410E-1	4.331970E-2	-3.417969E-1	-8.309631E-1	-4.556274E-2
2.344800E+10	-8.597107E-1	-2.603149E-1	4.020691E-2	-3.425751E-1	4.031372E-2	-3.406372E-1	-8.302002E-1	-3.012085E-2
2.367250E+10	-8.618164E-1	-2.510376E-1	3.410339E-2	-3.395844E-1	3.376770E-2	-3.389282E-1	-8.258362E-1	-1.788330E-2
2.389700E+10	-8.628845E-1	-2.453613E-1	3.005981E-2	-3.399658E-1	3.094482E-2	-3.379517E-1	-8.279419E-1	-8.361816E-3
2.412150E+10	-8.667297E-1	-2.419128E-1	2.563477E-2	-3.359680E-1	2.598572E-2	-3.377075E-1	-8.276367E-1	8.850098E-3
2.434600E+10	-8.675232E-1	-2.317505E-1	2.275085E-2	-3.362885E-1	2.212524E-2	-3.356171E-1	-8.257751E-1	2.050781E-2
2.457050E+10	-8.727112E-1	-2.265930E-1	1.742554E-2	-3.338165E-1	1.794434E-2	-3.354034E-1	-8.254700E-1	2.975464E-2
2.479500E+10	-8.744202E-1	-2.182922E-1	1.383972E-2	-3.336487E-1	1.470947E-2	-3.323975E-1	-8.232727E-1	4.647827E-2
2.501950E+10	-8.764038E-1	-2.133179E-1	8.590698E-3	-3.324280E-1	7.904053E-3	-3.325958E-1	-8.164978E-1	5.538940E-2
2.524400E+10	-8.820190E-1	-2.072449E-1	3.036499E-3	-3.315887E-1	2.670288E-3	-3.298035E-1	-8.189087E-1	6.582642E-2
2.546850E+10	-8.833618E-1	-1.980896E-1	1.220703E-4	-3.285217E-1	1.220703E-4	-3.257141E-1	-8.161926E-1	7.940674E-2
2.569300E+10	-8.843384E-1	-1.910400E-1	-3.738403E-3	-3.266144E-1	-3.707886E-3	-3.251953E-1	-8.148804E-1	8.728027E-2
2.591750E+10	-8.892212E-1	-1.819458E-1	-9.399414E-3	-3.255615E-1	-7.904053E-3	-3.248596E-1	-8.129272E-1	9.783936E-2
2.614200E+10	-8.877869E-1	-1.736450E-1	-1.040649E-2	-3.223877E-1	-1.089478E-2	-3.235626E-1	-8.133240E-1	1.126709E-1
2.636650E+10	-8.906860E-1	-1.688232E-1	-1.399231E-2	-3.220062E-1	-1.443481E-2	-3.209534E-1	-8.093262E-1	1.253357E-1
2.659100E+10	-8.907776E-1	-1.611328E-1	-1.838684E-2	-3.210297E-1	-1.765442E-2	-3.188477E-1	-8.039856E-1	1.367798E-1
2.681550E+10	-8.939209E-1	-1.560059E-1	-2.140808E-2	-3.185425E-1	-2.322388E-2	-3.192596E-1	-8.062744E-1	1.441345E-1
2.704000E+10	-8.948669E-1	-1.479187E-1	-2.685547E-2	-3.169250E-1	-2.546692E-2	-3.173828E-1	-8.049011E-1	1.622009E-1
2.726450E+10	-8.954773E-1	-1.399536E-1	-3.025818E-2	-3.159790E-1	-3.100586E-2	-3.170319E-1	-7.930603E-1	1.709290E-1
2.748900E+10	-8.977966E-1	-1.358948E-1	-3.556824E-2	-3.133087E-1	-3.419495E-2	-3.143616E-1	-7.921143E-1	1.802063E-1
2.771350E+10	-9.012146E-1	-1.267700E-1	-3.887939E-2	-3.118286E-1	-3.829956E-2	-3.094025E-1	-7.890930E-1	1.921997E-1
2.793800E+10	-9.030762E-1	-1.228638E-1	-4.074097E-2	-3.118134E-1	-4.057312E-2	-3.116760E-1	-7.854919E-1	1.999207E-1
2.816250E+10	-9.036865E-1	-1.134338E-1	-4.437256E-2	-3.068085E-1	-4.420471E-2	-3.096771E-1	-7.827759E-1	2.128906E-1
2.838700E+10	-9.047241E-1	-1.052551E-1	-4.670715E-2	-3.093719E-1	-4.728699E-2	-3.072815E-1	-7.769775E-1	2.254028E-1
2.861150E+10	-9.095764E-1	-1.011353E-1	-5.354309E-2	-3.072357E-1	-5.427551E-2	-3.062897E-1	-7.712402E-1	2.344055E-1
2.883600E+10	-9.088135E-1	-9.194946E-2	-5.433655E-2	-3.024902E-1	-5.755615E-2	-3.013611E-1	-7.682495E-1	2.397461E-1
2.906050E+10	-9.074097E-1	-8.673096E-2	-5.928040E-2	-3.010559E-1	-5.929565E-2	-3.003082E-1	-7.640991E-1	2.538452E-1
2.928500E+10	-9.095459E-1	-7.876587E-2	-6.216431E-2	-2.993011E-1	-6.250000E-2	-2.997742E-1	-7.569580E-1	2.619324E-1
2.950950E+10	-9.121094E-1	-7.083130E-2	-6.413269E-2	-2.989349E-1	-6.385803E-2	-2.950439E-1	-7.565613E-1	2.704163E-1
2.973400E+10	-9.128723E-1	-6.378174E-2	-6.755066E-2	-2.957001E-1	-6.782532E-2	-2.952728E-1	-7.489014E-1	2.885132E-1
2.995850E+10	-9.107666E-1	-5.749512E-2	-6.965637E-2	-2.951965E-1	-7.296753E-2	-2.908173E-1	-7.518005E-1	2.941284E-1
3.018300E+10	-9.129944E-1	-5.068970E-2	-7.353210E-2	-2.901001E-1	-7.386780E-2	-2.908630E-1	-7.411194E-1	3.117676E-1
3.040750E+10	-9.135132E-1	-4.415894E-2	-7.676697E-2	-2.891693E-1	-7.699585E-2	-2.899017E-1	-7.378235E-1	3.212280E-1
3.063200E+10	-9.122620E-1	-3.753662E-2	-7.803345E-2	-2.879486E-1	-7.688904E-2	-2.857513E-1	-7.336426E-1	3.323975E-1
3.085650E+10	-9.126892E-1	-3.125000E-2	-8.789062E-2	-2.841339E-1	-8.473206E-2	-2.878113E-1	-7.231750E-1	3.389282E-1
3.108100E+10	-9.163818E-1	-2.297974E-2	-8.583069E-2	-2.836151E-1	-8.908081E-2	-2.876282E-1	-7.161560E-1	3.490295E-1
3.130550E+10	-9.134827E-1	-1.672363E-2	-9.194946E-2	-2.845917E-1	-9.022522E-2	-2.847290E-1	-7.071533E-1	3.577271E-1
3.153000E+10	-9.184875E-1	-1.049805E-2	-9.338379E-2	-2.779694E-1	-9.149170E-2	-2.772827E-1	-7.000122E-1	3.726501E-1
3.175450E+10	-9.154358E-1	-4.425049E-3	-9.631348E-2	-2.758484E-1	-9.658813E-2	-2.759857E-1	-6.951294E-1	3.804626E-1
3.197900E+10	-9.176636E-1	1.647949E-3	-1.055450E-1	-2.753143E-1	-1.005249E-1	-2.768250E-1	-6.794434E-1	3.893127E-1
3.220350E+10	-9.149780E-1	1.226807E-2	-1.043549E-1	-2.747955E-1	-1.060944E-1	-2.765961E-1	-6.737061E-1	4.037781E-1
3.242800E+10	-9.216614E-1	1.495361E-2	-1.055908E-1	-2.739716E-1	-1.030426E-1	-2.730865E-1	-6.699524E-1	4.095459E-1
3.265250E+10	-9.223633E-1	2.297974E-2	-1.036224E-1	-2.672424E-1	-1.124115E-1	-2.682190E-1	-6.567383E-1	4.162598E-1
3.287700E+10	-9.181519E-1	2.661133E-2	-1.069946E-1	-2.681427E-1	-1.099701E-1	-2.699738E-1	-6.556396E-1	4.230652E-1
3.310150E+10	-9.209900E-1	3.305054E-2	-1.173553E-1	-2.641144E-1	-1.096649E-1	-2.626190E-1	-6.402588E-1	4.335937E-1
3.332600E+10	-9.176331E-1	4.766846E-2	-1.162262E-1	-2.581024E-1	-1.146393E-1	-2.620850E-1	-6.351013E-1	4.379883E-1
3.355050E+10	-9.187927E-1	4.977417E-2	-1.174011E-1	-2.601776E-1	-1.153564E-1	-2.574921E-1	-6.262817E-1	4.458008E-1
3.377500E+10	-9.202271E-1	5.648804E-2	-1.184692E-1	-2.564240E-1	-1.209259E-1	-2.568817E-1	-6.186218E-1	4.501343E-1
3.399950E+10	-9.160461E-1	6.475830E-2	-1.222076E-1	-2.531281E-1	-1.180115E-1	-2.555084E-1	-6.152954E-1	4.576111E-1
3.422400E+10	-9.197998E-1	6.924438E-2	-1.247101E-1	-2.506104E-1	-1.233215E-1	-2.577972E-1	-6.076355E-1	4.757996E-1
3.444850E+10	-9.178772E-1	7.748413E-2	-1.322098E-1	-2.497025E-1	-1.267090E-1	-2.549591E-1	-5.967407E-1	4.800720E-1
3.467300E+10	-9.150085E-1	8.090210E-2	-1.255951E-1	-2.487946E-1	-1.249008E-1	-2.488937E-1	-5.925293E-1	4.956360E-1
3.489750E+10	-9.169006E-1	8.932495E-2	-1.332016E-1	-2.482681E-1	-1.327057E-1	-2.463455E-1	-5.798950E-1	4.998169E-1
3.512200E+10	-9.158936E-1	9.091187E-2	-1.381531E-1	-2.464752E-1	-1.340866E-1	-2.431793E-1	-5.664368E-1	5.058899E-1
3.534650E+10	-9.164429E-1	9.982300E-2	-1.372375E-1	-2.447357E-1	-1.390686E-1	-2.441101E-1	-5.536804E-1	5.145264E-1
3.557100E+10	-9.143372E-1	1.073608E-1	-1.406326E-1	-2.432251E-1	-1.393509E-1	-2.415085E-1	-5.434875E-1	5.250549E-1
3.579550E+10	-9.153137E-1	1.102600E-1	-1.423187E-1	-2.349014E-1	-1.402054E-1	-2.369537E-1	-5.324097E-1	5.311890E-1
3.602000E+10	-9.132385E-1	1.222839E-1	-1.506271E-1	-2.381439E-1	-1.451111E-1	-2.386551E-1	-5.216370E-1	5.295410E-1
3.624450E+10	-9.083557E-1	1.290894E-1	-1.495972E-1	-2.342224E-1	-1.465759E-1	-2.357178E-1	-5.139771E-1	5.400085E-1
3.646900E+10	-9.119568E-1	1.353455E-1	-1.517258E-1	-2.280350E-1	-1.504135E-1	-2.300797E-1	-5.011292E-1	5.480042E-1
3.669350E+10	-9.095764E-1	1.391907E-1	-1.536331E-1	-2.319794E-1	-1.545792E-1	-2.299500E-1	-4.907837E-1	5.552063E-1
3.691800E+10	-9.064026E-1	1.434631E-1	-1.543350E-1	-2.263107E-1	-1.530685E-1	-2.316513E-1	-4.799194E-1	5.602417E-1
3.714250E+10	-9.057617E-1	1.510010E-1	-1.606979E-1	-2.253342E-1	-1.585464E-1	-2.264328E-1	-4.700623E-1	5.681152E-1
3.736700E+10	-9.056702E-1	1.600647E-1	-1.609039E-1	-2.190704E-1	-1.623001E-1	-2.198715E-1	-4.475403E-1	5.655823E-1
3.759150E+10	-9.085388E-1	1.694031E-1	-1.595001E-1	-2.213058E-1	-1.618729E-1	-2.215958E-1	-4.404907E-1	5.800781E-1
3.781600E+10	-9.018860E-1	1.715393E-1	-1.634750E-1	-2.155609E-1	-1.623688E-1	-2.145309E-1	-4.295654E-1	5.819702E-1
3.804050E+10	-9.022217E-1	1.750488E-1	-1.658249E-1	-2.138672E-1	-1.651535E-1	-2.137299E-1	-4.111328E-1	5.850525E-1
3.826500E+10	-8.992615E-1	1.784973E-1	-1.715622E-1	-2.127380E-1	-1.673584E-1	-2.137146E-1	-4.003906E-1	5.936279E-1
3.848950E+10	-8.984375E-1	1.915283E-1	-1.707611E-1	-2.037277E-1	-1.692047E-1	-2.101059E-1	-3.867798E-1	5.946350E-1
3.871400E+10	-8.957520E-1	1.935730E-1	-1.723404E-1	-2.079773E-1	-1.696548E-1	-2.094345E-1	-3.700256E-1	5.973206E-1
3.893850E+10	-8.936462E-1	2.023926E-1	-1.761551E-1	-2.025681E-1	-1.763840E-1	-2.050781E-1	-3.557434E-1	6.004028E-1
