!Date: 10/28/2005, 12:34 PM

!Vgs = -1.000000E+0
!Vds = 2.000000E+0
!Ig = -9.546200E-6
!Id = 6.080600E-1

# HZ S RI R 50
1.000000E+8	9.720764E-1	-1.682434E-1	-5.361938E-1	1.715088E-2	6.675720E-5	3.769994E-3	-8.265076E-1	-1.494751E-1
3.245000E+8	8.452148E-1	-4.924011E-1	-4.661407E-1	1.313324E-1	3.962994E-3	1.380062E-2	-9.002380E-1	-4.678345E-2
5.490000E+8	6.382141E-1	-7.304687E-1	-3.933868E-1	2.131042E-1	9.740829E-3	1.985455E-2	-8.511963E-1	1.492310E-2
7.735000E+8	4.034729E-1	-8.740845E-1	-3.240509E-1	2.598724E-1	1.700401E-2	2.341557E-2	-8.608398E-1	1.525879E-2
9.980000E+8	1.825562E-1	-9.392395E-1	-2.598114E-1	2.772675E-1	2.319908E-2	2.471924E-2	-8.616638E-1	3.146362E-2
1.222500E+9	-1.110840E-2	-9.527893E-1	-2.021179E-1	2.801971E-1	2.877998E-2	2.445030E-2	-8.505554E-1	3.179932E-2
1.447000E+9	-1.717224E-1	-9.335327E-1	-1.555481E-1	2.737885E-1	3.294563E-2	2.343369E-2	-8.525085E-1	4.037476E-2
1.671500E+9	-3.018188E-1	-8.974304E-1	-1.181946E-1	2.628174E-1	3.668976E-2	2.187920E-2	-8.505554E-1	4.534912E-2
1.896000E+9	-4.075623E-1	-8.523865E-1	-8.786011E-2	2.504578E-1	3.955460E-2	2.010536E-2	-8.510742E-1	5.303955E-2
2.120500E+9	-4.922180E-1	-8.056946E-1	-6.308746E-2	2.371750E-1	4.183197E-2	1.809311E-2	-8.519287E-1	5.871582E-2
2.345000E+9	-5.624390E-1	-7.566833E-1	-4.327393E-2	2.238770E-1	4.385757E-2	1.609802E-2	-8.526917E-1	6.756592E-2
2.569500E+9	-6.161804E-1	-7.093506E-1	-2.629852E-2	2.089539E-1	4.508591E-2	1.390648E-2	-8.484192E-1	7.385254E-2
2.794000E+9	-6.623230E-1	-6.680908E-1	-1.385498E-2	1.975632E-1	4.648018E-2	1.254654E-2	-8.498230E-1	8.074951E-2
3.018500E+9	-6.996155E-1	-6.262207E-1	-3.509521E-3	1.863403E-1	4.734230E-2	1.086235E-2	-8.479919E-1	8.786011E-2
3.243000E+9	-7.316589E-1	-5.882263E-1	5.615234E-3	1.755676E-1	4.780388E-2	9.267807E-3	-8.454895E-1	9.286499E-2
3.467500E+9	-7.582703E-1	-5.533447E-1	1.345062E-2	1.656265E-1	4.851913E-2	7.707596E-3	-8.459473E-1	1.018677E-1
3.692000E+9	-7.804871E-1	-5.205078E-1	2.011108E-2	1.559982E-1	4.913139E-2	6.261826E-3	-8.423767E-1	1.079407E-1
3.916500E+9	-8.002014E-1	-4.897766E-1	2.494812E-2	1.475601E-1	4.906845E-2	5.487442E-3	-8.432922E-1	1.123962E-1
4.141000E+9	-8.170166E-1	-4.608765E-1	3.004456E-2	1.399689E-1	4.996872E-2	3.396988E-3	-8.406677E-1	1.208496E-1
4.365500E+9	-8.298035E-1	-4.339294E-1	3.314209E-2	1.326675E-1	4.996872E-2	2.399445E-3	-8.382568E-1	1.259460E-1
4.590000E+9	-8.414307E-1	-4.098206E-1	3.671265E-2	1.254272E-1	5.029678E-2	1.472473E-3	-8.384399E-1	1.335754E-1
4.814500E+9	-8.523865E-1	-3.879700E-1	3.963852E-2	1.193466E-1	5.036926E-2	2.288818E-4	-8.361511E-1	1.398010E-1
5.039000E+9	-8.623352E-1	-3.657227E-1	4.259872E-2	1.130104E-1	5.006027E-2	-9.613037E-4	-8.343201E-1	1.457520E-1
5.263500E+9	-8.705139E-1	-3.442688E-1	4.449081E-2	1.073837E-1	5.003166E-2	-2.164841E-3	-8.320312E-1	1.524963E-1
5.488000E+9	-8.760376E-1	-3.259277E-1	4.618073E-2	1.024742E-1	4.989815E-2	-3.177643E-3	-8.304749E-1	1.598206E-1
5.712500E+9	-8.827209E-1	-3.077087E-1	4.816818E-2	9.797668E-2	4.994583E-2	-3.944397E-3	-8.277893E-1	1.654968E-1
5.937000E+9	-8.887634E-1	-2.895813E-1	4.966354E-2	9.265900E-2	4.993057E-2	-5.048752E-3	-8.256226E-1	1.711121E-1
6.161500E+9	-8.933411E-1	-2.748413E-1	5.062103E-2	8.849716E-2	5.006981E-2	-6.441116E-3	-8.234558E-1	1.803284E-1
6.386000E+9	-8.984375E-1	-2.580261E-1	5.150986E-2	8.475113E-2	4.941750E-2	-7.175446E-3	-8.192444E-1	1.854858E-1
6.610500E+9	-9.013977E-1	-2.435608E-1	5.256653E-2	8.050537E-2	4.900169E-2	-8.014679E-3	-8.182068E-1	1.896362E-1
6.835000E+9	-9.055481E-1	-2.301331E-1	5.334473E-2	7.683945E-2	4.897308E-2	-8.613586E-3	-8.139343E-1	2.001343E-1
7.059500E+9	-9.075317E-1	-2.173462E-1	5.345917E-2	7.287598E-2	4.841042E-2	-9.639740E-3	-8.079834E-1	2.013855E-1
7.284000E+9	-9.107971E-1	-2.042542E-1	5.466080E-2	6.999588E-2	4.835510E-2	-9.870529E-3	-8.092651E-1	2.065125E-1
7.508500E+9	-9.134216E-1	-1.915283E-1	5.442429E-2	6.648254E-2	4.784966E-2	-1.095581E-2	-8.020630E-1	2.112732E-1
7.733000E+9	-9.145813E-1	-1.796875E-1	5.424881E-2	6.398392E-2	4.762268E-2	-1.211548E-2	-8.027954E-1	2.148743E-1
7.957500E+9	-9.168091E-1	-1.678162E-1	5.528259E-2	6.075096E-2	4.702950E-2	-1.293755E-2	-7.993774E-1	2.243958E-1
8.182000E+9	-9.190674E-1	-1.560669E-1	5.507851E-2	5.829239E-2	4.687309E-2	-1.355743E-2	-7.994080E-1	2.277222E-1
8.406500E+9	-9.201965E-1	-1.471863E-1	5.529785E-2	5.580139E-2	4.649544E-2	-1.423264E-2	-7.938232E-1	2.371826E-1
8.631000E+9	-9.218140E-1	-1.349487E-1	5.538750E-2	5.337906E-2	4.542732E-2	-1.472664E-2	-7.902832E-1	2.403870E-1
8.855500E+9	-9.224854E-1	-1.260071E-1	5.588341E-2	5.093575E-2	4.542542E-2	-1.545143E-2	-7.878113E-1	2.474365E-1
9.080001E+9	-9.240417E-1	-1.172485E-1	5.511856E-2	4.851151E-2	4.512787E-2	-1.626396E-2	-7.832642E-1	2.535400E-1
9.304500E+9	-9.248352E-1	-1.048584E-1	5.553436E-2	4.657936E-2	4.494095E-2	-1.663780E-2	-7.797852E-1	2.574463E-1
9.529000E+9	-9.253845E-1	-9.848022E-2	5.498886E-2	4.443932E-2	4.368782E-2	-1.760483E-2	-7.783203E-1	2.634277E-1
9.753500E+9	-9.269714E-1	-8.938599E-2	5.457497E-2	4.253006E-2	4.287720E-2	-1.771164E-2	-7.727051E-1	2.694702E-1
9.978000E+9	-9.269409E-1	-8.068848E-2	5.460930E-2	4.111671E-2	4.225159E-2	-1.818657E-2	-7.693176E-1	2.722778E-1
1.020250E+10	-9.277344E-1	-7.263184E-2	5.404091E-2	3.895950E-2	4.266357E-2	-1.846886E-2	-7.659607E-1	2.793274E-1
1.042700E+10	-9.288940E-1	-6.393433E-2	5.403709E-2	3.749657E-2	4.197311E-2	-1.946068E-2	-7.616882E-1	2.841492E-1
1.065150E+10	-9.280090E-1	-5.593872E-2	5.341148E-2	3.574181E-2	4.135132E-2	-1.948166E-2	-7.577515E-1	2.869568E-1
1.087600E+10	-9.288940E-1	-4.852295E-2	5.281258E-2	3.420639E-2	4.150200E-2	-1.997757E-2	-7.551575E-1	2.928467E-1
1.110050E+10	-9.287109E-1	-3.985596E-2	5.322647E-2	3.206635E-2	4.034233E-2	-2.016258E-2	-7.495728E-1	2.989502E-1
1.132500E+10	-9.288025E-1	-3.247070E-2	5.263710E-2	3.156090E-2	3.970718E-2	-2.040291E-2	-7.459106E-1	3.016357E-1
1.154950E+10	-9.286499E-1	-2.529907E-2	5.200005E-2	3.037834E-2	3.990746E-2	-2.077866E-2	-7.443542E-1	3.072205E-1
1.177400E+10	-9.278564E-1	-1.736450E-2	5.210876E-2	2.802086E-2	3.910828E-2	-2.166748E-2	-7.389221E-1	3.129883E-1
1.199850E+10	-9.279480E-1	-1.116943E-2	5.200577E-2	2.815819E-2	3.855705E-2	-2.112389E-2	-7.353210E-1	3.158264E-1
1.222300E+10	-9.286804E-1	-3.417969E-3	5.152893E-2	2.675247E-2	3.769684E-2	-2.165222E-2	-7.324829E-1	3.193970E-1
1.244750E+10	-9.273682E-1	1.800537E-3	5.117798E-2	2.524948E-2	3.681946E-2	-2.200317E-2	-7.276306E-1	3.251038E-1
1.267200E+10	-9.273071E-1	9.094238E-3	5.044174E-2	2.476501E-2	3.689766E-2	-2.226639E-2	-7.231140E-1	3.282166E-1
1.289650E+10	-9.258728E-1	1.583862E-2	5.053520E-2	2.312279E-2	3.609085E-2	-2.231407E-2	-7.210083E-1	3.312683E-1
1.312100E+10	-9.256592E-1	2.230835E-2	4.979134E-2	2.246857E-2	3.569221E-2	-2.280235E-2	-7.161255E-1	3.381348E-1
1.334550E+10	-9.263000E-1	2.828979E-2	4.970551E-2	2.122116E-2	3.502464E-2	-2.184486E-2	-7.104187E-1	3.405762E-1
1.357000E+10	-9.247742E-1	3.381348E-2	4.904175E-2	2.151489E-2	3.437424E-2	-2.240181E-2	-7.083130E-1	3.410950E-1
1.379450E+10	-9.245911E-1	4.013062E-2	4.850197E-2	1.963806E-2	3.483200E-2	-2.316093E-2	-7.055969E-1	3.477478E-1
1.401900E+10	-9.236450E-1	4.598999E-2	4.834366E-2	1.857376E-2	3.353310E-2	-2.345467E-2	-6.986084E-1	3.495483E-1
1.424350E+10	-9.231262E-1	5.261230E-2	4.910469E-2	1.881409E-2	3.310013E-2	-2.334595E-2	-6.971741E-1	3.535461E-1
1.446800E+10	-9.226990E-1	5.892944E-2	4.817200E-2	1.773453E-2	3.240204E-2	-2.385139E-2	-6.927490E-1	3.613281E-1
1.469250E+10	-9.204712E-1	6.536865E-2	4.774666E-2	1.581573E-2	3.285599E-2	-2.320671E-2	-6.856079E-1	3.643494E-1
1.491700E+10	-9.200439E-1	7.101440E-2	4.686737E-2	1.610374E-2	3.164864E-2	-2.316856E-2	-6.848145E-1	3.646851E-1
1.514150E+10	-9.186707E-1	7.632446E-2	4.792404E-2	1.533890E-2	3.212738E-2	-2.405739E-2	-6.808777E-1	3.704529E-1
1.536600E+10	-9.168701E-1	8.343506E-2	4.682732E-2	1.423073E-2	3.135872E-2	-2.387428E-2	-6.738281E-1	3.742676E-1
1.559050E+10	-9.179687E-1	8.792114E-2	4.679298E-2	1.401901E-2	3.008556E-2	-2.393055E-2	-6.705933E-1	3.747864E-1
1.581500E+10	-9.156189E-1	9.338379E-2	4.597855E-2	1.412773E-2	2.947617E-2	-2.366257E-2	-6.678162E-1	3.786926E-1
1.603950E+10	-9.146118E-1	9.988403E-2	4.570961E-2	1.297951E-2	3.085518E-2	-2.445889E-2	-6.613464E-1	3.844299E-1
1.626400E+10	-9.131775E-1	1.046143E-1	4.409027E-2	1.181984E-2	2.916336E-2	-2.431393E-2	-6.583252E-1	3.847961E-1
1.648850E+10	-9.130249E-1	1.094971E-1	4.516602E-2	1.124382E-2	2.759171E-2	-2.437019E-2	-6.567383E-1	3.881531E-1
1.671300E+10	-9.124146E-1	1.158447E-1	4.520226E-2	1.221085E-2	2.808285E-2	-2.490425E-2	-6.513062E-1	3.922729E-1
1.693750E+10	-9.093933E-1	1.206360E-1	4.417038E-2	1.111984E-2	2.669716E-2	-2.468395E-2	-6.465759E-1	3.928223E-1
1.716200E+10	-9.086914E-1	1.258240E-1	4.391289E-2	1.066399E-2	2.690506E-2	-2.529240E-2	-6.448364E-1	3.979797E-1
1.738650E+10	-9.071655E-1	1.308899E-1	4.362488E-2	1.044655E-2	2.661228E-2	-2.514458E-2	-6.372375E-1	4.014282E-1
1.761100E+10	-9.054565E-1	1.370850E-1	4.381180E-2	1.054955E-2	2.711296E-2	-2.429295E-2	-6.369934E-1	4.024048E-1
1.783550E+10	-9.020996E-1	1.426086E-1	4.451180E-2	9.658813E-3	2.726746E-2	-2.542305E-2	-6.343079E-1	4.083252E-1
1.806000E+10	-9.022522E-1	1.469421E-1	4.366493E-2	8.203506E-3	2.521992E-2	-2.602673E-2	-6.263123E-1	4.128418E-1
1.828450E+10	-8.987732E-1	1.531372E-1	4.386902E-2	8.729935E-3	2.504539E-2	-2.554703E-2	-6.234436E-1	4.117126E-1
1.850900E+10	-8.996277E-1	1.569214E-1	4.339027E-2	7.944107E-3	2.450180E-2	-2.562809E-2	-6.231689E-1	4.161987E-1
1.873350E+10	-8.974915E-1	1.639099E-1	4.245567E-2	8.104324E-3	2.358150E-2	-2.622890E-2	-6.151733E-1	4.208679E-1
1.895800E+10	-8.941040E-1	1.654053E-1	4.008865E-2	8.789062E-3	2.341366E-2	-2.586079E-2	-6.121216E-1	4.203796E-1
1.918250E+10	-8.936462E-1	1.713562E-1	4.089355E-2	7.305145E-3	2.196598E-2	-2.530098E-2	-6.089478E-1	4.240112E-1
1.940700E+10	-8.917542E-1	1.751099E-1	4.131699E-2	8.041382E-3	2.215767E-2	-2.570534E-2	-6.026306E-1	4.306641E-1
1.963150E+10	-8.900757E-1	1.809387E-1	4.085350E-2	5.556107E-3	2.139091E-2	-2.516556E-2	-5.994263E-1	4.290466E-1
1.985600E+10	-8.874207E-1	1.845703E-1	4.102325E-2	4.957199E-3	2.126122E-2	-2.458096E-2	-5.973511E-1	4.322205E-1
2.008050E+10	-8.843384E-1	1.879578E-1	4.179382E-2	7.978439E-3	2.137089E-2	-2.506351E-2	-5.912781E-1	4.399719E-1
2.030500E+10	-8.829041E-1	1.939392E-1	4.153061E-2	6.118774E-3	2.152729E-2	-2.387619E-2	-5.859680E-1	4.392700E-1
2.052950E+10	-8.802490E-1	1.996155E-1	4.173088E-2	5.773544E-3	2.015400E-2	-2.472210E-2	-5.853882E-1	4.390259E-1
2.075400E+10	-8.789673E-1	2.025757E-1	4.073334E-2	5.380630E-3	1.995182E-2	-2.461529E-2	-5.802307E-1	4.456177E-1
2.097850E+10	-8.777466E-1	2.071533E-1	3.962135E-2	5.571365E-3	1.957417E-2	-2.457333E-2	-5.736084E-1	4.480286E-1
2.120300E+10	-8.732910E-1	2.115784E-1	3.927422E-2	5.567551E-3	1.817226E-2	-2.408504E-2	-5.739441E-1	4.469604E-1
2.142750E+10	-8.723755E-1	2.151184E-1	4.124069E-2	6.433487E-3	1.766491E-2	-2.529621E-2	-5.704956E-1	4.533997E-1
2.165200E+10	-8.702393E-1	2.187500E-1	3.992653E-2	5.081177E-3	1.820755E-2	-2.446175E-2	-5.613403E-1	4.539490E-1
2.187650E+10	-8.660583E-1	2.245178E-1	4.110336E-2	6.031036E-3	1.616383E-2	-2.455902E-2	-5.625000E-1	4.552612E-1
2.210100E+10	-8.640747E-1	2.288513E-1	3.879166E-2	4.337311E-3	1.681423E-2	-2.456284E-2	-5.581665E-1	4.620056E-1
2.232550E+10	-8.606873E-1	2.306519E-1	3.870964E-2	4.714966E-3	1.502991E-2	-2.447987E-2	-5.518494E-1	4.649963E-1
2.255000E+10	-8.580627E-1	2.365723E-1	3.886604E-2	2.929687E-3	1.517296E-2	-2.339554E-2	-5.477600E-1	4.655457E-1
2.277450E+10	-8.539734E-1	2.395630E-1	3.885460E-2	2.813339E-3	1.488686E-2	-2.397633E-2	-5.417175E-1	4.701538E-1
2.299900E+10	-8.526611E-1	2.422180E-1	3.810883E-2	3.740311E-3	1.379108E-2	-2.344418E-2	-5.361938E-1	4.707947E-1
2.322350E+10	-8.508301E-1	2.465820E-1	3.915215E-2	2.573013E-3	1.262283E-2	-2.411747E-2	-5.348511E-1	4.695129E-1
2.344800E+10	-8.477173E-1	2.471619E-1	3.900719E-2	1.850128E-3	1.298714E-2	-2.226734E-2	-5.314941E-1	4.759827E-1
2.367250E+10	-8.445740E-1	2.520447E-1	3.859138E-2	2.258301E-3	1.167297E-2	-2.328873E-2	-5.211182E-1	4.776001E-1
2.389700E+10	-8.389893E-1	2.548523E-1	3.714180E-2	2.237320E-3	1.030159E-2	-2.342701E-2	-5.194397E-1	4.779053E-1
2.412150E+10	-8.397827E-1	2.561035E-1	3.777695E-2	2.355576E-3	1.032162E-2	-2.134037E-2	-5.138550E-1	4.835205E-1
2.434600E+10	-8.344116E-1	2.606201E-1	3.736877E-2	3.814697E-3	9.889603E-3	-2.142620E-2	-5.076599E-1	4.854431E-1
2.457050E+10	-8.323975E-1	2.627258E-1	3.691292E-2	1.535416E-3	7.967949E-3	-2.074528E-2	-5.048523E-1	4.841003E-1
2.479500E+10	-8.285828E-1	2.676697E-1	3.509712E-2	4.020691E-3	7.190704E-3	-1.983452E-2	-4.989014E-1	4.894257E-1
2.501950E+10	-8.251953E-1	2.685547E-1	3.699112E-2	1.745224E-3	6.805420E-3	-2.046299E-2	-4.925690E-1	4.891968E-1
2.524400E+10	-8.245239E-1	2.702332E-1	3.636360E-2	3.175735E-3	7.426262E-3	-1.670551E-2	-4.882202E-1	4.873505E-1
2.546850E+10	-8.208618E-1	2.746277E-1	3.602028E-2	2.155304E-3	7.219315E-3	-1.776314E-2	-4.855042E-1	4.921722E-1
2.569300E+10	-8.159180E-1	2.749023E-1	3.540802E-2	2.815247E-3	8.625507E-3	-1.491785E-2	-4.809875E-1	4.912567E-1
2.591750E+10	-8.140564E-1	2.787781E-1	3.737831E-2	2.197266E-3	4.836559E-3	-1.537561E-2	-4.761963E-1	4.899445E-1
2.614200E+10	-8.101807E-1	2.789001E-1	3.856277E-2	5.187988E-3	7.759094E-3	-1.690483E-2	-4.764557E-1	4.975433E-1
2.636650E+10	-8.078308E-1	2.804565E-1	3.757286E-2	3.475189E-3	4.755497E-3	-1.551104E-2	-4.696960E-1	5.000916E-1
2.659100E+10	-8.060303E-1	2.822571E-1	3.702545E-2	8.907318E-4	5.097389E-3	-1.580524E-2	-4.621582E-1	4.993286E-1
2.681550E+10	-8.016968E-1	2.815857E-1	3.692627E-2	2.601624E-3	4.738331E-3	-1.278877E-2	-4.616852E-1	4.992981E-1
2.704000E+10	-8.010864E-1	2.857971E-1	3.604507E-2	1.283646E-3	4.477978E-3	-1.204586E-2	-4.542236E-1	5.093689E-1
2.726450E+10	-7.969360E-1	2.854614E-1	3.815651E-2	1.392365E-3	6.580830E-3	-1.191282E-2	-4.451294E-1	5.039062E-1
2.748900E+10	-7.944946E-1	2.844543E-1	3.793335E-2	3.269196E-3	4.048824E-3	-1.244497E-2	-4.457397E-1	5.051575E-1
2.771350E+10	-7.927551E-1	2.896729E-1	3.797531E-2	8.754730E-4	6.659985E-3	-1.169395E-2	-4.383545E-1	5.081787E-1
2.793800E+10	-7.898560E-1	2.867737E-1	3.685570E-2	-5.760193E-4	4.670620E-3	-1.026583E-2	-4.339905E-1	5.046692E-1
2.816250E+10	-7.901306E-1	2.925110E-1	3.776741E-2	1.811981E-3	6.812096E-3	-8.391857E-3	-4.329224E-1	5.087585E-1
2.838700E+10	-7.874756E-1	2.894287E-1	3.637314E-2	2.742767E-3	4.074097E-3	-9.772301E-3	-4.245911E-1	5.103149E-1
2.861150E+10	-7.858887E-1	2.925110E-1	3.660965E-2	1.220703E-3	2.973795E-3	-7.254362E-3	-4.202271E-1	5.078735E-1
2.883600E+10	-7.845154E-1	2.953186E-1	3.847504E-2	1.296997E-4	3.426790E-3	-7.103205E-3	-4.189148E-1	5.071106E-1
2.906050E+10	-7.817383E-1	2.934265E-1	3.484917E-2	2.010345E-3	4.898310E-3	-4.390955E-3	-4.139099E-1	5.122375E-1
2.928500E+10	-7.793579E-1	2.975464E-1	3.783989E-2	-1.182556E-4	2.731562E-3	-3.118515E-3	-4.119568E-1	5.109863E-1
2.950950E+10	-7.780151E-1	2.958374E-1	3.849030E-2	2.851486E-3	7.795095E-3	-2.806902E-3	-4.058533E-1	5.132446E-1
2.973400E+10	-7.780762E-1	2.969055E-1	3.729630E-2	4.171371E-3	6.255388E-3	-1.613855E-3	-4.013672E-1	5.169373E-1
2.995850E+10	-7.753296E-1	2.976685E-1	3.905487E-2	5.092621E-4	8.237839E-3	-4.670143E-3	-4.013062E-1	5.148621E-1
3.018300E+10	-7.738647E-1	2.989502E-1	3.768158E-2	1.583099E-4	7.701874E-3	-3.120661E-3	-3.922729E-1	5.238037E-1
3.040750E+10	-7.752075E-1	2.998352E-1	3.708267E-2	2.536774E-4	7.213116E-3	-2.090931E-3	-3.877563E-1	5.198669E-1
3.063200E+10	-7.712097E-1	2.993774E-1	3.502464E-2	-1.047134E-3	7.720470E-3	-3.688335E-3	-3.862610E-1	5.292053E-1
3.085650E+10	-7.748718E-1	3.030090E-1	3.748894E-2	2.447128E-3	8.351803E-3	-1.003742E-3	-3.808289E-1	5.229797E-1
3.108100E+10	-7.732849E-1	3.048096E-1	3.746605E-2	1.167297E-3	7.781744E-3	-2.327919E-3	-3.774109E-1	5.258179E-1
3.130550E+10	-7.688599E-1	3.062134E-1	3.746414E-2	1.888275E-4	7.249117E-3	1.326561E-3	-3.692627E-1	5.260315E-1
3.153000E+10	-7.746582E-1	3.036194E-1	4.106331E-2	1.152039E-3	9.622097E-3	2.388954E-4	-3.668213E-1	5.269470E-1
3.175450E+10	-7.710571E-1	3.056946E-1	3.866005E-2	4.405975E-4	1.255703E-2	1.603127E-3	-3.620605E-1	5.273743E-1
3.197900E+10	-7.648315E-1	3.081055E-1	4.000664E-2	-6.408691E-4	1.279926E-2	1.612186E-3	-3.480225E-1	5.253601E-1
3.220350E+10	-7.722778E-1	3.114624E-1	3.782463E-2	-3.433228E-4	1.062918E-2	1.756668E-3	-3.480835E-1	5.334473E-1
3.242800E+10	-7.723694E-1	3.126221E-1	3.640556E-2	-2.275467E-3	1.001883E-2	7.526398E-3	-3.433228E-1	5.269775E-1
3.265250E+10	-7.715149E-1	3.147278E-1	4.144478E-2	1.062393E-3	1.364470E-2	4.258156E-4	-3.406372E-1	5.254517E-1
3.287700E+10	-7.706604E-1	3.144226E-1	4.095650E-2	6.198883E-4	1.296186E-2	3.240108E-3	-3.335571E-1	5.261536E-1
3.310150E+10	-7.690735E-1	3.195801E-1	3.964806E-2	1.663208E-3	1.421165E-2	1.177311E-3	-3.316956E-1	5.253296E-1
3.332600E+10	-7.692261E-1	3.182983E-1	4.063606E-2	-9.841919E-4	1.324511E-2	1.603127E-3	-3.287659E-1	5.305176E-1
3.355050E+10	-7.658691E-1	3.219604E-1	4.000473E-2	-3.221512E-3	1.694679E-2	4.010201E-3	-3.256226E-1	5.236511E-1
3.377500E+10	-7.676697E-1	3.216858E-1	4.123306E-2	-4.043579E-4	1.578140E-2	4.604340E-3	-3.185425E-1	5.265808E-1
3.399950E+10	-7.671814E-1	3.289185E-1	4.205513E-2	-2.841949E-3	1.868820E-2	4.103661E-3	-3.217163E-1	5.289917E-1
3.422400E+10	-7.670288E-1	3.311462E-1	4.367256E-2	-4.167557E-3	2.247429E-2	7.143021E-4	-3.146973E-1	5.361023E-1
3.444850E+10	-7.653198E-1	3.326111E-1	3.992653E-2	-1.459122E-3	2.059841E-2	2.803802E-3	-3.124695E-1	5.275269E-1
3.467300E+10	-7.661743E-1	3.326416E-1	4.283142E-2	-5.098343E-3	2.221394E-2	1.432419E-3	-3.049316E-1	5.332642E-1
3.489750E+10	-7.621765E-1	3.363037E-1	4.077911E-2	-3.505707E-3	1.963615E-2	6.285667E-3	-3.026123E-1	5.278015E-1
3.512200E+10	-7.663879E-1	3.333130E-1	4.047012E-2	-4.842758E-3	2.128601E-2	1.375198E-3	-2.931824E-1	5.279541E-1
3.534650E+10	-7.689819E-1	3.382263E-1	4.308891E-2	-4.072189E-3	2.611065E-2	2.814293E-3	-2.967834E-1	5.328064E-1
3.557100E+10	-7.655945E-1	3.358154E-1	4.156876E-2	-5.895615E-3	2.011299E-2	2.756119E-4	-2.816162E-1	5.335693E-1
3.579550E+10	-7.658691E-1	3.433533E-1	4.413605E-2	-6.134033E-3	2.144623E-2	4.828453E-3	-2.780151E-1	5.328064E-1
3.602000E+10	-7.666016E-1	3.440552E-1	3.879547E-2	-4.312515E-3	2.123737E-2	9.040833E-4	-2.740479E-1	5.333862E-1
3.624450E+10	-7.628784E-1	3.501892E-1	3.725624E-2	-4.957199E-3	2.222729E-2	1.513481E-3	-2.749023E-1	5.266724E-1
3.646900E+10	-7.622986E-1	3.531189E-1	3.962135E-2	-2.914429E-3	2.103043E-2	2.692223E-3	-2.766113E-1	5.340271E-1
3.669350E+10	-7.624817E-1	3.539124E-1	3.842163E-2	-7.646561E-3	2.434063E-2	3.949165E-3	-2.622070E-1	5.323181E-1
3.691800E+10	-7.632751E-1	3.580933E-1	3.793716E-2	-6.965637E-3	2.463531E-2	6.171227E-3	-2.652893E-1	5.304871E-1
3.714250E+10	-7.620544E-1	3.569336E-1	3.832436E-2	-7.102966E-3	2.277660E-2	-1.706123E-3	-2.556152E-1	5.306702E-1
3.736700E+10	-7.605591E-1	3.644104E-1	4.278946E-2	-4.140854E-3	2.380466E-2	6.236076E-3	-2.521362E-1	5.368652E-1
3.759150E+10	-7.581177E-1	3.608398E-1	4.446030E-2	-3.650665E-3	2.190018E-2	2.405167E-3	-2.512817E-1	5.322876E-1
3.781600E+10	-7.550964E-1	3.680115E-1	3.976059E-2	-4.827499E-3	2.667332E-2	2.922058E-3	-2.412109E-1	5.286255E-1
3.804050E+10	-7.631531E-1	3.680115E-1	4.329491E-2	-5.558014E-3	2.137566E-2	-1.451492E-3	-2.356873E-1	5.299377E-1
3.826500E+10	-7.598267E-1	3.799133E-1	4.528999E-2	-7.383347E-3	2.914524E-2	-3.703117E-3	-2.304077E-1	5.348511E-1
3.848950E+10	-7.584534E-1	3.770752E-1	3.936386E-2	-6.084442E-3	2.140236E-2	-2.319336E-3	-2.248535E-1	5.362244E-1
3.871400E+10	-7.527771E-1	3.726501E-1	4.002190E-2	-1.175880E-2	2.754593E-2	3.635406E-3	-2.203064E-1	5.257263E-1
3.893850E+10	-7.532043E-1	3.780823E-1	4.381561E-2	-3.265381E-3	3.338051E-2	9.002686E-4	-2.177124E-1	5.310669E-1
3.916300E+10	-7.585449E-1	3.833008E-1	4.650879E-2	-7.509232E-3	2.635574E-2	-1.967430E-3	-2.174683E-1	5.287476E-1
3.938750E+10	-7.577820E-1	3.869324E-1	4.374313E-2	-6.855011E-3	2.798939E-2	1.346588E-3	-2.197266E-1	5.285339E-1
3.961200E+10	-7.538757E-1	3.857117E-1	4.602814E-2	-1.022530E-2	2.860641E-2	1.332283E-3	-2.074280E-1	5.290527E-1
