!Date: 10/28/2005, 12:34 PM

!Vgs = -6.000000E+0
!Vds = 4.000000E+0
!Ig = -4.952600E-5
!Id = 2.354100E-3

# HZ S RI R 50
1.000000E+8	9.895020E-1	-4.290771E-2	-7.135010E-2	1.520920E-2	1.415253E-3	1.081467E-2	9.757385E-1	-1.489258E-2
3.245000E+8	9.768066E-1	-1.190186E-1	-6.487274E-2	4.770279E-2	6.637573E-3	4.000092E-2	9.550171E-1	-9.411621E-2
5.490000E+8	9.588013E-1	-1.923828E-1	-5.526352E-2	7.815933E-2	1.485825E-2	6.489182E-2	9.477234E-1	-1.533813E-1
7.735000E+8	9.359436E-1	-2.641296E-1	-4.084396E-2	1.057625E-1	2.640915E-2	8.733368E-2	9.286499E-1	-2.120056E-1
9.980000E+8	9.100952E-1	-3.300171E-1	-2.347565E-2	1.307449E-1	4.016495E-2	1.077805E-1	9.085388E-1	-2.640381E-1
1.222500E+9	8.782349E-1	-3.941040E-1	-4.402161E-3	1.528549E-1	5.574036E-2	1.257858E-1	8.854980E-1	-3.172302E-1
1.447000E+9	8.428345E-1	-4.542542E-1	1.606750E-2	1.720810E-1	7.225037E-2	1.413727E-1	8.593445E-1	-3.662720E-1
1.671500E+9	8.039246E-1	-5.091553E-1	3.795624E-2	1.893768E-1	9.066010E-2	1.564713E-1	8.303833E-1	-4.115906E-1
1.896000E+9	7.623596E-1	-5.593262E-1	6.287384E-2	2.044525E-1	1.118011E-1	1.692276E-1	8.036804E-1	-4.521179E-1
2.120500E+9	7.200928E-1	-6.053467E-1	8.930969E-2	2.146759E-1	1.340256E-1	1.775665E-1	7.742615E-1	-4.949951E-1
2.345000E+9	6.737061E-1	-6.479797E-1	1.160431E-1	2.214050E-1	1.567459E-1	1.828918E-1	7.408447E-1	-5.332947E-1
2.569500E+9	6.283264E-1	-6.841125E-1	1.418076E-1	2.247467E-1	1.782455E-1	1.858978E-1	7.086182E-1	-5.689697E-1
2.794000E+9	5.812683E-1	-7.174683E-1	1.665573E-1	2.266693E-1	1.990433E-1	1.867676E-1	6.737366E-1	-6.004028E-1
3.018500E+9	5.348816E-1	-7.456665E-1	1.904297E-1	2.255630E-1	2.197723E-1	1.837234E-1	6.387024E-1	-6.323242E-1
3.243000E+9	4.884644E-1	-7.712097E-1	2.135010E-1	2.217407E-1	2.402420E-1	1.802368E-1	6.016846E-1	-6.592102E-1
3.467500E+9	4.421692E-1	-7.936401E-1	2.358627E-1	2.166977E-1	2.580872E-1	1.759186E-1	5.665894E-1	-6.841736E-1
3.692000E+9	3.970032E-1	-8.117676E-1	2.567291E-1	2.093506E-1	2.763977E-1	1.694183E-1	5.296631E-1	-7.071838E-1
3.916500E+9	3.513184E-1	-8.269043E-1	2.767334E-1	2.010193E-1	2.935028E-1	1.607666E-1	4.926758E-1	-7.262268E-1
4.141000E+9	3.088074E-1	-8.396912E-1	2.951813E-1	1.906281E-1	3.095856E-1	1.517639E-1	4.585266E-1	-7.443237E-1
4.365500E+9	2.673035E-1	-8.512878E-1	3.120575E-1	1.797943E-1	3.242493E-1	1.414642E-1	4.242249E-1	-7.612610E-1
4.590000E+9	2.246094E-1	-8.604736E-1	3.278503E-1	1.682281E-1	3.373108E-1	1.299438E-1	3.874512E-1	-7.760620E-1
4.814500E+9	1.849976E-1	-8.660278E-1	3.427734E-1	1.549835E-1	3.501129E-1	1.181793E-1	3.537598E-1	-7.890320E-1
5.039000E+9	1.460876E-1	-8.709412E-1	3.556976E-1	1.403656E-1	3.617859E-1	1.048126E-1	3.192749E-1	-8.012695E-1
5.263500E+9	1.079407E-1	-8.725586E-1	3.675385E-1	1.258545E-1	3.714447E-1	9.121704E-2	2.840271E-1	-8.106384E-1
5.488000E+9	7.299805E-2	-8.739624E-1	3.776703E-1	1.119690E-1	3.797302E-1	7.814026E-2	2.526245E-1	-8.188477E-1
5.712500E+9	3.665161E-2	-8.740540E-1	3.869781E-1	9.580994E-2	3.869934E-1	6.350708E-2	2.201538E-1	-8.263245E-1
5.937000E+9	4.425049E-3	-8.718872E-1	3.943176E-1	8.012390E-2	3.939819E-1	4.920959E-2	1.871338E-1	-8.331299E-1
6.161500E+9	-2.734375E-2	-8.708191E-1	4.006958E-1	6.520081E-2	3.990936E-1	3.489685E-2	1.558533E-1	-8.384399E-1
6.386000E+9	-5.966187E-2	-8.682251E-1	4.057159E-1	4.937744E-2	4.030914E-1	2.006531E-2	1.242065E-1	-8.422241E-1
6.610500E+9	-8.880615E-2	-8.641052E-1	4.104919E-1	3.411865E-2	4.056702E-1	6.332397E-3	9.182739E-2	-8.457642E-1
6.835000E+9	-1.181335E-1	-8.601990E-1	4.131622E-1	1.972961E-2	4.085083E-1	-7.598877E-3	6.204224E-2	-8.464966E-1
7.059500E+9	-1.446533E-1	-8.536377E-1	4.154205E-1	4.989624E-3	4.098358E-1	-2.003479E-2	3.533936E-2	-8.463745E-1
7.284000E+9	-1.722717E-1	-8.487244E-1	4.165192E-1	-1.042175E-2	4.104462E-1	-3.479004E-2	3.631592E-3	-8.471680E-1
7.508500E+9	-1.980286E-1	-8.422852E-1	4.170837E-1	-2.502441E-2	4.103088E-1	-4.826355E-2	-2.471924E-2	-8.442688E-1
7.733000E+9	-2.223511E-1	-8.338623E-1	4.171143E-1	-3.843689E-2	4.096832E-1	-6.082153E-2	-5.004883E-2	-8.433228E-1
7.957500E+9	-2.466736E-1	-8.275452E-1	4.160004E-1	-5.186462E-2	4.084167E-1	-7.315063E-2	-7.986450E-2	-8.419495E-1
8.182000E+9	-2.685242E-1	-8.208923E-1	4.152222E-1	-6.556702E-2	4.071350E-1	-8.531189E-2	-1.055908E-1	-8.387451E-1
8.406500E+9	-2.912292E-1	-8.122559E-1	4.123230E-1	-7.807922E-2	4.037476E-1	-9.762573E-2	-1.312866E-1	-8.337708E-1
8.631000E+9	-3.133240E-1	-8.045044E-1	4.098816E-1	-9.059143E-2	4.007263E-1	-1.086731E-1	-1.583557E-1	-8.297729E-1
8.855500E+9	-3.330688E-1	-7.966919E-1	4.072723E-1	-1.028442E-1	3.974915E-1	-1.201782E-1	-1.833801E-1	-8.233337E-1
9.080001E+9	-3.522644E-1	-7.892151E-1	4.038086E-1	-1.140289E-1	3.938293E-1	-1.305084E-1	-2.055359E-1	-8.168030E-1
9.304500E+9	-3.735962E-1	-7.786865E-1	3.986053E-1	-1.250916E-1	3.887329E-1	-1.407471E-1	-2.308960E-1	-8.114319E-1
9.529000E+9	-3.900757E-1	-7.715149E-1	3.954926E-1	-1.358643E-1	3.854218E-1	-1.508179E-1	-2.540894E-1	-8.027649E-1
9.753500E+9	-4.081421E-1	-7.622986E-1	3.898621E-1	-1.464233E-1	3.797607E-1	-1.600800E-1	-2.746277E-1	-7.955322E-1
9.978000E+9	-4.247742E-1	-7.533264E-1	3.854218E-1	-1.562500E-1	3.751831E-1	-1.689301E-1	-2.962341E-1	-7.881165E-1
1.020250E+10	-4.421387E-1	-7.453003E-1	3.798981E-1	-1.658325E-1	3.704376E-1	-1.785583E-1	-3.189392E-1	-7.790527E-1
1.042700E+10	-4.579468E-1	-7.353516E-1	3.741150E-1	-1.751099E-1	3.647156E-1	-1.869812E-1	-3.382874E-1	-7.705383E-1
1.065150E+10	-4.728699E-1	-7.258911E-1	3.681030E-1	-1.838379E-1	3.579559E-1	-1.944733E-1	-3.573608E-1	-7.635193E-1
1.087600E+10	-4.878235E-1	-7.167969E-1	3.621521E-1	-1.915588E-1	3.523560E-1	-2.026367E-1	-3.774414E-1	-7.533875E-1
1.110050E+10	-5.035706E-1	-7.073669E-1	3.564453E-1	-1.998596E-1	3.460999E-1	-2.105103E-1	-3.975220E-1	-7.431946E-1
1.132500E+10	-5.169678E-1	-6.986694E-1	3.503723E-1	-2.072754E-1	3.396759E-1	-2.170410E-1	-4.142761E-1	-7.354431E-1
1.154950E+10	-5.308838E-1	-6.887512E-1	3.434448E-1	-2.144928E-1	3.344269E-1	-2.234802E-1	-4.352112E-1	-7.228088E-1
1.177400E+10	-5.426331E-1	-6.792908E-1	3.376007E-1	-2.215729E-1	3.282013E-1	-2.305145E-1	-4.503784E-1	-7.116089E-1
1.199850E+10	-5.571289E-1	-6.706238E-1	3.305969E-1	-2.287903E-1	3.204651E-1	-2.356567E-1	-4.667053E-1	-7.042542E-1
1.222300E+10	-5.680847E-1	-6.606445E-1	3.243256E-1	-2.341614E-1	3.154907E-1	-2.411041E-1	-4.860535E-1	-6.921692E-1
1.244750E+10	-5.814819E-1	-6.520996E-1	3.172455E-1	-2.403870E-1	3.083191E-1	-2.474213E-1	-5.006714E-1	-6.795959E-1
1.267200E+10	-5.928345E-1	-6.419983E-1	3.117981E-1	-2.460327E-1	3.016205E-1	-2.532043E-1	-5.151672E-1	-6.705017E-1
1.289650E+10	-6.019897E-1	-6.332397E-1	3.040619E-1	-2.506104E-1	2.957153E-1	-2.569122E-1	-5.318298E-1	-6.590576E-1
1.312100E+10	-6.130066E-1	-6.239014E-1	2.978363E-1	-2.569427E-1	2.880554E-1	-2.617798E-1	-5.460205E-1	-6.453247E-1
1.334550E+10	-6.243591E-1	-6.150208E-1	2.905579E-1	-2.608490E-1	2.816620E-1	-2.661285E-1	-5.580139E-1	-6.362610E-1
1.357000E+10	-6.365662E-1	-6.041870E-1	2.850342E-1	-2.658081E-1	2.740479E-1	-2.711945E-1	-5.748291E-1	-6.266174E-1
1.379450E+10	-6.439209E-1	-5.970764E-1	2.777557E-1	-2.705231E-1	2.687836E-1	-2.742310E-1	-5.873718E-1	-6.097717E-1
1.401900E+10	-6.521912E-1	-5.882874E-1	2.715454E-1	-2.738647E-1	2.634888E-1	-2.786407E-1	-5.971985E-1	-6.000366E-1
1.424350E+10	-6.630859E-1	-5.775757E-1	2.635193E-1	-2.776337E-1	2.551880E-1	-2.813721E-1	-6.120911E-1	-5.876465E-1
1.446800E+10	-6.702881E-1	-5.700073E-1	2.567139E-1	-2.814484E-1	2.487793E-1	-2.847900E-1	-6.247559E-1	-5.714722E-1
1.469250E+10	-6.798706E-1	-5.606384E-1	2.500305E-1	-2.846985E-1	2.422333E-1	-2.883911E-1	-6.323853E-1	-5.613708E-1
1.491700E+10	-6.883850E-1	-5.522156E-1	2.429047E-1	-2.878418E-1	2.361298E-1	-2.914581E-1	-6.460876E-1	-5.510254E-1
1.514150E+10	-6.968689E-1	-5.416260E-1	2.357178E-1	-2.906494E-1	2.289734E-1	-2.933655E-1	-6.588745E-1	-5.344849E-1
1.536600E+10	-7.052917E-1	-5.334473E-1	2.299652E-1	-2.938080E-1	2.222443E-1	-2.962646E-1	-6.654358E-1	-5.216675E-1
1.559050E+10	-7.132568E-1	-5.252686E-1	2.234192E-1	-2.959747E-1	2.166595E-1	-2.989349E-1	-6.780701E-1	-5.116577E-1
1.581500E+10	-7.211914E-1	-5.154114E-1	2.156067E-1	-2.975464E-1	2.084656E-1	-3.000488E-1	-6.888733E-1	-4.963379E-1
1.603950E+10	-7.279968E-1	-5.068970E-1	2.097321E-1	-2.998352E-1	2.029572E-1	-3.023224E-1	-6.956787E-1	-4.854431E-1
1.626400E+10	-7.340088E-1	-4.978943E-1	2.034454E-1	-3.015900E-1	1.969757E-1	-3.047791E-1	-7.071228E-1	-4.723206E-1
1.648850E+10	-7.414246E-1	-4.881592E-1	1.972198E-1	-3.035583E-1	1.897125E-1	-3.054504E-1	-7.168274E-1	-4.572449E-1
1.671300E+10	-7.481689E-1	-4.805908E-1	1.903687E-1	-3.052979E-1	1.839600E-1	-3.076630E-1	-7.218933E-1	-4.468384E-1
1.693750E+10	-7.546692E-1	-4.716797E-1	1.845245E-1	-3.065796E-1	1.779022E-1	-3.083954E-1	-7.312927E-1	-4.332275E-1
1.716200E+10	-7.612305E-1	-4.629822E-1	1.774750E-1	-3.087616E-1	1.718445E-1	-3.089447E-1	-7.385254E-1	-4.162903E-1
1.738650E+10	-7.667542E-1	-4.559326E-1	1.715393E-1	-3.100891E-1	1.646729E-1	-3.104858E-1	-7.455139E-1	-4.058838E-1
1.761100E+10	-7.732239E-1	-4.467163E-1	1.669006E-1	-3.102722E-1	1.607056E-1	-3.109589E-1	-7.536621E-1	-3.954773E-1
1.783550E+10	-7.803650E-1	-4.376831E-1	1.610260E-1	-3.112640E-1	1.540070E-1	-3.132477E-1	-7.628174E-1	-3.776550E-1
1.806000E+10	-7.865295E-1	-4.300537E-1	1.539307E-1	-3.113708E-1	1.495667E-1	-3.132477E-1	-7.673950E-1	-3.674622E-1
1.828450E+10	-7.915344E-1	-4.200745E-1	1.494293E-1	-3.114929E-1	1.437836E-1	-3.140717E-1	-7.727356E-1	-3.554382E-1
1.850900E+10	-7.960815E-1	-4.126282E-1	1.432953E-1	-3.128052E-1	1.373901E-1	-3.134460E-1	-7.804565E-1	-3.409729E-1
1.873350E+10	-8.030090E-1	-4.041138E-1	1.376801E-1	-3.126221E-1	1.308899E-1	-3.146362E-1	-7.844849E-1	-3.264465E-1
1.895800E+10	-8.061523E-1	-3.950195E-1	1.325531E-1	-3.137512E-1	1.268616E-1	-3.141937E-1	-7.906189E-1	-3.160706E-1
1.918250E+10	-8.100891E-1	-3.887634E-1	1.261902E-1	-3.148651E-1	1.215515E-1	-3.142395E-1	-7.965698E-1	-3.030396E-1
1.940700E+10	-8.160400E-1	-3.792419E-1	1.201477E-1	-3.148956E-1	1.164093E-1	-3.157043E-1	-7.983093E-1	-2.848511E-1
1.963150E+10	-8.214722E-1	-3.713379E-1	1.143951E-1	-3.144836E-1	1.105347E-1	-3.139801E-1	-8.027039E-1	-2.751770E-1
1.985600E+10	-8.256836E-1	-3.626404E-1	1.103668E-1	-3.128967E-1	1.044769E-1	-3.126831E-1	-8.094177E-1	-2.622070E-1
2.008050E+10	-8.301697E-1	-3.555603E-1	1.056976E-1	-3.139343E-1	9.973145E-2	-3.119965E-1	-8.131409E-1	-2.455750E-1
2.030500E+10	-8.328857E-1	-3.480530E-1	1.000977E-1	-3.145905E-1	9.643555E-2	-3.140564E-1	-8.137207E-1	-2.366638E-1
2.052950E+10	-8.379211E-1	-3.391113E-1	9.431458E-2	-3.116760E-1	9.036255E-2	-3.129578E-1	-8.187256E-1	-2.236023E-1
2.075400E+10	-8.421631E-1	-3.325500E-1	8.959961E-2	-3.130646E-1	8.497620E-2	-3.134613E-1	-8.228760E-1	-2.085266E-1
2.097850E+10	-8.461914E-1	-3.237610E-1	8.528137E-2	-3.118286E-1	8.007812E-2	-3.118591E-1	-8.232117E-1	-1.975403E-1
2.120300E+10	-8.503113E-1	-3.145142E-1	8.018494E-2	-3.111420E-1	7.492065E-2	-3.094177E-1	-8.273315E-1	-1.894226E-1
2.142750E+10	-8.547363E-1	-3.064880E-1	7.424927E-2	-3.105621E-1	7.089233E-2	-3.106384E-1	-8.327942E-1	-1.731567E-1
2.165200E+10	-8.590393E-1	-2.980042E-1	7.084656E-2	-3.099976E-1	6.668091E-2	-3.096008E-1	-8.337097E-1	-1.631775E-1
2.187650E+10	-8.592224E-1	-2.892151E-1	6.431580E-2	-3.092651E-1	6.297302E-2	-3.076630E-1	-8.360596E-1	-1.485596E-1
2.210100E+10	-8.642578E-1	-2.821655E-1	6.091309E-2	-3.067932E-1	5.694580E-2	-3.068237E-1	-8.395691E-1	-1.342468E-1
2.232550E+10	-8.642883E-1	-2.721252E-1	5.708313E-2	-3.054810E-1	5.290222E-2	-3.055267E-1	-8.399048E-1	-1.193542E-1
2.255000E+10	-8.702087E-1	-2.652893E-1	5.290222E-2	-3.085022E-1	4.791260E-2	-3.053589E-1	-8.432617E-1	-1.128235E-1
2.277450E+10	-8.706055E-1	-2.545471E-1	4.885864E-2	-3.040161E-1	4.374695E-2	-3.068237E-1	-8.448181E-1	-9.323120E-2
2.299900E+10	-8.744202E-1	-2.500916E-1	4.322815E-2	-3.043365E-1	4.031372E-2	-3.032990E-1	-8.432007E-1	-8.175659E-2
2.322350E+10	-8.767395E-1	-2.414856E-1	3.884888E-2	-3.047638E-1	3.428650E-2	-3.031769E-1	-8.471985E-1	-7.077026E-2
2.344800E+10	-8.761597E-1	-2.374878E-1	3.570557E-2	-3.040009E-1	3.291321E-2	-3.010712E-1	-8.478699E-1	-5.426025E-2
2.367250E+10	-8.811646E-1	-2.280273E-1	3.224182E-2	-3.014832E-1	2.746582E-2	-3.039856E-1	-8.451843E-1	-4.092407E-2
2.389700E+10	-8.818054E-1	-2.219238E-1	2.717590E-2	-3.020172E-1	2.410889E-2	-2.995148E-1	-8.485718E-1	-3.207397E-2
2.412150E+10	-8.861084E-1	-2.145996E-1	2.359009E-2	-3.010254E-1	1.870728E-2	-3.000183E-1	-8.448486E-1	-1.235962E-2
2.434600E+10	-8.878174E-1	-2.074280E-1	2.005005E-2	-2.992096E-1	1.649475E-2	-2.973328E-1	-8.433533E-1	-1.953125E-3
2.457050E+10	-8.907776E-1	-2.021484E-1	1.365662E-2	-3.007355E-1	1.126099E-2	-2.987213E-1	-8.433228E-1	7.568359E-3
2.479500E+10	-8.940125E-1	-1.923218E-1	1.042175E-2	-2.991638E-1	6.835937E-3	-2.966461E-1	-8.419800E-1	2.487183E-2
2.501950E+10	-8.939514E-1	-1.864014E-1	5.676270E-3	-2.971649E-1	4.089355E-3	-2.963257E-1	-8.358765E-1	3.475952E-2
2.524400E+10	-8.992310E-1	-1.779175E-1	2.380371E-3	-2.942810E-1	-7.476807E-4	-2.923584E-1	-8.378601E-1	4.476929E-2
2.546850E+10	-9.022827E-1	-1.696472E-1	-1.083374E-3	-2.928314E-1	-2.090454E-3	-2.921600E-1	-8.340149E-1	5.996704E-2
2.569300E+10	-9.014282E-1	-1.640930E-1	-4.272461E-3	-2.885590E-1	-5.584717E-3	-2.908478E-1	-8.320007E-1	6.723022E-2
2.591750E+10	-9.045410E-1	-1.560364E-1	-7.049561E-3	-2.904053E-1	-9.445190E-3	-2.866058E-1	-8.348083E-1	7.928467E-2
2.614200E+10	-9.046021E-1	-1.477051E-1	-1.000977E-2	-2.877655E-1	-1.637268E-2	-2.877350E-1	-8.323059E-1	9.271240E-2
2.636650E+10	-9.076843E-1	-1.410828E-1	-1.483154E-2	-2.849121E-1	-1.651001E-2	-2.836304E-1	-8.296814E-1	1.082764E-1
2.659100E+10	-9.085388E-1	-1.352844E-1	-1.824951E-2	-2.855377E-1	-2.061462E-2	-2.836914E-1	-8.240051E-1	1.173401E-1
2.681550E+10	-9.085999E-1	-1.304321E-1	-2.085876E-2	-2.818146E-1	-2.392578E-2	-2.832947E-1	-8.240356E-1	1.260681E-1
2.704000E+10	-9.114380E-1	-1.188660E-1	-2.555847E-2	-2.814178E-1	-2.529907E-2	-2.818451E-1	-8.230896E-1	1.454773E-1
2.726450E+10	-9.112549E-1	-1.145020E-1	-2.909851E-2	-2.802582E-1	-3.509521E-2	-2.789917E-1	-8.118286E-1	1.530457E-1
2.748900E+10	-9.132690E-1	-1.059875E-1	-3.260803E-2	-2.798157E-1	-3.196716E-2	-2.787933E-1	-8.113098E-1	1.641235E-1
2.771350E+10	-9.138794E-1	-9.994507E-2	-3.382874E-2	-2.746582E-1	-3.672791E-2	-2.762451E-1	-8.083801E-1	1.772461E-1
2.793800E+10	-9.157410E-1	-9.234619E-2	-4.010010E-2	-2.781372E-1	-4.054260E-2	-2.745361E-1	-8.070984E-1	1.855774E-1
2.816250E+10	-9.168091E-1	-8.602905E-2	-4.565430E-2	-2.771912E-1	-4.490662E-2	-2.752380E-1	-8.023376E-1	1.979980E-1
2.838700E+10	-9.172668E-1	-7.800293E-2	-4.635620E-2	-2.732544E-1	-4.904175E-2	-2.728119E-1	-7.968750E-1	2.122192E-1
2.861150E+10	-9.205933E-1	-7.211304E-2	-5.088806E-2	-2.733612E-1	-5.177307E-2	-2.718353E-1	-7.927551E-1	2.190552E-1
2.883600E+10	-9.205322E-1	-6.533813E-2	-5.284119E-2	-2.705078E-1	-5.436707E-2	-2.705841E-1	-7.850037E-1	2.267151E-1
2.906050E+10	-9.212036E-1	-5.908203E-2	-5.335999E-2	-2.669220E-1	-5.662537E-2	-2.661133E-1	-7.830505E-1	2.407837E-1
2.928500E+10	-9.238586E-1	-5.154419E-2	-5.863953E-2	-2.668762E-1	-5.978394E-2	-2.636414E-1	-7.786255E-1	2.474365E-1
2.950950E+10	-9.208984E-1	-4.226685E-2	-5.754089E-2	-2.628479E-1	-6.205750E-2	-2.621460E-1	-7.773132E-1	2.563171E-1
2.973400E+10	-9.221802E-1	-4.067993E-2	-5.979919E-2	-2.604828E-1	-6.425476E-2	-2.589722E-1	-7.723999E-1	2.702332E-1
2.995850E+10	-9.217529E-1	-2.835083E-2	-6.619263E-2	-2.608032E-1	-6.353760E-2	-2.610016E-1	-7.672424E-1	2.850037E-1
3.018300E+10	-9.213562E-1	-2.420044E-2	-6.929016E-2	-2.606354E-1	-7.167053E-2	-2.564697E-1	-7.630920E-1	2.993164E-1
3.040750E+10	-9.222107E-1	-1.654053E-2	-6.973267E-2	-2.581787E-1	-7.273865E-2	-2.568512E-1	-7.568054E-1	3.042908E-1
3.063200E+10	-9.235535E-1	-7.843018E-3	-7.296753E-2	-2.551880E-1	-7.470703E-2	-2.550964E-1	-7.518005E-1	3.173218E-1
3.085650E+10	-9.227905E-1	-4.089355E-3	-7.701111E-2	-2.566376E-1	-7.823181E-2	-2.561340E-1	-7.435608E-1	3.309631E-1
3.108100E+10	-9.252319E-1	8.850098E-4	-8.201599E-2	-2.501373E-1	-8.316040E-2	-2.499084E-1	-7.346497E-1	3.425903E-1
3.130550E+10	-9.213257E-1	9.552002E-3	-8.153534E-2	-2.492065E-1	-8.843994E-2	-2.505493E-1	-7.257080E-1	3.502808E-1
3.153000E+10	-9.260864E-1	1.638794E-2	-8.982849E-2	-2.487946E-1	-8.590698E-2	-2.507935E-1	-7.236633E-1	3.551941E-1
3.175450E+10	-9.248047E-1	1.852417E-2	-8.500671E-2	-2.474594E-1	-8.940887E-2	-2.457275E-1	-7.127991E-1	3.760986E-1
3.197900E+10	-9.215088E-1	3.067017E-2	-8.869171E-2	-2.457123E-1	-9.314728E-2	-2.448807E-1	-7.023010E-1	3.806152E-1
3.220350E+10	-9.266052E-1	3.375244E-2	-9.701538E-2	-2.480621E-1	-9.239960E-2	-2.445602E-1	-7.003479E-1	3.887024E-1
3.242800E+10	-9.263306E-1	4.397583E-2	-9.743500E-2	-2.421341E-1	-1.021957E-1	-2.408524E-1	-6.878967E-1	4.007874E-1
3.265250E+10	-9.305725E-1	5.059814E-2	-1.005936E-1	-2.447739E-1	-1.003189E-1	-2.431717E-1	-6.784363E-1	4.069214E-1
3.287700E+10	-9.233704E-1	5.929565E-2	-1.033936E-1	-2.341003E-1	-1.036606E-1	-2.339249E-1	-6.726379E-1	4.106140E-1
3.310150E+10	-9.270325E-1	6.268311E-2	-1.050491E-1	-2.349091E-1	-1.054459E-1	-2.338486E-1	-6.614685E-1	4.241333E-1
3.332600E+10	-9.212341E-1	7.235718E-2	-1.046906E-1	-2.350616E-1	-1.093445E-1	-2.353973E-1	-6.519470E-1	4.265747E-1
3.355050E+10	-9.200134E-1	7.601929E-2	-1.086731E-1	-2.308578E-1	-1.131897E-1	-2.300491E-1	-6.473389E-1	4.403992E-1
3.377500E+10	-9.226379E-1	8.529663E-2	-1.117249E-1	-2.282867E-1	-1.070175E-1	-2.253799E-1	-6.393738E-1	4.441833E-1
3.399950E+10	-9.186707E-1	8.898926E-2	-1.113281E-1	-2.275085E-1	-1.117554E-1	-2.249298E-1	-6.335449E-1	4.542236E-1
3.422400E+10	-9.243774E-1	9.683228E-2	-1.159515E-1	-2.258453E-1	-1.145706E-1	-2.227402E-1	-6.258850E-1	4.678650E-1
3.444850E+10	-9.178772E-1	1.011963E-1	-1.158218E-1	-2.249146E-1	-1.156235E-1	-2.269135E-1	-6.177063E-1	4.737244E-1
3.467300E+10	-9.181824E-1	1.092529E-1	-1.181259E-1	-2.231827E-1	-1.212616E-1	-2.246704E-1	-6.103516E-1	4.832458E-1
3.489750E+10	-9.209900E-1	1.144714E-1	-1.188278E-1	-2.247696E-1	-1.220551E-1	-2.207031E-1	-6.022034E-1	4.934692E-1
3.512200E+10	-9.174805E-1	1.184692E-1	-1.199570E-1	-2.220001E-1	-1.222458E-1	-2.187653E-1	-5.831299E-1	4.976807E-1
3.534650E+10	-9.145508E-1	1.215820E-1	-1.267166E-1	-2.179794E-1	-1.259232E-1	-2.202759E-1	-5.759888E-1	5.136108E-1
3.557100E+10	-9.144897E-1	1.300049E-1	-1.296844E-1	-2.170410E-1	-1.323395E-1	-2.192307E-1	-5.589600E-1	5.250244E-1
3.579550E+10	-9.147034E-1	1.426086E-1	-1.337585E-1	-2.185364E-1	-1.317596E-1	-2.154160E-1	-5.499878E-1	5.243835E-1
3.602000E+10	-9.156189E-1	1.462402E-1	-1.311188E-1	-2.117462E-1	-1.352539E-1	-2.132492E-1	-5.395813E-1	5.285645E-1
3.624450E+10	-9.091797E-1	1.542969E-1	-1.363754E-1	-2.109528E-1	-1.378479E-1	-2.115707E-1	-5.324097E-1	5.386658E-1
3.646900E+10	-9.129333E-1	1.630249E-1	-1.358414E-1	-2.116547E-1	-1.419067E-1	-2.088394E-1	-5.218201E-1	5.486145E-1
3.669350E+10	-9.102173E-1	1.649475E-1	-1.404114E-1	-2.066956E-1	-1.467361E-1	-2.050552E-1	-5.077820E-1	5.476379E-1
3.691800E+10	-9.060364E-1	1.703796E-1	-1.420135E-1	-2.032776E-1	-1.416550E-1	-2.016754E-1	-4.956970E-1	5.583801E-1
3.714250E+10	-9.040222E-1	1.755676E-1	-1.490097E-1	-2.030640E-1	-1.481094E-1	-2.056198E-1	-4.812927E-1	5.599976E-1
3.736700E+10	-9.018250E-1	1.853333E-1	-1.493301E-1	-2.003098E-1	-1.505203E-1	-1.994095E-1	-4.714661E-1	5.656738E-1
3.759150E+10	-9.006042E-1	1.940308E-1	-1.573334E-1	-1.963806E-1	-1.494598E-1	-1.995773E-1	-4.606934E-1	5.775146E-1
3.781600E+10	-9.053955E-1	1.983643E-1	-1.546631E-1	-1.939468E-1	-1.521912E-1	-1.927109E-1	-4.503479E-1	5.779419E-1
3.804050E+10	-9.019165E-1	1.990051E-1	-1.544418E-1	-1.933060E-1	-1.580276E-1	-1.884537E-1	-4.342651E-1	5.881958E-1
3.826500E+10	-8.976746E-1	2.107239E-1	-1.598129E-1	-1.903152E-1	-1.585236E-1	-1.926804E-1	-4.195251E-1	5.932007E-1
3.848950E+10	-8.940430E-1	2.132263E-1	-1.595230E-1	-1.874390E-1	-1.638336E-1	-1.887817E-1	-4.087219E-1	6.015320E-1
3.871400E+10	-8.937378E-1	2.193298E-1	-1.634521E-1	-1.891327E-1	-1.678467E-1	-1.894150E-1	-3.906860E-1	6.006165E-1
3.893850E+10	-8.946533E-1	2.256470E-1	-1.626511E-1	-1.829605E-1	-1.639938E-1	-1.832047E-1	-3.711548E-1	5.977478E-1
