!Date: 10/28/2005, 12:34 PM

!Vgs = 0.000000E+0
!Vds = 4.000000E+0
!Ig = -2.313800E-6
!Id = 9.017900E-1

# HZ S RI R 50
1.000000E+8	9.648743E-1	-1.923218E-1	-2.168945E+0	2.563477E-2	-1.557827E-3	9.183407E-3	-5.444336E-1	-1.810303E-1
3.245000E+8	7.933960E-1	-5.533752E-1	-1.819397E+0	5.835571E-1	8.590698E-3	2.600765E-2	-7.027283E-1	-8.059692E-2
5.490000E+8	5.374146E-1	-7.888184E-1	-1.470093E+0	8.998413E-1	2.141953E-2	3.598213E-2	-6.562805E-1	-2.392578E-2
7.735000E+8	2.715759E-1	-9.018555E-1	-1.158386E+0	1.044312E+0	3.501511E-2	4.023933E-2	-6.814575E-1	-3.756714E-2
9.980000E+8	4.098511E-2	-9.304810E-1	-8.962402E-1	1.067993E+0	4.602051E-2	4.096603E-2	-6.929932E-1	-1.809692E-2
1.222500E+9	-1.473389E-1	-9.120483E-1	-6.800537E-1	1.038452E+0	5.429840E-2	3.870964E-2	-6.885681E-1	-1.885986E-2
1.447000E+9	-2.945251E-1	-8.697510E-1	-5.131531E-1	9.878540E-1	6.100273E-2	3.588867E-2	-6.988831E-1	-9.674072E-3
1.671500E+9	-4.086914E-1	-8.188171E-1	-3.873901E-1	9.288330E-1	6.608582E-2	3.252792E-2	-7.008057E-1	-3.692627E-3
1.896000E+9	-4.981384E-1	-7.641602E-1	-2.899780E-1	8.700867E-1	7.036972E-2	2.939606E-2	-7.067871E-1	4.394531E-3
2.120500E+9	-5.670166E-1	-7.120361E-1	-2.139893E-1	8.153687E-1	7.393646E-2	2.631760E-2	-7.099304E-1	1.025391E-2
2.345000E+9	-6.228027E-1	-6.603394E-1	-1.531982E-1	7.606201E-1	7.630539E-2	2.284622E-2	-7.145081E-1	2.053833E-2
2.569500E+9	-6.647949E-1	-6.137695E-1	-1.042786E-1	7.090149E-1	7.780838E-2	1.985168E-2	-7.113037E-1	2.786255E-2
2.794000E+9	-7.001343E-1	-5.732727E-1	-6.619263E-2	6.646423E-1	7.932281E-2	1.711655E-2	-7.150879E-1	3.378296E-2
3.018500E+9	-7.284851E-1	-5.341797E-1	-3.482056E-2	6.224670E-1	8.071899E-2	1.425171E-2	-7.144470E-1	4.293823E-2
3.243000E+9	-7.527771E-1	-4.982605E-1	-8.697510E-3	5.837402E-1	8.132553E-2	1.175690E-2	-7.135315E-1	4.577637E-2
3.467500E+9	-7.729187E-1	-4.660034E-1	1.318359E-2	5.502625E-1	8.210373E-2	9.605408E-3	-7.163086E-1	5.511475E-2
3.692000E+9	-7.890930E-1	-4.360657E-1	3.164673E-2	5.195923E-1	8.299637E-2	7.175446E-3	-7.123413E-1	6.127930E-2
3.916500E+9	-8.035278E-1	-4.085999E-1	4.701233E-2	4.917145E-1	8.302689E-2	5.348206E-3	-7.167664E-1	6.469727E-2
4.141000E+9	-8.155823E-1	-3.830566E-1	5.961609E-2	4.653778E-1	8.385086E-2	3.253937E-3	-7.144775E-1	7.455444E-2
4.365500E+9	-8.243713E-1	-3.592529E-1	7.109070E-2	4.411774E-1	8.380508E-2	1.697540E-3	-7.128296E-1	7.693481E-2
4.590000E+9	-8.331909E-1	-3.380127E-1	8.032227E-2	4.176483E-1	8.388901E-2	-2.098083E-4	-7.145081E-1	8.544922E-2
4.814500E+9	-8.416138E-1	-3.182983E-1	8.897400E-2	3.983307E-1	8.408737E-2	-1.895905E-3	-7.114868E-1	9.118652E-2
5.039000E+9	-8.482056E-1	-2.991028E-1	9.608459E-2	3.793640E-1	8.424759E-2	-3.841400E-3	-7.118530E-1	9.545898E-2
5.263500E+9	-8.541870E-1	-2.804565E-1	1.028748E-1	3.616333E-1	8.447266E-2	-5.207062E-3	-7.106628E-1	1.025085E-1
5.488000E+9	-8.583679E-1	-2.645264E-1	1.078949E-1	3.455200E-1	8.418274E-2	-6.809235E-3	-7.090454E-1	1.085815E-1
5.712500E+9	-8.630066E-1	-2.486267E-1	1.128845E-1	3.294067E-1	8.381653E-2	-8.621216E-3	-7.074890E-1	1.135559E-1
5.937000E+9	-8.666687E-1	-2.326050E-1	1.163940E-1	3.142853E-1	8.394623E-2	-9.578705E-3	-7.062683E-1	1.189880E-1
6.161500E+9	-8.700562E-1	-2.201538E-1	1.208649E-1	3.014984E-1	8.384323E-2	-1.149368E-2	-7.057190E-1	1.273193E-1
6.386000E+9	-8.736572E-1	-2.057495E-1	1.239319E-1	2.886505E-1	8.363342E-2	-1.300049E-2	-7.011414E-1	1.318665E-1
6.610500E+9	-8.760071E-1	-1.932068E-1	1.265106E-1	2.768097E-1	8.329010E-2	-1.440811E-2	-7.019653E-1	1.344299E-1
6.835000E+9	-8.786011E-1	-1.814880E-1	1.289520E-1	2.642212E-1	8.280182E-2	-1.607513E-2	-6.974182E-1	1.444092E-1
7.059500E+9	-8.800049E-1	-1.711426E-1	1.305237E-1	2.536163E-1	8.258057E-2	-1.679993E-2	-6.917114E-1	1.439514E-1
7.284000E+9	-8.822327E-1	-1.589050E-1	1.325760E-1	2.434845E-1	8.204651E-2	-1.794434E-2	-6.962891E-1	1.496582E-1
7.508500E+9	-8.849487E-1	-1.478271E-1	1.338348E-1	2.339020E-1	8.184052E-2	-1.945877E-2	-6.869507E-1	1.521912E-1
7.733000E+9	-8.846436E-1	-1.380920E-1	1.346588E-1	2.265091E-1	8.095551E-2	-2.002335E-2	-6.926270E-1	1.546936E-1
7.957500E+9	-8.867187E-1	-1.275635E-1	1.362839E-1	2.167892E-1	8.109283E-2	-2.121353E-2	-6.875305E-1	1.643372E-1
8.182000E+9	-8.878479E-1	-1.170654E-1	1.383591E-1	2.088547E-1	8.062363E-2	-2.285767E-2	-6.898499E-1	1.669922E-1
8.406500E+9	-8.876648E-1	-1.091919E-1	1.395035E-1	2.002182E-1	7.993698E-2	-2.404785E-2	-6.842041E-1	1.758423E-1
8.631000E+9	-8.895569E-1	-9.960937E-2	1.402054E-1	1.921082E-1	7.919312E-2	-2.521515E-2	-6.813660E-1	1.790466E-1
8.855500E+9	-8.899536E-1	-9.167480E-2	1.403198E-1	1.850815E-1	7.910919E-2	-2.677155E-2	-6.805725E-1	1.839294E-1
9.080001E+9	-8.905945E-1	-8.422852E-2	1.407700E-1	1.777954E-1	7.881546E-2	-2.723694E-2	-6.763000E-1	1.901550E-1
9.304500E+9	-8.904114E-1	-7.321167E-2	1.409988E-1	1.710510E-1	7.781601E-2	-2.857208E-2	-6.753540E-1	1.926575E-1
9.529000E+9	-8.908691E-1	-6.735229E-2	1.408386E-1	1.649323E-1	7.721710E-2	-2.951431E-2	-6.735840E-1	1.982422E-1
9.753500E+9	-8.913269E-1	-5.960083E-2	1.407852E-1	1.581497E-1	7.651138E-2	-3.031921E-2	-6.676941E-1	2.041016E-1
9.978000E+9	-8.914185E-1	-5.224609E-2	1.415939E-1	1.527786E-1	7.579422E-2	-3.104401E-2	-6.658020E-1	2.054749E-1
1.020250E+10	-8.920593E-1	-4.504395E-2	1.419144E-1	1.467743E-1	7.527161E-2	-3.245926E-2	-6.647339E-1	2.120361E-1
1.042700E+10	-8.922424E-1	-3.799438E-2	1.408005E-1	1.411514E-1	7.406616E-2	-3.336716E-2	-6.597290E-1	2.171936E-1
1.065150E+10	-8.925171E-1	-3.100586E-2	1.406784E-1	1.365051E-1	7.330322E-2	-3.363037E-2	-6.584167E-1	2.192688E-1
1.087600E+10	-8.925171E-1	-2.459717E-2	1.410675E-1	1.314774E-1	7.317734E-2	-3.458405E-2	-6.558838E-1	2.248840E-1
1.110050E+10	-8.923950E-1	-1.614380E-2	1.405563E-1	1.270599E-1	7.217407E-2	-3.619385E-2	-6.514282E-1	2.298889E-1
1.132500E+10	-8.917542E-1	-1.013184E-2	1.409378E-1	1.217728E-1	7.159805E-2	-3.607941E-2	-6.485901E-1	2.319946E-1
1.154950E+10	-8.923035E-1	-2.868652E-3	1.406631E-1	1.177139E-1	7.155991E-2	-3.727341E-2	-6.479797E-1	2.380981E-1
1.177400E+10	-8.899231E-1	3.112793E-3	1.398849E-1	1.134949E-1	7.009125E-2	-3.819656E-2	-6.430359E-1	2.429810E-1
1.199850E+10	-8.905029E-1	9.063721E-3	1.395798E-1	1.084824E-1	6.995392E-2	-3.827286E-2	-6.410828E-1	2.447510E-1
1.222300E+10	-8.899841E-1	1.528931E-2	1.392746E-1	1.048813E-1	6.856155E-2	-3.916550E-2	-6.369934E-1	2.482300E-1
1.244750E+10	-8.898621E-1	2.050781E-2	1.384201E-1	1.012421E-1	6.848526E-2	-3.985214E-2	-6.344299E-1	2.539673E-1
1.267200E+10	-8.892517E-1	2.688599E-2	1.380844E-1	9.704590E-2	6.692505E-2	-4.072189E-2	-6.309509E-1	2.560425E-1
1.289650E+10	-8.883057E-1	3.170776E-2	1.370850E-1	9.300232E-2	6.657028E-2	-4.059219E-2	-6.299438E-1	2.586670E-1
1.312100E+10	-8.889465E-1	3.732300E-2	1.368103E-1	8.977509E-2	6.548309E-2	-4.167557E-2	-6.264038E-1	2.640381E-1
1.334550E+10	-8.881531E-1	4.412842E-2	1.368713E-1	8.642578E-2	6.548309E-2	-4.234314E-2	-6.209717E-1	2.670898E-1
1.357000E+10	-8.864136E-1	4.763794E-2	1.361084E-1	8.342743E-2	6.393051E-2	-4.244232E-2	-6.196899E-1	2.672424E-1
1.379450E+10	-8.868103E-1	5.346680E-2	1.353912E-1	8.065796E-2	6.263733E-2	-4.423141E-2	-6.188354E-1	2.729492E-1
1.401900E+10	-8.855286E-1	5.926514E-2	1.349640E-1	7.713318E-2	6.326675E-2	-4.313278E-2	-6.138306E-1	2.751160E-1
1.424350E+10	-8.850708E-1	6.481934E-2	1.332397E-1	7.330322E-2	6.154633E-2	-4.469109E-2	-6.105042E-1	2.785950E-1
1.446800E+10	-8.842163E-1	7.064819E-2	1.332321E-1	7.055664E-2	6.122398E-2	-4.555893E-2	-6.073608E-1	2.845764E-1
1.469250E+10	-8.822021E-1	7.522583E-2	1.324005E-1	6.813049E-2	6.043816E-2	-4.581451E-2	-6.022034E-1	2.881165E-1
1.491700E+10	-8.825684E-1	8.032227E-2	1.331863E-1	6.537628E-2	5.965805E-2	-4.704666E-2	-6.003723E-1	2.870789E-1
1.514150E+10	-8.810120E-1	8.465576E-2	1.311340E-1	6.184387E-2	5.916786E-2	-4.640579E-2	-5.980835E-1	2.925110E-1
1.536600E+10	-8.796997E-1	9.011841E-2	1.301956E-1	5.966187E-2	5.838585E-2	-4.726410E-2	-5.918274E-1	2.976379E-1
1.559050E+10	-8.773499E-1	9.515381E-2	1.290512E-1	5.838013E-2	5.731010E-2	-4.805183E-2	-5.899658E-1	2.968445E-1
1.581500E+10	-8.767700E-1	9.979248E-2	1.285477E-1	5.521393E-2	5.560303E-2	-4.804039E-2	-5.883484E-1	3.008728E-1
1.603950E+10	-8.767395E-1	1.051331E-1	1.285553E-1	5.290222E-2	5.607796E-2	-4.780006E-2	-5.817566E-1	3.063965E-1
1.626400E+10	-8.755798E-1	1.095886E-1	1.300278E-1	5.023193E-2	5.528831E-2	-4.883766E-2	-5.811157E-1	3.054504E-1
1.648850E+10	-8.735657E-1	1.130981E-1	1.276321E-1	4.801941E-2	5.434990E-2	-4.879189E-2	-5.788574E-1	3.090820E-1
1.671300E+10	-8.719482E-1	1.191406E-1	1.264648E-1	4.576874E-2	5.340385E-2	-4.980278E-2	-5.739441E-1	3.128357E-1
1.693750E+10	-8.717041E-1	1.230164E-1	1.250763E-1	4.419708E-2	5.164528E-2	-5.004883E-2	-5.712280E-1	3.133545E-1
1.716200E+10	-8.712769E-1	1.277161E-1	1.234856E-1	4.124451E-2	5.253983E-2	-5.093002E-2	-5.694885E-1	3.190308E-1
1.738650E+10	-8.700562E-1	1.328430E-1	1.238518E-1	3.929901E-2	5.109787E-2	-5.051804E-2	-5.647583E-1	3.207092E-1
1.761100E+10	-8.685303E-1	1.376038E-1	1.230888E-1	3.680801E-2	5.007935E-2	-5.146790E-2	-5.627136E-1	3.218689E-1
1.783550E+10	-8.661499E-1	1.425476E-1	1.222649E-1	3.516388E-2	4.796028E-2	-5.059624E-2	-5.609741E-1	3.277588E-1
1.806000E+10	-8.668213E-1	1.451416E-1	1.214943E-1	3.345871E-2	4.910851E-2	-5.137634E-2	-5.547791E-1	3.319397E-1
1.828450E+10	-8.631897E-1	1.503601E-1	1.212921E-1	3.144455E-2	4.802132E-2	-5.113602E-2	-5.521545E-1	3.316650E-1
1.850900E+10	-8.623962E-1	1.538391E-1	1.199913E-1	2.966309E-2	4.749298E-2	-5.069733E-2	-5.515747E-1	3.348694E-1
1.873350E+10	-8.612366E-1	1.581726E-1	1.206474E-1	2.964020E-2	4.582787E-2	-5.218887E-2	-5.444031E-1	3.399353E-1
1.895800E+10	-8.583679E-1	1.633606E-1	1.187172E-1	2.721786E-2	4.617691E-2	-5.118942E-2	-5.423889E-1	3.383179E-1
1.918250E+10	-8.573608E-1	1.663513E-1	1.181641E-1	2.683258E-2	4.384041E-2	-5.291557E-2	-5.405579E-1	3.432312E-1
1.940700E+10	-8.547668E-1	1.715698E-1	1.167831E-1	2.315903E-2	4.393005E-2	-5.379868E-2	-5.355530E-1	3.497009E-1
1.963150E+10	-8.533936E-1	1.755066E-1	1.164665E-1	2.176285E-2	4.299736E-2	-5.333900E-2	-5.314331E-1	3.468018E-1
1.985600E+10	-8.522949E-1	1.772766E-1	1.168633E-1	2.084351E-2	4.165268E-2	-5.250740E-2	-5.301514E-1	3.486938E-1
2.008050E+10	-8.518677E-1	1.821594E-1	1.162148E-1	1.910782E-2	4.059792E-2	-5.357933E-2	-5.274048E-1	3.556519E-1
2.030500E+10	-8.486938E-1	1.862488E-1	1.155128E-1	2.109528E-2	4.121399E-2	-5.339050E-2	-5.205078E-1	3.540955E-1
2.052950E+10	-8.482361E-1	1.892700E-1	1.153908E-1	1.902771E-2	3.857613E-2	-5.359840E-2	-5.190735E-1	3.562927E-1
2.075400E+10	-8.454285E-1	1.926880E-1	1.141663E-1	1.589966E-2	3.795242E-2	-5.480194E-2	-5.158997E-1	3.625183E-1
2.097850E+10	-8.443604E-1	1.961365E-1	1.137772E-1	1.479721E-2	3.710365E-2	-5.369377E-2	-5.086670E-1	3.638916E-1
2.120300E+10	-8.413391E-1	1.994324E-1	1.125832E-1	1.334000E-2	3.713989E-2	-5.296326E-2	-5.090332E-1	3.634033E-1
2.142750E+10	-8.411255E-1	2.052002E-1	1.135483E-1	1.082230E-2	3.496742E-2	-5.438423E-2	-5.088501E-1	3.682556E-1
2.165200E+10	-8.374634E-1	2.093506E-1	1.115303E-1	1.231003E-2	3.563118E-2	-5.252647E-2	-5.005798E-1	3.692627E-1
2.187650E+10	-8.365784E-1	2.090759E-1	1.129265E-1	1.015472E-2	3.283310E-2	-5.257416E-2	-5.001831E-1	3.689880E-1
2.210100E+10	-8.359680E-1	2.134705E-1	1.119843E-1	7.297516E-3	3.372765E-2	-5.332756E-2	-4.977722E-1	3.790588E-1
2.232550E+10	-8.317261E-1	2.172852E-1	1.116600E-1	8.094788E-3	3.099442E-2	-5.463791E-2	-4.913635E-1	3.801270E-1
2.255000E+10	-8.319397E-1	2.213745E-1	1.119347E-1	7.198334E-3	3.278732E-2	-5.417824E-2	-4.883575E-1	3.790436E-1
2.277450E+10	-8.298340E-1	2.261963E-1	1.110153E-1	4.608154E-3	3.068161E-2	-5.506516E-2	-4.840088E-1	3.840790E-1
2.299900E+10	-8.264160E-1	2.269592E-1	1.098824E-1	2.841949E-3	2.943039E-2	-5.459595E-2	-4.787903E-1	3.867187E-1
2.322350E+10	-8.247070E-1	2.302551E-1	1.090508E-1	2.555847E-3	2.885628E-2	-5.131340E-2	-4.778595E-1	3.854523E-1
2.344800E+10	-8.227844E-1	2.317810E-1	1.090622E-1	-1.869202E-4	2.887917E-2	-5.378723E-2	-4.733429E-1	3.924561E-1
2.367250E+10	-8.215027E-1	2.376099E-1	1.064339E-1	5.340576E-4	2.717972E-2	-5.278015E-2	-4.666901E-1	3.945312E-1
2.389700E+10	-8.162231E-1	2.388306E-1	1.072960E-1	-1.232147E-3	2.638054E-2	-5.420303E-2	-4.653320E-1	3.942261E-1
2.412150E+10	-8.151245E-1	2.420044E-1	1.068077E-1	-1.449585E-3	2.432823E-2	-5.297089E-2	-4.604492E-1	3.988037E-1
2.434600E+10	-8.144836E-1	2.449646E-1	1.071587E-1	-4.325867E-3	2.412796E-2	-5.239677E-2	-4.547424E-1	3.990173E-1
2.457050E+10	-8.126221E-1	2.498169E-1	1.053429E-1	-5.374908E-3	2.269936E-2	-5.170250E-2	-4.500427E-1	3.984833E-1
2.479500E+10	-8.114014E-1	2.518616E-1	1.063957E-1	-4.798889E-3	2.114105E-2	-5.369186E-2	-4.470062E-1	4.048767E-1
2.501950E+10	-8.064575E-1	2.516785E-1	1.045189E-1	-5.004883E-3	2.217865E-2	-5.153465E-2	-4.390106E-1	4.033966E-1
2.524400E+10	-8.056641E-1	2.568665E-1	1.058731E-1	-7.305145E-3	2.207184E-2	-4.975319E-2	-4.382782E-1	4.049225E-1
2.546850E+10	-8.021851E-1	2.594910E-1	1.043625E-1	-8.968353E-3	1.956367E-2	-4.861069E-2	-4.318085E-1	4.077301E-1
2.569300E+10	-8.008118E-1	2.614441E-1	1.053963E-1	-8.037567E-3	2.121925E-2	-4.954910E-2	-4.297943E-1	4.037476E-1
2.591750E+10	-7.987061E-1	2.656250E-1	1.038780E-1	-9.334564E-3	1.960754E-2	-4.874992E-2	-4.261475E-1	4.063568E-1
2.614200E+10	-7.985229E-1	2.688904E-1	1.030998E-1	-1.027679E-2	1.920319E-2	-4.938698E-2	-4.252930E-1	4.120483E-1
2.636650E+10	-7.959595E-1	2.684326E-1	1.049919E-1	-1.170731E-2	1.816940E-2	-4.787254E-2	-4.202271E-1	4.140472E-1
2.659100E+10	-7.916260E-1	2.693787E-1	1.032791E-1	-1.235962E-2	1.879120E-2	-4.898643E-2	-4.130402E-1	4.162140E-1
2.681550E+10	-7.885437E-1	2.726746E-1	1.031761E-1	-1.376724E-2	1.731873E-2	-4.817581E-2	-4.111176E-1	4.126129E-1
2.704000E+10	-7.889099E-1	2.774353E-1	1.038895E-1	-1.401901E-2	1.792145E-2	-4.864311E-2	-4.075470E-1	4.223938E-1
2.726450E+10	-7.849731E-1	2.764282E-1	1.014137E-1	-1.863861E-2	1.659393E-2	-4.634285E-2	-3.964691E-1	4.204102E-1
2.748900E+10	-7.838135E-1	2.791138E-1	1.007957E-1	-1.812744E-2	1.508331E-2	-4.841042E-2	-3.968964E-1	4.187775E-1
2.771350E+10	-7.816772E-1	2.803650E-1	1.004524E-1	-1.965332E-2	1.489067E-2	-4.349136E-2	-3.907776E-1	4.224396E-1
2.793800E+10	-7.805786E-1	2.822571E-1	1.005135E-1	-1.937485E-2	1.545906E-2	-4.500771E-2	-3.885193E-1	4.237518E-1
2.816250E+10	-7.788086E-1	2.868042E-1	9.976196E-2	-2.112579E-2	1.615715E-2	-4.389763E-2	-3.845825E-1	4.231720E-1
2.838700E+10	-7.755432E-1	2.834473E-1	1.019478E-1	-2.054977E-2	1.281738E-2	-4.284477E-2	-3.803864E-1	4.237366E-1
2.861150E+10	-7.746277E-1	2.912598E-1	9.927368E-2	-2.265549E-2	1.213837E-2	-4.455757E-2	-3.714905E-1	4.241486E-1
2.883600E+10	-7.748108E-1	2.921143E-1	9.856415E-2	-2.431107E-2	1.256180E-2	-4.169846E-2	-3.699799E-1	4.247284E-1
2.906050E+10	-7.727661E-1	2.937622E-1	9.890747E-2	-2.494431E-2	1.273727E-2	-4.354668E-2	-3.667145E-1	4.268341E-1
2.928500E+10	-7.691956E-1	2.941284E-1	9.788513E-2	-2.490616E-2	1.183891E-2	-4.178810E-2	-3.626099E-1	4.237366E-1
2.950950E+10	-7.677307E-1	2.972107E-1	9.786224E-2	-2.798462E-2	1.269913E-2	-4.060936E-2	-3.652191E-1	4.248657E-1
2.973400E+10	-7.687988E-1	2.979126E-1	9.508133E-2	-2.652359E-2	1.124763E-2	-4.121590E-2	-3.554687E-1	4.327240E-1
2.995850E+10	-7.642822E-1	2.988281E-1	9.827423E-2	-3.155136E-2	1.137543E-2	-4.075623E-2	-3.519592E-1	4.277344E-1
3.018300E+10	-7.632141E-1	3.004150E-1	9.708405E-2	-2.956390E-2	1.068115E-2	-4.142570E-2	-3.509521E-1	4.355774E-1
3.040750E+10	-7.633362E-1	3.027039E-1	9.761810E-2	-3.058624E-2	1.164436E-2	-3.736496E-2	-3.461609E-1	4.335937E-1
3.063200E+10	-7.611694E-1	3.045044E-1	9.629059E-2	-3.253937E-2	1.253128E-2	-3.818321E-2	-3.410797E-1	4.405060E-1
3.085650E+10	-7.603455E-1	3.074341E-1	9.698486E-2	-3.646851E-2	1.265907E-2	-4.033089E-2	-3.382111E-1	4.353333E-1
3.108100E+10	-7.575989E-1	3.057251E-1	9.581757E-2	-3.595734E-2	1.023293E-2	-4.069901E-2	-3.331146E-1	4.412231E-1
3.130550E+10	-7.554016E-1	3.108215E-1	9.138870E-2	-3.670502E-2	1.170540E-2	-3.900146E-2	-3.220673E-1	4.406738E-1
3.153000E+10	-7.568359E-1	3.099365E-1	9.561539E-2	-3.499985E-2	1.031494E-2	-3.608513E-2	-3.231049E-1	4.332275E-1
3.175450E+10	-7.521667E-1	3.131714E-1	8.978653E-2	-4.081726E-2	7.825851E-3	-3.973389E-2	-3.195496E-1	4.388275E-1
3.197900E+10	-7.543640E-1	3.128967E-1	9.035492E-2	-4.020691E-2	6.498337E-3	-3.321648E-2	-3.054810E-1	4.350891E-1
3.220350E+10	-7.543640E-1	3.171082E-1	8.910751E-2	-4.034042E-2	9.746552E-3	-3.337860E-2	-3.039551E-1	4.384613E-1
3.242800E+10	-7.527161E-1	3.147278E-1	8.911896E-2	-4.462433E-2	8.899689E-3	-3.431702E-2	-2.996368E-1	4.392700E-1
3.265250E+10	-7.527466E-1	3.229065E-1	9.434891E-2	-4.338455E-2	8.716583E-3	-3.853607E-2	-2.930756E-1	4.326782E-1
3.287700E+10	-7.535706E-1	3.216248E-1	8.962250E-2	-4.325867E-2	1.291275E-2	-3.212357E-2	-2.973480E-1	4.385071E-1
3.310150E+10	-7.461548E-1	3.259888E-1	8.983994E-2	-4.523087E-2	1.025391E-2	-3.196907E-2	-2.872772E-1	4.360504E-1
3.332600E+10	-7.443848E-1	3.264160E-1	8.745193E-2	-4.850006E-2	7.261276E-3	-3.666115E-2	-2.839966E-1	4.294586E-1
3.355050E+10	-7.436829E-1	3.264465E-1	8.649445E-2	-5.006409E-2	1.124382E-2	-3.301811E-2	-2.883911E-1	4.344330E-1
3.377500E+10	-7.433777E-1	3.300781E-1	8.478165E-2	-4.731369E-2	9.845734E-3	-3.281212E-2	-2.774200E-1	4.306946E-1
3.399950E+10	-7.423706E-1	3.320007E-1	8.745193E-2	-4.564667E-2	9.679794E-3	-3.310966E-2	-2.786560E-1	4.354553E-1
3.422400E+10	-7.415771E-1	3.329163E-1	8.536148E-2	-5.052185E-2	1.008415E-2	-3.453636E-2	-2.715607E-1	4.413147E-1
3.444850E+10	-7.427979E-1	3.370056E-1	8.017731E-2	-5.118179E-2	1.172638E-2	-3.258324E-2	-2.594757E-1	4.372253E-1
3.467300E+10	-7.406616E-1	3.377991E-1	8.323669E-2	-5.447388E-2	1.295471E-2	-3.401375E-2	-2.641754E-1	4.382324E-1
3.489750E+10	-7.399597E-1	3.384705E-1	8.139801E-2	-5.729675E-2	1.256561E-2	-3.204346E-2	-2.637787E-1	4.414062E-1
3.512200E+10	-7.410583E-1	3.370361E-1	8.238220E-2	-5.517197E-2	1.368904E-2	-3.345871E-2	-2.499084E-1	4.344330E-1
3.534650E+10	-7.373657E-1	3.380127E-1	7.827377E-2	-5.474091E-2	8.480072E-3	-3.275871E-2	-2.461853E-1	4.351807E-1
3.557100E+10	-7.385254E-1	3.439941E-1	7.376480E-2	-5.844879E-2	1.206017E-2	-3.094101E-2	-2.396393E-1	4.417267E-1
3.579550E+10	-7.366943E-1	3.479919E-1	8.011627E-2	-5.609131E-2	1.584244E-2	-3.144264E-2	-2.347565E-1	4.364624E-1
3.602000E+10	-7.342834E-1	3.470459E-1	7.594681E-2	-5.678940E-2	8.302689E-3	-3.143692E-2	-2.316589E-1	4.329987E-1
3.624450E+10	-7.314453E-1	3.493958E-1	7.377243E-2	-5.456161E-2	5.649567E-3	-3.258896E-2	-2.322693E-1	4.305420E-1
3.646900E+10	-7.326355E-1	3.517761E-1	7.506943E-2	-5.856705E-2	1.416206E-2	-2.881527E-2	-2.279053E-1	4.351654E-1
3.669350E+10	-7.335815E-1	3.526611E-1	7.205582E-2	-6.069565E-2	1.249123E-2	-3.319359E-2	-2.200775E-1	4.305725E-1
3.691800E+10	-7.278442E-1	3.562927E-1	7.239151E-2	-5.871964E-2	1.122379E-2	-2.738285E-2	-2.221985E-1	4.300079E-1
3.714250E+10	-7.308350E-1	3.578796E-1	7.015228E-2	-5.778503E-2	8.712769E-3	-3.194046E-2	-2.146912E-1	4.382477E-1
3.736700E+10	-7.259827E-1	3.656311E-1	6.856155E-2	-5.698776E-2	9.315491E-3	-3.014183E-2	-2.071381E-1	4.255981E-1
3.759150E+10	-7.246094E-1	3.658752E-1	6.976318E-2	-5.516815E-2	1.026344E-2	-3.187752E-2	-2.115784E-1	4.302216E-1
3.781600E+10	-7.306519E-1	3.672180E-1	6.370926E-2	-6.328201E-2	7.903099E-3	-2.805996E-2	-2.014771E-1	4.292450E-1
3.804050E+10	-7.220154E-1	3.670349E-1	6.513977E-2	-6.472778E-2	1.192665E-2	-2.352524E-2	-1.989594E-1	4.276886E-1
3.826500E+10	-7.217407E-1	3.724670E-1	6.804276E-2	-6.266403E-2	1.008892E-2	-2.966499E-2	-1.961975E-1	4.370728E-1
3.848950E+10	-7.219238E-1	3.727417E-1	6.116676E-2	-6.084824E-2	1.382828E-2	-3.141212E-2	-1.797638E-1	4.314880E-1
3.871400E+10	-7.250061E-1	3.646545E-1	5.927658E-2	-5.971146E-2	1.323509E-2	-2.846050E-2	-1.843262E-1	4.250031E-1
3.893850E+10	-7.138367E-1	3.774414E-1	6.023788E-2	-6.051445E-2	9.459496E-3	-2.835369E-2	-1.756744E-1	4.245911E-1
3.916300E+10	-7.208557E-1	3.788757E-1	5.954933E-2	-6.166649E-2	1.089382E-2	-2.974606E-2	-1.803131E-1	4.202423E-1
3.938750E+10	-7.167664E-1	3.816528E-1	6.426239E-2	-6.526566E-2	8.743286E-3	-3.245544E-2	-1.750336E-1	4.179840E-1
