!Date: 10/28/2005, 12:34 PM

!Vgs = -3.000000E+0
!Vds = 5.000000E+0
!Ig = -1.723700E-5
!Id = 3.584800E-1

# HZ S RI R 50
1.000000E+8	9.584656E-1	-2.148743E-1	-1.482568E+1	1.243652E+0	5.211830E-4	8.825302E-3	3.345032E-1	-8.554077E-2
3.245000E+8	7.349243E-1	-6.069336E-1	-1.278027E+1	5.208008E+0	1.204109E-2	2.614498E-2	1.468811E-1	-2.453537E-1
5.490000E+8	4.295044E-1	-8.298340E-1	-1.017627E+1	7.083008E+0	2.463341E-2	3.325462E-2	5.111694E-2	-3.058777E-1
7.735000E+8	1.485596E-1	-9.078064E-1	-7.771240E+0	7.695068E+0	3.690529E-2	3.531837E-2	-5.976868E-2	-3.392944E-1
9.980000E+8	-7.730103E-2	-9.045105E-1	-5.850098E+0	7.634766E+0	4.649734E-2	3.364182E-2	-1.417999E-1	-3.256378E-1
1.222500E+9	-2.522583E-1	-8.658142E-1	-4.395752E+0	7.301025E+0	5.324173E-2	3.086472E-2	-1.979523E-1	-3.131714E-1
1.447000E+9	-3.858032E-1	-8.125916E-1	-3.288818E+0	6.839600E+0	5.859184E-2	2.788734E-2	-2.465515E-1	-2.935638E-1
1.671500E+9	-4.866333E-1	-7.554016E-1	-2.463867E+0	6.353027E+0	6.252289E-2	2.459335E-2	-2.803955E-1	-2.747955E-1
1.896000E+9	-5.649109E-1	-6.975708E-1	-1.852051E+0	5.878174E+0	6.554031E-2	2.146530E-2	-3.076630E-1	-2.533722E-1
2.120500E+9	-6.224976E-1	-6.441345E-1	-1.382812E+0	5.457275E+0	6.798935E-2	1.836014E-2	-3.274536E-1	-2.364655E-1
2.345000E+9	-6.692810E-1	-5.923767E-1	-1.007324E+0	5.064453E+0	7.014465E-2	1.567078E-2	-3.443298E-1	-2.185364E-1
2.569500E+9	-7.022705E-1	-5.476990E-1	-7.145996E-1	4.703857E+0	7.102203E-2	1.215744E-2	-3.557281E-1	-2.043915E-1
2.794000E+9	-7.318115E-1	-5.107727E-1	-4.899902E-1	4.395752E+0	7.164764E-2	9.849548E-3	-3.658905E-1	-1.919861E-1
3.018500E+9	-7.546997E-1	-4.731750E-1	-2.978516E-1	4.106934E+0	7.276154E-2	7.606506E-3	-3.736115E-1	-1.797333E-1
3.243000E+9	-7.737122E-1	-4.398499E-1	-1.401367E-1	3.854004E+0	7.300949E-2	4.867554E-3	-3.808746E-1	-1.698761E-1
3.467500E+9	-7.902222E-1	-4.112244E-1	-1.110840E-2	3.627441E+0	7.332230E-2	2.956390E-3	-3.865356E-1	-1.607819E-1
3.692000E+9	-8.040771E-1	-3.848267E-1	1.025391E-1	3.416138E+0	7.368851E-2	1.064301E-3	-3.911591E-1	-1.531067E-1
3.916500E+9	-8.160095E-1	-3.580017E-1	1.923828E-1	3.222534E+0	7.417297E-2	-5.035400E-4	-3.978882E-1	-1.459656E-1
4.141000E+9	-8.256226E-1	-3.346863E-1	2.700195E-1	3.050781E+0	7.427216E-2	-2.956390E-3	-4.010162E-1	-1.384277E-1
4.365500E+9	-8.319092E-1	-3.139038E-1	3.381348E-1	2.890015E+0	7.446671E-2	-4.520416E-3	-4.053802E-1	-1.332092E-1
4.590000E+9	-8.401184E-1	-2.947388E-1	3.941650E-1	2.737793E+0	7.386780E-2	-5.962372E-3	-4.091644E-1	-1.261749E-1
4.814500E+9	-8.471985E-1	-2.762146E-1	4.407959E-1	2.601929E+0	7.399750E-2	-7.110596E-3	-4.116058E-1	-1.212769E-1
5.039000E+9	-8.517151E-1	-2.585144E-1	4.822998E-1	2.477539E+0	7.404327E-2	-9.292603E-3	-4.153595E-1	-1.165314E-1
5.263500E+9	-8.563538E-1	-2.415771E-1	5.181885E-1	2.361450E+0	7.356644E-2	-1.067734E-2	-4.181519E-1	-1.110840E-1
5.488000E+9	-8.589783E-1	-2.279663E-1	5.507812E-1	2.254883E+0	7.332230E-2	-1.230621E-2	-4.202576E-1	-1.066284E-1
5.712500E+9	-8.635559E-1	-2.136536E-1	5.788574E-1	2.150635E+0	7.323837E-2	-1.288223E-2	-4.228210E-1	-1.032104E-1
5.937000E+9	-8.664551E-1	-1.995239E-1	6.019287E-1	2.055298E+0	7.329941E-2	-1.427460E-2	-4.254913E-1	-9.936523E-2
6.161500E+9	-8.694458E-1	-1.871033E-1	6.229248E-1	1.968994E+0	7.284164E-2	-1.647949E-2	-4.283600E-1	-9.301758E-2
6.386000E+9	-8.722534E-1	-1.743774E-1	6.422729E-1	1.884949E+0	7.249451E-2	-1.778412E-2	-4.288025E-1	-9.014893E-2
6.610500E+9	-8.733826E-1	-1.629333E-1	6.602173E-1	1.807068E+0	7.262802E-2	-1.922607E-2	-4.325867E-1	-8.850098E-2
6.835000E+9	-8.764954E-1	-1.524048E-1	6.748657E-1	1.730835E+0	7.142258E-2	-2.053452E-2	-4.347839E-1	-8.277893E-2
7.059500E+9	-8.772888E-1	-1.420898E-1	6.832886E-1	1.660400E+0	7.101440E-2	-2.156830E-2	-4.328461E-1	-8.207703E-2
7.284000E+9	-8.788147E-1	-1.325378E-1	6.937866E-1	1.594421E+0	7.071304E-2	-2.273560E-2	-4.381104E-1	-7.797241E-2
7.508500E+9	-8.808594E-1	-1.225281E-1	7.020874E-1	1.529663E+0	7.056427E-2	-2.387619E-2	-4.360657E-1	-7.446289E-2
7.733000E+9	-8.805542E-1	-1.125183E-1	7.096558E-1	1.471069E+0	6.988525E-2	-2.474213E-2	-4.394684E-1	-7.487488E-2
7.957500E+9	-8.816528E-1	-1.033936E-1	7.177734E-1	1.414124E+0	6.917953E-2	-2.634048E-2	-4.427948E-1	-7.028198E-2
8.182000E+9	-8.830872E-1	-9.432983E-2	7.238770E-1	1.361267E+0	6.914902E-2	-2.785492E-2	-4.447479E-1	-6.871033E-2
8.406500E+9	-8.820496E-1	-8.654785E-2	7.272339E-1	1.308960E+0	6.786728E-2	-2.820206E-2	-4.458618E-1	-6.494141E-2
8.631000E+9	-8.837585E-1	-7.815552E-2	7.329712E-1	1.257935E+0	6.736755E-2	-2.975464E-2	-4.486542E-1	-6.253052E-2
8.855500E+9	-8.843384E-1	-7.025146E-2	7.354126E-1	1.209106E+0	6.709290E-2	-3.100586E-2	-4.504547E-1	-5.867004E-2
9.080001E+9	-8.853149E-1	-6.420898E-2	7.368774E-1	1.164551E+0	6.567001E-2	-3.223038E-2	-4.507141E-1	-5.522156E-2
9.304500E+9	-8.840637E-1	-5.410767E-2	7.373657E-1	1.121826E+0	6.500244E-2	-3.281403E-2	-4.522705E-1	-5.447388E-2
9.529000E+9	-8.848877E-1	-4.824829E-2	7.383423E-1	1.079163E+0	6.439590E-2	-3.393555E-2	-4.556580E-1	-5.093384E-2
9.753500E+9	-8.847961E-1	-4.174805E-2	7.377930E-1	1.038879E+0	6.337357E-2	-3.503036E-2	-4.556427E-1	-4.736328E-2
9.978000E+9	-8.849487E-1	-3.451538E-2	7.376099E-1	1.001221E+0	6.275940E-2	-3.519821E-2	-4.575195E-1	-4.699707E-2
1.020250E+10	-8.861084E-1	-2.844238E-2	7.366028E-1	9.638977E-1	6.152153E-2	-3.676987E-2	-4.591827E-1	-4.217529E-2
1.042700E+10	-8.858643E-1	-2.117920E-2	7.357178E-1	9.289856E-1	6.144905E-2	-3.769684E-2	-4.594269E-1	-4.011536E-2
1.065150E+10	-8.847961E-1	-1.440430E-2	7.351074E-1	8.950500E-1	6.098557E-2	-3.855705E-2	-4.616547E-1	-3.913879E-2
1.087600E+10	-8.850403E-1	-8.819580E-3	7.320862E-1	8.621521E-1	5.939674E-2	-3.924942E-2	-4.637909E-1	-3.599548E-2
1.110050E+10	-8.851318E-1	-2.471924E-3	7.311096E-1	8.296814E-1	5.897713E-2	-3.963661E-2	-4.640503E-1	-3.266907E-2
1.132500E+10	-8.844604E-1	2.716064E-3	7.280273E-1	7.995300E-1	5.809212E-2	-4.096413E-2	-4.645081E-1	-3.259277E-2
1.154950E+10	-8.843994E-1	9.948730E-3	7.245483E-1	7.685852E-1	5.640030E-2	-4.133034E-2	-4.691010E-1	-2.876282E-2
1.177400E+10	-8.832397E-1	1.531982E-2	7.218933E-1	7.423401E-1	5.615616E-2	-4.190063E-2	-4.690247E-1	-2.546692E-2
1.199850E+10	-8.828430E-1	2.151489E-2	7.205200E-1	7.151489E-1	5.505562E-2	-4.329109E-2	-4.700012E-1	-2.467346E-2
1.222300E+10	-8.828430E-1	2.645874E-2	7.149658E-1	6.875610E-1	5.439758E-2	-4.302406E-2	-4.722443E-1	-2.272034E-2
1.244750E+10	-8.813477E-1	3.128052E-2	7.100525E-1	6.603088E-1	5.383301E-2	-4.384613E-2	-4.737244E-1	-1.744080E-2
1.267200E+10	-8.826599E-1	3.756714E-2	7.071228E-1	6.364441E-1	5.216789E-2	-4.526138E-2	-4.736938E-1	-1.893616E-2
1.289650E+10	-8.811951E-1	4.132080E-2	6.997986E-1	6.121826E-1	5.210876E-2	-4.503632E-2	-4.781494E-1	-1.579285E-2
1.312100E+10	-8.804932E-1	4.644775E-2	6.965332E-1	5.900574E-1	5.041504E-2	-4.623413E-2	-4.780121E-1	-1.135254E-2
1.334550E+10	-8.797913E-1	5.249023E-2	6.925659E-1	5.685425E-1	5.036354E-2	-4.661751E-2	-4.784088E-1	-1.063538E-2
1.357000E+10	-8.786621E-1	5.612183E-2	6.870422E-1	5.448914E-1	4.827309E-2	-4.730415E-2	-4.813080E-1	-1.089478E-2
1.379450E+10	-8.778687E-1	6.164551E-2	6.818542E-1	5.250549E-1	4.879570E-2	-4.793167E-2	-4.836426E-1	-3.494263E-3
1.401900E+10	-8.782654E-1	6.671143E-2	6.785889E-1	5.072632E-1	4.735756E-2	-4.807281E-2	-4.830170E-1	-2.609253E-3
1.424350E+10	-8.777771E-1	7.077026E-2	6.713867E-1	4.862976E-1	4.584694E-2	-4.863167E-2	-4.859924E-1	-3.662109E-4
1.446800E+10	-8.770752E-1	7.653809E-2	6.673584E-1	4.687195E-1	4.512405E-2	-4.944229E-2	-4.871063E-1	4.867554E-3
1.469250E+10	-8.744202E-1	8.081055E-2	6.615601E-1	4.493408E-1	4.377747E-2	-5.011559E-2	-4.855347E-1	5.950928E-3
1.491700E+10	-8.742065E-1	8.596802E-2	6.572266E-1	4.309998E-1	4.350853E-2	-5.042076E-2	-4.898682E-1	7.034302E-3
1.514150E+10	-8.739014E-1	8.990479E-2	6.514587E-1	4.141235E-1	4.199409E-2	-5.030441E-2	-4.896240E-1	1.210022E-2
1.536600E+10	-8.729248E-1	9.603882E-2	6.449890E-1	3.969116E-1	4.133797E-2	-5.142021E-2	-4.882965E-1	1.412964E-2
1.559050E+10	-8.720093E-1	9.771729E-2	6.385498E-1	3.802490E-1	4.024124E-2	-5.139542E-2	-4.921875E-1	1.522827E-2
1.581500E+10	-8.706665E-1	1.029968E-1	6.327820E-1	3.635864E-1	3.987312E-2	-5.147743E-2	-4.948120E-1	1.913452E-2
1.603950E+10	-8.701782E-1	1.073914E-1	6.276245E-1	3.500671E-1	3.808784E-2	-5.257225E-2	-4.935150E-1	2.101135E-2
1.626400E+10	-8.688049E-1	1.125488E-1	6.221313E-1	3.370972E-1	3.802299E-2	-5.226135E-2	-4.967346E-1	2.157593E-2
1.648850E+10	-8.678589E-1	1.155090E-1	6.156006E-1	3.203430E-1	3.677559E-2	-5.299187E-2	-4.977112E-1	2.819824E-2
1.671300E+10	-8.665771E-1	1.193237E-1	6.092224E-1	3.065796E-1	3.559113E-2	-5.235672E-2	-4.977570E-1	2.941895E-2
1.693750E+10	-8.666992E-1	1.235657E-1	6.040039E-1	2.940369E-1	3.352737E-2	-5.452347E-2	-4.998627E-1	3.027344E-2
1.716200E+10	-8.660278E-1	1.289978E-1	5.989075E-1	2.805481E-1	3.180122E-2	-5.471802E-2	-5.023193E-1	3.610229E-2
1.738650E+10	-8.656921E-1	1.339111E-1	5.930481E-1	2.702942E-1	3.119659E-2	-5.462265E-2	-5.010071E-1	3.796387E-2
1.761100E+10	-8.626709E-1	1.365967E-1	5.856323E-1	2.577209E-1	2.952194E-2	-5.379486E-2	-5.039673E-1	4.031372E-2
1.783550E+10	-8.626709E-1	1.419067E-1	5.804443E-1	2.449646E-1	2.923203E-2	-5.459976E-2	-5.057678E-1	4.733276E-2
1.806000E+10	-8.611450E-1	1.439819E-1	5.743713E-1	2.337036E-1	2.844238E-2	-5.534554E-2	-5.051270E-1	4.977417E-2
1.828450E+10	-8.590088E-1	1.500854E-1	5.698547E-1	2.227478E-1	2.716637E-2	-5.456352E-2	-5.068665E-1	4.898071E-2
1.850900E+10	-8.598022E-1	1.517639E-1	5.626831E-1	2.139282E-1	2.601051E-2	-5.387688E-2	-5.086670E-1	5.352783E-2
1.873350E+10	-8.572388E-1	1.564026E-1	5.582886E-1	2.019043E-1	2.495766E-2	-5.516243E-2	-5.075378E-1	5.883789E-2
1.895800E+10	-8.548889E-1	1.603088E-1	5.519714E-1	1.917725E-1	2.519608E-2	-5.595207E-2	-5.097656E-1	5.841064E-2
1.918250E+10	-8.542175E-1	1.643982E-1	5.453491E-1	1.817627E-1	2.337646E-2	-5.570030E-2	-5.115051E-1	6.240845E-2
1.940700E+10	-8.519592E-1	1.675720E-1	5.401611E-1	1.737366E-1	2.179909E-2	-5.548096E-2	-5.099182E-1	7.009888E-2
1.963150E+10	-8.526917E-1	1.714783E-1	5.332947E-1	1.628418E-1	1.959419E-2	-5.556870E-2	-5.083618E-1	6.958008E-2
1.985600E+10	-8.505554E-1	1.741333E-1	5.288391E-1	1.559448E-1	2.074242E-2	-5.527306E-2	-5.113220E-1	7.205200E-2
2.008050E+10	-8.500671E-1	1.783142E-1	5.223694E-1	1.481323E-1	1.735497E-2	-5.503464E-2	-5.138245E-1	8.065796E-2
2.030500E+10	-8.479919E-1	1.818542E-1	5.163269E-1	1.388245E-1	1.816750E-2	-5.421448E-2	-5.126343E-1	8.004761E-2
2.052950E+10	-8.460388E-1	1.850891E-1	5.106812E-1	1.303101E-1	1.610756E-2	-5.447960E-2	-5.161133E-1	8.276367E-2
2.075400E+10	-8.453674E-1	1.881104E-1	5.049744E-1	1.231384E-1	1.520157E-2	-5.422783E-2	-5.148315E-1	8.822632E-2
2.097850E+10	-8.452759E-1	1.930542E-1	4.993591E-1	1.154480E-1	1.441956E-2	-5.489731E-2	-5.136108E-1	8.938599E-2
2.120300E+10	-8.435364E-1	1.954651E-1	4.947662E-1	1.083679E-1	1.338959E-2	-5.536461E-2	-5.158386E-1	8.901978E-2
2.142750E+10	-8.424377E-1	1.988831E-1	4.888916E-1	1.026154E-1	1.178741E-2	-5.448341E-2	-5.181274E-1	9.643555E-2
2.165200E+10	-8.403015E-1	2.041626E-1	4.843903E-1	9.513855E-2	1.029205E-2	-5.424118E-2	-5.161133E-1	1.004944E-1
2.187650E+10	-8.384399E-1	2.048340E-1	4.770508E-1	8.737183E-2	9.941101E-3	-5.361176E-2	-5.176392E-1	1.026306E-1
2.210100E+10	-8.375244E-1	2.090454E-1	4.733734E-1	8.168030E-2	9.304047E-3	-5.523682E-2	-5.217285E-1	1.093140E-1
2.232550E+10	-8.349915E-1	2.107239E-1	4.677887E-1	7.762146E-2	7.114410E-3	-5.225182E-2	-5.161133E-1	1.141052E-1
2.255000E+10	-8.351440E-1	2.171936E-1	4.595490E-1	7.005310E-2	7.078171E-3	-5.230904E-2	-5.180359E-1	1.135864E-1
2.277450E+10	-8.326721E-1	2.191467E-1	4.573059E-1	6.365967E-2	5.796432E-3	-5.282021E-2	-5.197449E-1	1.208801E-1
2.299900E+10	-8.328857E-1	2.218628E-1	4.525604E-1	5.912781E-2	3.150940E-3	-5.389977E-2	-5.174255E-1	1.229858E-1
2.322350E+10	-8.301086E-1	2.252808E-1	4.490051E-1	5.253601E-2	3.238678E-3	-5.408669E-2	-5.196228E-1	1.241150E-1
2.344800E+10	-8.285828E-1	2.284851E-1	4.420013E-1	4.997253E-2	2.962112E-3	-5.176163E-2	-5.202332E-1	1.342773E-1
2.367250E+10	-8.294067E-1	2.331848E-1	4.365082E-1	4.376221E-2	9.613037E-4	-5.256462E-2	-5.158386E-1	1.345520E-1
2.389700E+10	-8.272400E-1	2.362061E-1	4.324493E-1	3.730774E-2	-6.980896E-4	-5.249786E-2	-5.191650E-1	1.363220E-1
2.412150E+10	-8.244019E-1	2.388306E-1	4.288025E-1	3.266907E-2	-3.778458E-3	-5.099297E-2	-5.188293E-1	1.439819E-1
2.434600E+10	-8.226318E-1	2.424316E-1	4.227295E-1	2.882385E-2	-2.384186E-3	-5.145264E-2	-5.161438E-1	1.462402E-1
2.457050E+10	-8.220520E-1	2.444458E-1	4.177704E-1	2.511597E-2	-3.482819E-3	-5.024338E-2	-5.171204E-1	1.472778E-1
2.479500E+10	-8.191833E-1	2.485657E-1	4.125671E-1	2.183533E-2	-5.857468E-3	-5.020523E-2	-5.155029E-1	1.526794E-1
2.501950E+10	-8.159485E-1	2.514954E-1	4.089355E-1	1.705933E-2	-6.792068E-3	-4.898262E-2	-5.117798E-1	1.553650E-1
2.524400E+10	-8.166199E-1	2.540283E-1	4.050903E-1	1.644897E-2	-8.285522E-3	-4.681969E-2	-5.129700E-1	1.582947E-1
2.546850E+10	-8.133545E-1	2.590637E-1	4.017792E-1	1.025391E-2	-7.995605E-3	-4.629135E-2	-5.119019E-1	1.641541E-1
2.569300E+10	-8.099670E-1	2.600403E-1	3.977203E-1	7.125854E-3	-8.148193E-3	-4.384613E-2	-5.133667E-1	1.649475E-1
2.591750E+10	-8.106079E-1	2.644043E-1	3.917389E-1	2.197266E-3	-1.052666E-2	-4.512596E-2	-5.144043E-1	1.656799E-1
2.614200E+10	-8.081055E-1	2.660828E-1	3.879242E-1	1.632690E-3	-1.113129E-2	-4.646683E-2	-5.162659E-1	1.742554E-1
2.636650E+10	-8.061829E-1	2.673950E-1	3.857269E-1	-3.005981E-3	-1.260185E-2	-4.265404E-2	-5.150452E-1	1.793213E-1
2.659100E+10	-8.048096E-1	2.701721E-1	3.807526E-1	-6.774902E-3	-1.121330E-2	-4.218864E-2	-5.102234E-1	1.825867E-1
2.681550E+10	-8.017273E-1	2.715149E-1	3.779144E-1	-8.331299E-3	-1.284409E-2	-4.157639E-2	-5.144653E-1	1.838989E-1
2.704000E+10	-8.014221E-1	2.768860E-1	3.747253E-1	-1.057434E-2	-1.476097E-2	-4.310036E-2	-5.148621E-1	1.952209E-1
2.726450E+10	-7.996826E-1	2.802734E-1	3.713074E-1	-1.475525E-2	-1.541328E-2	-4.204750E-2	-5.079956E-1	1.919556E-1
2.748900E+10	-7.970276E-1	2.826843E-1	3.684235E-1	-1.841736E-2	-1.421928E-2	-3.884315E-2	-5.119934E-1	1.933289E-1
2.771350E+10	-7.951965E-1	2.839966E-1	3.641357E-1	-1.988220E-2	-1.683426E-2	-3.900719E-2	-5.074463E-1	2.004700E-1
2.793800E+10	-7.960815E-1	2.840881E-1	3.622131E-1	-2.375793E-2	-1.569176E-2	-3.696442E-2	-5.065002E-1	2.003174E-1
2.816250E+10	-7.927551E-1	2.876587E-1	3.608704E-1	-2.560425E-2	-1.849365E-2	-3.829765E-2	-5.092163E-1	2.072449E-1
2.838700E+10	-7.897034E-1	2.901001E-1	3.526917E-1	-2.885437E-2	-2.076721E-2	-3.610992E-2	-5.085144E-1	2.114258E-1
2.861150E+10	-7.888489E-1	2.947083E-1	3.530579E-1	-2.987671E-2	-2.089882E-2	-3.407860E-2	-5.015564E-1	2.166443E-1
2.883600E+10	-7.896729E-1	2.947083E-1	3.509369E-1	-3.184509E-2	-1.899529E-2	-3.462029E-2	-5.067444E-1	2.167053E-1
2.906050E+10	-7.839050E-1	2.998352E-1	3.462830E-1	-3.175354E-2	-2.345848E-2	-2.986908E-2	-5.046387E-1	2.235718E-1
2.928500E+10	-7.844238E-1	3.043518E-1	3.436432E-1	-3.625488E-2	-2.443981E-2	-3.057861E-2	-5.036316E-1	2.252197E-1
2.950950E+10	-7.817993E-1	3.065186E-1	3.408508E-1	-3.851318E-2	-2.324486E-2	-2.732372E-2	-5.051880E-1	2.299805E-1
2.973400E+10	-7.797546E-1	3.078308E-1	3.409424E-1	-4.093933E-2	-2.275562E-2	-2.738285E-2	-5.031738E-1	2.342529E-1
2.995850E+10	-7.779236E-1	3.103333E-1	3.355560E-1	-3.987122E-2	-2.293587E-2	-2.634430E-2	-5.025635E-1	2.393188E-1
3.018300E+10	-7.754517E-1	3.125305E-1	3.370361E-1	-4.376221E-2	-2.733994E-2	-2.451992E-2	-5.043335E-1	2.470703E-1
3.040750E+10	-7.725830E-1	3.157043E-1	3.369598E-1	-5.006409E-2	-2.601528E-2	-2.458286E-2	-5.014038E-1	2.511902E-1
3.063200E+10	-7.709351E-1	3.173218E-1	3.313599E-1	-4.829407E-2	-2.338696E-2	-2.140522E-2	-5.013428E-1	2.582703E-1
3.085650E+10	-7.686462E-1	3.207703E-1	3.323059E-1	-5.068970E-2	-2.450943E-2	-2.172089E-2	-4.965973E-1	2.640076E-1
3.108100E+10	-7.665405E-1	3.223572E-1	3.305359E-1	-5.528259E-2	-2.917290E-2	-1.937008E-2	-4.964905E-1	2.630920E-1
3.130550E+10	-7.677002E-1	3.205872E-1	3.226624E-1	-5.619812E-2	-2.910519E-2	-1.676273E-2	-4.907532E-1	2.722015E-1
3.153000E+10	-7.665710E-1	3.245239E-1	3.265076E-1	-5.311584E-2	-2.628613E-2	-1.870823E-2	-4.939270E-1	2.715302E-1
3.175450E+10	-7.642212E-1	3.252869E-1	3.232574E-1	-5.894470E-2	-2.725601E-2	-1.475239E-2	-4.880676E-1	2.846527E-1
3.197900E+10	-7.575073E-1	3.293152E-1	3.199158E-1	-6.622314E-2	-2.866077E-2	-1.517677E-2	-4.827728E-1	2.812042E-1
3.220350E+10	-7.601624E-1	3.333740E-1	3.215637E-1	-6.111145E-2	-2.516651E-2	-1.422787E-2	-4.873199E-1	2.864532E-1
3.242800E+10	-7.646484E-1	3.306274E-1	3.186493E-1	-6.721497E-2	-3.031063E-2	-9.819031E-3	-4.818726E-1	2.903748E-1
3.265250E+10	-7.588196E-1	3.369446E-1	3.158569E-1	-6.915283E-2	-3.145981E-2	-1.248932E-2	-4.770813E-1	2.968903E-1
3.287700E+10	-7.541809E-1	3.381348E-1	3.233795E-1	-7.270813E-2	-2.675247E-2	-5.858421E-3	-4.811401E-1	3.005371E-1
3.310150E+10	-7.549438E-1	3.397522E-1	3.161774E-1	-7.124329E-2	-2.681446E-2	-8.328438E-3	-4.776001E-1	3.047028E-1
3.332600E+10	-7.512207E-1	3.449707E-1	3.120422E-1	-7.923889E-2	-2.873039E-2	-4.783630E-3	-4.724731E-1	3.065643E-1
3.355050E+10	-7.487488E-1	3.442078E-1	3.164520E-1	-8.270264E-2	-3.033066E-2	-8.812904E-3	-4.723053E-1	3.125153E-1
3.377500E+10	-7.485046E-1	3.508911E-1	3.152008E-1	-8.355713E-2	-2.579975E-2	-2.066612E-3	-4.694824E-1	3.167725E-1
3.399950E+10	-7.447510E-1	3.462524E-1	3.095245E-1	-8.613586E-2	-2.914238E-2	-5.235672E-4	-4.648285E-1	3.213959E-1
3.422400E+10	-7.426147E-1	3.498840E-1	3.093414E-1	-8.593750E-2	-2.857685E-2	-1.396179E-3	-4.712982E-1	3.314056E-1
3.444850E+10	-7.415771E-1	3.515625E-1	3.092346E-1	-9.158325E-2	-2.778435E-2	2.462387E-3	-4.584808E-1	3.350067E-1
3.467300E+10	-7.383728E-1	3.578796E-1	3.141327E-1	-8.857727E-2	-2.638721E-2	1.866341E-3	-4.618378E-1	3.383179E-1
3.489750E+10	-7.403259E-1	3.582764E-1	3.092957E-1	-9.727478E-2	-2.186680E-2	3.653526E-3	-4.566498E-1	3.415527E-1
3.512200E+10	-7.385864E-1	3.550110E-1	3.041992E-1	-9.603882E-2	-2.360821E-2	4.317284E-3	-4.508667E-1	3.476715E-1
3.534650E+10	-7.322083E-1	3.603516E-1	3.094330E-1	-9.951782E-2	-2.271557E-2	3.696442E-3	-4.497681E-1	3.559723E-1
3.557100E+10	-7.326660E-1	3.592834E-1	3.061981E-1	-1.041260E-1	-2.915192E-2	6.812096E-3	-4.399719E-1	3.646240E-1
3.579550E+10	-7.334595E-1	3.640747E-1	3.047028E-1	-1.088867E-1	-2.404404E-2	1.356411E-2	-4.347839E-1	3.617249E-1
3.602000E+10	-7.329407E-1	3.649902E-1	3.032837E-1	-1.086273E-1	-2.373505E-2	7.028580E-3	-4.393463E-1	3.665314E-1
3.624450E+10	-7.309875E-1	3.685608E-1	2.986603E-1	-1.121368E-1	-2.572727E-2	9.819031E-3	-4.314575E-1	3.690338E-1
3.646900E+10	-7.269897E-1	3.721313E-1	2.996368E-1	-1.165466E-1	-2.016735E-2	1.436424E-2	-4.313202E-1	3.840485E-1
3.669350E+10	-7.265015E-1	3.702393E-1	2.979279E-1	-1.232910E-1	-2.466774E-2	1.254272E-2	-4.279327E-1	3.874207E-1
3.691800E+10	-7.238770E-1	3.732300E-1	3.025360E-1	-1.231995E-1	-2.413750E-2	1.624489E-2	-4.217529E-1	3.946533E-1
3.714250E+10	-7.220459E-1	3.675232E-1	2.976685E-1	-1.283569E-1	-2.191830E-2	1.883221E-2	-4.141998E-1	3.980255E-1
3.736700E+10	-7.178345E-1	3.737793E-1	2.945709E-1	-1.333771E-1	-1.818562E-2	2.119160E-2	-4.104919E-1	4.013519E-1
3.759150E+10	-7.173462E-1	3.764038E-1	2.934418E-1	-1.335297E-1	-2.085781E-2	2.350712E-2	-4.004669E-1	4.057007E-1
3.781600E+10	-7.188110E-1	3.822632E-1	2.890778E-1	-1.418152E-1	-1.705551E-2	1.910210E-2	-3.954773E-1	4.159546E-1
3.804050E+10	-7.205200E-1	3.835144E-1	2.903595E-1	-1.424103E-1	-1.346207E-2	2.385616E-2	-3.886261E-1	4.138184E-1
3.826500E+10	-7.117310E-1	3.832397E-1	2.906036E-1	-1.436615E-1	-1.491451E-2	1.824093E-2	-3.817596E-1	4.246063E-1
3.848950E+10	-7.111511E-1	3.839722E-1	2.924957E-1	-1.482086E-1	-1.498222E-2	2.172279E-2	-3.769531E-1	4.290771E-1
3.871400E+10	-7.071838E-1	3.814087E-1	2.879791E-1	-1.513977E-1	-1.129055E-2	2.591896E-2	-3.699493E-1	4.286957E-1
3.893850E+10	-7.089539E-1	3.890991E-1	2.876892E-1	-1.582336E-1	-1.404381E-2	2.550697E-2	-3.614197E-1	4.354095E-1
3.916300E+10	-7.156372E-1	3.916931E-1	2.797241E-1	-1.564331E-1	-1.211262E-2	2.283573E-2	-3.599548E-1	4.281158E-1
3.938750E+10	-7.091980E-1	3.952332E-1	2.865906E-1	-1.666107E-1	-1.074886E-2	2.457905E-2	-3.600464E-1	4.443512E-1
