!Date: 10/28/2005, 12:34 PM

!Vgs = -5.000000E+0
!Vds = 3.000000E+0
!Ig = -3.592600E-5
!Id = 7.282500E-3

# HZ S RI R 50
1.000000E+8	9.848633E-1	-8.294678E-2	-1.951111E+0	1.102905E-1	2.188683E-3	1.257706E-2	8.901367E-1	-2.954102E-2
3.245000E+8	9.450989E-1	-2.462158E-1	-1.869080E+0	4.197388E-1	8.998871E-3	3.916359E-2	8.549194E-1	-1.259766E-1
5.490000E+8	8.799744E-1	-3.908997E-1	-1.746948E+0	6.582031E-1	2.093315E-2	6.163788E-2	8.338928E-1	-1.977844E-1
7.735000E+8	7.954407E-1	-5.166321E-1	-1.581238E+0	8.491821E-1	3.711700E-2	7.985306E-2	7.973633E-1	-2.644653E-1
9.980000E+8	7.005005E-1	-6.188049E-1	-1.393188E+0	9.985962E-1	5.446625E-2	9.370041E-2	7.582397E-1	-3.182068E-1
1.222500E+9	5.961914E-1	-7.000732E-1	-1.214233E+0	1.123169E+0	7.288742E-2	1.032829E-1	7.182617E-1	-3.682861E-1
1.447000E+9	4.907227E-1	-7.605286E-1	-1.033997E+0	1.200989E+0	9.166336E-2	1.095619E-1	6.763000E-1	-4.104919E-1
1.671500E+9	3.889465E-1	-8.015137E-1	-8.516846E-1	1.243774E+0	1.096420E-1	1.127586E-1	6.330261E-1	-4.458923E-1
1.896000E+9	2.922058E-1	-8.285522E-1	-6.889648E-1	1.270935E+0	1.277542E-1	1.138916E-1	5.927124E-1	-4.748840E-1
2.120500E+9	2.022095E-1	-8.430786E-1	-5.338745E-1	1.266785E+0	1.449127E-1	1.116638E-1	5.540161E-1	-5.019531E-1
2.345000E+9	1.158752E-1	-8.473816E-1	-3.921509E-1	1.242310E+0	1.603928E-1	1.064377E-1	5.172729E-1	-5.242615E-1
2.569500E+9	4.348755E-2	-8.426514E-1	-2.670898E-1	1.219788E+0	1.731339E-1	1.013565E-1	4.804993E-1	-5.438232E-1
2.794000E+9	-2.612305E-2	-8.350525E-1	-1.564941E-1	1.183411E+0	1.844864E-1	9.391785E-2	4.474182E-1	-5.594788E-1
3.018500E+9	-8.865356E-2	-8.222961E-1	-5.895996E-2	1.136108E+0	1.947174E-1	8.625793E-2	4.125366E-1	-5.764465E-1
3.243000E+9	-1.462097E-1	-8.070068E-1	2.960205E-2	1.091797E+0	2.040253E-1	7.798004E-2	3.797302E-1	-5.885620E-1
3.467500E+9	-1.959839E-1	-7.909851E-1	1.041870E-1	1.045166E+0	2.105942E-1	7.073212E-2	3.512878E-1	-6.000671E-1
3.692000E+9	-2.402039E-1	-7.728882E-1	1.713867E-1	9.954224E-1	2.175140E-1	6.243134E-2	3.210754E-1	-6.128540E-1
3.916500E+9	-2.801819E-1	-7.544556E-1	2.287292E-1	9.396973E-1	2.238007E-1	5.340576E-2	2.926025E-1	-6.225891E-1
4.141000E+9	-3.184509E-1	-7.342834E-1	2.790527E-1	8.866882E-1	2.279816E-1	4.550171E-2	2.657471E-1	-6.307373E-1
4.365500E+9	-3.511658E-1	-7.149658E-1	3.225403E-1	8.356018E-1	2.325211E-1	3.685760E-2	2.381897E-1	-6.397095E-1
4.590000E+9	-3.832703E-1	-6.956787E-1	3.602295E-1	7.900696E-1	2.357254E-1	2.936554E-2	2.105408E-1	-6.468811E-1
4.814500E+9	-4.076233E-1	-6.782837E-1	3.927612E-1	7.421570E-1	2.393951E-1	2.103424E-2	1.859131E-1	-6.544800E-1
5.039000E+9	-4.335937E-1	-6.602783E-1	4.218750E-1	6.962585E-1	2.415314E-1	1.270294E-2	1.608276E-1	-6.629639E-1
5.263500E+9	-4.562378E-1	-6.417847E-1	4.450684E-1	6.484680E-1	2.425919E-1	4.585266E-3	1.346130E-1	-6.680298E-1
5.488000E+9	-4.766846E-1	-6.245422E-1	4.642639E-1	6.035767E-1	2.435913E-1	-2.906799E-3	1.104126E-1	-6.723633E-1
5.712500E+9	-4.974365E-1	-6.070251E-1	4.806213E-1	5.618591E-1	2.441406E-1	-1.038361E-2	8.612061E-2	-6.761780E-1
5.937000E+9	-5.149841E-1	-5.894165E-1	4.955139E-1	5.217896E-1	2.453003E-1	-1.790619E-2	6.158447E-2	-6.818542E-1
6.161500E+9	-5.300293E-1	-5.761414E-1	5.073242E-1	4.862976E-1	2.450485E-1	-2.482605E-2	3.881836E-2	-6.857910E-1
6.386000E+9	-5.454712E-1	-5.605164E-1	5.161743E-1	4.463501E-1	2.444992E-1	-3.220367E-2	1.507568E-2	-6.896057E-1
6.610500E+9	-5.592346E-1	-5.473938E-1	5.227356E-1	4.097290E-1	2.431946E-1	-3.844452E-2	-9.460449E-3	-6.927795E-1
6.835000E+9	-5.733643E-1	-5.333252E-1	5.272827E-1	3.760681E-1	2.434387E-1	-4.530334E-2	-3.302002E-2	-6.923828E-1
7.059500E+9	-5.848694E-1	-5.190125E-1	5.303040E-1	3.424377E-1	2.427826E-1	-5.110931E-2	-5.245972E-2	-6.941528E-1
7.284000E+9	-5.962830E-1	-5.055542E-1	5.319214E-1	3.115540E-1	2.405701E-1	-5.815125E-2	-7.723999E-2	-6.962280E-1
7.508500E+9	-6.081238E-1	-4.935303E-1	5.345764E-1	2.829285E-1	2.385559E-1	-6.356049E-2	-1.001892E-1	-6.938171E-1
7.733000E+9	-6.165161E-1	-4.807739E-1	5.317383E-1	2.528992E-1	2.376480E-1	-6.946564E-2	-1.195068E-1	-6.941223E-1
7.957500E+9	-6.260376E-1	-4.695435E-1	5.299683E-1	2.266846E-1	2.352829E-1	-7.530212E-2	-1.442871E-1	-6.931458E-1
8.182000E+9	-6.354370E-1	-4.565430E-1	5.275879E-1	1.987610E-1	2.331009E-1	-8.097076E-2	-1.650085E-1	-6.918945E-1
8.406500E+9	-6.437988E-1	-4.461670E-1	5.241699E-1	1.749878E-1	2.308731E-1	-8.591461E-2	-1.850281E-1	-6.889648E-1
8.631000E+9	-6.528931E-1	-4.345093E-1	5.212708E-1	1.522522E-1	2.282333E-1	-9.099579E-2	-2.080994E-1	-6.865845E-1
8.855500E+9	-6.599426E-1	-4.242249E-1	5.156860E-1	1.293640E-1	2.256012E-1	-9.603882E-2	-2.284546E-1	-6.833191E-1
9.080001E+9	-6.662598E-1	-4.165344E-1	5.112305E-1	1.072388E-1	2.235565E-1	-1.011887E-1	-2.473450E-1	-6.775513E-1
9.304500E+9	-6.740417E-1	-4.021301E-1	5.047607E-1	8.673096E-2	2.209854E-1	-1.057968E-1	-2.661438E-1	-6.738586E-1
9.529000E+9	-6.813660E-1	-3.944702E-1	4.977875E-1	6.768799E-2	2.181473E-1	-1.095505E-1	-2.872314E-1	-6.679687E-1
9.753500E+9	-6.877747E-1	-3.848572E-1	4.909821E-1	4.934692E-2	2.145615E-1	-1.138992E-1	-3.041382E-1	-6.627808E-1
9.978000E+9	-6.933289E-1	-3.758545E-1	4.844360E-1	3.399658E-2	2.116318E-1	-1.169739E-1	-3.231506E-1	-6.587219E-1
1.020250E+10	-6.987000E-1	-3.688660E-1	4.769745E-1	1.545715E-2	2.086334E-1	-1.224213E-1	-3.425903E-1	-6.507263E-1
1.042700E+10	-7.059021E-1	-3.579407E-1	4.687958E-1	-9.155273E-5	2.062073E-1	-1.259689E-1	-3.589172E-1	-6.446533E-1
1.065150E+10	-7.109985E-1	-3.494873E-1	4.606171E-1	-1.484680E-2	2.026749E-1	-1.292877E-1	-3.761597E-1	-6.383667E-1
1.087600E+10	-7.160645E-1	-3.399048E-1	4.529419E-1	-2.940369E-2	1.991119E-1	-1.329498E-1	-3.942261E-1	-6.327515E-1
1.110050E+10	-7.209778E-1	-3.319092E-1	4.451599E-1	-4.237366E-2	1.952820E-1	-1.362457E-1	-4.109192E-1	-6.231995E-1
1.132500E+10	-7.254944E-1	-3.249817E-1	4.364166E-1	-5.499268E-2	1.926346E-1	-1.386185E-1	-4.258728E-1	-6.170044E-1
1.154950E+10	-7.308044E-1	-3.166199E-1	4.281006E-1	-6.816101E-2	1.886292E-1	-1.421432E-1	-4.447021E-1	-6.078491E-1
1.177400E+10	-7.347107E-1	-3.082581E-1	4.192963E-1	-8.033752E-2	1.857758E-1	-1.451569E-1	-4.580994E-1	-5.986938E-1
1.199850E+10	-7.394714E-1	-3.003845E-1	4.112396E-1	-9.086609E-2	1.824799E-1	-1.482315E-1	-4.724121E-1	-5.926514E-1
1.222300E+10	-7.433777E-1	-2.933044E-1	4.020081E-1	-1.004639E-1	1.784515E-1	-1.508865E-1	-4.894104E-1	-5.832214E-1
1.244750E+10	-7.484131E-1	-2.861328E-1	3.934326E-1	-1.107483E-1	1.746674E-1	-1.534882E-1	-5.035095E-1	-5.717163E-1
1.267200E+10	-7.513123E-1	-2.791138E-1	3.854828E-1	-1.198883E-1	1.722412E-1	-1.562881E-1	-5.153503E-1	-5.646973E-1
1.289650E+10	-7.546692E-1	-2.715454E-1	3.773346E-1	-1.277313E-1	1.687851E-1	-1.585541E-1	-5.304565E-1	-5.548096E-1
1.312100E+10	-7.595215E-1	-2.640686E-1	3.662109E-1	-1.370087E-1	1.653137E-1	-1.608734E-1	-5.445557E-1	-5.425415E-1
1.334550E+10	-7.636108E-1	-2.561035E-1	3.589478E-1	-1.446228E-1	1.626740E-1	-1.635284E-1	-5.556030E-1	-5.351257E-1
1.357000E+10	-7.660522E-1	-2.490845E-1	3.501282E-1	-1.525726E-1	1.574326E-1	-1.642914E-1	-5.692139E-1	-5.259705E-1
1.379450E+10	-7.696838E-1	-2.426758E-1	3.413849E-1	-1.595306E-1	1.543808E-1	-1.663055E-1	-5.822144E-1	-5.116577E-1
1.401900E+10	-7.725220E-1	-2.363281E-1	3.347168E-1	-1.653137E-1	1.511154E-1	-1.683273E-1	-5.889282E-1	-5.036011E-1
1.424350E+10	-7.757263E-1	-2.308044E-1	3.262787E-1	-1.715240E-1	1.475754E-1	-1.712265E-1	-6.063232E-1	-4.920349E-1
1.446800E+10	-7.783203E-1	-2.232056E-1	3.177185E-1	-1.772614E-1	1.446152E-1	-1.723099E-1	-6.159363E-1	-4.796143E-1
1.469250E+10	-7.808838E-1	-2.173462E-1	3.096008E-1	-1.836700E-1	1.404495E-1	-1.737366E-1	-6.240540E-1	-4.703979E-1
1.491700E+10	-7.841187E-1	-2.104187E-1	3.002319E-1	-1.901703E-1	1.380005E-1	-1.754837E-1	-6.358643E-1	-4.613647E-1
1.514150E+10	-7.867432E-1	-2.029114E-1	2.924805E-1	-1.938019E-1	1.330261E-1	-1.765366E-1	-6.473694E-1	-4.458313E-1
1.536600E+10	-7.899170E-1	-1.970825E-1	2.841034E-1	-1.974030E-1	1.300583E-1	-1.800766E-1	-6.538086E-1	-4.344482E-1
1.559050E+10	-7.915955E-1	-1.901550E-1	2.773285E-1	-2.019196E-1	1.270981E-1	-1.797180E-1	-6.650391E-1	-4.259644E-1
1.581500E+10	-7.942200E-1	-1.857910E-1	2.669220E-1	-2.058563E-1	1.234589E-1	-1.809921E-1	-6.755066E-1	-4.119568E-1
1.603950E+10	-7.972412E-1	-1.779480E-1	2.618561E-1	-2.099152E-1	1.207657E-1	-1.814957E-1	-6.819458E-1	-4.018555E-1
1.626400E+10	-8.003845E-1	-1.728516E-1	2.528839E-1	-2.128906E-1	1.165085E-1	-1.820908E-1	-6.918945E-1	-3.907166E-1
1.648850E+10	-8.025208E-1	-1.656799E-1	2.457809E-1	-2.152863E-1	1.133194E-1	-1.832581E-1	-7.003479E-1	-3.773804E-1
1.671300E+10	-8.033752E-1	-1.587524E-1	2.385941E-1	-2.179565E-1	1.106186E-1	-1.844025E-1	-7.066650E-1	-3.659363E-1
1.693750E+10	-8.062134E-1	-1.550293E-1	2.315979E-1	-2.215652E-1	1.064987E-1	-1.853714E-1	-7.164001E-1	-3.548279E-1
1.716200E+10	-8.082275E-1	-1.486511E-1	2.247925E-1	-2.230835E-1	1.029663E-1	-1.864395E-1	-7.224121E-1	-3.399048E-1
1.738650E+10	-8.095703E-1	-1.409302E-1	2.167740E-1	-2.259598E-1	1.008224E-1	-1.862717E-1	-7.269592E-1	-3.287964E-1
1.761100E+10	-8.114624E-1	-1.351929E-1	2.099533E-1	-2.266464E-1	9.627533E-2	-1.878586E-1	-7.348633E-1	-3.197327E-1
1.783550E+10	-8.138123E-1	-1.290283E-1	2.041092E-1	-2.308807E-1	9.410858E-2	-1.880264E-1	-7.425537E-1	-3.027649E-1
1.806000E+10	-8.157654E-1	-1.238403E-1	1.981583E-1	-2.315521E-1	9.198761E-2	-1.895370E-1	-7.481689E-1	-2.928772E-1
1.828450E+10	-8.175354E-1	-1.193237E-1	1.922607E-1	-2.314758E-1	8.822632E-2	-1.891556E-1	-7.531433E-1	-2.834473E-1
1.850900E+10	-8.197937E-1	-1.127625E-1	1.836243E-1	-2.338486E-1	8.491516E-2	-1.889420E-1	-7.608948E-1	-2.676086E-1
1.873350E+10	-8.216248E-1	-1.069031E-1	1.773148E-1	-2.370148E-1	8.173370E-2	-1.898880E-1	-7.636719E-1	-2.543335E-1
1.895800E+10	-8.224792E-1	-1.009827E-1	1.719055E-1	-2.377472E-1	7.862091E-2	-1.893082E-1	-7.675476E-1	-2.446899E-1
1.918250E+10	-8.232117E-1	-9.671021E-2	1.655655E-1	-2.385635E-1	7.563782E-2	-1.924133E-1	-7.751770E-1	-2.323608E-1
1.940700E+10	-8.237305E-1	-8.987427E-2	1.592331E-1	-2.402649E-1	7.266998E-2	-1.914291E-1	-7.761536E-1	-2.173767E-1
1.963150E+10	-8.270264E-1	-8.688354E-2	1.531830E-1	-2.381134E-1	6.854248E-2	-1.913528E-1	-7.794495E-1	-2.093506E-1
1.985600E+10	-8.269653E-1	-7.968140E-2	1.478119E-1	-2.413177E-1	6.652832E-2	-1.922760E-1	-7.861328E-1	-1.965332E-1
2.008050E+10	-8.304749E-1	-7.485962E-2	1.420212E-1	-2.396851E-1	6.224823E-2	-1.906204E-1	-7.896729E-1	-1.787109E-1
2.030500E+10	-8.312378E-1	-6.890869E-2	1.365051E-1	-2.413101E-1	5.989075E-2	-1.899643E-1	-7.882385E-1	-1.716614E-1
2.052950E+10	-8.300171E-1	-6.344604E-2	1.317215E-1	-2.424164E-1	5.560303E-2	-1.911697E-1	-7.948608E-1	-1.579590E-1
2.075400E+10	-8.322754E-1	-5.746460E-2	1.241150E-1	-2.410660E-1	5.419922E-2	-1.917953E-1	-7.966309E-1	-1.453247E-1
2.097850E+10	-8.336487E-1	-5.267334E-2	1.194916E-1	-2.410126E-1	5.166626E-2	-1.898270E-1	-7.956543E-1	-1.328125E-1
2.120300E+10	-8.351135E-1	-4.638672E-2	1.151352E-1	-2.414398E-1	4.959869E-2	-1.914597E-1	-8.017273E-1	-1.242065E-1
2.142750E+10	-8.369751E-1	-4.229736E-2	1.097488E-1	-2.415543E-1	4.371643E-2	-1.910019E-1	-8.051453E-1	-1.087646E-1
2.165200E+10	-8.394775E-1	-3.527832E-2	1.034927E-1	-2.400284E-1	4.356384E-2	-1.900101E-1	-8.056946E-1	-9.719849E-2
2.187650E+10	-8.365479E-1	-3.051758E-2	1.017761E-1	-2.413864E-1	4.050446E-2	-1.912155E-1	-8.082581E-1	-8.801270E-2
2.210100E+10	-8.395386E-1	-2.273560E-2	9.521484E-2	-2.410812E-1	3.800201E-2	-1.906738E-1	-8.099976E-1	-7.083130E-2
2.232550E+10	-8.387146E-1	-1.843262E-2	9.220886E-2	-2.399826E-1	3.441620E-2	-1.891479E-1	-8.100891E-1	-5.807495E-2
2.255000E+10	-8.417358E-1	-1.345825E-2	8.591461E-2	-2.421265E-1	3.287506E-2	-1.920700E-1	-8.129883E-1	-5.047607E-2
2.277450E+10	-8.407593E-1	-6.469727E-3	8.269501E-2	-2.392502E-1	2.819061E-2	-1.888733E-1	-8.136902E-1	-3.500366E-2
2.299900E+10	-8.439941E-1	-2.532959E-3	7.501221E-2	-2.398758E-1	2.762604E-2	-1.903381E-1	-8.121033E-1	-2.197266E-2
2.322350E+10	-8.427124E-1	3.356934E-3	7.215881E-2	-2.397308E-1	2.271271E-2	-1.894302E-1	-8.139648E-1	-1.287842E-2
2.344800E+10	-8.429871E-1	6.622314E-3	6.687927E-2	-2.388382E-1	2.159119E-2	-1.885910E-1	-8.131104E-1	1.892090E-3
2.367250E+10	-8.431396E-1	1.364136E-2	6.148529E-2	-2.377090E-1	1.908112E-2	-1.893616E-1	-8.122559E-1	1.507568E-2
2.389700E+10	-8.436584E-1	1.885986E-2	5.811310E-2	-2.395782E-1	1.615906E-2	-1.894379E-1	-8.137207E-1	2.587891E-2
2.412150E+10	-8.434143E-1	2.374268E-2	5.233002E-2	-2.376785E-1	1.191711E-2	-1.895676E-1	-8.099365E-1	4.089355E-2
2.434600E+10	-8.439941E-1	2.957153E-2	5.024719E-2	-2.367096E-1	8.308411E-3	-1.891861E-1	-8.082581E-1	5.068970E-2
2.457050E+10	-8.442688E-1	3.457642E-2	4.536438E-2	-2.366028E-1	7.141113E-3	-1.863785E-1	-8.077087E-1	6.201172E-2
2.479500E+10	-8.462219E-1	4.272461E-2	3.898621E-2	-2.348633E-1	3.463745E-3	-1.878281E-1	-8.055420E-1	7.757568E-2
2.501950E+10	-8.439941E-1	4.339600E-2	3.578186E-2	-2.334747E-1	5.187988E-4	-1.871185E-1	-7.984314E-1	8.966064E-2
2.524400E+10	-8.468933E-1	5.065918E-2	2.996063E-2	-2.333374E-1	-5.645752E-4	-1.848602E-1	-7.988892E-1	9.445190E-2
2.546850E+10	-8.459473E-1	5.862427E-2	2.729034E-2	-2.299271E-1	-4.684448E-3	-1.828232E-1	-7.965698E-1	1.090088E-1
2.569300E+10	-8.434448E-1	5.883789E-2	2.376556E-2	-2.288895E-1	-4.203796E-3	-1.827087E-1	-7.939758E-1	1.178894E-1
2.591750E+10	-8.467407E-1	6.564331E-2	1.997375E-2	-2.288437E-1	-7.858276E-3	-1.822128E-1	-7.923584E-1	1.270447E-1
2.614200E+10	-8.457336E-1	7.174683E-2	1.689148E-2	-2.266769E-1	-9.086609E-3	-1.813812E-1	-7.912292E-1	1.408386E-1
2.636650E+10	-8.468018E-1	7.513428E-2	1.273346E-2	-2.251282E-1	-1.265717E-2	-1.813126E-1	-7.920227E-1	1.537170E-1
2.659100E+10	-8.448486E-1	7.931519E-2	8.346558E-3	-2.257156E-1	-1.422882E-2	-1.809235E-1	-7.825928E-1	1.642456E-1
2.681550E+10	-8.439941E-1	8.657837E-2	7.164001E-3	-2.234268E-1	-1.693726E-2	-1.814270E-1	-7.821350E-1	1.730042E-1
2.704000E+10	-8.451843E-1	9.133911E-2	3.799438E-3	-2.226486E-1	-1.765442E-2	-1.799240E-1	-7.799072E-1	1.946106E-1
2.726450E+10	-8.424683E-1	9.484863E-2	-2.227783E-3	-2.218552E-1	-2.274323E-2	-1.808853E-1	-7.664795E-1	1.972351E-1
2.748900E+10	-8.426819E-1	9.918213E-2	-6.500244E-3	-2.195053E-1	-2.466583E-2	-1.784439E-1	-7.681274E-1	2.059326E-1
2.771350E+10	-8.432617E-1	1.056213E-1	-1.056671E-2	-2.184601E-1	-2.789307E-2	-1.765976E-1	-7.634888E-1	2.196350E-1
2.793800E+10	-8.421021E-1	1.073303E-1	-1.040649E-2	-2.185211E-1	-3.033447E-2	-1.763382E-1	-7.564697E-1	2.288208E-1
2.816250E+10	-8.424683E-1	1.134033E-1	-1.633453E-2	-2.145691E-1	-3.664398E-2	-1.765518E-1	-7.527466E-1	2.382507E-1
2.838700E+10	-8.386841E-1	1.181335E-1	-1.795197E-2	-2.125931E-1	-3.412628E-2	-1.730728E-1	-7.480469E-1	2.529297E-1
2.861150E+10	-8.395386E-1	1.236572E-1	-2.207947E-2	-2.138596E-1	-3.816223E-2	-1.733856E-1	-7.411499E-1	2.593384E-1
2.883600E+10	-8.391418E-1	1.308899E-1	-2.532196E-2	-2.114410E-1	-3.870392E-2	-1.702499E-1	-7.368164E-1	2.674561E-1
2.906050E+10	-8.392334E-1	1.385193E-1	-2.761078E-2	-2.077942E-1	-4.244995E-2	-1.712418E-1	-7.328491E-1	2.792969E-1
2.928500E+10	-8.400879E-1	1.403503E-1	-3.050995E-2	-2.061081E-1	-4.342651E-2	-1.669006E-1	-7.270508E-1	2.877808E-1
2.950950E+10	-8.390808E-1	1.474609E-1	-3.366089E-2	-2.026367E-1	-4.705048E-2	-1.655731E-1	-7.256775E-1	2.942505E-1
2.973400E+10	-8.385315E-1	1.496582E-1	-3.450775E-2	-2.076950E-1	-4.636383E-2	-1.656647E-1	-7.206726E-1	3.046875E-1
2.995850E+10	-8.341980E-1	1.564941E-1	-4.019928E-2	-2.026443E-1	-4.928589E-2	-1.643677E-1	-7.167969E-1	3.179626E-1
3.018300E+10	-8.330078E-1	1.604004E-1	-3.912354E-2	-2.003708E-1	-5.186462E-2	-1.651154E-1	-7.076416E-1	3.302307E-1
3.040750E+10	-8.331909E-1	1.641846E-1	-4.372406E-2	-1.959763E-1	-5.191040E-2	-1.649170E-1	-6.987000E-1	3.387146E-1
3.063200E+10	-8.298340E-1	1.665955E-1	-4.660034E-2	-1.982803E-1	-5.396271E-2	-1.628342E-1	-6.992187E-1	3.482361E-1
3.085650E+10	-8.326416E-1	1.724243E-1	-4.946899E-2	-1.956482E-1	-6.108093E-2	-1.614838E-1	-6.864014E-1	3.590698E-1
3.108100E+10	-8.322144E-1	1.782837E-1	-5.389404E-2	-1.958542E-1	-6.095123E-2	-1.565857E-1	-6.795044E-1	3.668518E-1
3.130550E+10	-8.267822E-1	1.819458E-1	-5.842590E-2	-1.939163E-1	-6.592560E-2	-1.601105E-1	-6.642456E-1	3.761597E-1
3.153000E+10	-8.297424E-1	1.880798E-1	-5.997467E-2	-1.919098E-1	-6.751251E-2	-1.586914E-1	-6.624146E-1	3.825684E-1
3.175450E+10	-8.294983E-1	1.918640E-1	-6.440735E-2	-1.869736E-1	-6.735229E-2	-1.591034E-1	-6.566467E-1	3.978577E-1
3.197900E+10	-8.249817E-1	1.923218E-1	-6.673431E-2	-1.847382E-1	-7.144165E-2	-1.592789E-1	-6.442871E-1	3.998413E-1
3.220350E+10	-8.280334E-1	1.994934E-1	-7.036591E-2	-1.854324E-1	-7.279205E-2	-1.548462E-1	-6.325378E-1	4.110718E-1
3.242800E+10	-8.285522E-1	2.070312E-1	-7.144928E-2	-1.824341E-1	-7.818604E-2	-1.519470E-1	-6.260376E-1	4.168701E-1
3.265250E+10	-8.190613E-1	2.129517E-1	-7.343292E-2	-1.816330E-1	-7.997131E-2	-1.479263E-1	-6.184998E-1	4.248352E-1
3.287700E+10	-8.228149E-1	2.189331E-1	-7.584381E-2	-1.810532E-1	-8.103180E-2	-1.463470E-1	-6.143188E-1	4.350891E-1
3.310150E+10	-8.208923E-1	2.221985E-1	-7.815552E-2	-1.771774E-1	-8.259583E-2	-1.456375E-1	-5.957031E-1	4.348755E-1
3.332600E+10	-8.149719E-1	2.286377E-1	-8.064270E-2	-1.751633E-1	-8.708954E-2	-1.479492E-1	-5.912476E-1	4.405823E-1
3.355050E+10	-8.161316E-1	2.321167E-1	-8.367920E-2	-1.719055E-1	-8.875275E-2	-1.423492E-1	-5.825500E-1	4.509583E-1
3.377500E+10	-8.129883E-1	2.383423E-1	-8.135986E-2	-1.740036E-1	-8.689880E-2	-1.424179E-1	-5.736694E-1	4.545593E-1
3.399950E+10	-8.109436E-1	2.392273E-1	-9.143829E-2	-1.715393E-1	-9.037781E-2	-1.434250E-1	-5.665894E-1	4.655151E-1
3.422400E+10	-8.121948E-1	2.459106E-1	-9.114838E-2	-1.677628E-1	-8.944702E-2	-1.413193E-1	-5.613098E-1	4.757996E-1
3.444850E+10	-8.067322E-1	2.505798E-1	-8.573914E-2	-1.628647E-1	-9.371948E-2	-1.379852E-1	-5.487366E-1	4.855957E-1
3.467300E+10	-8.016663E-1	2.562256E-1	-9.135437E-2	-1.680298E-1	-9.346771E-2	-1.364899E-1	-5.449524E-1	4.901123E-1
3.489750E+10	-8.056946E-1	2.563782E-1	-9.626770E-2	-1.594925E-1	-1.021347E-1	-1.323242E-1	-5.346680E-1	5.009155E-1
3.512200E+10	-8.004150E-1	2.612915E-1	-9.621429E-2	-1.593628E-1	-1.019135E-1	-1.361084E-1	-5.169678E-1	4.982605E-1
3.534650E+10	-7.987061E-1	2.619324E-1	-1.025772E-1	-1.559753E-1	-1.076584E-1	-1.320801E-1	-5.102234E-1	5.107117E-1
3.557100E+10	-7.975769E-1	2.686462E-1	-1.021194E-1	-1.571045E-1	-1.044083E-1	-1.308212E-1	-4.946594E-1	5.158997E-1
3.579550E+10	-7.976379E-1	2.723083E-1	-1.080627E-1	-1.549530E-1	-1.080399E-1	-1.287003E-1	-4.806824E-1	5.220947E-1
3.602000E+10	-7.934570E-1	2.733765E-1	-1.050110E-1	-1.521530E-1	-1.073990E-1	-1.272888E-1	-4.710693E-1	5.211182E-1
3.624450E+10	-7.917786E-1	2.873230E-1	-1.136703E-1	-1.504974E-1	-1.132431E-1	-1.272125E-1	-4.608459E-1	5.264893E-1
3.646900E+10	-7.905579E-1	2.890930E-1	-1.156235E-1	-1.415329E-1	-1.151237E-1	-1.218452E-1	-4.526062E-1	5.338745E-1
3.669350E+10	-7.856750E-1	2.911682E-1	-1.170502E-1	-1.473923E-1	-1.205444E-1	-1.186638E-1	-4.358826E-1	5.398254E-1
3.691800E+10	-7.799988E-1	2.949219E-1	-1.201019E-1	-1.419678E-1	-1.189995E-1	-1.197205E-1	-4.240417E-1	5.472412E-1
3.714250E+10	-7.809753E-1	2.962952E-1	-1.204071E-1	-1.394882E-1	-1.205978E-1	-1.189728E-1	-4.171753E-1	5.458374E-1
3.736700E+10	-7.740173E-1	3.021240E-1	-1.255341E-1	-1.384964E-1	-1.269760E-1	-1.148529E-1	-4.082947E-1	5.474854E-1
3.759150E+10	-7.726746E-1	3.051453E-1	-1.190414E-1	-1.338577E-1	-1.236305E-1	-1.134377E-1	-3.873596E-1	5.586243E-1
3.781600E+10	-7.702637E-1	3.113403E-1	-1.254349E-1	-1.263657E-1	-1.304474E-1	-1.082382E-1	-3.762207E-1	5.535583E-1
3.804050E+10	-7.743530E-1	3.155823E-1	-1.280823E-1	-1.269226E-1	-1.270981E-1	-1.090088E-1	-3.602905E-1	5.671692E-1
3.826500E+10	-7.632751E-1	3.190308E-1	-1.316223E-1	-1.243286E-1	-1.325455E-1	-1.037445E-1	-3.483582E-1	5.634460E-1
3.848950E+10	-7.624817E-1	3.206787E-1	-1.355515E-1	-1.225357E-1	-1.332092E-1	-1.022110E-1	-3.388062E-1	5.621033E-1
3.871400E+10	-7.637634E-1	3.199463E-1	-1.357880E-1	-1.169891E-1	-1.335678E-1	-9.433746E-2	-3.185425E-1	5.568237E-1
3.893850E+10	-7.555237E-1	3.274231E-1	-1.377563E-1	-1.120758E-1	-1.404343E-1	-9.646606E-2	-3.078003E-1	5.625916E-1
