!Date: 10/28/2005, 12:34 PM

!Vgs = -8.000000E+0
!Vds = 3.000000E+0
!Ig = -7.462300E-5
!Id = 1.112100E-3

# HZ S RI R 50
1.000000E+8	9.905701E-1	-3.839111E-2	-3.294945E-3	1.239014E-2	2.497673E-3	1.157236E-2	9.845886E-1	-1.068115E-2
3.245000E+8	9.787292E-1	-1.061096E-1	1.501083E-3	3.977585E-2	6.626129E-3	3.944588E-2	9.658203E-1	-9.234619E-2
5.490000E+8	9.636230E-1	-1.726685E-1	9.395599E-3	6.519318E-2	1.433182E-2	6.467056E-2	9.594727E-1	-1.518555E-1
7.735000E+8	9.447327E-1	-2.376099E-1	2.084732E-2	8.870697E-2	2.537537E-2	8.713531E-2	9.408875E-1	-2.103577E-1
9.980000E+8	9.227905E-1	-2.976074E-1	3.382111E-2	1.095238E-1	3.822327E-2	1.079369E-1	9.211426E-1	-2.626648E-1
1.222500E+9	8.965759E-1	-3.562317E-1	4.861450E-2	1.282501E-1	5.318451E-2	1.267776E-1	8.991699E-1	-3.157959E-1
1.447000E+9	8.667603E-1	-4.119873E-1	6.570435E-2	1.451950E-1	6.996918E-2	1.433563E-1	8.729553E-1	-3.653870E-1
1.671500E+9	8.338013E-1	-4.636536E-1	8.283997E-2	1.613312E-1	8.740234E-2	1.587296E-1	8.442078E-1	-4.099731E-1
1.896000E+9	7.985229E-1	-5.112305E-1	1.042252E-1	1.750793E-1	1.075745E-1	1.726837E-1	8.182983E-1	-4.512329E-1
2.120500E+9	7.630920E-1	-5.556946E-1	1.258774E-1	1.851807E-1	1.292191E-1	1.828308E-1	7.883606E-1	-4.937744E-1
2.345000E+9	7.227783E-1	-5.982056E-1	1.484909E-1	1.921616E-1	1.518860E-1	1.892776E-1	7.556763E-1	-5.334167E-1
2.569500E+9	6.837463E-1	-6.334839E-1	1.702271E-1	1.963959E-1	1.731110E-1	1.934891E-1	7.239380E-1	-5.683594E-1
2.794000E+9	6.427612E-1	-6.684875E-1	1.913452E-1	1.989594E-1	1.939392E-1	1.958466E-1	6.893616E-1	-6.007080E-1
3.018500E+9	6.011047E-1	-6.981812E-1	2.128983E-1	1.987686E-1	2.154236E-1	1.956024E-1	6.541443E-1	-6.320496E-1
3.243000E+9	5.595398E-1	-7.252808E-1	2.336731E-1	1.968460E-1	2.356339E-1	1.935883E-1	6.173096E-1	-6.611023E-1
3.467500E+9	5.183716E-1	-7.497864E-1	2.533875E-1	1.933899E-1	2.551117E-1	1.902924E-1	5.817566E-1	-6.854248E-1
3.692000E+9	4.775085E-1	-7.710266E-1	2.727203E-1	1.885071E-1	2.740936E-1	1.847992E-1	5.454407E-1	-7.094421E-1
3.916500E+9	4.354248E-1	-7.895813E-1	2.909241E-1	1.811218E-1	2.922974E-1	1.779785E-1	5.069885E-1	-7.287903E-1
4.141000E+9	3.965454E-1	-8.052673E-1	3.088531E-1	1.742249E-1	3.095398E-1	1.702118E-1	4.736328E-1	-7.472229E-1
4.365500E+9	3.578186E-1	-8.202515E-1	3.246002E-1	1.639404E-1	3.253937E-1	1.609650E-1	4.384766E-1	-7.653809E-1
4.590000E+9	3.180542E-1	-8.330078E-1	3.394318E-1	1.535492E-1	3.407745E-1	1.501160E-1	4.002686E-1	-7.794189E-1
4.814500E+9	2.803345E-1	-8.419800E-1	3.537292E-1	1.424408E-1	3.543701E-1	1.392365E-1	3.670654E-1	-7.922974E-1
5.039000E+9	2.431335E-1	-8.504028E-1	3.675995E-1	1.297607E-1	3.674164E-1	1.268463E-1	3.328857E-1	-8.045044E-1
5.263500E+9	2.069092E-1	-8.556213E-1	3.785095E-1	1.167145E-1	3.786926E-1	1.138458E-1	2.974243E-1	-8.139648E-1
5.488000E+9	1.728210E-1	-8.606873E-1	3.891449E-1	1.034241E-1	3.885193E-1	1.007385E-1	2.654114E-1	-8.212280E-1
5.712500E+9	1.376343E-1	-8.643188E-1	3.988495E-1	8.923340E-2	3.983459E-1	8.657837E-2	2.325439E-1	-8.295898E-1
5.937000E+9	1.052856E-1	-8.656616E-1	4.061432E-1	7.490540E-2	4.060974E-1	7.188416E-2	1.998596E-1	-8.367920E-1
6.161500E+9	7.455444E-2	-8.681335E-1	4.136810E-1	6.121826E-2	4.125977E-1	5.754089E-2	1.684265E-1	-8.414612E-1
6.386000E+9	4.241943E-2	-8.682556E-1	4.187775E-1	4.595947E-2	4.189301E-1	4.318237E-2	1.363831E-1	-8.448486E-1
6.610500E+9	1.354980E-2	-8.677063E-1	4.235687E-1	3.157043E-2	4.229279E-1	2.923584E-2	1.044006E-1	-8.488159E-1
6.835000E+9	-1.647949E-2	-8.664856E-1	4.281311E-1	1.780701E-2	4.275513E-1	1.490784E-2	7.403564E-2	-8.489990E-1
7.059500E+9	-4.299927E-2	-8.631897E-1	4.309998E-1	3.616333E-3	4.298248E-1	2.639771E-3	4.791260E-2	-8.488159E-1
7.284000E+9	-7.061768E-2	-8.607483E-1	4.328003E-1	-1.089478E-2	4.319611E-1	-1.341248E-2	1.617432E-2	-8.492737E-1
7.508500E+9	-9.759521E-2	-8.570862E-1	4.343109E-1	-2.505493E-2	4.329987E-1	-2.668762E-2	-1.171875E-2	-8.458252E-1
7.733000E+9	-1.229248E-1	-8.517761E-1	4.337616E-1	-3.849792E-2	4.335480E-1	-4.008484E-2	-3.677368E-2	-8.450928E-1
7.957500E+9	-1.468811E-1	-8.473511E-1	4.351959E-1	-5.123901E-2	4.333954E-1	-5.392456E-2	-6.625366E-2	-8.439026E-1
8.182000E+9	-1.698914E-1	-8.426208E-1	4.340973E-1	-6.439209E-2	4.333344E-1	-6.611633E-2	-9.204102E-2	-8.401794E-1
8.406500E+9	-1.928101E-1	-8.378296E-1	4.318695E-1	-7.778931E-2	4.307861E-1	-7.997131E-2	-1.190491E-1	-8.346863E-1
8.631000E+9	-2.161560E-1	-8.315430E-1	4.302521E-1	-9.037781E-2	4.291840E-1	-9.179687E-2	-1.441650E-1	-8.319397E-1
8.855500E+9	-2.371216E-1	-8.249512E-1	4.280853E-1	-1.017914E-1	4.271088E-1	-1.044922E-1	-1.688232E-1	-8.252258E-1
9.080001E+9	-2.577820E-1	-8.194885E-1	4.251556E-1	-1.138153E-1	4.245453E-1	-1.149902E-1	-1.913147E-1	-8.188477E-1
9.304500E+9	-2.785339E-1	-8.117676E-1	4.214020E-1	-1.253967E-1	4.199219E-1	-1.263885E-1	-2.143860E-1	-8.125000E-1
9.529000E+9	-2.972717E-1	-8.061523E-1	4.188538E-1	-1.365662E-1	4.172821E-1	-1.375580E-1	-2.389221E-1	-8.052673E-1
9.753500E+9	-3.172913E-1	-7.982178E-1	4.139252E-1	-1.469727E-1	4.127960E-1	-1.479797E-1	-2.584229E-1	-7.970276E-1
9.978000E+9	-3.352051E-1	-7.905273E-1	4.093933E-1	-1.564026E-1	4.081116E-1	-1.577606E-1	-2.800598E-1	-7.911682E-1
1.020250E+10	-3.529663E-1	-7.840576E-1	4.054718E-1	-1.673584E-1	4.040222E-1	-1.683960E-1	-3.027344E-1	-7.819519E-1
1.042700E+10	-3.710022E-1	-7.765808E-1	4.001312E-1	-1.768494E-1	3.985596E-1	-1.780243E-1	-3.220520E-1	-7.735291E-1
1.065150E+10	-3.862915E-1	-7.686157E-1	3.947144E-1	-1.857147E-1	3.926239E-1	-1.872711E-1	-3.406372E-1	-7.666016E-1
1.087600E+10	-4.027405E-1	-7.598877E-1	3.889008E-1	-1.938934E-1	3.879395E-1	-1.953125E-1	-3.612976E-1	-7.570801E-1
1.110050E+10	-4.186096E-1	-7.516479E-1	3.831940E-1	-2.032928E-1	3.818817E-1	-2.044678E-1	-3.795166E-1	-7.469788E-1
1.132500E+10	-4.336243E-1	-7.446594E-1	3.780060E-1	-2.112885E-1	3.756409E-1	-2.126007E-1	-3.967896E-1	-7.381592E-1
1.154950E+10	-4.487915E-1	-7.354126E-1	3.718262E-1	-2.179108E-1	3.703766E-1	-2.194672E-1	-4.176941E-1	-7.271423E-1
1.177400E+10	-4.622803E-1	-7.278748E-1	3.655548E-1	-2.261200E-1	3.646240E-1	-2.275391E-1	-4.338684E-1	-7.158813E-1
1.199850E+10	-4.777527E-1	-7.196655E-1	3.589783E-1	-2.343140E-1	3.581848E-1	-2.349243E-1	-4.488831E-1	-7.086792E-1
1.222300E+10	-4.901733E-1	-7.119141E-1	3.525391E-1	-2.407684E-1	3.510895E-1	-2.402344E-1	-4.676208E-1	-6.975098E-1
1.244750E+10	-5.038452E-1	-7.022705E-1	3.458710E-1	-2.465820E-1	3.448334E-1	-2.483826E-1	-4.831848E-1	-6.856689E-1
1.267200E+10	-5.169678E-1	-6.938782E-1	3.392334E-1	-2.535858E-1	3.383484E-1	-2.535095E-1	-4.975586E-1	-6.768494E-1
1.289650E+10	-5.281067E-1	-6.856995E-1	3.337250E-1	-2.582397E-1	3.323059E-1	-2.590027E-1	-5.128174E-1	-6.652527E-1
1.312100E+10	-5.405579E-1	-6.778870E-1	3.258057E-1	-2.654724E-1	3.250885E-1	-2.649841E-1	-5.279541E-1	-6.516113E-1
1.334550E+10	-5.518188E-1	-6.696167E-1	3.202057E-1	-2.708435E-1	3.182220E-1	-2.707367E-1	-5.395813E-1	-6.430359E-1
1.357000E+10	-5.653076E-1	-6.600037E-1	3.129272E-1	-2.754211E-1	3.106995E-1	-2.763977E-1	-5.554504E-1	-6.327209E-1
1.379450E+10	-5.736084E-1	-6.538086E-1	3.069000E-1	-2.803802E-1	3.050842E-1	-2.791595E-1	-5.696106E-1	-6.176758E-1
1.401900E+10	-5.843201E-1	-6.452026E-1	3.005219E-1	-2.839966E-1	2.983551E-1	-2.846680E-1	-5.781555E-1	-6.083679E-1
1.424350E+10	-5.958862E-1	-6.367493E-1	2.926788E-1	-2.879791E-1	2.907104E-1	-2.891998E-1	-5.941162E-1	-5.960999E-1
1.446800E+10	-6.049805E-1	-6.273804E-1	2.857819E-1	-2.931213E-1	2.846069E-1	-2.938843E-1	-6.059875E-1	-5.805664E-1
1.469250E+10	-6.145630E-1	-6.192932E-1	2.800140E-1	-2.973328E-1	2.784271E-1	-2.979736E-1	-6.146851E-1	-5.730896E-1
1.491700E+10	-6.235962E-1	-6.116638E-1	2.726135E-1	-3.007660E-1	2.713165E-1	-3.015137E-1	-6.283569E-1	-5.616150E-1
1.514150E+10	-6.343994E-1	-6.028137E-1	2.649231E-1	-3.048248E-1	2.640228E-1	-3.043976E-1	-6.403198E-1	-5.452576E-1
1.536600E+10	-6.444702E-1	-5.942688E-1	2.581482E-1	-3.076782E-1	2.570496E-1	-3.079834E-1	-6.483765E-1	-5.342712E-1
1.559050E+10	-6.536255E-1	-5.857544E-1	2.512970E-1	-3.118134E-1	2.499084E-1	-3.101959E-1	-6.605835E-1	-5.252380E-1
1.581500E+10	-6.600647E-1	-5.765381E-1	2.433167E-1	-3.130951E-1	2.423096E-1	-3.121948E-1	-6.714783E-1	-5.071411E-1
1.603950E+10	-6.705322E-1	-5.688782E-1	2.383118E-1	-3.166809E-1	2.373657E-1	-3.160095E-1	-6.792603E-1	-4.980469E-1
1.626400E+10	-6.775208E-1	-5.610657E-1	2.309570E-1	-3.175507E-1	2.302399E-1	-3.179169E-1	-6.890869E-1	-4.849548E-1
1.648850E+10	-6.861877E-1	-5.522766E-1	2.239227E-1	-3.197632E-1	2.227631E-1	-3.192596E-1	-6.990051E-1	-4.706726E-1
1.671300E+10	-6.924133E-1	-5.424194E-1	2.167511E-1	-3.228912E-1	2.160492E-1	-3.221893E-1	-7.054749E-1	-4.588623E-1
1.693750E+10	-7.015381E-1	-5.355530E-1	2.117615E-1	-3.237000E-1	2.098999E-1	-3.245087E-1	-7.150269E-1	-4.477844E-1
1.716200E+10	-7.083435E-1	-5.278320E-1	2.055359E-1	-3.262634E-1	2.050781E-1	-3.263245E-1	-7.225037E-1	-4.325256E-1
1.738650E+10	-7.160950E-1	-5.188904E-1	1.974030E-1	-3.268890E-1	1.969604E-1	-3.281555E-1	-7.291565E-1	-4.196472E-1
1.761100E+10	-7.225952E-1	-5.108948E-1	1.925201E-1	-3.289032E-1	1.914062E-1	-3.286133E-1	-7.377014E-1	-4.108276E-1
1.783550E+10	-7.312622E-1	-5.026245E-1	1.856689E-1	-3.300171E-1	1.852112E-1	-3.299408E-1	-7.461548E-1	-3.944092E-1
1.806000E+10	-7.370300E-1	-4.943542E-1	1.815338E-1	-3.321686E-1	1.794586E-1	-3.319855E-1	-7.506104E-1	-3.826904E-1
1.828450E+10	-7.433777E-1	-4.843140E-1	1.740875E-1	-3.325195E-1	1.736603E-1	-3.332214E-1	-7.554932E-1	-3.728027E-1
1.850900E+10	-7.496338E-1	-4.780273E-1	1.674500E-1	-3.330078E-1	1.669617E-1	-3.336792E-1	-7.655334E-1	-3.579712E-1
1.873350E+10	-7.570801E-1	-4.696655E-1	1.614838E-1	-3.353424E-1	1.601105E-1	-3.343506E-1	-7.691040E-1	-3.433533E-1
1.895800E+10	-7.602234E-1	-4.619141E-1	1.548920E-1	-3.354797E-1	1.549072E-1	-3.346558E-1	-7.748108E-1	-3.338318E-1
1.918250E+10	-7.667542E-1	-4.529419E-1	1.494446E-1	-3.375397E-1	1.493530E-1	-3.360138E-1	-7.823181E-1	-3.205872E-1
1.940700E+10	-7.731628E-1	-4.441528E-1	1.436462E-1	-3.373108E-1	1.425018E-1	-3.356323E-1	-7.843628E-1	-3.031616E-1
1.963150E+10	-7.794800E-1	-4.365234E-1	1.376343E-1	-3.366241E-1	1.376190E-1	-3.365784E-1	-7.872620E-1	-2.951660E-1
1.985600E+10	-7.843933E-1	-4.276733E-1	1.337891E-1	-3.356323E-1	1.315308E-1	-3.352509E-1	-7.954407E-1	-2.821045E-1
2.008050E+10	-7.891235E-1	-4.202881E-1	1.258240E-1	-3.361664E-1	1.272278E-1	-3.374176E-1	-7.998047E-1	-2.644348E-1
2.030500E+10	-7.938538E-1	-4.131165E-1	1.216431E-1	-3.365479E-1	1.204834E-1	-3.347778E-1	-7.989502E-1	-2.564392E-1
2.052950E+10	-7.999268E-1	-4.053955E-1	1.175537E-1	-3.371735E-1	1.154938E-1	-3.360138E-1	-8.059387E-1	-2.435303E-1
2.075400E+10	-8.043213E-1	-3.980713E-1	1.126556E-1	-3.365479E-1	1.098328E-1	-3.354340E-1	-8.108521E-1	-2.294617E-1
2.097850E+10	-8.104248E-1	-3.893127E-1	1.056366E-1	-3.369751E-1	1.043396E-1	-3.367004E-1	-8.099060E-1	-2.179871E-1
2.120300E+10	-8.136902E-1	-3.812866E-1	9.857178E-2	-3.349762E-1	9.834290E-2	-3.354492E-1	-8.176575E-1	-2.079773E-1
2.142750E+10	-8.199463E-1	-3.743591E-1	9.579468E-2	-3.346405E-1	9.449768E-2	-3.347168E-1	-8.215332E-1	-1.932983E-1
2.165200E+10	-8.233032E-1	-3.651733E-1	8.966064E-2	-3.348694E-1	9.020996E-2	-3.350677E-1	-8.208618E-1	-1.820374E-1
2.187650E+10	-8.282776E-1	-3.568115E-1	8.561707E-2	-3.337402E-1	8.554077E-2	-3.335876E-1	-8.268433E-1	-1.709595E-1
2.210100E+10	-8.350525E-1	-3.474731E-1	7.937622E-2	-3.339386E-1	8.070374E-2	-3.320465E-1	-8.304443E-1	-1.548462E-1
2.232550E+10	-8.366699E-1	-3.409729E-1	7.525635E-2	-3.340759E-1	7.438660E-2	-3.341827E-1	-8.306580E-1	-1.416321E-1
2.255000E+10	-8.411560E-1	-3.320007E-1	7.015991E-2	-3.334503E-1	6.857300E-2	-3.346863E-1	-8.355713E-1	-1.318359E-1
2.277450E+10	-8.423462E-1	-3.229370E-1	6.513977E-2	-3.316193E-1	6.472778E-2	-3.330688E-1	-8.345642E-1	-1.173401E-1
2.299900E+10	-8.463440E-1	-3.166199E-1	6.045532E-2	-3.331604E-1	5.917358E-2	-3.321381E-1	-8.342285E-1	-1.027527E-1
2.322350E+10	-8.512268E-1	-3.079224E-1	5.679321E-2	-3.296509E-1	5.485535E-2	-3.315277E-1	-8.383789E-1	-9.286499E-2
2.344800E+10	-8.510742E-1	-3.007812E-1	5.172729E-2	-3.318176E-1	5.065918E-2	-3.302765E-1	-8.398743E-1	-7.910156E-2
2.367250E+10	-8.562622E-1	-2.908325E-1	4.528809E-2	-3.314514E-1	4.678345E-2	-3.293304E-1	-8.392944E-1	-6.372070E-2
2.389700E+10	-8.570557E-1	-2.857971E-1	4.167175E-2	-3.307495E-1	4.051208E-2	-3.289795E-1	-8.418579E-1	-5.218506E-2
2.412150E+10	-8.609924E-1	-2.785339E-1	3.633118E-2	-3.279724E-1	3.707886E-2	-3.285065E-1	-8.386536E-1	-3.753662E-2
2.434600E+10	-8.618469E-1	-2.699585E-1	3.308105E-2	-3.267059E-1	3.355408E-2	-3.253174E-1	-8.373108E-1	-2.764893E-2
2.457050E+10	-8.653259E-1	-2.663574E-1	2.786255E-2	-3.241577E-1	2.819824E-2	-3.245697E-1	-8.395691E-1	-1.583862E-2
2.479500E+10	-8.715210E-1	-2.577209E-1	2.290344E-2	-3.248138E-1	2.458191E-2	-3.256531E-1	-8.373718E-1	1.281738E-3
2.501950E+10	-8.717957E-1	-2.513733E-1	1.893616E-2	-3.228149E-1	1.963806E-2	-3.250275E-1	-8.341675E-1	1.019287E-2
2.524400E+10	-8.763123E-1	-2.445679E-1	1.373291E-2	-3.217773E-1	1.547241E-2	-3.224335E-1	-8.335266E-1	2.111816E-2
2.546850E+10	-8.802795E-1	-2.352600E-1	9.994507E-3	-3.198242E-1	9.246826E-3	-3.181000E-1	-8.307800E-1	3.326416E-2
2.569300E+10	-8.828735E-1	-2.309265E-1	7.385254E-3	-3.187561E-1	7.446289E-3	-3.168335E-1	-8.310852E-1	4.263306E-2
2.591750E+10	-8.857727E-1	-2.213745E-1	3.204346E-3	-3.196411E-1	2.868652E-3	-3.175354E-1	-8.305359E-1	5.444336E-2
2.614200E+10	-8.860474E-1	-2.148132E-1	7.476807E-4	-3.145752E-1	9.765625E-4	-3.146362E-1	-8.316345E-1	6.811523E-2
2.636650E+10	-8.908997E-1	-2.076111E-1	-3.417969E-3	-3.146973E-1	-4.821777E-3	-3.124237E-1	-8.296814E-1	8.322144E-2
2.659100E+10	-8.906860E-1	-1.995239E-1	-8.941650E-3	-3.145905E-1	-6.423950E-3	-3.119812E-1	-8.237915E-1	9.310913E-2
2.681550E+10	-8.914490E-1	-1.931763E-1	-1.068115E-2	-3.111267E-1	-1.260376E-2	-3.105164E-1	-8.238831E-1	1.033630E-1
2.704000E+10	-8.960266E-1	-1.843872E-1	-1.458740E-2	-3.108673E-1	-1.683044E-2	-3.093567E-1	-8.230896E-1	1.217041E-1
2.726450E+10	-8.977356E-1	-1.769714E-1	-1.710510E-2	-3.105316E-1	-1.960754E-2	-3.088989E-1	-8.150330E-1	1.272278E-1
2.748900E+10	-8.987732E-1	-1.723633E-1	-2.360535E-2	-3.076630E-1	-2.401733E-2	-3.069916E-1	-8.133240E-1	1.360168E-1
2.771350E+10	-9.019470E-1	-1.648865E-1	-2.777100E-2	-3.065491E-1	-2.621460E-2	-3.046112E-1	-8.088379E-1	1.513672E-1
2.793800E+10	-9.035645E-1	-1.587219E-1	-3.120422E-2	-3.040466E-1	-3.166199E-2	-3.025665E-1	-8.062439E-1	1.578064E-1
2.816250E+10	-9.060059E-1	-1.524658E-1	-3.329468E-2	-3.007050E-1	-3.727722E-2	-3.032532E-1	-8.078613E-1	1.739197E-1
2.838700E+10	-9.065247E-1	-1.434021E-1	-3.639221E-2	-2.984161E-1	-3.793335E-2	-3.001862E-1	-7.982178E-1	1.869812E-1
2.861150E+10	-9.078064E-1	-1.399536E-1	-4.570007E-2	-2.999268E-1	-4.327393E-2	-3.010864E-1	-7.923584E-1	1.963196E-1
2.883600E+10	-9.095459E-1	-1.298218E-1	-4.347229E-2	-2.969055E-1	-4.365540E-2	-2.965240E-1	-7.913513E-1	2.024841E-1
2.906050E+10	-9.127502E-1	-1.231995E-1	-4.637146E-2	-2.966309E-1	-4.618835E-2	-2.947845E-1	-7.850952E-1	2.171326E-1
2.928500E+10	-9.121094E-1	-1.152954E-1	-5.206299E-2	-2.967529E-1	-5.270386E-2	-2.921448E-1	-7.823181E-1	2.263794E-1
2.950950E+10	-9.130249E-1	-1.063843E-1	-5.477905E-2	-2.910309E-1	-5.354309E-2	-2.902374E-1	-7.818909E-1	2.358398E-1
2.973400E+10	-9.167175E-1	-1.027832E-1	-5.871582E-2	-2.890167E-1	-5.572510E-2	-2.931213E-1	-7.757263E-1	2.489319E-1
2.995850E+10	-9.140015E-1	-9.027100E-2	-5.937195E-2	-2.866974E-1	-5.952454E-2	-2.897949E-1	-7.741699E-1	2.603149E-1
3.018300E+10	-9.154358E-1	-8.514404E-2	-6.246948E-2	-2.859039E-1	-6.462097E-2	-2.861938E-1	-7.702026E-1	2.734680E-1
3.040750E+10	-9.166260E-1	-7.888794E-2	-6.462097E-2	-2.852936E-1	-6.640625E-2	-2.860413E-1	-7.611694E-1	2.818604E-1
3.063200E+10	-9.154053E-1	-7.028198E-2	-6.558228E-2	-2.837219E-1	-7.005310E-2	-2.831268E-1	-7.570496E-1	2.946472E-1
3.085650E+10	-9.165039E-1	-6.652832E-2	-7.212830E-2	-2.813873E-1	-7.244873E-2	-2.825317E-1	-7.507324E-1	3.056946E-1
3.108100E+10	-9.194336E-1	-5.831909E-2	-7.525635E-2	-2.816467E-1	-7.595825E-2	-2.809448E-1	-7.431641E-1	3.152771E-1
3.130550E+10	-9.159241E-1	-5.294800E-2	-7.870483E-2	-2.789612E-1	-7.890320E-2	-2.760468E-1	-7.312927E-1	3.257446E-1
3.153000E+10	-9.222717E-1	-4.956055E-2	-8.003235E-2	-2.756348E-1	-8.387756E-2	-2.784882E-1	-7.291260E-1	3.318481E-1
3.175450E+10	-9.219055E-1	-3.640747E-2	-8.186340E-2	-2.772980E-1	-8.859253E-2	-2.713318E-1	-7.227173E-1	3.489380E-1
3.197900E+10	-9.232483E-1	-3.231812E-2	-8.735657E-2	-2.723999E-1	-8.927917E-2	-2.723083E-1	-7.167358E-1	3.568726E-1
3.220350E+10	-9.215393E-1	-2.801514E-2	-9.431458E-2	-2.704468E-1	-9.149170E-2	-2.682190E-1	-7.082825E-1	3.704834E-1
3.242800E+10	-9.241028E-1	-2.026367E-2	-9.483337E-2	-2.703247E-1	-9.588623E-2	-2.687378E-1	-6.965942E-1	3.801270E-1
3.265250E+10	-9.227295E-1	-1.336670E-2	-9.640503E-2	-2.640533E-1	-9.735107E-2	-2.688599E-1	-6.877136E-1	3.850708E-1
3.287700E+10	-9.240417E-1	-3.875732E-3	-9.953308E-2	-2.639771E-1	-9.779358E-2	-2.669830E-1	-6.861267E-1	3.926086E-1
3.310150E+10	-9.282837E-1	7.019043E-4	-9.881592E-2	-2.625427E-1	-1.030884E-1	-2.595978E-1	-6.687012E-1	4.014893E-1
3.332600E+10	-9.232178E-1	7.690430E-3	-1.083679E-1	-2.614594E-1	-1.065826E-1	-2.536011E-1	-6.649170E-1	4.117126E-1
3.355050E+10	-9.250183E-1	1.705933E-2	-1.055603E-1	-2.576447E-1	-1.081238E-1	-2.572327E-1	-6.629333E-1	4.192505E-1
3.377500E+10	-9.290771E-1	2.474976E-2	-1.070404E-1	-2.552643E-1	-1.099396E-1	-2.539520E-1	-6.537781E-1	4.251099E-1
3.399950E+10	-9.242249E-1	2.835083E-2	-1.143341E-1	-2.509460E-1	-1.094971E-1	-2.535095E-1	-6.546326E-1	4.330139E-1
3.422400E+10	-9.248962E-1	3.646851E-2	-1.145859E-1	-2.489395E-1	-1.159210E-1	-2.504883E-1	-6.412659E-1	4.444580E-1
3.444850E+10	-9.227600E-1	4.202271E-2	-1.124725E-1	-2.493210E-1	-1.196594E-1	-2.518158E-1	-6.267090E-1	4.542847E-1
3.467300E+10	-9.239197E-1	4.882812E-2	-1.182709E-1	-2.456741E-1	-1.166992E-1	-2.502899E-1	-6.250610E-1	4.616089E-1
3.489750E+10	-9.233093E-1	5.914307E-2	-1.205215E-1	-2.451172E-1	-1.211243E-1	-2.449188E-1	-6.108398E-1	4.800720E-1
3.512200E+10	-9.246826E-1	6.137085E-2	-1.275711E-1	-2.459717E-1	-1.260300E-1	-2.413712E-1	-6.044312E-1	4.815674E-1
3.534650E+10	-9.240723E-1	6.503296E-2	-1.275024E-1	-2.439346E-1	-1.294250E-1	-2.489243E-1	-5.981750E-1	4.888306E-1
3.557100E+10	-9.239502E-1	7.290649E-2	-1.280975E-1	-2.433929E-1	-1.288834E-1	-2.416306E-1	-5.807495E-1	5.006104E-1
3.579550E+10	-9.274292E-1	8.392334E-2	-1.378860E-1	-2.401123E-1	-1.313705E-1	-2.416306E-1	-5.708923E-1	5.068665E-1
3.602000E+10	-9.219360E-1	8.883667E-2	-1.307678E-1	-2.406769E-1	-1.397781E-1	-2.375031E-1	-5.617065E-1	5.154724E-1
3.624450E+10	-9.203796E-1	9.793091E-2	-1.389236E-1	-2.345810E-1	-1.354294E-1	-2.337189E-1	-5.515442E-1	5.166016E-1
3.646900E+10	-9.186401E-1	1.057129E-1	-1.390305E-1	-2.325211E-1	-1.385803E-1	-2.344055E-1	-5.407715E-1	5.286255E-1
3.669350E+10	-9.196167E-1	1.073303E-1	-1.439133E-1	-2.352524E-1	-1.473312E-1	-2.321777E-1	-5.290222E-1	5.416870E-1
3.691800E+10	-9.190979E-1	1.117554E-1	-1.495590E-1	-2.273254E-1	-1.447678E-1	-2.336349E-1	-5.186157E-1	5.419922E-1
3.714250E+10	-9.186707E-1	1.170654E-1	-1.504440E-1	-2.273483E-1	-1.458054E-1	-2.266235E-1	-5.014648E-1	5.470581E-1
3.736700E+10	-9.178772E-1	1.242065E-1	-1.497269E-1	-2.243347E-1	-1.541824E-1	-2.240524E-1	-4.929504E-1	5.496521E-1
3.759150E+10	-9.146423E-1	1.320801E-1	-1.511536E-1	-2.246552E-1	-1.507339E-1	-2.258530E-1	-4.834900E-1	5.587769E-1
3.781600E+10	-9.124451E-1	1.401367E-1	-1.583862E-1	-2.180405E-1	-1.545715E-1	-2.148132E-1	-4.769287E-1	5.690918E-1
3.804050E+10	-9.138489E-1	1.416931E-1	-1.567612E-1	-2.179642E-1	-1.630478E-1	-2.164230E-1	-4.534912E-1	5.737000E-1
3.826500E+10	-9.097595E-1	1.496582E-1	-1.609039E-1	-2.126465E-1	-1.613312E-1	-2.153244E-1	-4.406738E-1	5.759277E-1
3.848950E+10	-9.085999E-1	1.541138E-1	-1.602020E-1	-2.132263E-1	-1.669083E-1	-2.170029E-1	-4.344177E-1	5.888672E-1
3.871400E+10	-9.132385E-1	1.575317E-1	-1.664963E-1	-2.078934E-1	-1.675949E-1	-2.069016E-1	-4.143677E-1	5.816345E-1
3.893850E+10	-9.083862E-1	1.685181E-1	-1.651688E-1	-2.050858E-1	-1.635132E-1	-2.058411E-1	-4.025574E-1	5.861206E-1
