!Date: 10/28/2005, 12:34 PM

!Vgs = -2.000000E+0
!Vds = 0.000000E+0
!Ig = -1.161200E-5
!Id = 5.864700E-5

# HZ S RI R 50
1.000000E+8	9.773560E-1	-1.547546E-1	-9.567738E-4	1.353204E-3	-8.388758E-4	2.763391E-3	-9.188843E-1	-1.699829E-2
3.245000E+8	8.715515E-1	-4.524231E-1	1.949549E-3	7.356405E-3	2.231836E-3	6.743193E-3	-9.273987E-1	5.920410E-3
5.490000E+8	6.948242E-1	-6.860352E-1	5.253315E-3	1.104403E-2	4.989147E-3	1.091957E-2	-9.189148E-1	2.047729E-2
7.735000E+8	4.848938E-1	-8.417358E-1	8.489132E-3	1.297045E-2	8.846283E-3	1.309824E-2	-9.190979E-1	2.825928E-2
9.980000E+8	2.775574E-1	-9.273071E-1	1.212835E-2	1.417637E-2	1.236153E-2	1.408720E-2	-9.170227E-1	3.637695E-2
1.222500E+9	8.697510E-2	-9.613037E-1	1.537037E-2	1.392603E-2	1.518202E-2	1.415205E-2	-9.159241E-1	4.229736E-2
1.447000E+9	-7.772827E-2	-9.594116E-1	1.796532E-2	1.349258E-2	1.810932E-2	1.383591E-2	-9.147339E-1	5.010986E-2
1.671500E+9	-2.154236E-1	-9.368896E-1	2.014065E-2	1.323605E-2	2.041435E-2	1.288033E-2	-9.135437E-1	5.722046E-2
1.896000E+9	-3.299561E-1	-9.020691E-1	2.236938E-2	1.216507E-2	2.209568E-2	1.195431E-2	-9.122314E-1	6.481934E-2
2.120500E+9	-4.234924E-1	-8.610840E-1	2.369308E-2	1.103401E-2	2.358818E-2	1.114368E-2	-9.113464E-1	7.250977E-2
2.345000E+9	-5.034790E-1	-8.164368E-1	2.508736E-2	9.864807E-3	2.514553E-2	9.692192E-3	-9.090271E-1	7.968140E-2
2.569500E+9	-5.658264E-1	-7.713013E-1	2.609634E-2	8.457184E-3	2.602673E-2	8.496284E-3	-9.076843E-1	8.596802E-2
2.794000E+9	-6.190796E-1	-7.302551E-1	2.666569E-2	7.556915E-3	2.661228E-2	7.494926E-3	-9.064941E-1	9.332275E-2
3.018500E+9	-6.631775E-1	-6.886902E-1	2.764702E-2	6.805420E-3	2.730083E-2	6.143570E-3	-9.044800E-1	9.967041E-2
3.243000E+9	-7.011108E-1	-6.493530E-1	2.790642E-2	5.270958E-3	2.734852E-2	5.134583E-3	-9.031372E-1	1.074524E-1
3.467500E+9	-7.334290E-1	-6.138611E-1	2.824116E-2	4.776001E-3	2.793503E-2	4.581451E-3	-9.007263E-1	1.141663E-1
3.692000E+9	-7.599792E-1	-5.795593E-1	2.818108E-2	3.589630E-3	2.826881E-2	3.645897E-3	-8.987732E-1	1.203613E-1
3.916500E+9	-7.835388E-1	-5.477905E-1	2.891254E-2	2.541542E-3	2.842236E-2	2.523422E-3	-8.973694E-1	1.276245E-1
4.141000E+9	-8.042908E-1	-5.173950E-1	2.861881E-2	1.383781E-3	2.839661E-2	1.697540E-3	-8.949890E-1	1.342773E-1
4.365500E+9	-8.193054E-1	-4.890137E-1	2.884674E-2	1.013756E-3	2.863026E-2	1.091957E-3	-8.927002E-1	1.408997E-1
4.590000E+9	-8.346252E-1	-4.630737E-1	2.900219E-2	2.985001E-4	2.866840E-2	3.852844E-4	-8.906860E-1	1.472778E-1
4.814500E+9	-8.476868E-1	-4.388733E-1	2.826786E-2	-7.486343E-4	2.846241E-2	-6.103516E-4	-8.883667E-1	1.546326E-1
5.039000E+9	-8.593445E-1	-4.154968E-1	2.869701E-2	-1.195908E-3	2.865982E-2	-1.241684E-3	-8.861694E-1	1.599121E-1
5.263500E+9	-8.697205E-1	-3.926697E-1	2.840042E-2	-1.900673E-3	2.867317E-2	-2.066612E-3	-8.843994E-1	1.670227E-1
5.488000E+9	-8.771667E-1	-3.725891E-1	2.862835E-2	-2.449989E-3	2.844334E-2	-2.486229E-3	-8.820190E-1	1.742249E-1
5.712500E+9	-8.862915E-1	-3.526306E-1	2.819729E-2	-2.833366E-3	2.838135E-2	-3.200531E-3	-8.789978E-1	1.801758E-1
5.937000E+9	-8.920898E-1	-3.334656E-1	2.856064E-2	-3.448486E-3	2.857494E-2	-3.977776E-3	-8.769836E-1	1.866760E-1
6.161500E+9	-8.989563E-1	-3.171692E-1	2.785206E-2	-4.454613E-3	2.822208E-2	-4.487991E-3	-8.742371E-1	1.946106E-1
6.386000E+9	-9.048157E-1	-2.992554E-1	2.788544E-2	-5.125046E-3	2.776623E-2	-4.993439E-3	-8.702393E-1	1.996460E-1
6.610500E+9	-9.089050E-1	-2.830811E-1	2.769852E-2	-5.855560E-3	2.740860E-2	-5.620956E-3	-8.689880E-1	2.054138E-1
6.835000E+9	-9.148865E-1	-2.687988E-1	2.753830E-2	-6.042480E-3	2.701664E-2	-6.466866E-3	-8.656921E-1	2.138062E-1
7.059500E+9	-9.172668E-1	-2.547913E-1	2.657127E-2	-6.855011E-3	2.704620E-2	-6.666183E-3	-8.609314E-1	2.178650E-1
7.284000E+9	-9.208679E-1	-2.396545E-1	2.663231E-2	-7.330894E-3	2.653027E-2	-6.959915E-3	-8.591919E-1	2.224426E-1
7.508500E+9	-9.250183E-1	-2.265930E-1	2.618122E-2	-7.894516E-3	2.624130E-2	-7.158279E-3	-8.552856E-1	2.297058E-1
7.733000E+9	-9.266052E-1	-2.137756E-1	2.612495E-2	-7.652283E-3	2.586651E-2	-7.907867E-3	-8.508301E-1	2.355042E-1
7.957500E+9	-9.295349E-1	-2.006836E-1	2.541924E-2	-8.603096E-3	2.551746E-2	-8.543968E-3	-8.496399E-1	2.401733E-1
8.182000E+9	-9.327698E-1	-1.876831E-1	2.529430E-2	-8.734703E-3	2.543640E-2	-8.572578E-3	-8.459778E-1	2.460022E-1
8.406500E+9	-9.336853E-1	-1.774902E-1	2.456665E-2	-9.128571E-3	2.482700E-2	-9.226799E-3	-8.418884E-1	2.515564E-1
8.631000E+9	-9.362793E-1	-1.657104E-1	2.443600E-2	-9.951591E-3	2.442455E-2	-1.046085E-2	-8.395691E-1	2.572632E-1
8.855500E+9	-9.376221E-1	-1.551819E-1	2.377033E-2	-9.621620E-3	2.361393E-2	-1.029682E-2	-8.361816E-1	2.633667E-1
9.080001E+9	-9.393616E-1	-1.455994E-1	2.360058E-2	-1.046562E-2	2.387238E-2	-1.042271E-2	-8.309326E-1	2.697754E-1
9.304500E+9	-9.403992E-1	-1.333313E-1	2.328014E-2	-1.063347E-2	2.313042E-2	-1.055622E-2	-8.288574E-1	2.734680E-1
9.529000E+9	-9.409485E-1	-1.251526E-1	2.210331E-2	-1.060390E-2	2.215481E-2	-1.110172E-2	-8.250732E-1	2.792358E-1
9.753500E+9	-9.418640E-1	-1.158142E-1	2.229309E-2	-1.191521E-2	2.203465E-2	-1.110744E-2	-8.206177E-1	2.846069E-1
9.978000E+9	-9.432068E-1	-1.061707E-1	2.160168E-2	-1.139164E-2	2.073383E-2	-1.154995E-2	-8.176270E-1	2.883301E-1
1.020250E+10	-9.444275E-1	-9.738159E-2	2.107811E-2	-1.137638E-2	2.119732E-2	-1.129150E-2	-8.139954E-1	2.951050E-1
1.042700E+10	-9.456787E-1	-8.831787E-2	2.047157E-2	-1.076317E-2	2.043915E-2	-1.108742E-2	-8.094482E-1	3.004150E-1
1.065150E+10	-9.456787E-1	-7.934570E-2	2.026749E-2	-1.166534E-2	2.105904E-2	-1.148701E-2	-8.055115E-1	3.031616E-1
1.087600E+10	-9.472656E-1	-7.150269E-2	1.964092E-2	-1.221371E-2	1.969242E-2	-1.130390E-2	-8.034363E-1	3.091431E-1
1.110050E+10	-9.470825E-1	-6.170654E-2	1.947784E-2	-1.140499E-2	1.971626E-2	-1.170063E-2	-7.969055E-1	3.144531E-1
1.132500E+10	-9.466248E-1	-5.419922E-2	1.887131E-2	-1.170254E-2	1.936913E-2	-1.167393E-2	-7.940369E-1	3.175964E-1
1.154950E+10	-9.468689E-1	-4.492187E-2	1.938248E-2	-1.122284E-2	1.882076E-2	-1.150227E-2	-7.922058E-1	3.224792E-1
1.177400E+10	-9.464722E-1	-3.707886E-2	1.809502E-2	-1.175022E-2	1.807690E-2	-1.185322E-2	-7.863464E-1	3.282471E-1
1.199850E+10	-9.460754E-1	-2.972412E-2	1.736641E-2	-1.156902E-2	1.795673E-2	-1.163864E-2	-7.822876E-1	3.311768E-1
1.222300E+10	-9.469604E-1	-2.212524E-2	1.773739E-2	-1.123810E-2	1.796150E-2	-1.195145E-2	-7.789917E-1	3.357544E-1
1.244750E+10	-9.468994E-1	-1.593018E-2	1.705742E-2	-1.202583E-2	1.695728E-2	-1.182365E-2	-7.747498E-1	3.403320E-1
1.267200E+10	-9.468079E-1	-7.629395E-3	1.672173E-2	-1.183701E-2	1.644230E-2	-1.184750E-2	-7.691345E-1	3.431702E-1
1.289650E+10	-9.463806E-1	-1.892090E-3	1.630306E-2	-1.210213E-2	1.617908E-2	-1.180744E-2	-7.688904E-1	3.468628E-1
1.312100E+10	-9.464722E-1	5.035400E-3	1.555395E-2	-1.124144E-2	1.549482E-2	-1.147461E-2	-7.638855E-1	3.542480E-1
1.334550E+10	-9.466248E-1	1.205444E-2	1.619053E-2	-1.158619E-2	1.611710E-2	-1.188183E-2	-7.589722E-1	3.554077E-1
1.357000E+10	-9.446411E-1	1.879883E-2	1.564789E-2	-1.117706E-2	1.524925E-2	-1.188326E-2	-7.569580E-1	3.566284E-1
1.379450E+10	-9.452209E-1	2.597046E-2	1.444006E-2	-1.205873E-2	1.512337E-2	-1.164627E-2	-7.532043E-1	3.644409E-1
1.401900E+10	-9.437866E-1	3.204346E-2	1.535606E-2	-1.170444E-2	1.415253E-2	-1.137114E-2	-7.463379E-1	3.682251E-1
1.424350E+10	-9.428101E-1	3.875732E-2	1.483631E-2	-1.166868E-2	1.442957E-2	-1.235008E-2	-7.452698E-1	3.690186E-1
1.446800E+10	-9.435730E-1	4.559326E-2	1.442146E-2	-1.257610E-2	1.351500E-2	-1.189089E-2	-7.417908E-1	3.786316E-1
1.469250E+10	-9.416199E-1	5.307007E-2	1.340294E-2	-1.107788E-2	1.322842E-2	-1.232338E-2	-7.341919E-1	3.814087E-1
1.491700E+10	-9.406128E-1	5.856323E-2	1.380444E-2	-1.133537E-2	1.341438E-2	-1.155615E-2	-7.331543E-1	3.811035E-1
1.514150E+10	-9.405518E-1	6.533813E-2	1.311684E-2	-1.097012E-2	1.312876E-2	-1.077461E-2	-7.290039E-1	3.874512E-1
1.536600E+10	-9.378357E-1	7.150269E-2	1.322269E-2	-1.066875E-2	1.280737E-2	-1.196480E-2	-7.236938E-1	3.920898E-1
1.559050E+10	-9.366455E-1	7.781982E-2	1.283598E-2	-1.130390E-2	1.189137E-2	-1.121187E-2	-7.201843E-1	3.926697E-1
1.581500E+10	-9.367676E-1	8.303833E-2	1.242638E-2	-1.006842E-2	1.212692E-2	-1.139736E-2	-7.173767E-1	3.974304E-1
1.603950E+10	-9.370728E-1	8.886719E-2	1.197958E-2	-1.042223E-2	1.137781E-2	-1.182604E-2	-7.120361E-1	4.015808E-1
1.626400E+10	-9.354858E-1	9.552002E-2	1.249266E-2	-1.140976E-2	1.120949E-2	-1.082373E-2	-7.092896E-1	4.026489E-1
1.648850E+10	-9.342651E-1	1.003723E-1	1.175499E-2	-1.156092E-2	1.083279E-2	-1.024437E-2	-7.063293E-1	4.081116E-1
1.671300E+10	-9.324646E-1	1.076965E-1	1.103878E-2	-1.055431E-2	1.094580E-2	-1.093721E-2	-7.003479E-1	4.118958E-1
1.693750E+10	-9.317322E-1	1.122742E-1	1.066494E-2	-1.162577E-2	1.071548E-2	-1.032448E-2	-6.977539E-1	4.134827E-1
1.716200E+10	-9.303284E-1	1.188049E-1	9.624004E-3	-1.067591E-2	1.071692E-2	-1.178598E-2	-6.947327E-1	4.188843E-1
1.738650E+10	-9.285889E-1	1.248169E-1	9.754181E-3	-9.682655E-3	9.464741E-3	-1.170921E-2	-6.877747E-1	4.208984E-1
1.761100E+10	-9.271851E-1	1.307678E-1	1.025152E-2	-1.245451E-2	1.078606E-2	-1.006603E-2	-6.867065E-1	4.226074E-1
1.783550E+10	-9.259033E-1	1.367187E-1	1.106262E-2	-1.129198E-2	9.511471E-3	-1.049137E-2	-6.846619E-1	4.294128E-1
1.806000E+10	-9.244995E-1	1.424255E-1	9.594917E-3	-1.003408E-2	9.678364E-3	-9.757042E-3	-6.770325E-1	4.335937E-1
1.828450E+10	-9.219666E-1	1.486816E-1	9.343147E-3	-9.631634E-3	1.005030E-2	-1.112461E-2	-6.749268E-1	4.334717E-1
1.850900E+10	-9.209595E-1	1.528625E-1	8.500576E-3	-1.109934E-2	8.759975E-3	-1.047611E-2	-6.736450E-1	4.382629E-1
1.873350E+10	-9.193726E-1	1.585999E-1	8.623600E-3	-1.096201E-2	8.635998E-3	-1.069164E-2	-6.655579E-1	4.435730E-1
1.895800E+10	-9.155884E-1	1.636353E-1	7.441044E-3	-1.039314E-2	7.514954E-3	-1.071072E-2	-6.614685E-1	4.428101E-1
1.918250E+10	-9.143982E-1	1.689758E-1	8.076191E-3	-1.053476E-2	7.996559E-3	-9.686947E-3	-6.601868E-1	4.460754E-1
1.940700E+10	-9.121704E-1	1.734619E-1	7.520199E-3	-1.089334E-2	7.470131E-3	-1.058006E-2	-6.541443E-1	4.542542E-1
1.963150E+10	-9.116821E-1	1.787415E-1	7.072449E-3	-1.000977E-2	6.786823E-3	-1.018953E-2	-6.500244E-1	4.516296E-1
1.985600E+10	-9.071960E-1	1.830750E-1	6.291389E-3	-8.693218E-3	5.198002E-3	-8.939743E-3	-6.478882E-1	4.560852E-1
2.008050E+10	-9.052734E-1	1.873169E-1	6.412029E-3	-9.729862E-3	6.618500E-3	-1.082850E-2	-6.432495E-1	4.612122E-1
2.030500E+10	-9.051514E-1	1.921692E-1	4.171371E-3	-8.965969E-3	6.669998E-3	-9.230137E-3	-6.375122E-1	4.609985E-1
2.052950E+10	-9.007874E-1	1.979065E-1	6.763458E-3	-9.357452E-3	5.700588E-3	-9.352684E-3	-6.360474E-1	4.640198E-1
2.075400E+10	-8.987122E-1	2.028503E-1	4.800320E-3	-9.037971E-3	4.681587E-3	-9.091854E-3	-6.315613E-1	4.721375E-1
2.097850E+10	-8.977051E-1	2.081909E-1	4.080296E-3	-8.485317E-3	4.945755E-3	-8.698940E-3	-6.249390E-1	4.735107E-1
2.120300E+10	-8.931274E-1	2.104797E-1	4.620075E-3	-9.031296E-3	4.110336E-3	-7.582188E-3	-6.245117E-1	4.722595E-1
2.142750E+10	-8.900146E-1	2.172241E-1	4.809856E-3	-8.402824E-3	4.451752E-3	-8.902073E-3	-6.206970E-1	4.767456E-1
2.165200E+10	-8.878479E-1	2.235107E-1	3.808975E-3	-8.591652E-3	4.488707E-3	-7.637262E-3	-6.152954E-1	4.802246E-1
2.187650E+10	-8.854675E-1	2.231750E-1	3.372192E-3	-9.360790E-3	3.244877E-3	-8.556843E-3	-6.150818E-1	4.811707E-1
2.210100E+10	-8.824158E-1	2.318726E-1	3.957033E-3	-7.676840E-3	2.912521E-3	-9.128094E-3	-6.112976E-1	4.886475E-1
2.232550E+10	-8.780823E-1	2.338257E-1	5.679131E-4	-8.437634E-3	3.029108E-3	-7.400990E-3	-6.031799E-1	4.935608E-1
2.255000E+10	-8.777771E-1	2.389526E-1	2.024651E-3	-8.778095E-3	1.983643E-3	-9.261131E-3	-5.986633E-1	4.922791E-1
2.277450E+10	-8.727722E-1	2.448730E-1	2.290964E-3	-6.865740E-3	2.664089E-3	-8.707047E-3	-5.962219E-1	4.963684E-1
2.299900E+10	-8.692017E-1	2.460632E-1	-9.555817E-4	-9.771824E-3	1.290560E-3	-7.301331E-3	-5.870361E-1	4.996948E-1
2.322350E+10	-8.667297E-1	2.516785E-1	2.558231E-4	-6.973028E-3	-4.730225E-4	-6.123304E-3	-5.850220E-1	4.979858E-1
2.344800E+10	-8.621521E-1	2.531433E-1	-1.670837E-3	-8.762360E-3	-7.567406E-4	-6.036758E-3	-5.829773E-1	5.027771E-1
2.367250E+10	-8.605652E-1	2.583313E-1	-2.507210E-3	-7.021666E-3	-1.647472E-3	-5.073547E-3	-5.747375E-1	5.056152E-1
2.389700E+10	-8.554687E-1	2.610168E-1	-1.720190E-3	-2.489567E-3	-3.089428E-3	-5.777597E-3	-5.742187E-1	5.059509E-1
2.412150E+10	-8.533630E-1	2.635498E-1	-3.300190E-3	-4.666805E-3	-2.443075E-3	-4.953623E-3	-5.665283E-1	5.119019E-1
2.434600E+10	-8.478088E-1	2.684326E-1	-2.047300E-3	-4.048586E-3	-3.358841E-3	-5.035639E-3	-5.606995E-1	5.138550E-1
2.457050E+10	-8.443909E-1	2.715759E-1	-4.686832E-3	-3.239393E-3	-3.893852E-3	-4.466057E-3	-5.592651E-1	5.149536E-1
2.479500E+10	-8.413696E-1	2.750244E-1	-3.205895E-3	-1.930237E-3	-4.682779E-3	-3.545761E-3	-5.519104E-1	5.206909E-1
2.501950E+10	-8.366394E-1	2.758179E-1	-4.156351E-3	-7.793903E-4	-5.161047E-3	-8.342266E-4	-5.435181E-1	5.200500E-1
2.524400E+10	-8.335571E-1	2.779846E-1	-6.709576E-3	-5.106926E-4	-4.536867E-3	-1.477242E-3	-5.416565E-1	5.191345E-1
2.546850E+10	-8.293762E-1	2.811584E-1	-5.378485E-3	1.525164E-3	-5.397558E-3	7.171631E-4	-5.354309E-1	5.247498E-1
2.569300E+10	-8.249817E-1	2.825928E-1	-6.314754E-3	3.805161E-4	-4.354954E-3	1.741648E-3	-5.319214E-1	5.232849E-1
2.591750E+10	-8.209839E-1	2.862244E-1	-7.380009E-3	2.269983E-3	-5.793333E-3	3.170490E-3	-5.297852E-1	5.235596E-1
2.614200E+10	-8.175964E-1	2.859497E-1	-4.747629E-3	4.852772E-3	-7.375479E-3	3.517866E-3	-5.294189E-1	5.298157E-1
2.636650E+10	-8.157349E-1	2.865295E-1	-6.512165E-3	4.549026E-3	-6.379843E-3	2.977371E-3	-5.236511E-1	5.337524E-1
2.659100E+10	-8.121948E-1	2.877502E-1	-7.245541E-3	4.090786E-3	-5.267859E-3	5.294800E-3	-5.151062E-1	5.329590E-1
2.681550E+10	-8.089600E-1	2.872925E-1	-5.205154E-3	7.039070E-3	-4.583597E-3	6.942987E-3	-5.144043E-1	5.332031E-1
2.704000E+10	-8.062439E-1	2.884216E-1	-6.309032E-3	8.487701E-3	-5.808830E-3	8.308411E-3	-5.096741E-1	5.413208E-1
2.726450E+10	-8.021240E-1	2.932739E-1	-6.750107E-3	8.553982E-3	-9.325981E-3	6.724834E-3	-4.998779E-1	5.368042E-1
2.748900E+10	-7.985229E-1	2.900391E-1	-7.586002E-3	8.415699E-3	-6.430626E-3	1.104212E-2	-4.992065E-1	5.394287E-1
2.771350E+10	-7.978210E-1	2.891541E-1	-7.032394E-3	1.157999E-2	-6.534100E-3	7.510662E-3	-4.946899E-1	5.416260E-1
2.793800E+10	-7.943726E-1	2.905273E-1	-5.957603E-3	1.146650E-2	-4.522800E-3	1.327324E-2	-4.880981E-1	5.404663E-1
2.816250E+10	-7.917786E-1	2.920227E-1	-6.977558E-3	1.135492E-2	-6.202221E-3	1.364088E-2	-4.871826E-1	5.398254E-1
2.838700E+10	-7.881470E-1	2.879028E-1	-4.157543E-3	1.301670E-2	-3.555775E-3	1.529121E-2	-4.797974E-1	5.468140E-1
2.861150E+10	-7.883606E-1	2.917175E-1	-7.369041E-3	1.723480E-2	-5.998611E-3	1.584530E-2	-4.725952E-1	5.441895E-1
2.883600E+10	-7.865295E-1	2.924805E-1	-5.839348E-3	1.665211E-2	-4.049301E-3	1.828003E-2	-4.732666E-1	5.471497E-1
2.906050E+10	-7.821655E-1	2.937622E-1	-3.972054E-3	1.984787E-2	-3.336906E-3	1.696873E-2	-4.689331E-1	5.500793E-1
2.928500E+10	-7.825317E-1	2.955627E-1	-3.596783E-3	1.488543E-2	-2.147675E-3	1.873207E-2	-4.647827E-1	5.483093E-1
2.950950E+10	-7.812195E-1	2.940063E-1	-2.674103E-3	1.814175E-2	-2.088547E-3	2.105045E-2	-4.602356E-1	5.523987E-1
2.973400E+10	-7.802429E-1	2.918091E-1	5.388260E-4	2.056694E-2	-4.577637E-4	2.310753E-2	-4.563293E-1	5.554810E-1
2.995850E+10	-7.808533E-1	2.931213E-1	5.397797E-4	2.005100E-2	1.668930E-3	1.953697E-2	-4.552307E-1	5.510559E-1
3.018300E+10	-7.767334E-1	2.913818E-1	2.764702E-3	2.097034E-2	1.245499E-3	2.282715E-2	-4.495850E-1	5.594482E-1
3.040750E+10	-7.793884E-1	2.954712E-1	3.021240E-3	2.311420E-2	2.069473E-3	2.286530E-2	-4.461670E-1	5.604858E-1
3.063200E+10	-7.769165E-1	2.926941E-1	1.418114E-3	2.185631E-2	2.597809E-3	2.282429E-2	-4.451599E-1	5.675964E-1
3.085650E+10	-7.774353E-1	2.955017E-1	2.655983E-3	2.277851E-2	2.115250E-3	2.364826E-2	-4.356079E-1	5.657959E-1
3.108100E+10	-7.777710E-1	2.966614E-1	5.112648E-3	2.541161E-2	6.292343E-3	2.468109E-2	-4.310913E-1	5.697327E-1
3.130550E+10	-7.760620E-1	2.943726E-1	6.423950E-3	2.330780E-2	4.096031E-3	2.655315E-2	-4.249268E-1	5.661621E-1
3.153000E+10	-7.802124E-1	2.956543E-1	2.493858E-3	2.981758E-2	6.534576E-3	2.802944E-2	-4.214172E-1	5.637512E-1
3.175450E+10	-7.715454E-1	2.982178E-1	8.492470E-3	2.403545E-2	7.658005E-3	2.763844E-2	-4.184570E-1	5.716858E-1
3.197900E+10	-7.779236E-1	2.998047E-1	8.448601E-3	2.791309E-2	1.318073E-2	2.822304E-2	-4.077759E-1	5.722961E-1
3.220350E+10	-7.767639E-1	2.994385E-1	1.606274E-2	2.812004E-2	5.318642E-3	2.791691E-2	-4.010010E-1	5.674133E-1
3.242800E+10	-7.818604E-1	3.025208E-1	1.064968E-2	2.909660E-2	1.112652E-2	2.821350E-2	-4.042053E-1	5.740356E-1
3.265250E+10	-7.817078E-1	3.018188E-1	1.147747E-2	2.662849E-2	1.230717E-2	2.785969E-2	-4.025879E-1	5.718079E-1
3.287700E+10	-7.815247E-1	3.038940E-1	1.120567E-2	2.840996E-2	1.508236E-2	2.394199E-2	-3.967896E-1	5.765076E-1
3.310150E+10	-7.824097E-1	3.044434E-1	1.354122E-2	2.882290E-2	1.522255E-2	2.998161E-2	-3.878784E-1	5.757141E-1
3.332600E+10	-7.814941E-1	3.094177E-1	1.761436E-2	2.721691E-2	1.559353E-2	2.381992E-2	-3.893127E-1	5.713501E-1
3.355050E+10	-7.785339E-1	3.102417E-1	1.765347E-2	2.623463E-2	1.757717E-2	2.970028E-2	-3.848877E-1	5.819702E-1
3.377500E+10	-7.817688E-1	3.127747E-1	1.823425E-2	2.689743E-2	2.117920E-2	2.981949E-2	-3.811646E-1	5.740967E-1
3.399950E+10	-7.790222E-1	3.152161E-1	1.581192E-2	2.566528E-2	1.946449E-2	2.539253E-2	-3.767090E-1	5.800171E-1
3.422400E+10	-7.842102E-1	3.212585E-1	1.659203E-2	2.720451E-2	2.011490E-2	2.903080E-2	-3.741455E-1	5.865173E-1
3.444850E+10	-7.815552E-1	3.207397E-1	1.957607E-2	2.508163E-2	1.941204E-2	2.780247E-2	-3.662415E-1	5.840454E-1
3.467300E+10	-7.802124E-1	3.249817E-1	2.329731E-2	2.467060E-2	2.506542E-2	2.351952E-2	-3.673401E-1	5.845032E-1
3.489750E+10	-7.841187E-1	3.264771E-1	2.509403E-2	2.634430E-2	2.460766E-2	2.521229E-2	-3.607788E-1	5.850220E-1
3.512200E+10	-7.852783E-1	3.235474E-1	2.195072E-2	2.785110E-2	2.631664E-2	2.464199E-2	-3.517761E-1	5.824890E-1
3.534650E+10	-7.835693E-1	3.239746E-1	2.315903E-2	2.254677E-2	2.576256E-2	2.459812E-2	-3.533325E-1	5.905762E-1
3.557100E+10	-7.817688E-1	3.323669E-1	2.761555E-2	3.009224E-2	1.939011E-2	2.388954E-2	-3.364258E-1	5.919495E-1
3.579550E+10	-7.811890E-1	3.341370E-1	2.339745E-2	2.271175E-2	2.119732E-2	2.280521E-2	-3.365479E-1	5.890503E-1
3.602000E+10	-7.850647E-1	3.367310E-1	2.222347E-2	2.337456E-2	3.038311E-2	2.259445E-2	-3.382568E-1	5.845337E-1
3.624450E+10	-7.882690E-1	3.383179E-1	2.373791E-2	2.158260E-2	2.778912E-2	2.559090E-2	-3.334351E-1	5.884705E-1
3.646900E+10	-7.839661E-1	3.475037E-1	2.630711E-2	2.381420E-2	2.640438E-2	2.315331E-2	-3.282776E-1	5.927429E-1
3.669350E+10	-7.851257E-1	3.477783E-1	2.967930E-2	2.335072E-2	2.840137E-2	2.482414E-2	-3.224487E-1	5.931091E-1
3.691800E+10	-7.854614E-1	3.505554E-1	2.497578E-2	2.601433E-2	2.938652E-2	2.466202E-2	-3.170776E-1	5.909424E-1
3.714250E+10	-7.789001E-1	3.522949E-1	2.946377E-2	2.081680E-2	2.588177E-2	2.299786E-2	-3.137207E-1	5.934143E-1
3.736700E+10	-7.800598E-1	3.555603E-1	2.902412E-2	1.947403E-2	3.110027E-2	2.069092E-2	-3.043823E-1	5.957947E-1
3.759150E+10	-7.807617E-1	3.547974E-1	2.661133E-2	1.958179E-2	2.822018E-2	2.015591E-2	-3.045654E-1	5.966797E-1
3.781600E+10	-7.817688E-1	3.622742E-1	2.970409E-2	2.433681E-2	3.123474E-2	2.647877E-2	-2.995300E-1	6.017456E-1
3.804050E+10	-7.824097E-1	3.638916E-1	3.380775E-2	2.247238E-2	3.159714E-2	2.490044E-2	-2.916870E-1	5.938110E-1
3.826500E+10	-7.829285E-1	3.703613E-1	3.667259E-2	2.093315E-2	3.495598E-2	1.557159E-2	-2.862244E-1	6.027222E-1
3.848950E+10	-7.759094E-1	3.734436E-1	3.052616E-2	1.941490E-2	3.757858E-2	1.446724E-2	-2.863464E-1	6.022034E-1
3.871400E+10	-7.797852E-1	3.699036E-1	2.971268E-2	2.214909E-2	3.141212E-2	1.963043E-2	-2.769470E-1	6.002197E-1
3.893850E+10	-7.783203E-1	3.806152E-1	3.917885E-2	2.074432E-2	3.691292E-2	2.449799E-2	-2.727356E-1	5.971375E-1
3.916300E+10	-7.795410E-1	3.767700E-1	3.602028E-2	1.828384E-2	3.739166E-2	1.844025E-2	-2.738037E-1	6.028442E-1
3.938750E+10	-7.802429E-1	3.885193E-1	3.465462E-2	1.521683E-2	3.441811E-2	1.533127E-2	-2.734680E-1	6.002502E-1
