!Date: 10/28/2005, 12:34 PM

!Vgs = -3.000000E+0
!Vds = 4.000000E+0
!Ig = -1.637600E-5
!Id = 3.550200E-1

# HZ S RI R 50
1.000000E+8	9.620667E-1	-2.256470E-1	-1.393408E+1	1.231934E+0	1.028538E-3	1.078987E-2	2.596588E-1	-8.958435E-2
3.245000E+8	7.229004E-1	-6.218262E-1	-1.190625E+1	4.945801E+0	1.231098E-2	2.604580E-2	7.691956E-2	-2.349930E-1
5.490000E+8	4.089966E-1	-8.388977E-1	-9.401855E+0	6.696777E+0	2.622604E-2	3.444481E-2	-1.646423E-2	-2.911835E-1
7.735000E+8	1.235657E-1	-9.116516E-1	-7.123047E+0	7.232910E+0	3.848076E-2	3.576851E-2	-1.221619E-1	-3.204956E-1
9.980000E+8	-1.025696E-1	-9.024963E-1	-5.321777E+0	7.131836E+0	4.795456E-2	3.435707E-2	-2.003632E-1	-3.048248E-1
1.222500E+9	-2.768250E-1	-8.592224E-1	-3.972656E+0	6.788574E+0	5.490685E-2	3.128624E-2	-2.526855E-1	-2.914886E-1
1.447000E+9	-4.076233E-1	-8.030090E-1	-2.955566E+0	6.334229E+0	6.036568E-2	2.792549E-2	-2.978821E-1	-2.704926E-1
1.671500E+9	-5.053406E-1	-7.440491E-1	-2.203857E+0	5.869629E+0	6.421280E-2	2.459335E-2	-3.294373E-1	-2.518158E-1
1.896000E+9	-5.810547E-1	-6.855774E-1	-1.647461E+0	5.419434E+0	6.738281E-2	2.142715E-2	-3.540802E-1	-2.312164E-1
2.120500E+9	-6.375122E-1	-6.316528E-1	-1.221680E+0	5.021240E+0	6.988525E-2	1.836395E-2	-3.719788E-1	-2.147675E-1
2.345000E+9	-6.817322E-1	-5.796204E-1	-8.833008E-1	4.652832E+0	7.142258E-2	1.496506E-2	-3.876648E-1	-1.974487E-1
2.569500E+9	-7.137146E-1	-5.350342E-1	-6.201172E-1	4.318359E+0	7.209396E-2	1.195908E-2	-3.981476E-1	-1.831207E-1
2.794000E+9	-7.424622E-1	-4.980469E-1	-4.182129E-1	4.029785E+0	7.355881E-2	9.426117E-3	-4.073334E-1	-1.704865E-1
3.018500E+9	-7.636719E-1	-4.613342E-1	-2.474365E-1	3.762451E+0	7.403183E-2	7.049561E-3	-4.135742E-1	-1.585388E-1
3.243000E+9	-7.817383E-1	-4.284668E-1	-1.069336E-1	3.529663E+0	7.449722E-2	4.680634E-3	-4.201965E-1	-1.490173E-1
3.467500E+9	-7.974243E-1	-4.002075E-1	9.155273E-3	3.321533E+0	7.471466E-2	2.666473E-3	-4.251862E-1	-1.395569E-1
3.692000E+9	-8.108826E-1	-3.740845E-1	1.103516E-1	3.126221E+0	7.462311E-2	1.148224E-3	-4.295044E-1	-1.325073E-1
3.916500E+9	-8.218079E-1	-3.478699E-1	1.903076E-1	2.947388E+0	7.541656E-2	-1.529694E-3	-4.348755E-1	-1.243591E-1
4.141000E+9	-8.311462E-1	-3.243713E-1	2.593994E-1	2.788818E+0	7.559967E-2	-2.735138E-3	-4.386444E-1	-1.168060E-1
4.365500E+9	-8.370667E-1	-3.041077E-1	3.195801E-1	2.641968E+0	7.553482E-2	-4.627228E-3	-4.411926E-1	-1.110229E-1
4.590000E+9	-8.443298E-1	-2.851868E-1	3.701172E-1	2.503540E+0	7.501602E-2	-6.141663E-3	-4.444275E-1	-1.044769E-1
4.814500E+9	-8.509827E-1	-2.670288E-1	4.110107E-1	2.379272E+0	7.533264E-2	-7.720947E-3	-4.468079E-1	-9.925842E-2
5.039000E+9	-8.556519E-1	-2.496033E-1	4.475098E-1	2.264771E+0	7.541275E-2	-9.262085E-3	-4.497986E-1	-9.443665E-2
5.263500E+9	-8.599854E-1	-2.331848E-1	4.801025E-1	2.158569E+0	7.559967E-2	-1.097488E-2	-4.527435E-1	-8.821106E-2
5.488000E+9	-8.624268E-1	-2.202759E-1	5.074463E-1	2.061523E+0	7.450104E-2	-1.256561E-2	-4.541626E-1	-8.380127E-2
5.712500E+9	-8.668518E-1	-2.057495E-1	5.334473E-1	1.966248E+0	7.423782E-2	-1.404953E-2	-4.569244E-1	-7.958984E-2
5.937000E+9	-8.693848E-1	-1.907349E-1	5.535889E-1	1.878540E+0	7.443619E-2	-1.543808E-2	-4.586792E-1	-7.525635E-2
6.161500E+9	-8.720703E-1	-1.795654E-1	5.726929E-1	1.801086E+0	7.384872E-2	-1.665878E-2	-4.610291E-1	-6.925964E-2
6.386000E+9	-8.748779E-1	-1.670227E-1	5.891724E-1	1.723755E+0	7.391357E-2	-1.834869E-2	-4.608765E-1	-6.556702E-2
6.610500E+9	-8.760986E-1	-1.559143E-1	6.052856E-1	1.651794E+0	7.303238E-2	-1.932526E-2	-4.638672E-1	-6.428528E-2
6.835000E+9	-8.792419E-1	-1.456604E-1	6.179810E-1	1.581360E+0	7.319641E-2	-2.127075E-2	-4.652710E-1	-5.734253E-2
7.059500E+9	-8.794861E-1	-1.361389E-1	6.254883E-1	1.518982E+0	7.268524E-2	-2.189255E-2	-4.635010E-1	-5.683899E-2
7.284000E+9	-8.809814E-1	-1.251831E-1	6.347656E-1	1.458374E+0	7.200623E-2	-2.313232E-2	-4.676361E-1	-5.352783E-2
7.508500E+9	-8.827209E-1	-1.152344E-1	6.420288E-1	1.399536E+0	7.104492E-2	-2.452087E-2	-4.667358E-1	-4.907227E-2
7.733000E+9	-8.826294E-1	-1.061096E-1	6.488647E-1	1.345581E+0	7.044601E-2	-2.567673E-2	-4.695892E-1	-4.797363E-2
7.957500E+9	-8.836670E-1	-9.677124E-2	6.558838E-1	1.295471E+0	7.030106E-2	-2.708817E-2	-4.714050E-1	-4.443359E-2
8.182000E+9	-8.841248E-1	-8.740234E-2	6.614990E-1	1.245911E+0	6.975555E-2	-2.824402E-2	-4.738922E-1	-4.219055E-2
8.406500E+9	-8.840637E-1	-8.114624E-2	6.643677E-1	1.197388E+0	6.863785E-2	-2.896881E-2	-4.736786E-1	-3.633118E-2
8.631000E+9	-8.850708E-1	-7.269287E-2	6.687012E-1	1.151001E+0	6.797409E-2	-3.000259E-2	-4.758606E-1	-3.524780E-2
8.855500E+9	-8.857422E-1	-6.488037E-2	6.710205E-1	1.107361E+0	6.764603E-2	-3.077698E-2	-4.777069E-1	-3.208923E-2
9.080001E+9	-8.859558E-1	-5.807495E-2	6.727905E-1	1.067505E+0	6.711960E-2	-3.269577E-2	-4.771729E-1	-2.758789E-2
9.304500E+9	-8.849182E-1	-4.904175E-2	6.728516E-1	1.028076E+0	6.602097E-2	-3.245163E-2	-4.782715E-1	-2.427673E-2
9.529000E+9	-8.857117E-1	-4.339600E-2	6.741028E-1	9.892273E-1	6.556320E-2	-3.461075E-2	-4.810028E-1	-2.206421E-2
9.753500E+9	-8.867187E-1	-3.652954E-2	6.733704E-1	9.523621E-1	6.441498E-2	-3.522110E-2	-4.808807E-1	-1.918030E-2
9.978000E+9	-8.858337E-1	-2.935791E-2	6.730652E-1	9.183655E-1	6.295013E-2	-3.612900E-2	-4.823303E-1	-1.759338E-2
1.020250E+10	-8.863525E-1	-2.276611E-2	6.733093E-1	8.843689E-1	6.325912E-2	-3.685760E-2	-4.834900E-1	-1.371765E-2
1.042700E+10	-8.865356E-1	-1.580811E-2	6.717834E-1	8.524475E-1	6.210709E-2	-3.849602E-2	-4.829712E-1	-1.124573E-2
1.065150E+10	-8.859558E-1	-9.582520E-3	6.697083E-1	8.222656E-1	6.157112E-2	-3.901100E-2	-4.841461E-1	-9.613037E-3
1.087600E+10	-8.871460E-1	-4.180908E-3	6.689148E-1	7.922974E-1	6.077766E-2	-3.945923E-2	-4.858246E-1	-6.484985E-3
1.110050E+10	-8.855591E-1	2.593994E-3	6.670532E-1	7.624817E-1	5.965614E-2	-4.042435E-2	-4.855804E-1	-4.150391E-3
1.132500E+10	-8.851013E-1	8.270264E-3	6.649475E-1	7.351074E-1	5.957413E-2	-4.192924E-2	-4.863434E-1	-2.578735E-3
1.154950E+10	-8.854675E-1	1.452637E-2	6.627808E-1	7.080383E-1	5.771637E-2	-4.167747E-2	-4.897003E-1	1.052856E-3
1.177400E+10	-8.844910E-1	1.989746E-2	6.594543E-1	6.831970E-1	5.684471E-2	-4.239273E-2	-4.891510E-1	4.776001E-3
1.199850E+10	-8.843079E-1	2.557373E-2	6.566162E-1	6.581421E-1	5.640030E-2	-4.322052E-2	-4.890594E-1	4.959106E-3
1.222300E+10	-8.838806E-1	3.082275E-2	6.527100E-1	6.322327E-1	5.620193E-2	-4.396439E-2	-4.908600E-1	7.553101E-3
1.244750E+10	-8.832397E-1	3.579712E-2	6.484070E-1	6.087646E-1	5.434608E-2	-4.439926E-2	-4.928894E-1	1.296997E-2
1.267200E+10	-8.832703E-1	4.141235E-2	6.459656E-1	5.863342E-1	5.439568E-2	-4.506874E-2	-4.925079E-1	1.138306E-2
1.289650E+10	-8.817444E-1	4.641724E-2	6.400757E-1	5.654602E-1	5.276299E-2	-4.578590E-2	-4.958038E-1	1.518250E-2
1.312100E+10	-8.811035E-1	5.166626E-2	6.363525E-1	5.444031E-1	5.222511E-2	-4.638100E-2	-4.956970E-1	2.061462E-2
1.334550E+10	-8.811646E-1	5.688477E-2	6.325378E-1	5.234070E-1	5.129433E-2	-4.683113E-2	-4.951324E-1	2.005005E-2
1.357000E+10	-8.800049E-1	6.005859E-2	6.276855E-1	5.043335E-1	5.064964E-2	-4.809952E-2	-4.973297E-1	2.035522E-2
1.379450E+10	-8.800354E-1	6.600952E-2	6.237183E-1	4.850159E-1	4.894257E-2	-4.852295E-2	-4.998627E-1	2.722168E-2
1.401900E+10	-8.794861E-1	7.101440E-2	6.193848E-1	4.695435E-1	4.874039E-2	-4.879189E-2	-4.971771E-1	2.783203E-2
1.424350E+10	-8.774719E-1	7.574463E-2	6.134033E-1	4.501038E-1	4.704094E-2	-4.978371E-2	-5.010071E-1	3.121948E-2
1.446800E+10	-8.777466E-1	8.023071E-2	6.112671E-1	4.314880E-1	4.533386E-2	-4.961586E-2	-5.006409E-1	3.625488E-2
1.469250E+10	-8.761902E-1	8.486938E-2	6.067200E-1	4.164734E-1	4.507828E-2	-4.992485E-2	-4.992523E-1	3.797913E-2
1.491700E+10	-8.757019E-1	8.990479E-2	6.003723E-1	4.008179E-1	4.495049E-2	-4.974556E-2	-5.009766E-1	3.732300E-2
1.514150E+10	-8.743896E-1	9.381104E-2	5.954285E-1	3.841858E-1	4.303169E-2	-5.118179E-2	-5.043640E-1	4.373169E-2
1.536600E+10	-8.734131E-1	9.863281E-2	5.900574E-1	3.681335E-1	4.179573E-2	-5.162048E-2	-5.003052E-1	4.486084E-2
1.559050E+10	-8.720093E-1	1.043701E-1	5.859375E-1	3.529663E-1	4.077911E-2	-5.135918E-2	-5.037842E-1	4.544067E-2
1.581500E+10	-8.710327E-1	1.078491E-1	5.783386E-1	3.385010E-1	4.026031E-2	-5.201340E-2	-5.058899E-1	5.056763E-2
1.603950E+10	-8.710022E-1	1.126099E-1	5.741882E-1	3.262634E-1	3.880882E-2	-5.319023E-2	-5.040588E-1	5.328369E-2
1.626400E+10	-8.698120E-1	1.159973E-1	5.706177E-1	3.122253E-1	3.852081E-2	-5.289078E-2	-5.077209E-1	5.535889E-2
1.648850E+10	-8.693237E-1	1.192322E-1	5.644836E-1	3.000793E-1	3.667641E-2	-5.328560E-2	-5.074463E-1	5.880737E-2
1.671300E+10	-8.672791E-1	1.246338E-1	5.580750E-1	2.860107E-1	3.580284E-2	-5.404091E-2	-5.070801E-1	5.990601E-2
1.693750E+10	-8.671265E-1	1.282959E-1	5.539856E-1	2.744751E-1	3.512955E-2	-5.450439E-2	-5.089722E-1	6.158447E-2
1.716200E+10	-8.657227E-1	1.328125E-1	5.484009E-1	2.632141E-1	3.470993E-2	-5.346298E-2	-5.094604E-1	6.744385E-2
1.738650E+10	-8.634338E-1	1.369629E-1	5.433044E-1	2.532043E-1	3.207397E-2	-5.495262E-2	-5.087280E-1	6.970215E-2
1.761100E+10	-8.635254E-1	1.409912E-1	5.366516E-1	2.420044E-1	3.111076E-2	-5.467415E-2	-5.119934E-1	7.083130E-2
1.783550E+10	-8.614197E-1	1.460571E-1	5.328979E-1	2.303772E-1	3.066635E-2	-5.427933E-2	-5.119629E-1	7.644653E-2
1.806000E+10	-8.631287E-1	1.488953E-1	5.281982E-1	2.206421E-1	2.985001E-2	-5.558777E-2	-5.106812E-1	7.998657E-2
1.828450E+10	-8.594971E-1	1.523743E-1	5.221863E-1	2.101135E-1	2.873421E-2	-5.562019E-2	-5.126648E-1	8.102417E-2
1.850900E+10	-8.587952E-1	1.563110E-1	5.182190E-1	2.005005E-1	2.838898E-2	-5.601883E-2	-5.133972E-1	8.453369E-2
1.873350E+10	-8.580933E-1	1.601562E-1	5.125732E-1	1.917114E-1	2.682686E-2	-5.513954E-2	-5.136719E-1	9.045410E-2
1.895800E+10	-8.551331E-1	1.646118E-1	5.064697E-1	1.821899E-1	2.489090E-2	-5.453300E-2	-5.124512E-1	8.972168E-2
1.918250E+10	-8.548889E-1	1.670837E-1	5.013428E-1	1.736145E-1	2.340126E-2	-5.567741E-2	-5.151978E-1	9.240723E-2
1.940700E+10	-8.535767E-1	1.721802E-1	4.958344E-1	1.640320E-1	2.299118E-2	-5.575562E-2	-5.129700E-1	1.003418E-1
1.963150E+10	-8.539429E-1	1.756897E-1	4.917297E-1	1.557312E-1	2.239799E-2	-5.701256E-2	-5.130920E-1	9.963989E-2
1.985600E+10	-8.514709E-1	1.781006E-1	4.841309E-1	1.461792E-1	2.117729E-2	-5.522919E-2	-5.156860E-1	1.018372E-1
2.008050E+10	-8.504944E-1	1.802368E-1	4.807434E-1	1.395721E-1	2.052879E-2	-5.573082E-2	-5.177917E-1	1.091309E-1
2.030500E+10	-8.465576E-1	1.852112E-1	4.748993E-1	1.344299E-1	1.950455E-2	-5.612183E-2	-5.139771E-1	1.083069E-1
2.052950E+10	-8.467712E-1	1.876221E-1	4.700012E-1	1.273346E-1	1.801300E-2	-5.680084E-2	-5.161743E-1	1.120300E-1
2.075400E+10	-8.453064E-1	1.923828E-1	4.647675E-1	1.203613E-1	1.706123E-2	-5.650139E-2	-5.167236E-1	1.167603E-1
2.097850E+10	-8.437195E-1	1.955872E-1	4.605408E-1	1.128540E-1	1.549339E-2	-5.611992E-2	-5.139465E-1	1.213989E-1
2.120300E+10	-8.413696E-1	1.982422E-1	4.529572E-1	1.067200E-1	1.359940E-2	-5.453873E-2	-5.168457E-1	1.189270E-1
2.142750E+10	-8.435059E-1	2.015686E-1	4.491119E-1	1.010437E-1	1.265335E-2	-5.561638E-2	-5.195007E-1	1.275635E-1
2.165200E+10	-8.388367E-1	2.061462E-1	4.468231E-1	9.378052E-2	1.224518E-2	-5.409050E-2	-5.171509E-1	1.301880E-1
2.187650E+10	-8.397217E-1	2.086792E-1	4.402618E-1	8.876038E-2	9.365082E-3	-5.357361E-2	-5.178528E-1	1.322021E-1
2.210100E+10	-8.372498E-1	2.133789E-1	4.360504E-1	8.035278E-2	1.003838E-2	-5.417252E-2	-5.188293E-1	1.365662E-1
2.232550E+10	-8.373413E-1	2.174683E-1	4.323273E-1	7.612610E-2	1.015091E-2	-5.377579E-2	-5.139160E-1	1.428833E-1
2.255000E+10	-8.354492E-1	2.207947E-1	4.280548E-1	7.191467E-2	7.404327E-3	-5.282402E-2	-5.176392E-1	1.436157E-1
2.277450E+10	-8.326721E-1	2.255249E-1	4.220276E-1	6.419373E-2	7.095337E-3	-5.395508E-2	-5.171814E-1	1.483765E-1
2.299900E+10	-8.317566E-1	2.256470E-1	4.171448E-1	5.996704E-2	5.857468E-3	-5.472565E-2	-5.155640E-1	1.508789E-1
2.322350E+10	-8.288574E-1	2.297974E-1	4.165802E-1	5.493164E-2	4.434586E-3	-5.364990E-2	-5.175781E-1	1.548157E-1
2.344800E+10	-8.302612E-1	2.320251E-1	4.095764E-1	5.250549E-2	2.328873E-3	-5.223846E-2	-5.185547E-1	1.594543E-1
2.367250E+10	-8.258057E-1	2.354736E-1	4.041138E-1	4.594421E-2	1.893997E-3	-5.342674E-2	-5.146790E-1	1.622009E-1
2.389700E+10	-8.265991E-1	2.384949E-1	4.009094E-1	3.915405E-2	1.104355E-3	-5.254745E-2	-5.166321E-1	1.650696E-1
2.412150E+10	-8.241882E-1	2.429504E-1	3.962097E-1	3.593445E-2	-7.553101E-4	-5.172157E-2	-5.136108E-1	1.721802E-1
2.434600E+10	-8.204346E-1	2.457275E-1	3.922119E-1	3.459167E-2	-1.943588E-3	-5.200386E-2	-5.119934E-1	1.729126E-1
2.457050E+10	-8.202820E-1	2.484131E-1	3.896484E-1	2.903748E-2	-3.173828E-3	-4.980278E-2	-5.140076E-1	1.754456E-1
2.479500E+10	-8.185425E-1	2.539368E-1	3.823090E-1	2.537537E-2	-4.951477E-3	-5.047035E-2	-5.103149E-1	1.820984E-1
2.501950E+10	-8.138123E-1	2.545776E-1	3.795319E-1	2.394104E-2	-4.470825E-3	-4.809380E-2	-5.070801E-1	1.821899E-1
2.524400E+10	-8.142395E-1	2.554321E-1	3.771667E-1	1.797485E-2	-7.080078E-3	-4.656029E-2	-5.077515E-1	1.860046E-1
2.546850E+10	-8.138428E-1	2.601318E-1	3.732605E-1	1.713562E-2	-8.584976E-3	-4.631615E-2	-5.081787E-1	1.903381E-1
2.569300E+10	-8.106384E-1	2.625122E-1	3.686981E-1	1.272583E-2	-7.610321E-3	-4.582024E-2	-5.075378E-1	1.910706E-1
2.591750E+10	-8.101501E-1	2.677917E-1	3.670959E-1	9.307861E-3	-7.986069E-3	-4.479408E-2	-5.075378E-1	1.938171E-1
2.614200E+10	-8.073730E-1	2.696838E-1	3.611145E-1	8.590698E-3	-9.443283E-3	-4.566383E-2	-5.092773E-1	2.000427E-1
2.636650E+10	-8.061218E-1	2.699585E-1	3.593597E-1	3.875732E-3	-1.194954E-2	-4.428101E-2	-5.097046E-1	2.057800E-1
2.659100E+10	-8.025513E-1	2.724304E-1	3.568420E-1	8.392334E-4	-1.259804E-2	-4.220772E-2	-5.031128E-1	2.091980E-1
2.681550E+10	-8.028870E-1	2.765503E-1	3.529205E-1	-3.051758E-5	-1.327133E-2	-4.317093E-2	-5.050659E-1	2.087402E-1
2.704000E+10	-8.005981E-1	2.809753E-1	3.484802E-1	-5.264282E-3	-1.329231E-2	-4.206848E-2	-5.074463E-1	2.203674E-1
2.726450E+10	-7.991028E-1	2.830811E-1	3.491821E-1	-3.967285E-3	-1.632881E-2	-3.919220E-2	-4.988098E-1	2.174835E-1
2.748900E+10	-7.946167E-1	2.825623E-1	3.460693E-1	-8.560181E-3	-1.465797E-2	-3.718185E-2	-4.999237E-1	2.233887E-1
2.771350E+10	-7.952881E-1	2.878723E-1	3.434448E-1	-1.040649E-2	-1.406288E-2	-4.014778E-2	-4.985352E-1	2.250519E-1
2.793800E+10	-7.928467E-1	2.900391E-1	3.399200E-1	-1.222229E-2	-1.825905E-2	-3.866196E-2	-4.998627E-1	2.259979E-1
2.816250E+10	-7.907104E-1	2.925415E-1	3.366547E-1	-1.644897E-2	-1.655006E-2	-3.588676E-2	-4.994659E-1	2.293701E-1
2.838700E+10	-7.880859E-1	2.932434E-1	3.349762E-1	-1.852417E-2	-1.837921E-2	-3.665161E-2	-4.967194E-1	2.374268E-1
2.861150E+10	-7.876587E-1	2.991028E-1	3.334808E-1	-2.076721E-2	-2.248383E-2	-3.439140E-2	-4.911499E-1	2.394257E-1
2.883600E+10	-7.867126E-1	2.998657E-1	3.299255E-1	-2.392578E-2	-2.011299E-2	-3.189659E-2	-4.971771E-1	2.387085E-1
2.906050E+10	-7.844238E-1	3.015747E-1	3.275604E-1	-2.357483E-2	-2.186203E-2	-3.199768E-2	-4.931488E-1	2.486725E-1
2.928500E+10	-7.822571E-1	3.041687E-1	3.260193E-1	-2.505493E-2	-2.145767E-2	-3.154564E-2	-4.926605E-1	2.497559E-1
2.950950E+10	-7.816162E-1	3.087769E-1	3.243866E-1	-2.586365E-2	-2.016163E-2	-2.944756E-2	-4.942017E-1	2.524261E-1
2.973400E+10	-7.803955E-1	3.102417E-1	3.248138E-1	-3.242493E-2	-2.572155E-2	-2.711868E-2	-4.928741E-1	2.563171E-1
2.995850E+10	-7.752686E-1	3.134766E-1	3.231201E-1	-3.295898E-2	-2.247238E-2	-2.439308E-2	-4.941101E-1	2.621613E-1
3.018300E+10	-7.718506E-1	3.125000E-1	3.208313E-1	-3.399658E-2	-2.578640E-2	-2.632999E-2	-4.920349E-1	2.716064E-1
3.040750E+10	-7.714844E-1	3.143616E-1	3.217163E-1	-3.823853E-2	-2.421474E-2	-2.339554E-2	-4.845123E-1	2.737122E-1
3.063200E+10	-7.722168E-1	3.176270E-1	3.142395E-1	-3.793335E-2	-2.423477E-2	-2.172470E-2	-4.865875E-1	2.802734E-1
3.085650E+10	-7.702026E-1	3.209839E-1	3.189392E-1	-4.269409E-2	-2.447510E-2	-2.202225E-2	-4.850922E-1	2.838135E-1
3.108100E+10	-7.699890E-1	3.241882E-1	3.146362E-1	-4.281616E-2	-2.130604E-2	-2.016640E-2	-4.835358E-1	2.850342E-1
3.130550E+10	-7.620850E-1	3.244629E-1	3.086700E-1	-4.705811E-2	-2.374458E-2	-1.851463E-2	-4.761353E-1	2.911224E-1
3.153000E+10	-7.659302E-1	3.267212E-1	3.119965E-1	-5.097961E-2	-2.476406E-2	-1.864052E-2	-4.780426E-1	2.962799E-1
3.175450E+10	-7.627563E-1	3.284912E-1	3.126221E-1	-4.957581E-2	-2.884388E-2	-1.669502E-2	-4.769592E-1	3.014984E-1
3.197900E+10	-7.615356E-1	3.291321E-1	3.071289E-1	-5.331421E-2	-2.429771E-2	-1.507664E-2	-4.714355E-1	3.053131E-1
3.220350E+10	-7.602234E-1	3.334961E-1	3.057709E-1	-5.863953E-2	-2.439022E-2	-1.603699E-2	-4.752045E-1	3.089905E-1
3.242800E+10	-7.586060E-1	3.352661E-1	3.090210E-1	-5.615234E-2	-2.629185E-2	-1.255035E-2	-4.656982E-1	3.139191E-1
3.265250E+10	-7.561340E-1	3.381958E-1	3.053894E-1	-6.018066E-2	-2.337646E-2	-8.166313E-3	-4.640656E-1	3.158569E-1
3.287700E+10	-7.545471E-1	3.417358E-1	3.064423E-1	-6.388855E-2	-2.277565E-2	-8.539200E-3	-4.638519E-1	3.209076E-1
3.310150E+10	-7.512207E-1	3.432617E-1	3.022614E-1	-6.497192E-2	-2.740002E-2	-6.208420E-3	-4.613647E-1	3.210907E-1
3.332600E+10	-7.489624E-1	3.428040E-1	3.009186E-1	-6.910706E-2	-2.336884E-2	-6.454468E-3	-4.584045E-1	3.306122E-1
3.355050E+10	-7.459717E-1	3.449402E-1	3.029022E-1	-7.466125E-2	-2.283382E-2	-7.658958E-3	-4.570312E-1	3.314972E-1
3.377500E+10	-7.453613E-1	3.488770E-1	3.000488E-1	-7.070923E-2	-2.441597E-2	-6.961823E-4	-4.535065E-1	3.343658E-1
3.399950E+10	-7.425842E-1	3.474121E-1	3.012390E-1	-7.855225E-2	-2.295113E-2	-1.287460E-3	-4.567719E-1	3.424683E-1
3.422400E+10	-7.412720E-1	3.545837E-1	3.016205E-1	-7.612610E-2	-2.264309E-2	-6.370544E-4	-4.485474E-1	3.541870E-1
3.444850E+10	-7.392883E-1	3.533630E-1	3.020020E-1	-8.355713E-2	-2.530193E-2	-9.317398E-4	-4.458923E-1	3.531189E-1
3.467300E+10	-7.358704E-1	3.500671E-1	3.061371E-1	-8.091736E-2	-2.258778E-2	1.458168E-3	-4.428864E-1	3.645172E-1
3.489750E+10	-7.357483E-1	3.596191E-1	2.993774E-1	-8.872986E-2	-2.306271E-2	3.007889E-3	-4.333191E-1	3.666229E-1
3.512200E+10	-7.319641E-1	3.578491E-1	2.986908E-1	-9.162903E-2	-2.061939E-2	1.785278E-3	-4.344635E-1	3.682861E-1
3.534650E+10	-7.357483E-1	3.620605E-1	3.000946E-1	-9.417725E-2	-2.521324E-2	7.677078E-4	-4.360504E-1	3.745728E-1
3.557100E+10	-7.330933E-1	3.603821E-1	3.004303E-1	-1.011047E-1	-1.901817E-2	8.270264E-3	-4.261322E-1	3.831177E-1
3.579550E+10	-7.351379E-1	3.601379E-1	2.993011E-1	-1.011658E-1	-1.568317E-2	1.298523E-2	-4.166260E-1	3.861694E-1
3.602000E+10	-7.308044E-1	3.670349E-1	2.964325E-1	-1.055298E-1	-2.119064E-2	8.579254E-3	-4.189148E-1	3.885956E-1
3.624450E+10	-7.254944E-1	3.701477E-1	2.921600E-1	-1.070557E-1	-2.075291E-2	1.176071E-2	-4.143982E-1	3.941498E-1
3.646900E+10	-7.282715E-1	3.723755E-1	2.943726E-1	-1.096344E-1	-2.064896E-2	1.093674E-2	-4.019623E-1	4.004822E-1
3.669350E+10	-7.253113E-1	3.684387E-1	2.933807E-1	-1.185913E-1	-2.289200E-2	1.379871E-2	-4.030914E-1	4.031677E-1
3.691800E+10	-7.213440E-1	3.725586E-1	2.902832E-1	-1.201477E-1	-1.773739E-2	1.399994E-2	-3.930054E-1	4.097443E-1
3.714250E+10	-7.199097E-1	3.712769E-1	2.930908E-1	-1.244507E-1	-2.049255E-2	1.646900E-2	-3.941193E-1	4.190216E-1
3.736700E+10	-7.178345E-1	3.735657E-1	2.855682E-1	-1.293945E-1	-1.574230E-2	1.864433E-2	-3.910370E-1	4.175262E-1
3.759150E+10	-7.152710E-1	3.780212E-1	2.858124E-1	-1.280212E-1	-1.114464E-2	1.663399E-2	-3.776703E-1	4.216003E-1
3.781600E+10	-7.115479E-1	3.817139E-1	2.862244E-1	-1.362000E-1	-1.614189E-2	2.367306E-2	-3.785400E-1	4.264069E-1
3.804050E+10	-7.171326E-1	3.800964E-1	2.875061E-1	-1.397400E-1	-1.438618E-2	1.773167E-2	-3.640594E-1	4.253235E-1
3.826500E+10	-7.069397E-1	3.837891E-1	2.866211E-1	-1.412811E-1	-1.015091E-2	2.656269E-2	-3.555908E-1	4.346313E-1
3.848950E+10	-7.073669E-1	3.804321E-1	2.857361E-1	-1.465912E-1	-1.274204E-2	2.591515E-2	-3.510590E-1	4.380951E-1
3.871400E+10	-7.127075E-1	3.832092E-1	2.817993E-1	-1.549835E-1	-9.645462E-3	2.729702E-2	-3.435059E-1	4.411316E-1
3.893850E+10	-7.049866E-1	3.865051E-1	2.814026E-1	-1.566162E-1	-6.306648E-3	2.098274E-2	-3.390656E-1	4.474182E-1
3.916300E+10	-7.094727E-1	3.849487E-1	2.831116E-1	-1.633301E-1	-3.387451E-3	2.979183E-2	-3.296051E-1	4.494019E-1
3.938750E+10	-7.074890E-1	3.909912E-1	2.816772E-1	-1.699524E-1	-2.630234E-3	2.834702E-2	-3.302612E-1	4.524841E-1
