!Date: 10/28/2005, 12:34 PM

!Vgs = -4.000000E+0
!Vds = 0.000000E+0
!Ig = -1.750300E-5
!Id = 1.905900E-5

# HZ S RI R 50
1.000000E+8	9.802551E-1	-1.476440E-1	-5.400181E-5	2.707124E-3	1.021624E-3	4.547119E-3	-8.547974E-1	-1.528931E-2
3.245000E+8	8.804932E-1	-4.357605E-1	3.178596E-3	1.298714E-2	3.378391E-3	1.313925E-2	-8.653870E-1	6.652832E-3
5.490000E+8	7.144165E-1	-6.638489E-1	7.997513E-3	2.044392E-2	9.037971E-3	2.055073E-2	-8.572693E-1	1.834106E-2
7.735000E+8	5.141907E-1	-8.203735E-1	1.425076E-2	2.486801E-2	1.531887E-2	2.452564E-2	-8.578186E-1	2.536011E-2
9.980000E+8	3.146973E-1	-9.101868E-1	2.118206E-2	2.720261E-2	2.177525E-2	2.676296E-2	-8.556824E-1	3.256226E-2
1.222500E+9	1.278992E-1	-9.499207E-1	2.702713E-2	2.816772E-2	2.785015E-2	2.795792E-2	-8.550720E-1	3.851318E-2
1.447000E+9	-3.494263E-2	-9.534912E-1	3.277969E-2	2.720642E-2	3.292465E-2	2.744865E-2	-8.545227E-1	4.495239E-2
1.671500E+9	-1.729431E-1	-9.358215E-1	3.688240E-2	2.606773E-2	3.737259E-2	2.589798E-2	-8.529053E-1	5.184937E-2
1.896000E+9	-2.883911E-1	-9.047546E-1	4.073906E-2	2.452278E-2	4.081535E-2	2.474403E-2	-8.522644E-1	5.856323E-2
2.120500E+9	-3.836975E-1	-8.671265E-1	4.368401E-2	2.291870E-2	4.423523E-2	2.272606E-2	-8.516541E-1	6.622314E-2
2.345000E+9	-4.653931E-1	-8.243713E-1	4.615593E-2	2.080154E-2	4.647636E-2	2.074432E-2	-8.501282E-1	7.308960E-2
2.569500E+9	-5.290222E-1	-7.809753E-1	4.844856E-2	1.923370E-2	4.859352E-2	1.888657E-2	-8.492126E-1	7.879639E-2
2.794000E+9	-5.841370E-1	-7.416687E-1	4.988670E-2	1.722145E-2	5.025673E-2	1.690292E-2	-8.478394E-1	8.581543E-2
3.018500E+9	-6.298828E-1	-7.003174E-1	5.115891E-2	1.526451E-2	5.124283E-2	1.523781E-2	-8.460999E-1	9.176636E-2
3.243000E+9	-6.694946E-1	-6.623840E-1	5.254745E-2	1.314926E-2	5.247688E-2	1.286888E-2	-8.451843E-1	9.869385E-2
3.467500E+9	-7.028503E-1	-6.268311E-1	5.330467E-2	1.172829E-2	5.352020E-2	1.142693E-2	-8.433228E-1	1.051636E-1
3.692000E+9	-7.305603E-1	-5.924988E-1	5.391884E-2	9.891510E-3	5.426025E-2	1.034164E-2	-8.418274E-1	1.112061E-1
3.916500E+9	-7.551575E-1	-5.604858E-1	5.425072E-2	8.810043E-3	5.493355E-2	8.403778E-3	-8.407593E-1	1.182251E-1
4.141000E+9	-7.770081E-1	-5.301514E-1	5.531883E-2	6.982803E-3	5.560493E-2	6.931305E-3	-8.382874E-1	1.239624E-1
4.365500E+9	-7.931824E-1	-5.019226E-1	5.506325E-2	5.580902E-3	5.586433E-2	4.972458E-3	-8.372803E-1	1.304016E-1
4.590000E+9	-8.085937E-1	-4.758606E-1	5.573845E-2	3.721237E-3	5.597687E-2	4.001617E-3	-8.351135E-1	1.372070E-1
4.814500E+9	-8.226013E-1	-4.518433E-1	5.574608E-2	2.719879E-3	5.637932E-2	2.935410E-3	-8.334045E-1	1.435852E-1
5.039000E+9	-8.350830E-1	-4.277039E-1	5.631828E-2	1.785278E-3	5.658722E-2	1.178741E-3	-8.314514E-1	1.493835E-1
5.263500E+9	-8.461609E-1	-4.048767E-1	5.639267E-2	3.356934E-4	5.664825E-2	4.291534E-4	-8.300476E-1	1.554260E-1
5.488000E+9	-8.542786E-1	-3.846130E-1	5.653000E-2	-7.934570E-4	5.656242E-2	-1.209259E-3	-8.270569E-1	1.628113E-1
5.712500E+9	-8.629456E-1	-3.651123E-1	5.625916E-2	-2.113342E-3	5.615044E-2	-2.101898E-3	-8.255310E-1	1.682739E-1
5.937000E+9	-8.699951E-1	-3.452454E-1	5.574417E-2	-3.433228E-3	5.679321E-2	-3.448486E-3	-8.232422E-1	1.741943E-1
6.161500E+9	-8.767700E-1	-3.285217E-1	5.633354E-2	-4.123688E-3	5.689621E-2	-4.648209E-3	-8.208618E-1	1.825867E-1
6.386000E+9	-8.834229E-1	-3.106079E-1	5.617714E-2	-5.437851E-3	5.669403E-2	-5.931854E-3	-8.176270E-1	1.878662E-1
6.610500E+9	-8.881836E-1	-2.949219E-1	5.579567E-2	-6.460190E-3	5.628777E-2	-6.704330E-3	-8.161316E-1	1.930542E-1
6.835000E+9	-8.933716E-1	-2.802429E-1	5.586243E-2	-7.621765E-3	5.612755E-2	-8.142471E-3	-8.130798E-1	2.004700E-1
7.059500E+9	-8.970032E-1	-2.661438E-1	5.534554E-2	-8.346558E-3	5.532074E-2	-8.697510E-3	-8.086853E-1	2.051392E-1
7.284000E+9	-9.012146E-1	-2.517700E-1	5.545044E-2	-9.614944E-3	5.530739E-2	-9.500504E-3	-8.073425E-1	2.103577E-1
7.508500E+9	-9.050598E-1	-2.373657E-1	5.430794E-2	-1.107979E-2	5.529785E-2	-1.108932E-2	-8.041992E-1	2.178650E-1
7.733000E+9	-9.066772E-1	-2.241516E-1	5.456543E-2	-1.147842E-2	5.479813E-2	-1.140022E-2	-7.987671E-1	2.224121E-1
7.957500E+9	-9.104614E-1	-2.114563E-1	5.421829E-2	-1.282120E-2	5.430603E-2	-1.243401E-2	-7.986145E-1	2.275696E-1
8.182000E+9	-9.117126E-1	-1.988525E-1	5.386925E-2	-1.291275E-2	5.348587E-2	-1.330757E-2	-7.952576E-1	2.343140E-1
8.406500E+9	-9.140930E-1	-1.887207E-1	5.383873E-2	-1.334000E-2	5.446434E-2	-1.397133E-2	-7.918091E-1	2.400818E-1
8.631000E+9	-9.166260E-1	-1.758118E-1	5.346298E-2	-1.527596E-2	5.288506E-2	-1.531601E-2	-7.884521E-1	2.448730E-1
8.855500E+9	-9.183350E-1	-1.662292E-1	5.269432E-2	-1.567078E-2	5.264473E-2	-1.566887E-2	-7.861633E-1	2.513428E-1
9.080001E+9	-9.199829E-1	-1.563110E-1	5.261612E-2	-1.561165E-2	5.259895E-2	-1.662827E-2	-7.809753E-1	2.573853E-1
9.304500E+9	-9.213867E-1	-1.429443E-1	5.167961E-2	-1.697731E-2	5.140877E-2	-1.729012E-2	-7.788391E-1	2.619934E-1
9.529000E+9	-9.227600E-1	-1.359558E-1	5.111504E-2	-1.757050E-2	5.190849E-2	-1.769829E-2	-7.757568E-1	2.673035E-1
9.753500E+9	-9.240417E-1	-1.259155E-1	5.052757E-2	-1.835632E-2	5.038261E-2	-1.816368E-2	-7.705383E-1	2.736206E-1
9.978000E+9	-9.248352E-1	-1.166382E-1	4.942703E-2	-1.951599E-2	4.987335E-2	-1.935959E-2	-7.670898E-1	2.769775E-1
1.020250E+10	-9.259338E-1	-1.071472E-1	4.906654E-2	-1.976776E-2	4.959869E-2	-1.917267E-2	-7.641602E-1	2.834167E-1
1.042700E+10	-9.270630E-1	-9.799194E-2	4.850769E-2	-2.001572E-2	4.945755E-2	-2.007294E-2	-7.592468E-1	2.881470E-1
1.065150E+10	-9.274902E-1	-8.963013E-2	4.871750E-2	-2.110100E-2	4.901695E-2	-2.009964E-2	-7.567139E-1	2.916870E-1
1.087600E+10	-9.289551E-1	-8.120728E-2	4.788017E-2	-2.109909E-2	4.830170E-2	-2.109718E-2	-7.530518E-1	2.979736E-1
1.110050E+10	-9.289551E-1	-7.232666E-2	4.744148E-2	-2.185631E-2	4.789925E-2	-2.175713E-2	-7.476807E-1	3.029175E-1
1.132500E+10	-9.290466E-1	-6.393433E-2	4.673386E-2	-2.188683E-2	4.626083E-2	-2.136040E-2	-7.441406E-1	3.059387E-1
1.154950E+10	-9.300232E-1	-5.496216E-2	4.653358E-2	-2.201080E-2	4.658890E-2	-2.273178E-2	-7.416687E-1	3.103638E-1
1.177400E+10	-9.288330E-1	-4.748535E-2	4.557037E-2	-2.254868E-2	4.631805E-2	-2.234268E-2	-7.367249E-1	3.174133E-1
1.199850E+10	-9.290466E-1	-4.003906E-2	4.458809E-2	-2.315903E-2	4.535103E-2	-2.281570E-2	-7.317810E-1	3.194885E-1
1.222300E+10	-9.286804E-1	-3.271484E-2	4.486275E-2	-2.371979E-2	4.554939E-2	-2.336884E-2	-7.287292E-1	3.236694E-1
1.244750E+10	-9.284973E-1	-2.551270E-2	4.380417E-2	-2.380943E-2	4.382133E-2	-2.393913E-2	-7.256165E-1	3.302307E-1
1.267200E+10	-9.290161E-1	-1.763916E-2	4.389572E-2	-2.433395E-2	4.383659E-2	-2.441788E-2	-7.197266E-1	3.327332E-1
1.289650E+10	-9.282532E-1	-1.058960E-2	4.347229E-2	-2.438545E-2	4.298782E-2	-2.429771E-2	-7.190247E-1	3.350830E-1
1.312100E+10	-9.285278E-1	-5.065918E-3	4.304695E-2	-2.467918E-2	4.374886E-2	-2.450180E-2	-7.130432E-1	3.425293E-1
1.334550E+10	-9.288940E-1	2.990723E-3	4.261971E-2	-2.499962E-2	4.184914E-2	-2.498055E-2	-7.078247E-1	3.447571E-1
1.357000E+10	-9.271851E-1	8.758545E-3	4.130173E-2	-2.481270E-2	4.216957E-2	-2.428818E-2	-7.064819E-1	3.458862E-1
1.379450E+10	-9.285583E-1	1.492310E-2	4.132462E-2	-2.604675E-2	4.121971E-2	-2.532959E-2	-7.028503E-1	3.530884E-1
1.401900E+10	-9.271851E-1	2.105713E-2	4.155159E-2	-2.612686E-2	4.106331E-2	-2.614212E-2	-6.958923E-1	3.580627E-1
1.424350E+10	-9.266968E-1	2.905273E-2	4.003716E-2	-2.656364E-2	4.123116E-2	-2.599716E-2	-6.941833E-1	3.589478E-1
1.446800E+10	-9.259949E-1	3.540039E-2	3.969002E-2	-2.656364E-2	4.020882E-2	-2.682686E-2	-6.904297E-1	3.665466E-1
1.469250E+10	-9.254456E-1	4.214478E-2	4.000092E-2	-2.760506E-2	4.072571E-2	-2.688408E-2	-6.829529E-1	3.689270E-1
1.491700E+10	-9.246826E-1	4.803467E-2	3.968239E-2	-2.688026E-2	3.934097E-2	-2.595711E-2	-6.805725E-1	3.699036E-1
1.514150E+10	-9.234619E-1	5.343628E-2	3.898048E-2	-2.684593E-2	3.872108E-2	-2.731133E-2	-6.770935E-1	3.759155E-1
1.536600E+10	-9.217224E-1	6.164551E-2	3.759575E-2	-2.765274E-2	3.776550E-2	-2.696991E-2	-6.706543E-1	3.798218E-1
1.559050E+10	-9.207153E-1	6.637573E-2	3.714371E-2	-2.842903E-2	3.784370E-2	-2.764320E-2	-6.676941E-1	3.804932E-1
1.581500E+10	-9.200439E-1	7.229614E-2	3.680420E-2	-2.839279E-2	3.721046E-2	-2.783585E-2	-6.655884E-1	3.844604E-1
1.603950E+10	-9.206848E-1	7.962036E-2	3.645325E-2	-2.751732E-2	3.703308E-2	-2.808380E-2	-6.588440E-1	3.893738E-1
1.626400E+10	-9.188538E-1	8.578491E-2	3.540802E-2	-2.873611E-2	3.646278E-2	-2.787781E-2	-6.556396E-1	3.898010E-1
1.648850E+10	-9.180603E-1	9.014893E-2	3.625679E-2	-2.752113E-2	3.624153E-2	-2.860260E-2	-6.530762E-1	3.947449E-1
1.671300E+10	-9.166565E-1	9.606934E-2	3.502464E-2	-2.828407E-2	3.484535E-2	-2.867508E-2	-6.463013E-1	3.988037E-1
1.693750E+10	-9.153748E-1	1.030579E-1	3.474426E-2	-2.784920E-2	3.430939E-2	-2.894974E-2	-6.431274E-1	4.001770E-1
1.716200E+10	-9.145203E-1	1.077576E-1	3.429222E-2	-2.938843E-2	3.477097E-2	-2.909660E-2	-6.406860E-1	4.045715E-1
1.738650E+10	-9.134216E-1	1.138611E-1	3.311920E-2	-2.903748E-2	3.389740E-2	-2.947807E-2	-6.342773E-1	4.089355E-1
1.761100E+10	-9.117432E-1	1.196899E-1	3.257561E-2	-2.894402E-2	3.201675E-2	-2.941513E-2	-6.314392E-1	4.094849E-1
1.783550E+10	-9.107361E-1	1.254578E-1	3.420639E-2	-2.942848E-2	3.231621E-2	-2.987862E-2	-6.302490E-1	4.152222E-1
1.806000E+10	-9.092102E-1	1.307983E-1	3.285408E-2	-2.974892E-2	3.288841E-2	-2.949715E-2	-6.247253E-1	4.197998E-1
1.828450E+10	-9.059753E-1	1.358032E-1	3.296280E-2	-2.968025E-2	3.343391E-2	-2.906227E-2	-6.201782E-1	4.201050E-1
1.850900E+10	-9.060059E-1	1.403503E-1	3.127480E-2	-3.008652E-2	3.063202E-2	-2.956295E-2	-6.165771E-1	4.246216E-1
1.873350E+10	-9.046631E-1	1.461182E-1	3.068066E-2	-2.992535E-2	3.138351E-2	-3.067398E-2	-6.107178E-1	4.281311E-1
1.895800E+10	-9.010925E-1	1.494751E-1	3.068924E-2	-2.820301E-2	3.139114E-2	-3.040886E-2	-6.061401E-1	4.271545E-1
1.918250E+10	-9.000549E-1	1.558533E-1	3.038788E-2	-3.040218E-2	3.030205E-2	-3.057480E-2	-6.060791E-1	4.302368E-1
1.940700E+10	-8.983765E-1	1.619263E-1	2.936172E-2	-2.978897E-2	2.937794E-2	-3.056049E-2	-5.960693E-1	4.375916E-1
1.963150E+10	-8.959045E-1	1.653137E-1	2.970314E-2	-3.093719E-2	2.895355E-2	-3.137589E-2	-5.946350E-1	4.366760E-1
1.985600E+10	-8.946228E-1	1.701660E-1	2.737617E-2	-3.139496E-2	2.815247E-2	-3.061295E-2	-5.918884E-1	4.394531E-1
2.008050E+10	-8.925171E-1	1.755676E-1	2.821350E-2	-2.991390E-2	2.634621E-2	-3.172302E-2	-5.852661E-1	4.448242E-1
2.030500E+10	-8.905334E-1	1.806946E-1	2.808857E-2	-3.082466E-2	2.801704E-2	-3.132248E-2	-5.823975E-1	4.454651E-1
2.052950E+10	-8.876953E-1	1.857910E-1	2.704620E-2	-3.244400E-2	2.631187E-2	-3.134155E-2	-5.780640E-1	4.480896E-1
2.075400E+10	-8.865051E-1	1.900635E-1	2.562332E-2	-3.081417E-2	2.485466E-2	-3.172302E-2	-5.748901E-1	4.530334E-1
2.097850E+10	-8.845215E-1	1.973877E-1	2.708054E-2	-3.071499E-2	2.550125E-2	-3.000450E-2	-5.670471E-1	4.565125E-1
2.120300E+10	-8.802795E-1	1.976929E-1	2.576065E-2	-3.163147E-2	2.592468E-2	-3.132629E-2	-5.678406E-1	4.532166E-1
2.142750E+10	-8.791809E-1	2.051697E-1	2.530479E-2	-3.167343E-2	2.471256E-2	-2.936172E-2	-5.618896E-1	4.612122E-1
2.165200E+10	-8.762817E-1	2.093201E-1	2.344608E-2	-3.000832E-2	2.302456E-2	-3.100300E-2	-5.585327E-1	4.622498E-1
2.187650E+10	-8.742676E-1	2.140808E-1	2.434540E-2	-3.184319E-2	2.515411E-2	-3.190041E-2	-5.559387E-1	4.648437E-1
2.210100E+10	-8.705750E-1	2.204285E-1	2.240658E-2	-3.114605E-2	2.430344E-2	-3.413391E-2	-5.516663E-1	4.695435E-1
2.232550E+10	-8.673096E-1	2.224731E-1	2.233982E-2	-3.098202E-2	2.289391E-2	-3.231049E-2	-5.426025E-1	4.736328E-1
2.255000E+10	-8.652039E-1	2.266235E-1	2.318573E-2	-3.117371E-2	2.217102E-2	-3.153038E-2	-5.381165E-1	4.721680E-1
2.277450E+10	-8.631592E-1	2.323303E-1	2.122498E-2	-3.270149E-2	2.156830E-2	-3.146935E-2	-5.346985E-1	4.785767E-1
2.299900E+10	-8.603821E-1	2.341614E-1	2.001953E-2	-3.088665E-2	2.057266E-2	-3.209877E-2	-5.266113E-1	4.798279E-1
2.322350E+10	-8.566284E-1	2.392273E-1	2.039814E-2	-3.040314E-2	1.905060E-2	-3.135872E-2	-5.253601E-1	4.822388E-1
2.344800E+10	-8.533020E-1	2.418213E-1	1.892281E-2	-3.267097E-2	1.882458E-2	-3.055668E-2	-5.215759E-1	4.852905E-1
2.367250E+10	-8.501892E-1	2.457275E-1	1.728058E-2	-3.248405E-2	1.725960E-2	-3.211784E-2	-5.148315E-1	4.881592E-1
2.389700E+10	-8.460693E-1	2.499084E-1	1.542664E-2	-3.386497E-2	1.622581E-2	-3.240585E-2	-5.112610E-1	4.884338E-1
2.412150E+10	-8.434753E-1	2.550964E-1	1.558113E-2	-3.266525E-2	1.424408E-2	-3.278732E-2	-5.038757E-1	4.925842E-1
2.434600E+10	-8.425598E-1	2.578430E-1	1.328182E-2	-3.099632E-2	1.464272E-2	-3.138351E-2	-4.996796E-1	4.939575E-1
2.457050E+10	-8.374634E-1	2.605286E-1	1.378250E-2	-3.145981E-2	1.417637E-2	-3.092575E-2	-4.958954E-1	4.947052E-1
2.479500E+10	-8.342285E-1	2.638550E-1	1.353359E-2	-3.015900E-2	1.308250E-2	-3.043842E-2	-4.898529E-1	4.992676E-1
2.501950E+10	-8.295288E-1	2.654114E-1	1.197815E-2	-2.964783E-2	1.169586E-2	-3.059006E-2	-4.810486E-1	4.989014E-1
2.524400E+10	-8.271179E-1	2.678223E-1	1.241970E-2	-2.779484E-2	1.151752E-2	-2.920341E-2	-4.792786E-1	4.985657E-1
2.546850E+10	-8.218079E-1	2.727661E-1	1.016903E-2	-2.627850E-2	9.402275E-3	-2.611065E-2	-4.735718E-1	5.010376E-1
2.569300E+10	-8.188477E-1	2.737732E-1	1.018143E-2	-2.669048E-2	1.108074E-2	-2.931309E-2	-4.684143E-1	4.996948E-1
2.591750E+10	-8.171997E-1	2.778625E-1	8.596420E-3	-2.679825E-2	1.115513E-2	-2.817345E-2	-4.661865E-1	5.000000E-1
2.614200E+10	-8.118896E-1	2.798767E-1	1.063633E-2	-2.586460E-2	8.760452E-3	-2.871895E-2	-4.677124E-1	5.051880E-1
2.636650E+10	-8.082886E-1	2.798157E-1	7.939339E-3	-2.556419E-2	8.458138E-3	-2.589321E-2	-4.581604E-1	5.068970E-1
2.659100E+10	-8.047485E-1	2.820740E-1	8.048058E-3	-2.541828E-2	8.111954E-3	-2.794933E-2	-4.501953E-1	5.065002E-1
2.681550E+10	-8.025513E-1	2.833252E-1	8.497238E-3	-2.472687E-2	6.798744E-3	-2.573299E-2	-4.481506E-1	5.082703E-1
2.704000E+10	-8.006592E-1	2.855835E-1	8.086205E-3	-2.473068E-2	7.049561E-3	-2.557278E-2	-4.407959E-1	5.150146E-1
2.726450E+10	-7.945557E-1	2.874756E-1	5.530357E-3	-2.518559E-2	7.353783E-3	-2.643871E-2	-4.299316E-1	5.110779E-1
2.748900E+10	-7.918701E-1	2.875977E-1	6.243706E-3	-2.386856E-2	8.015633E-3	-2.388287E-2	-4.319763E-1	5.103760E-1
2.771350E+10	-7.915649E-1	2.889709E-1	2.739906E-3	-2.547932E-2	4.679680E-3	-2.040100E-2	-4.241333E-1	5.159302E-1
2.793800E+10	-7.879639E-1	2.893982E-1	4.190445E-3	-2.028084E-2	4.533768E-3	-2.283096E-2	-4.206543E-1	5.114441E-1
2.816250E+10	-7.843628E-1	2.901001E-1	3.120422E-3	-2.100182E-2	3.261566E-3	-2.239132E-2	-4.176025E-1	5.136414E-1
2.838700E+10	-7.806702E-1	2.919006E-1	4.501343E-3	-1.812553E-2	4.174232E-3	-1.811314E-2	-4.121399E-1	5.161438E-1
2.861150E+10	-7.823486E-1	2.914124E-1	6.389618E-3	-1.872635E-2	3.497124E-3	-2.023602E-2	-4.045105E-1	5.157776E-1
2.883600E+10	-7.764587E-1	2.911377E-1	5.100250E-3	-1.811504E-2	2.980232E-3	-1.966476E-2	-4.047852E-1	5.110168E-1
2.906050E+10	-7.755432E-1	2.940369E-1	2.717972E-4	-1.687336E-2	1.173973E-3	-2.003002E-2	-3.976746E-1	5.154419E-1
2.928500E+10	-7.731628E-1	2.948608E-1	4.346848E-3	-1.565075E-2	8.745193E-4	-1.554918E-2	-3.925781E-1	5.161438E-1
2.950950E+10	-7.718201E-1	2.974548E-1	3.018379E-3	-1.355839E-2	2.358913E-3	-1.216602E-2	-3.924561E-1	5.188293E-1
2.973400E+10	-7.702026E-1	2.953796E-1	3.267765E-3	-1.084566E-2	4.586220E-3	-1.402664E-2	-3.861084E-1	5.184937E-1
2.995850E+10	-7.672424E-1	2.934875E-1	4.289627E-3	-1.615238E-2	6.832123E-3	-1.094246E-2	-3.857422E-1	5.196228E-1
3.018300E+10	-7.673035E-1	2.948914E-1	8.143425E-3	-1.238775E-2	1.813412E-3	-1.340008E-2	-3.778992E-1	5.265198E-1
3.040750E+10	-7.654724E-1	2.956848E-1	3.232956E-3	-1.071119E-2	4.680634E-3	-1.011419E-2	-3.705750E-1	5.225220E-1
3.063200E+10	-7.632751E-1	2.955627E-1	4.512310E-3	-8.928299E-3	5.259514E-3	-1.304340E-2	-3.716431E-1	5.237732E-1
3.085650E+10	-7.644043E-1	2.980652E-1	7.283688E-3	-9.654045E-3	5.449772E-3	-1.255226E-2	-3.687744E-1	5.286255E-1
3.108100E+10	-7.619934E-1	2.977600E-1	4.000187E-3	-8.809090E-3	6.441116E-3	-8.375168E-3	-3.597107E-1	5.264587E-1
3.130550E+10	-7.597351E-1	2.974548E-1	5.764008E-3	-7.927895E-3	6.518841E-3	-8.054733E-3	-3.494873E-1	5.292053E-1
3.153000E+10	-7.623291E-1	2.930298E-1	5.950689E-3	-7.043362E-3	4.796982E-3	-1.098299E-2	-3.520813E-1	5.278625E-1
3.175450E+10	-7.619324E-1	2.997131E-1	5.453587E-3	-8.521557E-3	5.883455E-3	-5.174637E-3	-3.433533E-1	5.256958E-1
3.197900E+10	-7.649231E-1	2.980652E-1	4.478931E-3	-2.509832E-3	3.170013E-3	-8.984566E-3	-3.361511E-1	5.253296E-1
3.220350E+10	-7.591248E-1	3.044434E-1	9.586811E-3	-3.242970E-3	7.208347E-3	-6.913424E-3	-3.269348E-1	5.257874E-1
3.242800E+10	-7.647095E-1	3.036194E-1	7.112980E-3	-5.562544E-3	6.123304E-3	-1.181126E-3	-3.280029E-1	5.275269E-1
3.265250E+10	-7.596130E-1	3.023071E-1	7.860184E-3	-3.711224E-3	6.451130E-3	-5.721331E-3	-3.266907E-1	5.260315E-1
3.287700E+10	-7.636108E-1	3.053589E-1	8.506775E-3	-2.060890E-3	4.719496E-3	-4.492044E-3	-3.186340E-1	5.263977E-1
3.310150E+10	-7.621765E-1	3.070984E-1	7.507563E-3	-3.921032E-3	1.026011E-2	-4.178047E-3	-3.116150E-1	5.245667E-1
3.332600E+10	-7.604370E-1	3.083801E-1	1.088428E-2	-3.693581E-3	1.002550E-2	-3.579617E-3	-3.132019E-1	5.207520E-1
3.355050E+10	-7.590027E-1	3.071899E-1	1.344728E-2	-4.567146E-3	1.007795E-2	-1.877308E-3	-3.085937E-1	5.219421E-1
3.377500E+10	-7.612610E-1	3.125305E-1	1.325130E-2	-1.745701E-3	1.321363E-2	-2.089024E-3	-3.025208E-1	5.232239E-1
3.399950E+10	-7.579041E-1	3.161316E-1	1.314735E-2	-1.462936E-3	1.335239E-2	-3.523827E-4	-3.052979E-1	5.221863E-1
3.422400E+10	-7.581787E-1	3.186035E-1	1.628876E-2	1.652718E-3	1.825142E-2	-1.951218E-3	-2.983704E-1	5.309448E-1
3.444850E+10	-7.576904E-1	3.196716E-1	1.234531E-2	-3.242493E-5	1.290941E-2	4.520416E-4	-2.930298E-1	5.247498E-1
3.467300E+10	-7.605591E-1	3.185425E-1	1.473808E-2	-2.603054E-3	1.468134E-2	-1.678467E-3	-2.898560E-1	5.233459E-1
3.489750E+10	-7.589722E-1	3.193665E-1	1.294565E-2	-3.339291E-3	1.336288E-2	-3.506660E-3	-2.868042E-1	5.325317E-1
3.512200E+10	-7.583008E-1	3.236694E-1	1.383209E-2	-1.080513E-3	1.349211E-2	-2.326012E-3	-2.793884E-1	5.194702E-1
3.534650E+10	-7.609863E-1	3.259583E-1	1.353025E-2	-2.628326E-3	1.994228E-2	2.124786E-3	-2.740173E-1	5.252075E-1
3.557100E+10	-7.626648E-1	3.269958E-1	1.851368E-2	-3.185272E-4	1.797581E-2	-6.823540E-3	-2.668762E-1	5.289917E-1
3.579550E+10	-7.575684E-1	3.281860E-1	1.843262E-2	2.676010E-3	1.570892E-2	-4.515648E-3	-2.647095E-1	5.237732E-1
3.602000E+10	-7.616272E-1	3.307800E-1	1.388407E-2	-1.298428E-3	1.566887E-2	1.401901E-3	-2.654114E-1	5.255127E-1
3.624450E+10	-7.585144E-1	3.325195E-1	1.789093E-2	2.060890E-3	1.360941E-2	-2.933025E-3	-2.584839E-1	5.225220E-1
3.646900E+10	-7.637329E-1	3.382568E-1	1.666546E-2	-5.647659E-3	1.725292E-2	-3.689766E-3	-2.572632E-1	5.256653E-1
3.669350E+10	-7.606201E-1	3.379822E-1	1.629734E-2	1.096725E-4	1.978016E-2	-2.560616E-3	-2.471313E-1	5.253906E-1
3.691800E+10	-7.606812E-1	3.414307E-1	2.323341E-2	1.115799E-4	1.855659E-2	1.533508E-3	-2.439575E-1	5.205078E-1
3.714250E+10	-7.577515E-1	3.408203E-1	1.717949E-2	-2.299309E-3	1.681423E-2	-7.791519E-4	-2.392578E-1	5.288696E-1
3.736700E+10	-7.602539E-1	3.496399E-1	1.546621E-2	-1.807690E-3	2.426910E-2	-6.275177E-4	-2.364502E-1	5.228577E-1
3.759150E+10	-7.574768E-1	3.485107E-1	2.079487E-2	-4.694939E-3	1.831245E-2	-2.726555E-3	-2.314758E-1	5.235596E-1
3.781600E+10	-7.557983E-1	3.561096E-1	2.348518E-2	-1.873016E-3	1.968861E-2	-3.211975E-3	-2.274780E-1	5.264587E-1
3.804050E+10	-7.546997E-1	3.512878E-1	2.241135E-2	-6.828308E-4	2.223301E-2	-5.674362E-4	-2.264404E-1	5.265198E-1
3.826500E+10	-7.531433E-1	3.565674E-1	2.026558E-2	-2.477646E-3	2.545261E-2	1.444817E-3	-2.141724E-1	5.217285E-1
3.848950E+10	-7.517700E-1	3.610229E-1	2.687931E-2	-2.287865E-3	2.361012E-2	-1.376152E-3	-2.109070E-1	5.229492E-1
3.871400E+10	-7.562866E-1	3.611145E-1	2.600861E-2	-1.260757E-3	2.520657E-2	4.005432E-5	-2.095947E-1	5.220337E-1
3.893850E+10	-7.506104E-1	3.692322E-1	2.232265E-2	-5.806923E-3	2.464485E-2	-1.346588E-3	-2.072144E-1	5.185852E-1
3.916300E+10	-7.571106E-1	3.703003E-1	2.430058E-2	-8.058548E-4	2.261543E-2	4.185677E-3	-2.049255E-1	5.166321E-1
3.938750E+10	-7.519531E-1	3.776550E-1	2.925968E-2	-8.354187E-4	2.337360E-2	-5.188942E-3	-2.048645E-1	5.208435E-1
