!Date: 10/28/2005, 12:34 PM

!Vgs = -4.000000E+0
!Vds = 5.000000E+0
!Ig = -2.354900E-5
!Id = 1.418000E-1

# HZ S RI R 50
1.000000E+8	9.631348E-1	-2.069397E-1	-1.497168E+1	1.555664E+0	1.828671E-3	9.833336E-3	4.587250E-1	-9.185791E-2
3.245000E+8	7.673340E-1	-5.725098E-1	-1.312109E+1	5.048828E+0	1.136971E-2	2.455616E-2	3.130188E-1	-2.524261E-1
5.490000E+8	4.934998E-1	-7.946472E-1	-1.073975E+1	6.950684E+0	2.376366E-2	3.413963E-2	2.082977E-1	-3.323822E-1
7.735000E+8	2.265625E-1	-8.907776E-1	-8.421875E+0	7.732422E+0	3.622818E-2	3.692436E-2	9.626770E-2	-3.709259E-1
9.980000E+8	3.845215E-3	-9.067993E-1	-6.481201E+0	7.839111E+0	4.609108E-2	3.644753E-2	7.080078E-3	-3.705139E-1
1.222500E+9	-1.754456E-1	-8.828430E-1	-4.959229E+0	7.622559E+0	5.363274E-2	3.401566E-2	-5.961609E-2	-3.631592E-1
1.447000E+9	-3.157654E-1	-8.395081E-1	-3.764160E+0	7.236572E+0	5.978584E-2	3.097725E-2	-1.145325E-1	-3.471222E-1
1.671500E+9	-4.238281E-1	-7.882996E-1	-2.845947E+0	6.781982E+0	6.436157E-2	2.795029E-2	-1.565094E-1	-3.306885E-1
1.896000E+9	-5.091248E-1	-7.338867E-1	-2.156494E+0	6.316162E+0	6.849670E-2	2.426910E-2	-1.903839E-1	-3.101807E-1
2.120500E+9	-5.740051E-1	-6.820679E-1	-1.619629E+0	5.892090E+0	7.080460E-2	2.115631E-2	-2.149658E-1	-2.930756E-1
2.345000E+9	-6.256714E-1	-6.305542E-1	-1.190918E+0	5.487061E+0	7.316208E-2	1.778412E-2	-2.350006E-1	-2.762299E-1
2.569500E+9	-6.638489E-1	-5.859680E-1	-8.525391E-1	5.114014E+0	7.467651E-2	1.457214E-2	-2.506561E-1	-2.615814E-1
2.794000E+9	-6.969604E-1	-5.480042E-1	-5.910645E-1	4.786133E+0	7.553864E-2	1.191330E-2	-2.629852E-1	-2.484894E-1
3.018500E+9	-7.230225E-1	-5.104370E-1	-3.659668E-1	4.483643E+0	7.668304E-2	9.277344E-3	-2.741852E-1	-2.375031E-1
3.243000E+9	-7.449341E-1	-4.755859E-1	-1.806641E-1	4.211914E+0	7.737350E-2	6.515503E-3	-2.838593E-1	-2.275543E-1
3.467500E+9	-7.637939E-1	-4.467163E-1	-2.795410E-2	3.968994E+0	7.741928E-2	4.238129E-3	-2.912292E-1	-2.188873E-1
3.692000E+9	-7.801819E-1	-4.187317E-1	1.049805E-1	3.739746E+0	7.792664E-2	2.288818E-3	-2.982788E-1	-2.129974E-1
3.916500E+9	-7.937317E-1	-3.911743E-1	2.117920E-1	3.528809E+0	7.885361E-2	-4.768372E-4	-3.067780E-1	-2.048187E-1
4.141000E+9	-8.046570E-1	-3.666687E-1	3.038330E-1	3.340088E+0	7.859039E-2	-2.040863E-3	-3.119202E-1	-1.980896E-1
4.365500E+9	-8.130188E-1	-3.446960E-1	3.839111E-1	3.164185E+0	7.880402E-2	-4.035950E-3	-3.174744E-1	-1.927185E-1
4.590000E+9	-8.218689E-1	-3.245544E-1	4.515381E-1	2.998657E+0	7.889938E-2	-5.817413E-3	-3.232574E-1	-1.873016E-1
4.814500E+9	-8.299866E-1	-3.056946E-1	5.057373E-1	2.847900E+0	7.853317E-2	-7.164001E-3	-3.269043E-1	-1.828156E-1
5.039000E+9	-8.357239E-1	-2.865906E-1	5.560303E-1	2.710693E+0	7.894516E-2	-9.170532E-3	-3.321075E-1	-1.786652E-1
5.263500E+9	-8.410339E-1	-2.693176E-1	5.986328E-1	2.580444E+0	7.865143E-2	-1.068115E-2	-3.376160E-1	-1.738739E-1
5.488000E+9	-8.441162E-1	-2.547302E-1	6.350098E-1	2.461792E+0	7.857132E-2	-1.242065E-2	-3.406219E-1	-1.692810E-1
5.712500E+9	-8.503418E-1	-2.398987E-1	6.682129E-1	2.346191E+0	7.815933E-2	-1.418686E-2	-3.453674E-1	-1.671906E-1
5.937000E+9	-8.539734E-1	-2.241211E-1	6.958008E-1	2.240845E+0	7.816696E-2	-1.532745E-2	-3.488617E-1	-1.626434E-1
6.161500E+9	-8.566284E-1	-2.122803E-1	7.213135E-1	2.146484E+0	7.763290E-2	-1.729202E-2	-3.525848E-1	-1.592560E-1
6.386000E+9	-8.597412E-1	-1.985168E-1	7.436523E-1	2.051025E+0	7.732010E-2	-1.885605E-2	-3.550415E-1	-1.571198E-1
6.610500E+9	-8.619080E-1	-1.870117E-1	7.650146E-1	1.964172E+0	7.688904E-2	-2.019501E-2	-3.604584E-1	-1.550598E-1
6.835000E+9	-8.655701E-1	-1.758728E-1	7.807007E-1	1.879150E+0	7.648468E-2	-2.171326E-2	-3.641968E-1	-1.509247E-1
7.059500E+9	-8.664856E-1	-1.649170E-1	7.911987E-1	1.800903E+0	7.666397E-2	-2.296448E-2	-3.642120E-1	-1.496887E-1
7.284000E+9	-8.678589E-1	-1.541443E-1	8.035278E-1	1.725647E+0	7.574081E-2	-2.458572E-2	-3.704376E-1	-1.480865E-1
7.508500E+9	-8.707275E-1	-1.443176E-1	8.153076E-1	1.654785E+0	7.519531E-2	-2.531052E-2	-3.719025E-1	-1.443634E-1
7.733000E+9	-8.709412E-1	-1.337280E-1	8.218384E-1	1.587402E+0	7.433319E-2	-2.674866E-2	-3.748779E-1	-1.436768E-1
7.957500E+9	-8.726196E-1	-1.242065E-1	8.305664E-1	1.524048E+0	7.364655E-2	-2.834702E-2	-3.795929E-1	-1.416321E-1
8.182000E+9	-8.740234E-1	-1.142273E-1	8.375244E-1	1.464478E+0	7.318878E-2	-2.916336E-2	-3.832855E-1	-1.399384E-1
8.406500E+9	-8.736572E-1	-1.069946E-1	8.403320E-1	1.404114E+0	7.208252E-2	-3.083420E-2	-3.862305E-1	-1.369324E-1
8.631000E+9	-8.756714E-1	-9.750366E-2	8.463745E-1	1.348267E+0	7.176590E-2	-3.244019E-2	-3.901215E-1	-1.356506E-1
8.855500E+9	-8.761292E-1	-8.993530E-2	8.487549E-1	1.293335E+0	7.098389E-2	-3.332520E-2	-3.942413E-1	-1.324005E-1
9.080001E+9	-8.765869E-1	-8.273315E-2	8.504028E-1	1.243530E+0	7.022858E-2	-3.438568E-2	-3.962708E-1	-1.294861E-1
9.304500E+9	-8.765869E-1	-7.281494E-2	8.499146E-1	1.194275E+0	6.917191E-2	-3.540039E-2	-3.987885E-1	-1.293945E-1
9.529000E+9	-8.774414E-1	-6.729126E-2	8.508301E-1	1.146606E+0	6.887054E-2	-3.686523E-2	-4.037018E-1	-1.248932E-1
9.753500E+9	-8.775024E-1	-5.984497E-2	8.504639E-1	1.101257E+0	6.754303E-2	-3.769684E-2	-4.062653E-1	-1.221619E-1
9.978000E+9	-8.773499E-1	-5.300903E-2	8.488159E-1	1.059143E+0	6.696320E-2	-3.942108E-2	-4.085999E-1	-1.208954E-1
1.020250E+10	-8.779907E-1	-4.623413E-2	8.478394E-1	1.017029E+0	6.563950E-2	-3.996277E-2	-4.127808E-1	-1.180573E-1
1.042700E+10	-8.788452E-1	-3.958130E-2	8.455811E-1	9.774170E-1	6.494141E-2	-4.100418E-2	-4.141998E-1	-1.164398E-1
1.065150E+10	-8.783875E-1	-3.295898E-2	8.435669E-1	9.391174E-1	6.444931E-2	-4.227066E-2	-4.175415E-1	-1.158752E-1
1.087600E+10	-8.788147E-1	-2.551270E-2	8.404541E-1	9.024353E-1	6.341553E-2	-4.293823E-2	-4.212952E-1	-1.133118E-1
1.110050E+10	-8.791199E-1	-1.913452E-2	8.373718E-1	8.655701E-1	6.289673E-2	-4.386520E-2	-4.237518E-1	-1.105957E-1
1.132500E+10	-8.776245E-1	-1.339722E-2	8.336182E-1	8.317566E-1	6.170464E-2	-4.421043E-2	-4.254150E-1	-1.091461E-1
1.154950E+10	-8.785095E-1	-6.988525E-3	8.298950E-1	7.973022E-1	6.006432E-2	-4.448128E-2	-4.321747E-1	-1.074829E-1
1.177400E+10	-8.771973E-1	-1.342773E-3	8.251648E-1	7.672729E-1	6.001282E-2	-4.613686E-2	-4.338531E-1	-1.025543E-1
1.199850E+10	-8.776245E-1	4.547119E-3	8.210754E-1	7.369690E-1	5.766296E-2	-4.743767E-2	-4.354248E-1	-1.024475E-1
1.222300E+10	-8.764648E-1	1.007080E-2	8.150024E-1	7.042847E-1	5.822563E-2	-4.764557E-2	-4.403839E-1	-1.009827E-1
1.244750E+10	-8.771973E-1	1.516724E-2	8.096008E-1	6.756897E-1	5.670547E-2	-4.768753E-2	-4.420776E-1	-9.523010E-2
1.267200E+10	-8.772583E-1	2.096558E-2	8.039551E-1	6.477661E-1	5.566788E-2	-4.881096E-2	-4.446716E-1	-9.700012E-2
1.289650E+10	-8.760071E-1	2.590942E-2	7.971497E-1	6.220398E-1	5.509949E-2	-4.958344E-2	-4.497375E-1	-9.381104E-2
1.312100E+10	-8.755188E-1	3.085327E-2	7.909851E-1	5.958862E-1	5.397415E-2	-4.982567E-2	-4.525146E-1	-8.863831E-2
1.334550E+10	-8.752747E-1	3.662109E-2	7.849121E-1	5.717468E-1	5.274773E-2	-5.094337E-2	-4.532166E-1	-8.758545E-2
1.357000E+10	-8.742981E-1	4.129028E-2	7.799072E-1	5.473938E-1	5.234909E-2	-5.130959E-2	-4.585266E-1	-8.680725E-2
1.379450E+10	-8.740540E-1	4.635620E-2	7.719727E-1	5.248718E-1	5.089569E-2	-5.208588E-2	-4.609222E-1	-8.181763E-2
1.401900E+10	-8.733521E-1	5.142212E-2	7.673645E-1	5.022888E-1	4.963493E-2	-5.270767E-2	-4.617615E-1	-7.975769E-2
1.424350E+10	-8.736877E-1	5.654907E-2	7.580566E-1	4.801331E-1	4.941750E-2	-5.313301E-2	-4.667358E-1	-7.719421E-2
1.446800E+10	-8.728943E-1	6.057739E-2	7.525024E-1	4.603271E-1	4.799271E-2	-5.339813E-2	-4.689636E-1	-7.124329E-2
1.469250E+10	-8.716431E-1	6.649780E-2	7.457886E-1	4.396973E-1	4.690552E-2	-5.437469E-2	-4.688873E-1	-6.929016E-2
1.491700E+10	-8.709412E-1	7.061768E-2	7.397461E-1	4.187012E-1	4.570389E-2	-5.557251E-2	-4.745789E-1	-6.881714E-2
1.514150E+10	-8.703613E-1	7.629395E-2	7.319946E-1	4.002380E-1	4.403114E-2	-5.462646E-2	-4.774017E-1	-6.285095E-2
1.536600E+10	-8.699036E-1	8.135986E-2	7.240906E-1	3.798218E-1	4.313087E-2	-5.503845E-2	-4.768219E-1	-6.045532E-2
1.559050E+10	-8.684998E-1	8.544922E-2	7.163086E-1	3.620911E-1	4.228592E-2	-5.720139E-2	-4.810791E-1	-6.079102E-2
1.581500E+10	-8.675232E-1	8.819580E-2	7.101440E-1	3.442078E-1	4.194260E-2	-5.720329E-2	-4.857330E-1	-5.569458E-2
1.603950E+10	-8.668518E-1	9.384155E-2	7.026672E-1	3.278198E-1	4.032898E-2	-5.768967E-2	-4.850311E-1	-5.209351E-2
1.626400E+10	-8.653870E-1	9.963989E-2	6.949768E-1	3.121948E-1	3.939438E-2	-5.806160E-2	-4.901581E-1	-5.116272E-2
1.648850E+10	-8.651733E-1	1.014709E-1	6.864624E-1	2.974243E-1	3.821564E-2	-5.780983E-2	-4.920349E-1	-4.473877E-2
1.671300E+10	-8.647156E-1	1.075745E-1	6.790771E-1	2.803345E-1	3.694153E-2	-5.855179E-2	-4.936066E-1	-4.429626E-2
1.693750E+10	-8.644104E-1	1.104431E-1	6.725159E-1	2.662354E-1	3.463936E-2	-5.819511E-2	-4.973755E-1	-4.159546E-2
1.716200E+10	-8.622437E-1	1.152649E-1	6.660156E-1	2.529297E-1	3.417587E-2	-5.951309E-2	-4.993896E-1	-3.390503E-2
1.738650E+10	-8.627930E-1	1.199951E-1	6.582336E-1	2.402344E-1	3.225136E-2	-6.044388E-2	-4.994049E-1	-3.138733E-2
1.761100E+10	-8.616943E-1	1.239929E-1	6.502380E-1	2.269287E-1	3.240013E-2	-6.035995E-2	-5.060425E-1	-3.021240E-2
1.783550E+10	-8.595276E-1	1.289368E-1	6.414185E-1	2.128296E-1	3.207588E-2	-5.968285E-2	-5.075378E-1	-2.377319E-2
1.806000E+10	-8.591309E-1	1.327820E-1	6.362305E-1	2.021179E-1	2.874374E-2	-6.000328E-2	-5.059814E-1	-1.989746E-2
1.828450E+10	-8.587952E-1	1.369019E-1	6.291809E-1	1.885681E-1	2.768707E-2	-5.956268E-2	-5.096741E-1	-1.864624E-2
1.850900E+10	-8.575745E-1	1.399841E-1	6.216431E-1	1.774597E-1	2.807617E-2	-5.967712E-2	-5.128784E-1	-1.327515E-2
1.873350E+10	-8.568726E-1	1.447754E-1	6.135254E-1	1.658325E-1	2.442551E-2	-6.011391E-2	-5.132751E-1	-9.124756E-3
1.895800E+10	-8.537903E-1	1.470642E-1	6.067810E-1	1.560974E-1	2.469063E-2	-6.144524E-2	-5.138855E-1	-7.202148E-3
1.918250E+10	-8.529663E-1	1.524963E-1	5.977173E-1	1.446533E-1	2.293396E-2	-6.104279E-2	-5.176697E-1	-3.295898E-3
1.940700E+10	-8.517151E-1	1.554260E-1	5.897522E-1	1.321716E-1	2.191162E-2	-6.035995E-2	-5.180359E-1	5.706787E-3
1.963150E+10	-8.512573E-1	1.592712E-1	5.845337E-1	1.217346E-1	2.093506E-2	-6.079483E-2	-5.196838E-1	3.784180E-3
1.985600E+10	-8.498230E-1	1.623840E-1	5.751343E-1	1.150513E-1	2.106667E-2	-6.012535E-2	-5.227661E-1	8.453369E-3
2.008050E+10	-8.475037E-1	1.656494E-1	5.666504E-1	1.063843E-1	1.873970E-2	-6.030655E-2	-5.249634E-1	1.458740E-2
2.030500E+10	-8.480225E-1	1.705322E-1	5.623474E-1	9.780884E-2	1.709366E-2	-6.272888E-2	-5.234985E-1	1.666260E-2
2.052950E+10	-8.462830E-1	1.727295E-1	5.534058E-1	8.853149E-2	1.544380E-2	-6.077385E-2	-5.274658E-1	2.029419E-2
2.075400E+10	-8.461609E-1	1.760864E-1	5.480042E-1	8.123779E-2	1.475906E-2	-6.252670E-2	-5.274353E-1	2.725220E-2
2.097850E+10	-8.436584E-1	1.803589E-1	5.419617E-1	7.299805E-2	1.415634E-2	-6.087685E-2	-5.256653E-1	3.173828E-2
2.120300E+10	-8.450928E-1	1.826782E-1	5.329590E-1	6.503296E-2	1.213837E-2	-6.015968E-2	-5.310059E-1	3.030396E-2
2.142750E+10	-8.403320E-1	1.858521E-1	5.268860E-1	5.670166E-2	9.679794E-3	-5.956459E-2	-5.344849E-1	3.674316E-2
2.165200E+10	-8.403625E-1	1.909180E-1	5.202332E-1	4.977417E-2	9.702682E-3	-6.157303E-2	-5.334778E-1	4.144287E-2
2.187650E+10	-8.382263E-1	1.956177E-1	5.126648E-1	4.309082E-2	1.015663E-2	-6.005096E-2	-5.367432E-1	4.330444E-2
2.210100E+10	-8.374023E-1	2.009888E-1	5.071106E-1	3.662109E-2	9.260178E-3	-5.975723E-2	-5.389404E-1	5.325317E-2
2.232550E+10	-8.350525E-1	2.028198E-1	5.001831E-1	2.908325E-2	7.902145E-3	-5.966377E-2	-5.357971E-1	5.786133E-2
2.255000E+10	-8.363953E-1	2.059326E-1	4.946594E-1	2.339172E-2	5.640030E-3	-5.996323E-2	-5.378418E-1	6.072998E-2
2.277450E+10	-8.336182E-1	2.112122E-1	4.866638E-1	1.570129E-2	5.498886E-3	-6.063652E-2	-5.381165E-1	6.466675E-2
2.299900E+10	-8.333740E-1	2.124329E-1	4.814606E-1	1.167297E-2	3.583908E-3	-5.957794E-2	-5.369568E-1	6.973267E-2
2.322350E+10	-8.305969E-1	2.165222E-1	4.772491E-1	7.186890E-3	1.346588E-3	-5.841446E-2	-5.396729E-1	7.110596E-2
2.344800E+10	-8.305664E-1	2.166443E-1	4.691467E-1	3.189087E-3	3.662109E-4	-5.757904E-2	-5.414734E-1	8.035278E-2
2.367250E+10	-8.291016E-1	2.224121E-1	4.598846E-1	-4.425049E-3	-5.435944E-4	-5.741310E-2	-5.398865E-1	8.551025E-2
2.389700E+10	-8.253479E-1	2.261047E-1	4.567261E-1	-1.191711E-2	-2.340317E-3	-5.800438E-2	-5.431519E-1	8.850098E-2
2.412150E+10	-8.247986E-1	2.293396E-1	4.492798E-1	-1.370239E-2	-2.712250E-3	-5.673790E-2	-5.404663E-1	9.405518E-2
2.434600E+10	-8.233643E-1	2.346497E-1	4.449158E-1	-1.925659E-2	-3.580093E-3	-5.504608E-2	-5.394287E-1	9.677124E-2
2.457050E+10	-8.210449E-1	2.364807E-1	4.367218E-1	-2.366638E-2	-6.067276E-3	-5.664062E-2	-5.406799E-1	1.005859E-1
2.479500E+10	-8.209534E-1	2.395325E-1	4.308777E-1	-2.778625E-2	-6.383896E-3	-5.527687E-2	-5.401917E-1	1.083374E-1
2.501950E+10	-8.190918E-1	2.410889E-1	4.270935E-1	-3.071594E-2	-7.667542E-3	-5.554199E-2	-5.369568E-1	1.103821E-1
2.524400E+10	-8.183594E-1	2.433777E-1	4.199677E-1	-3.512573E-2	-1.010895E-2	-5.457497E-2	-5.410767E-1	1.118774E-1
2.546850E+10	-8.169861E-1	2.510681E-1	4.169617E-1	-3.863525E-2	-1.236916E-2	-5.158806E-2	-5.367432E-1	1.184998E-1
2.569300E+10	-8.128662E-1	2.509460E-1	4.081116E-1	-3.971863E-2	-1.072311E-2	-5.118370E-2	-5.372009E-1	1.194153E-1
2.591750E+10	-8.117371E-1	2.548523E-1	4.056549E-1	-4.531860E-2	-1.212311E-2	-5.226135E-2	-5.392456E-1	1.225891E-1
2.614200E+10	-8.089600E-1	2.574463E-1	3.990173E-1	-4.592896E-2	-1.476097E-2	-5.086327E-2	-5.416565E-1	1.300049E-1
2.636650E+10	-8.092346E-1	2.613831E-1	3.943481E-1	-5.081177E-2	-1.530457E-2	-4.887581E-2	-5.401611E-1	1.358643E-1
2.659100E+10	-8.062744E-1	2.640076E-1	3.898010E-1	-5.296326E-2	-1.557922E-2	-4.706192E-2	-5.378113E-1	1.394958E-1
2.681550E+10	-8.045654E-1	2.655945E-1	3.860931E-1	-5.595398E-2	-1.591110E-2	-4.878235E-2	-5.407410E-1	1.431885E-1
2.704000E+10	-8.034363E-1	2.691650E-1	3.779755E-1	-5.911255E-2	-1.920700E-2	-4.694557E-2	-5.425720E-1	1.510315E-1
2.726450E+10	-8.016663E-1	2.712097E-1	3.796844E-1	-6.317139E-2	-1.799965E-2	-4.404068E-2	-5.328064E-1	1.542358E-1
2.748900E+10	-7.982178E-1	2.731018E-1	3.700104E-1	-6.683350E-2	-2.206230E-2	-4.408836E-2	-5.368347E-1	1.551514E-1
2.771350E+10	-7.951965E-1	2.789917E-1	3.664703E-1	-6.658936E-2	-2.407837E-2	-4.478073E-2	-5.381165E-1	1.620178E-1
2.793800E+10	-7.970581E-1	2.784729E-1	3.633728E-1	-6.901550E-2	-2.490807E-2	-4.384804E-2	-5.344543E-1	1.640625E-1
2.816250E+10	-7.911072E-1	2.805481E-1	3.591461E-1	-7.040405E-2	-2.054596E-2	-4.351807E-2	-5.373840E-1	1.672668E-1
2.838700E+10	-7.901917E-1	2.832336E-1	3.542328E-1	-7.176208E-2	-2.568436E-2	-4.257011E-2	-5.343933E-1	1.774292E-1
2.861150E+10	-7.911377E-1	2.874756E-1	3.483124E-1	-7.514954E-2	-2.604103E-2	-4.026985E-2	-5.341797E-1	1.813049E-1
2.883600E+10	-7.903137E-1	2.908325E-1	3.462677E-1	-7.475281E-2	-2.639008E-2	-3.575134E-2	-5.345154E-1	1.812439E-1
2.906050E+10	-7.867432E-1	2.935791E-1	3.426208E-1	-7.536316E-2	-2.585411E-2	-3.739738E-2	-5.335388E-1	1.873474E-1
2.928500E+10	-7.859192E-1	2.974243E-1	3.397522E-1	-7.875061E-2	-2.847481E-2	-3.513718E-2	-5.310364E-1	1.911316E-1
2.950950E+10	-7.844849E-1	2.991943E-1	3.364258E-1	-8.291626E-2	-2.841377E-2	-3.466034E-2	-5.317993E-1	1.951599E-1
2.973400E+10	-7.846375E-1	2.994995E-1	3.365479E-1	-8.374023E-2	-3.014183E-2	-3.339767E-2	-5.329590E-1	2.032471E-1
2.995850E+10	-7.757263E-1	3.037415E-1	3.293457E-1	-8.831787E-2	-2.784252E-2	-3.049183E-2	-5.302124E-1	2.078552E-1
3.018300E+10	-7.753601E-1	3.044128E-1	3.269806E-1	-8.752441E-2	-3.100777E-2	-3.175926E-2	-5.317688E-1	2.121887E-1
3.040750E+10	-7.749329E-1	3.082886E-1	3.255768E-1	-9.022522E-2	-2.907276E-2	-2.864838E-2	-5.339050E-1	2.185364E-1
3.063200E+10	-7.735901E-1	3.105164E-1	3.213501E-1	-9.155273E-2	-3.324509E-2	-3.052711E-2	-5.306091E-1	2.249451E-1
3.085650E+10	-7.709351E-1	3.115540E-1	3.204803E-1	-9.039307E-2	-3.078270E-2	-2.917957E-2	-5.255737E-1	2.298889E-1
3.108100E+10	-7.709656E-1	3.146973E-1	3.157501E-1	-9.690857E-2	-3.426552E-2	-2.673149E-2	-5.267029E-1	2.361145E-1
3.130550E+10	-7.660828E-1	3.160400E-1	3.123779E-1	-9.620667E-2	-3.579903E-2	-2.641678E-2	-5.260620E-1	2.438965E-1
3.153000E+10	-7.697449E-1	3.241577E-1	3.084412E-1	-9.754944E-2	-3.771210E-2	-2.700043E-2	-5.252075E-1	2.441101E-1
3.175450E+10	-7.663269E-1	3.214111E-1	3.064117E-1	-1.009216E-1	-2.867985E-2	-2.353859E-2	-5.213318E-1	2.514038E-1
3.197900E+10	-7.657166E-1	3.193054E-1	3.076324E-1	-1.009369E-1	-3.918648E-2	-2.083206E-2	-5.145874E-1	2.583008E-1
3.220350E+10	-7.615662E-1	3.272095E-1	3.059998E-1	-1.042786E-1	-3.372192E-2	-2.249527E-2	-5.166626E-1	2.573242E-1
3.242800E+10	-7.606812E-1	3.242798E-1	3.013611E-1	-1.004639E-1	-3.577614E-2	-1.943970E-2	-5.128479E-1	2.688293E-1
3.265250E+10	-7.601929E-1	3.309326E-1	2.938080E-1	-1.009369E-1	-3.558540E-2	-1.708412E-2	-5.105896E-1	2.696533E-1
3.287700E+10	-7.563477E-1	3.379211E-1	3.014984E-1	-1.087341E-1	-3.616905E-2	-1.449013E-2	-5.065613E-1	2.719116E-1
3.310150E+10	-7.528381E-1	3.342285E-1	2.978210E-1	-1.051941E-1	-3.779793E-2	-1.362991E-2	-5.086060E-1	2.769165E-1
3.332600E+10	-7.516785E-1	3.413086E-1	2.921295E-1	-1.100006E-1	-3.328323E-2	-8.586884E-3	-5.094299E-1	2.838135E-1
3.355050E+10	-7.486572E-1	3.399353E-1	2.907715E-1	-1.113586E-1	-3.378296E-2	-8.861542E-3	-5.022278E-1	2.866211E-1
3.377500E+10	-7.478638E-1	3.422546E-1	2.894287E-1	-1.111755E-1	-3.318405E-2	-4.938126E-3	-4.990692E-1	2.918854E-1
3.399950E+10	-7.460632E-1	3.425903E-1	2.906036E-1	-1.120605E-1	-3.561974E-2	-4.817963E-3	-4.977875E-1	2.958527E-1
3.422400E+10	-7.461243E-1	3.467407E-1	2.870941E-1	-1.150818E-1	-3.419113E-2	-6.776810E-3	-5.047302E-1	3.075867E-1
3.444850E+10	-7.434082E-1	3.516846E-1	2.874756E-1	-1.209564E-1	-3.865433E-2	-2.094269E-3	-4.946747E-1	3.120575E-1
3.467300E+10	-7.413025E-1	3.503113E-1	2.914734E-1	-1.201019E-1	-3.409386E-2	-1.106262E-3	-4.966125E-1	3.189850E-1
3.489750E+10	-7.394409E-1	3.523865E-1	2.852783E-1	-1.221619E-1	-3.621483E-2	-1.260757E-3	-4.905396E-1	3.261566E-1
3.512200E+10	-7.366638E-1	3.510132E-1	2.822876E-1	-1.253815E-1	-3.788185E-2	2.677917E-3	-4.818573E-1	3.257294E-1
3.534650E+10	-7.402039E-1	3.584900E-1	2.850342E-1	-1.261139E-1	-3.676987E-2	-2.370834E-3	-4.893494E-1	3.318481E-1
3.557100E+10	-7.347412E-1	3.604736E-1	2.772980E-1	-1.266785E-1	-3.202057E-2	5.559921E-3	-4.793701E-1	3.404846E-1
3.579550E+10	-7.336731E-1	3.584900E-1	2.776489E-1	-1.322479E-1	-3.461838E-2	5.666733E-3	-4.746857E-1	3.505707E-1
3.602000E+10	-7.306519E-1	3.618164E-1	2.757416E-1	-1.322784E-1	-3.153038E-2	7.064819E-3	-4.756622E-1	3.565521E-1
3.624450E+10	-7.274475E-1	3.644409E-1	2.778778E-1	-1.330109E-1	-3.420639E-2	1.337051E-2	-4.733124E-1	3.563080E-1
3.646900E+10	-7.281799E-1	3.713379E-1	2.767639E-1	-1.423492E-1	-3.658485E-2	9.643555E-3	-4.648590E-1	3.662415E-1
3.669350E+10	-7.237854E-1	3.659363E-1	2.760620E-1	-1.412354E-1	-3.070354E-2	1.270103E-2	-4.616394E-1	3.689423E-1
3.691800E+10	-7.242737E-1	3.694458E-1	2.762756E-1	-1.424866E-1	-3.519821E-2	8.852005E-3	-4.544525E-1	3.826599E-1
3.714250E+10	-7.218933E-1	3.674927E-1	2.721405E-1	-1.441193E-1	-3.142166E-2	1.532936E-2	-4.477997E-1	3.836670E-1
3.736700E+10	-7.195129E-1	3.725281E-1	2.720337E-1	-1.489716E-1	-3.125191E-2	1.919174E-2	-4.486542E-1	3.847198E-1
3.759150E+10	-7.190857E-1	3.734741E-1	2.650757E-1	-1.541443E-1	-3.146172E-2	1.984024E-2	-4.421997E-1	3.941650E-1
3.781600E+10	-7.138672E-1	3.760681E-1	2.577057E-1	-1.505890E-1	-2.800941E-2	1.842499E-2	-4.427948E-1	4.011078E-1
3.804050E+10	-7.223206E-1	3.769836E-1	2.619934E-1	-1.539612E-1	-2.989101E-2	2.450371E-2	-4.322662E-1	4.089966E-1
3.826500E+10	-7.096558E-1	3.764038E-1	2.687531E-1	-1.537628E-1	-2.734852E-2	2.102280E-2	-4.216003E-1	4.120178E-1
3.848950E+10	-7.058105E-1	3.798218E-1	2.684174E-1	-1.652832E-1	-2.615929E-2	2.619743E-2	-4.106293E-1	4.160767E-1
3.871400E+10	-7.102966E-1	3.774109E-1	2.627258E-1	-1.707611E-1	-2.732182E-2	2.281857E-2	-4.124146E-1	4.218140E-1
3.893850E+10	-7.066956E-1	3.876038E-1	2.608643E-1	-1.670380E-1	-2.338314E-2	2.685356E-2	-4.026337E-1	4.215698E-1
3.916300E+10	-7.091370E-1	3.835754E-1	2.623444E-1	-1.630859E-1	-2.162743E-2	3.416634E-2	-4.084778E-1	4.257355E-1
