!Date: 10/28/2005, 12:34 PM

!Vgs = -2.000000E+0
!Vds = 2.000000E+0
!Ig = -1.245200E-5
!Id = 5.174300E-1

# HZ S RI R 50
1.000000E+8	9.673462E-1	-1.958313E-1	-2.128662E+0	1.115723E-1	7.035732E-4	5.722523E-3	-6.938477E-1	-1.179199E-1
3.245000E+8	7.983704E-1	-5.587769E-1	-1.829102E+0	5.952148E-1	7.321358E-3	1.887989E-2	-7.745972E-1	-5.389404E-2
5.490000E+8	5.404968E-1	-7.974854E-1	-1.503479E+0	8.967896E-1	1.628685E-2	2.781105E-2	-7.461243E-1	-1.358032E-2
7.735000E+8	2.720337E-1	-9.144287E-1	-1.194946E+0	1.035095E+0	2.664471E-2	3.119183E-2	-7.629700E-1	-1.852417E-2
9.980000E+8	3.781128E-2	-9.455566E-1	-9.338379E-1	1.065002E+0	3.497505E-2	3.123283E-2	-7.712402E-1	-4.547119E-3
1.222500E+9	-1.545410E-1	-9.284973E-1	-7.184448E-1	1.040100E+0	4.161835E-2	2.985382E-2	-7.691345E-1	-2.319336E-3
1.447000E+9	-3.051453E-1	-8.863525E-1	-5.509033E-1	9.915771E-1	4.721832E-2	2.771378E-2	-7.760620E-1	6.927490E-3
1.671500E+9	-4.217834E-1	-8.341675E-1	-4.242249E-1	9.364929E-1	5.093575E-2	2.545357E-2	-7.779236E-1	1.278687E-2
1.896000E+9	-5.133057E-1	-7.789612E-1	-3.247986E-1	8.781433E-1	5.429840E-2	2.255249E-2	-7.812195E-1	2.172852E-2
2.120500E+9	-5.837402E-1	-7.268982E-1	-2.475281E-1	8.232422E-1	5.695724E-2	2.018166E-2	-7.842712E-1	2.886963E-2
2.345000E+9	-6.414490E-1	-6.740112E-1	-1.851807E-1	7.686157E-1	5.914497E-2	1.790237E-2	-7.864075E-1	3.775024E-2
2.569500E+9	-6.840820E-1	-6.261902E-1	-1.370850E-1	7.195129E-1	6.031036E-2	1.461220E-2	-7.847290E-1	4.537964E-2
2.794000E+9	-7.207947E-1	-5.851746E-1	-9.805298E-2	6.737671E-1	6.131363E-2	1.295662E-2	-7.864380E-1	5.325317E-2
3.018500E+9	-7.496338E-1	-5.448303E-1	-6.558228E-2	6.317444E-1	6.233788E-2	1.116180E-2	-7.851257E-1	6.066895E-2
3.243000E+9	-7.744141E-1	-5.080872E-1	-3.900146E-2	5.927734E-1	6.241798E-2	9.178162E-3	-7.852478E-1	6.658936E-2
3.467500E+9	-7.955322E-1	-4.749451E-1	-1.678467E-2	5.607910E-1	6.351089E-2	7.144928E-3	-7.853088E-1	7.565308E-2
3.692000E+9	-8.116760E-1	-4.446106E-1	2.105713E-3	5.300598E-1	6.393433E-2	5.451202E-3	-7.828369E-1	8.181763E-2
3.916500E+9	-8.265076E-1	-4.165649E-1	1.770020E-2	5.013733E-1	6.429672E-2	4.215240E-3	-7.839966E-1	8.734131E-2
4.141000E+9	-8.393860E-1	-3.898926E-1	3.085327E-2	4.755707E-1	6.468582E-2	2.536774E-3	-7.817078E-1	9.530640E-2
4.365500E+9	-8.482056E-1	-3.657227E-1	4.223633E-2	4.507141E-1	6.414413E-2	5.607605E-4	-7.805176E-1	1.003723E-1
4.590000E+9	-8.576355E-1	-3.440552E-1	5.200195E-2	4.282684E-1	6.437302E-2	-6.599426E-4	-7.802734E-1	1.077271E-1
4.814500E+9	-8.656921E-1	-3.237610E-1	6.082153E-2	4.080353E-1	6.501770E-2	-1.846313E-3	-7.786865E-1	1.146545E-1
5.039000E+9	-8.723450E-1	-3.036804E-1	6.788635E-2	3.909302E-1	6.486511E-2	-3.192902E-3	-7.777405E-1	1.200256E-1
5.263500E+9	-8.788147E-1	-2.844543E-1	7.426453E-2	3.721619E-1	6.486893E-2	-4.802704E-3	-7.760010E-1	1.270447E-1
5.488000E+9	-8.824768E-1	-2.681580E-1	7.991028E-2	3.558044E-1	6.456757E-2	-5.748749E-3	-7.745972E-1	1.338806E-1
5.712500E+9	-8.877869E-1	-2.517700E-1	8.522034E-2	3.399963E-1	6.480026E-2	-7.030487E-3	-7.728577E-1	1.394043E-1
5.937000E+9	-8.912354E-1	-2.353821E-1	8.905029E-2	3.259888E-1	6.438065E-2	-8.438110E-3	-7.706909E-1	1.453247E-1
6.161500E+9	-8.952637E-1	-2.218628E-1	9.320068E-2	3.129272E-1	6.432343E-2	-9.471893E-3	-7.698059E-1	1.538696E-1
6.386000E+9	-8.984680E-1	-2.074585E-1	9.703064E-2	3.007355E-1	6.393814E-2	-1.024246E-2	-7.653809E-1	1.592712E-1
6.610500E+9	-9.006348E-1	-1.943970E-1	9.936523E-2	2.882385E-1	6.364059E-2	-1.187897E-2	-7.651062E-1	1.632385E-1
6.835000E+9	-9.040222E-1	-1.829224E-1	1.021881E-1	2.760162E-1	6.293869E-2	-1.277161E-2	-7.618408E-1	1.726379E-1
7.059500E+9	-9.048767E-1	-1.711426E-1	1.041107E-1	2.656860E-1	6.286240E-2	-1.394653E-2	-7.561646E-1	1.753540E-1
7.284000E+9	-9.066162E-1	-1.592407E-1	1.063080E-1	2.560425E-1	6.233788E-2	-1.454163E-2	-7.570190E-1	1.801147E-1
7.508500E+9	-9.096680E-1	-1.481018E-1	1.073685E-1	2.463531E-1	6.258774E-2	-1.554108E-2	-7.507935E-1	1.851196E-1
7.733000E+9	-9.092102E-1	-1.368713E-1	1.092682E-1	2.384262E-1	6.169701E-2	-1.642799E-2	-7.510986E-1	1.892700E-1
7.957500E+9	-9.117432E-1	-1.273804E-1	1.111832E-1	2.292557E-1	6.129265E-2	-1.778984E-2	-7.492371E-1	1.972046E-1
8.182000E+9	-9.124451E-1	-1.166992E-1	1.123352E-1	2.216492E-1	6.048775E-2	-1.861382E-2	-7.483521E-1	2.014465E-1
8.406500E+9	-9.122925E-1	-1.084900E-1	1.128082E-1	2.132721E-1	6.045532E-2	-1.945686E-2	-7.433777E-1	2.092590E-1
8.631000E+9	-9.146118E-1	-9.716797E-2	1.130371E-1	2.058105E-1	5.971909E-2	-2.032471E-2	-7.408447E-1	2.122803E-1
8.855500E+9	-9.142761E-1	-8.932495E-2	1.140442E-1	1.993179E-1	5.959511E-2	-2.109909E-2	-7.391663E-1	2.191467E-1
9.080001E+9	-9.154053E-1	-8.212280E-2	1.147156E-1	1.920319E-1	5.834961E-2	-2.221489E-2	-7.341003E-1	2.252197E-1
9.304500E+9	-9.157104E-1	-7.147217E-2	1.149902E-1	1.852951E-1	5.775452E-2	-2.287674E-2	-7.317200E-1	2.294617E-1
9.529000E+9	-9.155273E-1	-6.524658E-2	1.156998E-1	1.792755E-1	5.771446E-2	-2.365112E-2	-7.297363E-1	2.345581E-1
9.753500E+9	-9.163513E-1	-5.682373E-2	1.154861E-1	1.731262E-1	5.716515E-2	-2.392197E-2	-7.253723E-1	2.409668E-1
9.978000E+9	-9.162292E-1	-4.901123E-2	1.156311E-1	1.677551E-1	5.598831E-2	-2.466011E-2	-7.217712E-1	2.439575E-1
1.020250E+10	-9.172974E-1	-4.174805E-2	1.158295E-1	1.625137E-1	5.579567E-2	-2.575111E-2	-7.178345E-1	2.504272E-1
1.042700E+10	-9.175720E-1	-3.274536E-2	1.163025E-1	1.571350E-1	5.444527E-2	-2.646828E-2	-7.145691E-1	2.550964E-1
1.065150E+10	-9.175720E-1	-2.615356E-2	1.157837E-1	1.518250E-1	5.389786E-2	-2.615738E-2	-7.116089E-1	2.581787E-1
1.087600E+10	-9.179993E-1	-1.895142E-2	1.152496E-1	1.481094E-1	5.416107E-2	-2.691269E-2	-7.088623E-1	2.634583E-1
1.110050E+10	-9.174805E-1	-1.223755E-2	1.154785E-1	1.428909E-1	5.354881E-2	-2.784538E-2	-7.036438E-1	2.686157E-1
1.132500E+10	-9.163513E-1	-5.310059E-3	1.157684E-1	1.392212E-1	5.287743E-2	-2.791023E-2	-7.006226E-1	2.706299E-1
1.154950E+10	-9.161377E-1	2.044678E-3	1.156769E-1	1.341782E-1	5.249214E-2	-2.839279E-2	-6.997070E-1	2.762146E-1
1.177400E+10	-9.148865E-1	7.904053E-3	1.151505E-1	1.305313E-1	5.092621E-2	-2.951050E-2	-6.940308E-1	2.819519E-1
1.199850E+10	-9.153137E-1	1.449585E-2	1.148453E-1	1.268158E-1	5.106926E-2	-2.989197E-2	-6.904602E-1	2.846680E-1
1.222300E+10	-9.148254E-1	2.117920E-2	1.154861E-1	1.231270E-1	5.054665E-2	-3.047752E-2	-6.867981E-1	2.880859E-1
1.244750E+10	-9.136353E-1	2.615356E-2	1.142387E-1	1.190605E-1	4.996490E-2	-3.112030E-2	-6.828003E-1	2.943420E-1
1.267200E+10	-9.143066E-1	3.256226E-2	1.140556E-1	1.156540E-1	4.876518E-2	-3.106117E-2	-6.784058E-1	2.960205E-1
1.289650E+10	-9.122620E-1	3.799438E-2	1.136246E-1	1.122856E-1	4.858017E-2	-3.158188E-2	-6.773987E-1	2.990723E-1
1.312100E+10	-9.125977E-1	4.452515E-2	1.129189E-1	1.093903E-1	4.733086E-2	-3.157997E-2	-6.732178E-1	3.056946E-1
1.334550E+10	-9.123535E-1	5.001831E-2	1.124725E-1	1.050644E-1	4.693985E-2	-3.170204E-2	-6.679687E-1	3.087463E-1
1.357000E+10	-9.110107E-1	5.496216E-2	1.126366E-1	1.036835E-1	4.617500E-2	-3.236771E-2	-6.652527E-1	3.083191E-1
1.379450E+10	-9.114990E-1	6.103516E-2	1.111641E-1	1.007156E-1	4.624557E-2	-3.375816E-2	-6.631470E-1	3.146973E-1
1.401900E+10	-9.095459E-1	6.600952E-2	1.124344E-1	9.698105E-2	4.522705E-2	-3.346062E-2	-6.570129E-1	3.189697E-1
1.424350E+10	-9.084473E-1	7.223511E-2	1.101646E-1	9.424591E-2	4.436493E-2	-3.242683E-2	-6.553345E-1	3.218079E-1
1.446800E+10	-9.081116E-1	7.846069E-2	1.099548E-1	9.175110E-2	4.452515E-2	-3.338623E-2	-6.518250E-1	3.276672E-1
1.469250E+10	-9.059753E-1	8.395386E-2	1.099014E-1	8.901596E-2	4.364014E-2	-3.467941E-2	-6.439819E-1	3.312378E-1
1.491700E+10	-9.053955E-1	8.905029E-2	1.093712E-1	8.717728E-2	4.183769E-2	-3.550339E-2	-6.429138E-1	3.310852E-1
1.514150E+10	-9.047546E-1	9.393311E-2	1.094475E-1	8.404541E-2	4.206657E-2	-3.471947E-2	-6.400452E-1	3.374329E-1
1.536600E+10	-9.022217E-1	9.893799E-2	1.093102E-1	8.278656E-2	4.117203E-2	-3.606796E-2	-6.333618E-1	3.406067E-1
1.559050E+10	-9.019775E-1	1.048279E-1	1.091042E-1	8.130646E-2	4.090118E-2	-3.460121E-2	-6.303406E-1	3.410950E-1
1.581500E+10	-9.006653E-1	1.102600E-1	1.076012E-1	7.809830E-2	4.016304E-2	-3.591728E-2	-6.282043E-1	3.451233E-1
1.603950E+10	-9.012146E-1	1.151733E-1	1.075935E-1	7.646179E-2	3.941917E-2	-3.583717E-2	-6.241455E-1	3.498230E-1
1.626400E+10	-8.982239E-1	1.197815E-1	1.069336E-1	7.548904E-2	3.820610E-2	-3.603554E-2	-6.216736E-1	3.497620E-1
1.648850E+10	-8.971863E-1	1.230774E-1	1.065865E-1	7.228470E-2	3.864479E-2	-3.566742E-2	-6.174927E-1	3.538208E-1
1.671300E+10	-8.959961E-1	1.289062E-1	1.065254E-1	7.054901E-2	3.748894E-2	-3.656769E-2	-6.126404E-1	3.575134E-1
1.693750E+10	-8.958130E-1	1.341248E-1	1.051178E-1	6.890106E-2	3.636551E-2	-3.705025E-2	-6.075134E-1	3.586121E-1
1.716200E+10	-8.942566E-1	1.394043E-1	1.053429E-1	6.753922E-2	3.646469E-2	-3.689003E-2	-6.062622E-1	3.629761E-1
1.738650E+10	-8.929749E-1	1.444702E-1	1.052589E-1	6.652451E-2	3.560448E-2	-3.649139E-2	-6.016846E-1	3.649292E-1
1.761100E+10	-8.904114E-1	1.501160E-1	1.048737E-1	6.494904E-2	3.493118E-2	-3.635025E-2	-5.996704E-1	3.664551E-1
1.783550E+10	-8.891602E-1	1.549072E-1	1.043854E-1	6.277084E-2	3.393936E-2	-3.803062E-2	-5.971375E-1	3.728943E-1
1.806000E+10	-8.885803E-1	1.576843E-1	1.041603E-1	6.086349E-2	3.433990E-2	-3.645325E-2	-5.899963E-1	3.758850E-1
1.828450E+10	-8.856201E-1	1.617126E-1	1.038971E-1	6.013870E-2	3.334999E-2	-3.738594E-2	-5.874329E-1	3.774414E-1
1.850900E+10	-8.856506E-1	1.665649E-1	1.035347E-1	5.761719E-2	3.263474E-2	-3.673935E-2	-5.864563E-1	3.807373E-1
1.873350E+10	-8.836975E-1	1.713562E-1	1.029396E-1	5.680466E-2	3.185654E-2	-3.784943E-2	-5.784912E-1	3.855286E-1
1.895800E+10	-8.813171E-1	1.758728E-1	1.020470E-1	5.613708E-2	3.170013E-2	-3.781509E-2	-5.759277E-1	3.848267E-1
1.918250E+10	-8.797913E-1	1.791992E-1	1.030273E-1	5.561447E-2	2.985764E-2	-3.690147E-2	-5.742187E-1	3.867798E-1
1.940700E+10	-8.777161E-1	1.848450E-1	1.019859E-1	5.343628E-2	2.960587E-2	-3.759193E-2	-5.678406E-1	3.936768E-1
1.963150E+10	-8.756714E-1	1.881714E-1	1.015587E-1	5.221939E-2	2.889824E-2	-3.738785E-2	-5.630798E-1	3.912659E-1
1.985600E+10	-8.736572E-1	1.920166E-1	1.006470E-1	5.166626E-2	2.769470E-2	-3.702736E-2	-5.620117E-1	3.938293E-1
2.008050E+10	-8.718567E-1	1.940002E-1	1.009178E-1	4.962158E-2	2.792549E-2	-3.746033E-2	-5.570984E-1	3.980713E-1
2.030500E+10	-8.706360E-1	1.998291E-1	1.022034E-1	5.007172E-2	2.612114E-2	-3.816986E-2	-5.502014E-1	4.001465E-1
2.052950E+10	-8.689880E-1	2.046814E-1	1.019058E-1	4.757309E-2	2.548790E-2	-3.754807E-2	-5.495911E-1	4.011841E-1
2.075400E+10	-8.676758E-1	2.077942E-1	1.011696E-1	4.656982E-2	2.599907E-2	-3.689957E-2	-5.469971E-1	4.070435E-1
2.097850E+10	-8.643799E-1	2.131958E-1	1.012192E-1	4.658890E-2	2.369499E-2	-3.718185E-2	-5.403442E-1	4.085999E-1
2.120300E+10	-8.621826E-1	2.165527E-1	1.008759E-1	4.463959E-2	2.383614E-2	-3.725815E-2	-5.399780E-1	4.070740E-1
2.142750E+10	-8.612061E-1	2.194519E-1	9.943771E-2	4.380798E-2	2.275848E-2	-3.762054E-2	-5.387878E-1	4.123230E-1
2.165200E+10	-8.574829E-1	2.239685E-1	1.013870E-1	4.423523E-2	2.278900E-2	-3.670692E-2	-5.317078E-1	4.146423E-1
2.187650E+10	-8.557129E-1	2.279053E-1	1.008034E-1	4.411316E-2	2.165031E-2	-3.725433E-2	-5.296326E-1	4.167786E-1
2.210100E+10	-8.536072E-1	2.327271E-1	1.021729E-1	3.990173E-2	2.151871E-2	-3.525925E-2	-5.261841E-1	4.216309E-1
2.232550E+10	-8.494873E-1	2.356262E-1	1.012802E-1	4.112244E-2	2.086449E-2	-3.511238E-2	-5.181580E-1	4.252319E-1
2.255000E+10	-8.483276E-1	2.386169E-1	1.000977E-1	3.735352E-2	1.877403E-2	-3.825760E-2	-5.188293E-1	4.248047E-1
2.277450E+10	-8.451233E-1	2.452698E-1	1.002579E-1	3.744507E-2	2.023506E-2	-3.705597E-2	-5.143433E-1	4.311829E-1
2.299900E+10	-8.432922E-1	2.452698E-1	1.006622E-1	3.722763E-2	1.865196E-2	-3.791237E-2	-5.073853E-1	4.295959E-1
2.322350E+10	-8.411255E-1	2.511597E-1	1.011162E-1	3.618622E-2	1.671410E-2	-3.608131E-2	-5.044556E-1	4.301453E-1
2.344800E+10	-8.378601E-1	2.508545E-1	1.022758E-1	3.475571E-2	1.719856E-2	-3.611183E-2	-5.027466E-1	4.349060E-1
2.367250E+10	-8.343811E-1	2.554932E-1	1.009827E-1	3.372955E-2	1.602936E-2	-3.491592E-2	-4.947510E-1	4.396667E-1
2.389700E+10	-8.342590E-1	2.583923E-1	1.026192E-1	3.195953E-2	1.666260E-2	-3.552437E-2	-4.920197E-1	4.382477E-1
2.412150E+10	-8.309021E-1	2.622986E-1	1.023293E-1	3.206253E-2	1.321220E-2	-3.367043E-2	-4.867706E-1	4.428101E-1
2.434600E+10	-8.276367E-1	2.649536E-1	1.020508E-1	3.105927E-2	1.255798E-2	-3.299522E-2	-4.813995E-1	4.475098E-1
2.457050E+10	-8.256531E-1	2.695312E-1	1.045341E-1	3.069305E-2	1.283455E-2	-3.296471E-2	-4.782104E-1	4.444733E-1
2.479500E+10	-8.221741E-1	2.718506E-1	1.047745E-1	3.008652E-2	1.156235E-2	-3.405380E-2	-4.728088E-1	4.499207E-1
2.501950E+10	-8.176270E-1	2.739258E-1	1.052895E-1	2.901840E-2	1.051617E-2	-3.054905E-2	-4.637299E-1	4.486694E-1
2.524400E+10	-8.159790E-1	2.748718E-1	1.051865E-1	2.808762E-2	9.532928E-3	-3.071785E-2	-4.631042E-1	4.504852E-1
2.546850E+10	-8.146057E-1	2.792358E-1	1.041679E-1	2.738190E-2	8.998871E-3	-3.056622E-2	-4.600983E-1	4.526062E-1
2.569300E+10	-8.101807E-1	2.797241E-1	1.066780E-1	2.819443E-2	9.666443E-3	-2.919674E-2	-4.560852E-1	4.525146E-1
2.591750E+10	-8.082886E-1	2.830200E-1	1.060753E-1	2.495193E-2	1.124191E-2	-2.842712E-2	-4.511414E-1	4.526825E-1
2.614200E+10	-8.041687E-1	2.846069E-1	1.065750E-1	2.376175E-2	9.124756E-3	-2.862358E-2	-4.521332E-1	4.584808E-1
2.636650E+10	-8.023071E-1	2.856750E-1	1.071930E-1	2.293777E-2	7.821083E-3	-2.833080E-2	-4.467163E-1	4.596558E-1
2.659100E+10	-7.982483E-1	2.887573E-1	1.078148E-1	1.977158E-2	7.311821E-3	-2.637386E-2	-4.376221E-1	4.607697E-1
2.681550E+10	-7.970276E-1	2.886658E-1	1.094093E-1	1.908493E-2	7.967949E-3	-2.744198E-2	-4.376068E-1	4.615784E-1
2.704000E+10	-7.948303E-1	2.923279E-1	1.090660E-1	1.916885E-2	7.006645E-3	-2.592945E-2	-4.355621E-1	4.671783E-1
2.726450E+10	-7.904663E-1	2.943115E-1	1.099892E-1	1.380920E-2	6.424904E-3	-2.467155E-2	-4.241028E-1	4.658051E-1
2.748900E+10	-7.898254E-1	2.933044E-1	1.098137E-1	1.594543E-2	6.298065E-3	-2.453041E-2	-4.223022E-1	4.650421E-1
2.771350E+10	-7.879639E-1	2.951050E-1	1.124268E-1	1.190567E-2	5.951881E-3	-2.356052E-2	-4.158020E-1	4.668121E-1
2.793800E+10	-7.851257E-1	2.965698E-1	1.092110E-1	1.065445E-2	3.880501E-3	-2.233982E-2	-4.149780E-1	4.653778E-1
2.816250E+10	-7.816162E-1	2.973022E-1	1.115837E-1	7.801056E-3	7.460594E-3	-2.368927E-2	-4.102020E-1	4.688110E-1
2.838700E+10	-7.803650E-1	2.976990E-1	1.111870E-1	7.720947E-3	7.522583E-3	-2.098942E-2	-4.026031E-1	4.716949E-1
2.861150E+10	-7.767639E-1	2.984619E-1	1.098061E-1	3.719330E-3	4.498482E-3	-2.104378E-2	-3.969269E-1	4.700165E-1
2.883600E+10	-7.761230E-1	3.032837E-1	1.118164E-1	5.348206E-3	6.478310E-3	-2.025509E-2	-3.975525E-1	4.673157E-1
2.906050E+10	-7.735596E-1	3.019409E-1	1.115913E-1	6.332397E-4	9.299278E-3	-1.893616E-2	-3.915710E-1	4.724274E-1
2.928500E+10	-7.726746E-1	3.053589E-1	1.104279E-1	2.292633E-3	7.328033E-3	-1.793289E-2	-3.870697E-1	4.713287E-1
2.950950E+10	-7.709351E-1	3.061523E-1	1.116219E-1	-2.517700E-3	6.728172E-3	-1.704788E-2	-3.877258E-1	4.758148E-1
2.973400E+10	-7.694702E-1	3.052673E-1	1.126480E-1	-3.383636E-3	6.484985E-3	-1.764488E-2	-3.837280E-1	4.747467E-1
2.995850E+10	-7.661133E-1	3.072815E-1	1.116333E-1	-3.120422E-3	8.186340E-3	-1.627064E-2	-3.770905E-1	4.774475E-1
3.018300E+10	-7.631226E-1	3.067322E-1	1.115990E-1	-6.916046E-3	9.734154E-3	-1.613331E-2	-3.720398E-1	4.849701E-1
3.040750E+10	-7.662354E-1	3.059998E-1	1.089439E-1	-9.468079E-3	9.816170E-3	-1.367760E-2	-3.691406E-1	4.823151E-1
3.063200E+10	-7.626343E-1	3.077698E-1	1.111717E-1	-1.259613E-2	6.788731E-3	-1.351833E-2	-3.648071E-1	4.839020E-1
3.085650E+10	-7.637634E-1	3.092651E-1	1.089287E-1	-1.436615E-2	1.048899E-2	-1.050425E-2	-3.598785E-1	4.848022E-1
3.108100E+10	-7.599182E-1	3.083496E-1	1.107521E-1	-1.686096E-2	5.986214E-3	-1.612759E-2	-3.516235E-1	4.840546E-1
3.130550E+10	-7.538147E-1	3.130493E-1	1.082230E-1	-1.993942E-2	8.544445E-3	-1.023102E-2	-3.460388E-1	4.859619E-1
3.153000E+10	-7.628784E-1	3.149719E-1	1.083450E-1	-1.861572E-2	1.034021E-2	-1.272392E-2	-3.434143E-1	4.829102E-1
3.175450E+10	-7.622986E-1	3.167725E-1	1.067963E-1	-2.085495E-2	9.459496E-3	-9.331703E-3	-3.387299E-1	4.841461E-1
3.197900E+10	-7.572327E-1	3.137817E-1	1.037827E-1	-2.072906E-2	9.941101E-3	-1.491928E-2	-3.326569E-1	4.863892E-1
3.220350E+10	-7.596741E-1	3.141479E-1	1.033173E-1	-2.220154E-2	1.719189E-2	-1.054382E-2	-3.341522E-1	4.826660E-1
3.242800E+10	-7.582092E-1	3.170166E-1	1.050034E-1	-2.517700E-2	1.207018E-2	-1.110888E-2	-3.219910E-1	4.889679E-1
3.265250E+10	-7.600708E-1	3.239441E-1	1.021080E-1	-2.961731E-2	1.059437E-2	-9.283543E-3	-3.156891E-1	4.829102E-1
3.287700E+10	-7.588501E-1	3.226624E-1	1.049156E-1	-2.602768E-2	1.188803E-2	-6.874561E-3	-3.188019E-1	4.883423E-1
3.310150E+10	-7.574463E-1	3.223572E-1	1.026993E-1	-3.096771E-2	1.373529E-2	-8.894920E-3	-3.054962E-1	4.873047E-1
3.332600E+10	-7.530518E-1	3.255310E-1	9.955215E-2	-3.347397E-2	1.400614E-2	-7.250786E-3	-3.091736E-1	4.857788E-1
3.355050E+10	-7.575989E-1	3.254700E-1	9.905624E-2	-3.398895E-2	1.745224E-2	-6.760597E-3	-3.032074E-1	4.906616E-1
3.377500E+10	-7.536926E-1	3.308716E-1	9.999084E-2	-3.620911E-2	1.429224E-2	-9.280682E-3	-2.968597E-1	4.850616E-1
3.399950E+10	-7.531128E-1	3.307495E-1	9.727478E-2	-3.389740E-2	1.524830E-2	-7.338047E-3	-2.969055E-1	4.888306E-1
3.422400E+10	-7.532959E-1	3.329773E-1	9.560013E-2	-3.829956E-2	1.766396E-2	-6.938934E-3	-2.929535E-1	4.917145E-1
3.444850E+10	-7.559509E-1	3.364563E-1	9.538651E-2	-3.832626E-2	1.619816E-2	-9.376526E-3	-2.826385E-1	4.897308E-1
3.467300E+10	-7.564392E-1	3.346863E-1	9.523773E-2	-3.968811E-2	1.709843E-2	-8.770943E-3	-2.855225E-1	4.852753E-1
3.489750E+10	-7.523499E-1	3.348999E-1	9.384537E-2	-4.016876E-2	1.980877E-2	-9.374619E-3	-2.810822E-1	4.893494E-1
3.512200E+10	-7.544556E-1	3.374939E-1	8.995819E-2	-4.154587E-2	1.529503E-2	-9.885788E-3	-2.720947E-1	4.864655E-1
3.534650E+10	-7.539673E-1	3.397217E-1	9.180450E-2	-4.718018E-2	1.780891E-2	-4.584312E-3	-2.706604E-1	4.885406E-1
3.557100E+10	-7.541504E-1	3.430481E-1	8.717346E-2	-4.010010E-2	1.739120E-2	-9.654999E-3	-2.543945E-1	4.899750E-1
3.579550E+10	-7.499695E-1	3.454285E-1	8.440781E-2	-4.599762E-2	2.374172E-2	-1.109123E-2	-2.567902E-1	4.872894E-1
3.602000E+10	-7.495422E-1	3.478699E-1	8.719254E-2	-4.691315E-2	1.478672E-2	-1.082611E-2	-2.566681E-1	4.899445E-1
3.624450E+10	-7.509460E-1	3.529663E-1	8.515930E-2	-4.839325E-2	1.928234E-2	-1.216888E-2	-2.480774E-1	4.810791E-1
3.646900E+10	-7.530518E-1	3.558350E-1	7.725906E-2	-4.867554E-2	2.098083E-2	-7.978439E-3	-2.465515E-1	4.832306E-1
3.669350E+10	-7.505493E-1	3.536377E-1	7.921982E-2	-5.022049E-2	2.032757E-2	-6.307602E-3	-2.354889E-1	4.857025E-1
3.691800E+10	-7.496948E-1	3.554382E-1	7.756042E-2	-5.042648E-2	2.492142E-2	-1.262569E-2	-2.345123E-1	4.868317E-1
3.714250E+10	-7.497253E-1	3.601074E-1	7.456207E-2	-4.411316E-2	1.880741E-2	-8.233070E-3	-2.344360E-1	4.837341E-1
3.736700E+10	-7.474976E-1	3.646545E-1	7.689667E-2	-4.885864E-2	1.799870E-2	-1.390457E-2	-2.292175E-1	4.835052E-1
3.759150E+10	-7.455444E-1	3.682251E-1	8.146286E-2	-5.387115E-2	1.669121E-2	-1.052189E-2	-2.316132E-1	4.805908E-1
3.781600E+10	-7.434082E-1	3.700867E-1	7.566833E-2	-5.114365E-2	2.345085E-2	-7.554054E-3	-2.213745E-1	4.849548E-1
3.804050E+10	-7.451782E-1	3.691711E-1	7.163620E-2	-5.041885E-2	1.994514E-2	-6.911278E-3	-2.152100E-1	4.830780E-1
3.826500E+10	-7.430420E-1	3.735352E-1	7.365036E-2	-4.583359E-2	2.297115E-2	-6.830215E-3	-2.109680E-1	4.866486E-1
3.848950E+10	-7.421570E-1	3.806152E-1	7.751083E-2	-5.434799E-2	1.755905E-2	-1.584148E-2	-2.083435E-1	4.811249E-1
3.871400E+10	-7.446289E-1	3.754883E-1	6.599426E-2	-5.554581E-2	2.043247E-2	-8.635521E-3	-2.024536E-1	4.772491E-1
3.893850E+10	-7.395020E-1	3.838196E-1	7.009506E-2	-4.652405E-2	2.987194E-2	-1.221848E-2	-1.957550E-1	4.777679E-1
3.916300E+10	-7.487488E-1	3.837891E-1	6.708908E-2	-5.598450E-2	2.132988E-2	-7.787704E-3	-1.944733E-1	4.765320E-1
3.938750E+10	-7.446594E-1	3.866882E-1	7.014847E-2	-5.871201E-2	2.150631E-2	-1.225090E-2	-2.022552E-1	4.769592E-1
3.961200E+10	-7.405396E-1	3.865356E-1	6.907654E-2	-5.514526E-2	2.515030E-2	-1.035690E-2	-1.921997E-1	4.802094E-1
