!Date: 10/28/2005, 12:34 PM

!Vgs = -5.000000E+0
!Vds = 1.000000E+0
!Ig = -3.307800E-5
!Id = 5.286800E-3

# HZ S RI R 50
1.000000E+8	9.850464E-1	-8.679199E-2	-1.374390E+0	8.544922E-2	9.555817E-4	1.724243E-2	8.524780E-1	-2.890015E-2
3.245000E+8	9.417725E-1	-2.547913E-1	-1.291870E+0	3.276978E-1	1.084137E-2	4.595566E-2	8.162842E-1	-1.215210E-1
5.490000E+8	8.712463E-1	-4.029236E-1	-1.200134E+0	5.187378E-1	2.526474E-2	7.264328E-2	7.956238E-1	-1.942139E-1
7.735000E+8	7.813110E-1	-5.294189E-1	-1.072510E+0	6.651611E-1	4.479980E-2	9.350967E-2	7.604675E-1	-2.599182E-1
9.980000E+8	6.817627E-1	-6.295166E-1	-9.178467E-1	7.738037E-1	6.598663E-2	1.091461E-1	7.229004E-1	-3.136902E-1
1.222500E+9	5.738525E-1	-7.058716E-1	-7.676697E-1	8.618469E-1	8.813858E-2	1.193581E-1	6.829529E-1	-3.636780E-1
1.447000E+9	4.654846E-1	-7.622681E-1	-6.248474E-1	9.097595E-1	1.100845E-1	1.256485E-1	6.419373E-1	-4.052429E-1
1.671500E+9	3.612366E-1	-7.984924E-1	-4.815979E-1	9.273682E-1	1.312103E-1	1.283569E-1	6.002197E-1	-4.402161E-1
1.896000E+9	2.634888E-1	-8.208923E-1	-3.534851E-1	9.359436E-1	1.519623E-1	1.280136E-1	5.612183E-1	-4.689941E-1
2.120500E+9	1.746216E-1	-8.308411E-1	-2.425232E-1	9.354248E-1	1.710052E-1	1.244812E-1	5.240173E-1	-4.965820E-1
2.345000E+9	9.240723E-2	-8.315430E-1	-1.366272E-1	9.065857E-1	1.877899E-1	1.181641E-1	4.869995E-1	-5.198364E-1
2.569500E+9	1.745605E-2	-8.237915E-1	-4.272461E-2	8.765869E-1	2.025757E-1	1.107864E-1	4.512939E-1	-5.396118E-1
2.794000E+9	-4.721069E-2	-8.134766E-1	3.683472E-2	8.460083E-1	2.152023E-1	1.024094E-1	4.192505E-1	-5.578308E-1
3.018500E+9	-1.051025E-1	-7.991943E-1	1.047058E-1	8.054199E-1	2.262268E-1	9.261322E-2	3.852539E-1	-5.754089E-1
3.243000E+9	-1.564636E-1	-7.837524E-1	1.674500E-1	7.600098E-1	2.359238E-1	8.384705E-2	3.518372E-1	-5.897217E-1
3.467500E+9	-2.059326E-1	-7.661743E-1	2.202148E-1	7.176514E-1	2.437439E-1	7.447052E-2	3.221130E-1	-6.021729E-1
3.692000E+9	-2.489624E-1	-7.475281E-1	2.655334E-1	6.754150E-1	2.510986E-1	6.553650E-2	2.912292E-1	-6.153564E-1
3.916500E+9	-2.881165E-1	-7.284241E-1	3.037415E-1	6.330566E-1	2.574463E-1	5.517578E-2	2.622375E-1	-6.258545E-1
4.141000E+9	-3.218689E-1	-7.096252E-1	3.369446E-1	5.925598E-1	2.623596E-1	4.545593E-2	2.343750E-1	-6.364136E-1
4.365500E+9	-3.509521E-1	-6.920471E-1	3.642578E-1	5.502014E-1	2.658234E-1	3.570557E-2	2.063904E-1	-6.457214E-1
4.590000E+9	-3.800049E-1	-6.736450E-1	3.886719E-1	5.119019E-1	2.695923E-1	2.674866E-2	1.767273E-1	-6.531372E-1
4.814500E+9	-4.044800E-1	-6.565552E-1	4.075775E-1	4.703979E-1	2.731018E-1	1.744080E-2	1.501160E-1	-6.609192E-1
5.039000E+9	-4.307861E-1	-6.377563E-1	4.253693E-1	4.352417E-1	2.758636E-1	7.431030E-3	1.242371E-1	-6.686401E-1
5.263500E+9	-4.515381E-1	-6.210022E-1	4.382782E-1	3.990936E-1	2.765808E-1	-1.464844E-3	9.674072E-2	-6.749268E-1
5.488000E+9	-4.694824E-1	-6.057739E-1	4.499512E-1	3.673248E-1	2.772827E-1	-1.022339E-2	7.150269E-2	-6.790771E-1
5.712500E+9	-4.876404E-1	-5.906677E-1	4.582062E-1	3.335876E-1	2.776337E-1	-1.873779E-2	4.592896E-2	-6.843262E-1
5.937000E+9	-5.049438E-1	-5.740967E-1	4.657288E-1	3.017273E-1	2.784119E-1	-2.777100E-2	1.867676E-2	-6.869202E-1
6.161500E+9	-5.204773E-1	-5.613708E-1	4.698334E-1	2.711334E-1	2.784576E-1	-3.552246E-2	-6.103516E-3	-6.900635E-1
6.386000E+9	-5.371704E-1	-5.448303E-1	4.732971E-1	2.425385E-1	2.771912E-1	-4.379272E-2	-3.079224E-2	-6.927490E-1
6.610500E+9	-5.488281E-1	-5.332336E-1	4.753571E-1	2.148437E-1	2.765350E-1	-5.136108E-2	-5.627441E-2	-6.953735E-1
6.835000E+9	-5.622253E-1	-5.213013E-1	4.754791E-1	1.919098E-1	2.745056E-1	-5.886841E-2	-8.108521E-2	-6.940308E-1
7.059500E+9	-5.740356E-1	-5.074158E-1	4.741974E-1	1.657104E-1	2.736816E-1	-6.579590E-2	-1.018372E-1	-6.947327E-1
7.284000E+9	-5.848083E-1	-4.964905E-1	4.723816E-1	1.427612E-1	2.714539E-1	-7.260132E-2	-1.275024E-1	-6.945801E-1
7.508500E+9	-5.955505E-1	-4.845886E-1	4.703827E-1	1.198578E-1	2.692261E-1	-7.978821E-2	-1.508179E-1	-6.918945E-1
7.733000E+9	-6.043091E-1	-4.730835E-1	4.659729E-1	9.802246E-2	2.666931E-1	-8.596802E-2	-1.717834E-1	-6.908569E-1
7.957500E+9	-6.147766E-1	-4.615479E-1	4.618378E-1	7.733154E-2	2.646637E-1	-9.249878E-2	-1.961670E-1	-6.885986E-1
8.182000E+9	-6.243896E-1	-4.488220E-1	4.581604E-1	5.879211E-2	2.621918E-1	-9.901428E-2	-2.189636E-1	-6.857605E-1
8.406500E+9	-6.319580E-1	-4.411011E-1	4.524536E-1	4.084778E-2	2.592163E-1	-1.047058E-1	-2.409973E-1	-6.810608E-1
8.631000E+9	-6.411743E-1	-4.299622E-1	4.483795E-1	2.395630E-2	2.548676E-1	-1.104126E-1	-2.619019E-1	-6.775513E-1
8.855500E+9	-6.479492E-1	-4.212646E-1	4.417877E-1	6.500244E-3	2.521210E-1	-1.157074E-1	-2.826233E-1	-6.711426E-1
9.080001E+9	-6.557007E-1	-4.126892E-1	4.354553E-1	-9.689331E-3	2.495880E-1	-1.203766E-1	-3.020020E-1	-6.647034E-1
9.304500E+9	-6.636047E-1	-3.998718E-1	4.280853E-1	-2.375793E-2	2.451019E-1	-1.255951E-1	-3.225403E-1	-6.580811E-1
9.529000E+9	-6.701660E-1	-3.923950E-1	4.214172E-1	-3.778076E-2	2.431259E-1	-1.310577E-1	-3.426514E-1	-6.524353E-1
9.753500E+9	-6.764526E-1	-3.833313E-1	4.142761E-1	-4.946899E-2	2.390594E-1	-1.358719E-1	-3.603516E-1	-6.447144E-1
9.978000E+9	-6.825562E-1	-3.761292E-1	4.062958E-1	-6.236267E-2	2.356796E-1	-1.401062E-1	-3.782043E-1	-6.394348E-1
1.020250E+10	-6.885376E-1	-3.683167E-1	3.992615E-1	-7.574463E-2	2.313232E-1	-1.444473E-1	-3.973083E-1	-6.296082E-1
1.042700E+10	-6.955566E-1	-3.587036E-1	3.915405E-1	-8.744812E-2	2.275620E-1	-1.486511E-1	-4.138489E-1	-6.211548E-1
1.065150E+10	-7.012329E-1	-3.496094E-1	3.828888E-1	-9.689331E-2	2.237930E-1	-1.525879E-1	-4.295959E-1	-6.141357E-1
1.087600E+10	-7.067566E-1	-3.418579E-1	3.761444E-1	-1.062469E-1	2.200851E-1	-1.562195E-1	-4.480286E-1	-6.061707E-1
1.110050E+10	-7.117615E-1	-3.335571E-1	3.690033E-1	-1.161194E-1	2.155838E-1	-1.605377E-1	-4.640808E-1	-5.960388E-1
1.132500E+10	-7.161560E-1	-3.265381E-1	3.603363E-1	-1.251526E-1	2.114639E-1	-1.626129E-1	-4.787903E-1	-5.888062E-1
1.154950E+10	-7.220764E-1	-3.179321E-1	3.521576E-1	-1.340942E-1	2.074890E-1	-1.666260E-1	-4.967651E-1	-5.776978E-1
1.177400E+10	-7.265625E-1	-3.097534E-1	3.441925E-1	-1.418152E-1	2.039642E-1	-1.694794E-1	-5.093079E-1	-5.666504E-1
1.199850E+10	-7.319336E-1	-3.023071E-1	3.370667E-1	-1.493988E-1	1.991196E-1	-1.730118E-1	-5.242004E-1	-5.583801E-1
1.222300E+10	-7.354126E-1	-2.955627E-1	3.301392E-1	-1.553040E-1	1.960144E-1	-1.767044E-1	-5.398865E-1	-5.492554E-1
1.244750E+10	-7.400208E-1	-2.891235E-1	3.213654E-1	-1.633148E-1	1.913071E-1	-1.789093E-1	-5.531311E-1	-5.363464E-1
1.267200E+10	-7.440491E-1	-2.826843E-1	3.143616E-1	-1.695099E-1	1.873398E-1	-1.816254E-1	-5.640869E-1	-5.276794E-1
1.289650E+10	-7.476501E-1	-2.749634E-1	3.051147E-1	-1.746368E-1	1.836166E-1	-1.831741E-1	-5.788269E-1	-5.160828E-1
1.312100E+10	-7.526245E-1	-2.674255E-1	2.982941E-1	-1.811676E-1	1.787872E-1	-1.851807E-1	-5.911865E-1	-5.021057E-1
1.334550E+10	-7.564697E-1	-2.605286E-1	2.904053E-1	-1.861115E-1	1.758041E-1	-1.885223E-1	-6.011047E-1	-4.957275E-1
1.357000E+10	-7.608337E-1	-2.531128E-1	2.832947E-1	-1.921082E-1	1.699677E-1	-1.886139E-1	-6.139526E-1	-4.844666E-1
1.379450E+10	-7.638245E-1	-2.467651E-1	2.751465E-1	-1.955719E-1	1.669998E-1	-1.918030E-1	-6.264038E-1	-4.701233E-1
1.401900E+10	-7.668762E-1	-2.419739E-1	2.695923E-1	-1.992950E-1	1.638718E-1	-1.935043E-1	-6.329346E-1	-4.612427E-1
1.424350E+10	-7.708740E-1	-2.353821E-1	2.611847E-1	-2.041016E-1	1.600266E-1	-1.957092E-1	-6.461182E-1	-4.489441E-1
1.446800E+10	-7.737427E-1	-2.285156E-1	2.533875E-1	-2.081604E-1	1.553268E-1	-1.981735E-1	-6.559143E-1	-4.330444E-1
1.469250E+10	-7.768860E-1	-2.214661E-1	2.469330E-1	-2.113876E-1	1.508484E-1	-1.987000E-1	-6.631470E-1	-4.240417E-1
1.491700E+10	-7.803650E-1	-2.145691E-1	2.396927E-1	-2.143707E-1	1.470261E-1	-2.017288E-1	-6.747437E-1	-4.145203E-1
1.514150E+10	-7.831726E-1	-2.078247E-1	2.314987E-1	-2.171173E-1	1.427155E-1	-2.009888E-1	-6.840210E-1	-3.987122E-1
1.536600E+10	-7.850342E-1	-2.019653E-1	2.256393E-1	-2.206955E-1	1.387482E-1	-2.032166E-1	-6.903076E-1	-3.873596E-1
1.559050E+10	-7.884216E-1	-1.963806E-1	2.200089E-1	-2.218704E-1	1.347504E-1	-2.043610E-1	-6.982727E-1	-3.772278E-1
1.581500E+10	-7.903442E-1	-1.901550E-1	2.109756E-1	-2.245712E-1	1.316452E-1	-2.055206E-1	-7.090149E-1	-3.632202E-1
1.603950E+10	-7.944641E-1	-1.836243E-1	2.055206E-1	-2.284775E-1	1.281967E-1	-2.061386E-1	-7.139893E-1	-3.507996E-1
1.626400E+10	-7.965393E-1	-1.763916E-1	1.990356E-1	-2.289810E-1	1.235886E-1	-2.078705E-1	-7.233887E-1	-3.400879E-1
1.648850E+10	-7.986450E-1	-1.705627E-1	1.930084E-1	-2.304764E-1	1.193695E-1	-2.071228E-1	-7.305908E-1	-3.262329E-1
1.671300E+10	-8.017883E-1	-1.640015E-1	1.871185E-1	-2.316208E-1	1.156387E-1	-2.095642E-1	-7.356262E-1	-3.143005E-1
1.693750E+10	-8.038025E-1	-1.602783E-1	1.809235E-1	-2.337799E-1	1.124573E-1	-2.097549E-1	-7.422485E-1	-3.026428E-1
1.716200E+10	-8.054810E-1	-1.531677E-1	1.740494E-1	-2.355728E-1	1.091156E-1	-2.105942E-1	-7.491760E-1	-2.884216E-1
1.738650E+10	-8.088074E-1	-1.463623E-1	1.680298E-1	-2.360458E-1	1.051712E-1	-2.102432E-1	-7.517395E-1	-2.749329E-1
1.761100E+10	-8.106384E-1	-1.411438E-1	1.633072E-1	-2.366409E-1	1.013947E-1	-2.095871E-1	-7.597351E-1	-2.664490E-1
1.783550E+10	-8.129883E-1	-1.340637E-1	1.572113E-1	-2.376556E-1	9.835815E-2	-2.108688E-1	-7.649536E-1	-2.509766E-1
1.806000E+10	-8.161316E-1	-1.287537E-1	1.521606E-1	-2.384109E-1	9.503174E-2	-2.124634E-1	-7.689209E-1	-2.388916E-1
1.828450E+10	-8.175354E-1	-1.228638E-1	1.478424E-1	-2.388306E-1	9.037018E-2	-2.134018E-1	-7.732239E-1	-2.292175E-1
1.850900E+10	-8.189697E-1	-1.179810E-1	1.416702E-1	-2.408066E-1	8.856964E-2	-2.126007E-1	-7.790222E-1	-2.139282E-1
1.873350E+10	-8.189392E-1	-1.107178E-1	1.371002E-1	-2.409897E-1	8.391571E-2	-2.125626E-1	-7.816772E-1	-2.003174E-1
1.895800E+10	-8.207092E-1	-1.051025E-1	1.311493E-1	-2.403183E-1	8.145142E-2	-2.103043E-1	-7.840881E-1	-1.925659E-1
1.918250E+10	-8.227234E-1	-1.009827E-1	1.259079E-1	-2.401962E-1	7.746887E-2	-2.137527E-1	-7.911987E-1	-1.773071E-1
1.940700E+10	-8.249512E-1	-9.548950E-2	1.203842E-1	-2.419815E-1	7.156372E-2	-2.135773E-1	-7.913513E-1	-1.608887E-1
1.963150E+10	-8.269043E-1	-8.920288E-2	1.159515E-1	-2.407379E-1	7.057953E-2	-2.135925E-1	-7.923279E-1	-1.531982E-1
1.985600E+10	-8.291626E-1	-8.251953E-2	1.115112E-1	-2.407837E-1	6.612396E-2	-2.124710E-1	-7.983398E-1	-1.406860E-1
2.008050E+10	-8.298035E-1	-7.809448E-2	1.057205E-1	-2.405777E-1	6.273651E-2	-2.141724E-1	-7.983093E-1	-1.250610E-1
2.030500E+10	-8.316345E-1	-7.406616E-2	1.017761E-1	-2.399063E-1	6.069183E-2	-2.135086E-1	-7.996521E-1	-1.173706E-1
2.052950E+10	-8.331299E-1	-6.768799E-2	9.644318E-2	-2.398376E-1	5.810547E-2	-2.119141E-1	-8.030396E-1	-1.036682E-1
2.075400E+10	-8.335876E-1	-6.079102E-2	9.236908E-2	-2.412720E-1	5.399323E-2	-2.134628E-1	-8.043823E-1	-9.051514E-2
2.097850E+10	-8.344116E-1	-5.563354E-2	8.917236E-2	-2.407303E-1	4.994965E-2	-2.113724E-1	-8.046570E-1	-8.041382E-2
2.120300E+10	-8.363342E-1	-5.209351E-2	8.513641E-2	-2.395782E-1	4.766083E-2	-2.116699E-1	-8.068848E-1	-7.324219E-2
2.142750E+10	-8.374939E-1	-4.461670E-2	7.855225E-2	-2.395248E-1	4.467773E-2	-2.110519E-1	-8.099670E-1	-5.636597E-2
2.165200E+10	-8.391724E-1	-3.726196E-2	7.534027E-2	-2.400970E-1	4.124451E-2	-2.101059E-1	-8.076782E-1	-4.330444E-2
2.187650E+10	-8.385925E-1	-3.320312E-2	7.233429E-2	-2.397766E-1	3.851318E-2	-2.117996E-1	-8.120728E-1	-3.457642E-2
2.210100E+10	-8.404846E-1	-2.539062E-2	6.908417E-2	-2.381058E-1	3.419495E-2	-2.106934E-1	-8.139954E-1	-1.708984E-2
2.232550E+10	-8.412476E-1	-2.200317E-2	6.161499E-2	-2.389984E-1	3.334808E-2	-2.103806E-1	-8.086853E-1	-5.065918E-3
2.255000E+10	-8.437195E-1	-1.657104E-2	5.841827E-2	-2.366028E-1	3.025055E-2	-2.098389E-1	-8.137207E-1	2.777100E-3
2.277450E+10	-8.404541E-1	-1.062012E-2	5.383301E-2	-2.381668E-1	2.621460E-2	-2.090454E-1	-8.111572E-1	1.898193E-2
2.299900E+10	-8.447876E-1	-5.249023E-3	5.030060E-2	-2.360458E-1	2.313995E-2	-2.095108E-1	-8.087769E-1	3.054810E-2
2.322350E+10	-8.446960E-1	-9.765625E-4	4.759216E-2	-2.359314E-1	2.268982E-2	-2.080612E-1	-8.108826E-1	4.055786E-2
2.344800E+10	-8.440247E-1	3.875732E-3	4.394531E-2	-2.356949E-1	1.747894E-2	-2.083359E-1	-8.135681E-1	5.307007E-2
2.367250E+10	-8.461304E-1	1.000977E-2	3.906250E-2	-2.351379E-1	1.551819E-2	-2.081604E-1	-8.058167E-1	6.808472E-2
2.389700E+10	-8.457336E-1	1.708984E-2	3.376007E-2	-2.332153E-1	1.320648E-2	-2.059860E-1	-8.067017E-1	7.888794E-2
2.412150E+10	-8.473511E-1	2.041626E-2	2.926636E-2	-2.323303E-1	8.964539E-3	-2.075348E-1	-8.038940E-1	9.310913E-2
2.434600E+10	-8.462219E-1	2.661133E-2	2.549744E-2	-2.320251E-1	6.286621E-3	-2.063217E-1	-8.015137E-1	1.024475E-1
2.457050E+10	-8.459778E-1	3.186035E-2	2.287292E-2	-2.310410E-1	3.051758E-3	-2.067337E-1	-7.998657E-1	1.112976E-1
2.479500E+10	-8.483276E-1	3.726196E-2	1.906586E-2	-2.307892E-1	1.136780E-3	-2.059555E-1	-7.958984E-1	1.266174E-1
2.501950E+10	-8.462830E-1	4.339600E-2	1.530457E-2	-2.282028E-1	-2.548218E-3	-2.042007E-1	-7.921448E-1	1.357422E-1
2.524400E+10	-8.489685E-1	4.705811E-2	1.013947E-2	-2.282410E-1	-6.225586E-3	-2.017670E-1	-7.897034E-1	1.477051E-1
2.546850E+10	-8.481750E-1	5.523682E-2	7.118225E-3	-2.257843E-1	-8.453369E-3	-1.986313E-1	-7.864380E-1	1.564636E-1
2.569300E+10	-8.460083E-1	5.728149E-2	4.791260E-3	-2.235641E-1	-9.536743E-3	-1.997375E-1	-7.798157E-1	1.660156E-1
2.591750E+10	-8.500977E-1	6.451416E-2	3.074646E-3	-2.234344E-1	-1.396942E-2	-1.993179E-1	-7.802734E-1	1.760864E-1
2.614200E+10	-8.472595E-1	6.854248E-2	2.975464E-4	-2.204971E-1	-1.350403E-2	-1.983032E-1	-7.793579E-1	1.896667E-1
2.636650E+10	-8.471985E-1	7.345581E-2	-3.463745E-3	-2.202988E-1	-1.917267E-2	-1.972046E-1	-7.760925E-1	2.017517E-1
2.659100E+10	-8.476562E-1	8.038330E-2	-7.575989E-3	-2.199402E-1	-2.024078E-2	-1.961746E-1	-7.678833E-1	2.111206E-1
2.681550E+10	-8.475952E-1	8.145142E-2	-7.759094E-3	-2.188721E-1	-2.323914E-2	-1.974869E-1	-7.671204E-1	2.198486E-1
2.704000E+10	-8.464355E-1	8.718872E-2	-1.215363E-2	-2.161484E-1	-2.469635E-2	-1.944733E-1	-7.637329E-1	2.367249E-1
2.726450E+10	-8.445740E-1	9.469604E-2	-1.648712E-2	-2.160263E-1	-2.621460E-2	-1.932144E-1	-7.533875E-1	2.445679E-1
2.748900E+10	-8.444214E-1	9.829712E-2	-1.843262E-2	-2.157745E-1	-2.767181E-2	-1.925125E-1	-7.504578E-1	2.510376E-1
2.771350E+10	-8.426819E-1	1.007690E-1	-2.188110E-2	-2.162933E-1	-3.453827E-2	-1.938400E-1	-7.443237E-1	2.663574E-1
2.793800E+10	-8.479004E-1	1.079712E-1	-2.446747E-2	-2.120819E-1	-3.446960E-2	-1.888809E-1	-7.395020E-1	2.692566E-1
2.816250E+10	-8.415833E-1	1.153564E-1	-2.815247E-2	-2.100601E-1	-3.884125E-2	-1.915894E-1	-7.347717E-1	2.853394E-1
2.838700E+10	-8.429565E-1	1.167603E-1	-3.089905E-2	-2.087402E-1	-4.087830E-2	-1.875763E-1	-7.291870E-1	2.913208E-1
2.861150E+10	-8.428650E-1	1.231079E-1	-3.467560E-2	-2.083893E-1	-4.344177E-2	-1.851044E-1	-7.209778E-1	3.019409E-1
2.883600E+10	-8.421936E-1	1.292419E-1	-3.724670E-2	-2.083740E-1	-4.630280E-2	-1.829910E-1	-7.149353E-1	3.088684E-1
2.906050E+10	-8.444824E-1	1.332092E-1	-3.950500E-2	-2.043457E-1	-4.800415E-2	-1.840515E-1	-7.091370E-1	3.204651E-1
2.928500E+10	-8.413391E-1	1.391907E-1	-4.163361E-2	-2.028046E-1	-5.301666E-2	-1.818619E-1	-7.039795E-1	3.257446E-1
2.950950E+10	-8.411255E-1	1.458435E-1	-4.357910E-2	-2.010422E-1	-5.423737E-2	-1.818466E-1	-7.018127E-1	3.370667E-1
2.973400E+10	-8.411255E-1	1.503906E-1	-4.768372E-2	-1.978912E-1	-5.358887E-2	-1.810760E-1	-6.944275E-1	3.455200E-1
2.995850E+10	-8.379822E-1	1.545105E-1	-4.895782E-2	-1.979523E-1	-5.764771E-2	-1.806107E-1	-6.929626E-1	3.558350E-1
3.018300E+10	-8.365479E-1	1.593018E-1	-5.204010E-2	-1.960526E-1	-6.127167E-2	-1.777496E-1	-6.834717E-1	3.664246E-1
3.040750E+10	-8.374939E-1	1.645813E-1	-5.615997E-2	-1.951447E-1	-6.076050E-2	-1.753235E-1	-6.737976E-1	3.785400E-1
3.063200E+10	-8.338013E-1	1.674194E-1	-5.867767E-2	-1.923904E-1	-6.432343E-2	-1.773529E-1	-6.704407E-1	3.878784E-1
3.085650E+10	-8.346252E-1	1.750793E-1	-6.029510E-2	-1.920090E-1	-6.912994E-2	-1.745987E-1	-6.606140E-1	3.968506E-1
3.108100E+10	-8.342896E-1	1.775818E-1	-6.638336E-2	-1.916351E-1	-6.408691E-2	-1.709518E-1	-6.530762E-1	4.029236E-1
3.130550E+10	-8.311768E-1	1.831360E-1	-6.532288E-2	-1.887283E-1	-7.213593E-2	-1.690979E-1	-6.410828E-1	4.118652E-1
3.153000E+10	-8.310242E-1	1.876221E-1	-7.009888E-2	-1.874847E-1	-7.153320E-2	-1.703033E-1	-6.320190E-1	4.181519E-1
3.175450E+10	-8.294067E-1	1.884460E-1	-7.061768E-2	-1.794739E-1	-7.766724E-2	-1.672821E-1	-6.268005E-1	4.280701E-1
3.197900E+10	-8.312683E-1	1.974792E-1	-7.445526E-2	-1.835632E-1	-7.820892E-2	-1.651611E-1	-6.193542E-1	4.387817E-1
3.220350E+10	-8.301086E-1	2.043762E-1	-7.757568E-2	-1.834335E-1	-8.235931E-2	-1.657104E-1	-6.054687E-1	4.449158E-1
3.242800E+10	-8.297729E-1	2.077332E-1	-7.942200E-2	-1.774063E-1	-8.224487E-2	-1.661682E-1	-5.956421E-1	4.563599E-1
3.265250E+10	-8.248901E-1	2.167969E-1	-8.039093E-2	-1.749268E-1	-8.615112E-2	-1.631393E-1	-5.882568E-1	4.572144E-1
3.287700E+10	-8.247070E-1	2.217102E-1	-8.333588E-2	-1.741180E-1	-8.484650E-2	-1.620789E-1	-5.799866E-1	4.655151E-1
3.310150E+10	-8.204956E-1	2.228699E-1	-8.637238E-2	-1.732178E-1	-9.252930E-2	-1.612091E-1	-5.667114E-1	4.711914E-1
3.332600E+10	-8.216553E-1	2.252502E-1	-8.933258E-2	-1.689148E-1	-8.714294E-2	-1.569977E-1	-5.618896E-1	4.761963E-1
3.355050E+10	-8.151245E-1	2.310486E-1	-8.576202E-2	-1.662598E-1	-9.760284E-2	-1.523895E-1	-5.525818E-1	4.846497E-1
3.377500E+10	-8.167419E-1	2.391052E-1	-9.214020E-2	-1.628494E-1	-9.307861E-2	-1.483459E-1	-5.414429E-1	4.856567E-1
3.399950E+10	-8.129883E-1	2.416077E-1	-9.363556E-2	-1.630630E-1	-9.539795E-2	-1.545792E-1	-5.419006E-1	4.912415E-1
3.422400E+10	-8.116455E-1	2.433777E-1	-9.576416E-2	-1.653442E-1	-9.850311E-2	-1.531906E-1	-5.282288E-1	5.072937E-1
3.444850E+10	-8.078003E-1	2.507324E-1	-9.822845E-2	-1.590652E-1	-1.014328E-1	-1.485062E-1	-5.173645E-1	5.148315E-1
3.467300E+10	-8.066711E-1	2.514343E-1	-9.992981E-2	-1.600800E-1	-1.034317E-1	-1.453094E-1	-5.089111E-1	5.163574E-1
3.489750E+10	-8.073120E-1	2.587280E-1	-1.024094E-1	-1.578979E-1	-1.020355E-1	-1.438065E-1	-4.967346E-1	5.253296E-1
3.512200E+10	-8.069458E-1	2.591858E-1	-1.060257E-1	-1.555405E-1	-1.067581E-1	-1.449738E-1	-4.790344E-1	5.265808E-1
3.534650E+10	-8.045044E-1	2.644348E-1	-1.045990E-1	-1.567993E-1	-1.117783E-1	-1.429825E-1	-4.764709E-1	5.356445E-1
3.557100E+10	-7.963562E-1	2.722778E-1	-1.086426E-1	-1.526108E-1	-1.148453E-1	-1.440277E-1	-4.566040E-1	5.419312E-1
3.579550E+10	-7.956238E-1	2.782898E-1	-1.134644E-1	-1.510468E-1	-1.161346E-1	-1.356506E-1	-4.490356E-1	5.433960E-1
3.602000E+10	-7.930603E-1	2.803955E-1	-1.136322E-1	-1.462021E-1	-1.163101E-1	-1.375656E-1	-4.393311E-1	5.478516E-1
3.624450E+10	-7.910156E-1	2.809143E-1	-1.194382E-1	-1.437607E-1	-1.226349E-1	-1.293564E-1	-4.242249E-1	5.495300E-1
3.646900E+10	-7.894897E-1	2.888489E-1	-1.175690E-1	-1.391449E-1	-1.235657E-1	-1.301270E-1	-4.130554E-1	5.591125E-1
3.669350E+10	-7.904358E-1	2.940674E-1	-1.218872E-1	-1.400146E-1	-1.249924E-1	-1.268082E-1	-3.992615E-1	5.623474E-1
3.691800E+10	-7.847900E-1	2.947388E-1	-1.232834E-1	-1.375504E-1	-1.259079E-1	-1.280289E-1	-3.839417E-1	5.608215E-1
3.714250E+10	-7.830505E-1	2.973633E-1	-1.251907E-1	-1.354218E-1	-1.261749E-1	-1.241379E-1	-3.718872E-1	5.591736E-1
3.736700E+10	-7.777710E-1	3.056335E-1	-1.275253E-1	-1.289215E-1	-1.328735E-1	-1.236572E-1	-3.632507E-1	5.634460E-1
3.759150E+10	-7.735596E-1	3.068237E-1	-1.319885E-1	-1.300278E-1	-1.250381E-1	-1.196899E-1	-3.475952E-1	5.715332E-1
3.781600E+10	-7.732544E-1	3.197937E-1	-1.344070E-1	-1.239777E-1	-1.294785E-1	-1.194458E-1	-3.417664E-1	5.708923E-1
3.804050E+10	-7.759094E-1	3.169250E-1	-1.353073E-1	-1.278763E-1	-1.391220E-1	-1.124649E-1	-3.258667E-1	5.697937E-1
3.826500E+10	-7.713623E-1	3.210449E-1	-1.395111E-1	-1.245956E-1	-1.328735E-1	-1.085587E-1	-3.055725E-1	5.797424E-1
3.848950E+10	-7.619629E-1	3.215637E-1	-1.438141E-1	-1.174774E-1	-1.413574E-1	-1.040344E-1	-2.919312E-1	5.729370E-1
3.871400E+10	-7.656250E-1	3.268433E-1	-1.431656E-1	-1.225128E-1	-1.434174E-1	-1.072006E-1	-2.797852E-1	5.720520E-1
3.893850E+10	-7.629395E-1	3.297119E-1	-1.363144E-1	-1.107483E-1	-1.412354E-1	-1.032639E-1	-2.673645E-1	5.704346E-1
