!Date: 10/28/2005, 12:34 PM

!Vgs = -1.000000E+0
!Vds = 1.000000E+0
!Ig = -8.957700E-6
!Id = 3.582000E-1

# HZ S RI R 50
1.000000E+8	9.755249E-1	-1.589355E-1	-1.081734E-1	7.846832E-3	-6.742477E-4	4.838705E-3	-8.998718E-1	-9.472656E-2
3.245000E+8	8.635559E-1	-4.644165E-1	-9.506226E-2	3.225327E-2	2.521038E-3	8.605003E-3	-9.425049E-1	-2.481079E-2
5.490000E+8	6.782227E-1	-6.995239E-1	-8.054733E-2	5.088806E-2	5.648613E-3	1.258898E-2	-9.085083E-1	2.026367E-2
7.735000E+8	4.607849E-1	-8.525085E-1	-6.409073E-2	6.205750E-2	1.033020E-2	1.500559E-2	-9.132385E-1	2.514648E-2
9.980000E+8	2.484436E-1	-9.322815E-1	-4.869461E-2	6.772232E-2	1.425362E-2	1.648521E-2	-9.122314E-1	3.793335E-2
1.222500E+9	5.624390E-2	-9.603271E-1	-3.459930E-2	6.915665E-2	1.782417E-2	1.611233E-2	-9.036865E-1	4.101562E-2
1.447000E+9	-1.076050E-1	-9.534302E-1	-2.257156E-2	6.830215E-2	2.111530E-2	1.548576E-2	-9.040527E-1	4.949951E-2
1.671500E+9	-2.431335E-1	-9.262695E-1	-1.308060E-2	6.575394E-2	2.344131E-2	1.471138E-2	-9.024353E-1	5.538940E-2
1.896000E+9	-3.555298E-1	-8.882751E-1	-4.413605E-3	6.268692E-2	2.570057E-2	1.357937E-2	-9.009094E-1	6.314087E-2
2.120500E+9	-4.468079E-1	-8.460999E-1	1.819611E-3	5.982971E-2	2.688313E-2	1.235962E-2	-9.012756E-1	7.025146E-2
2.345000E+9	-5.238037E-1	-7.992554E-1	6.830215E-3	5.616379E-2	2.851677E-2	1.082325E-2	-9.001770E-1	7.742310E-2
2.569500E+9	-5.837402E-1	-7.530518E-1	1.183128E-2	5.207634E-2	2.992725E-2	9.784698E-3	-8.972778E-1	8.428955E-2
2.794000E+9	-6.345520E-1	-7.120361E-1	1.517677E-2	4.895973E-2	3.062344E-2	8.551598E-3	-8.970642E-1	9.155273E-2
3.018500E+9	-6.766357E-1	-6.700745E-1	1.782036E-2	4.601860E-2	3.114700E-2	7.162094E-3	-8.946228E-1	9.805298E-2
3.243000E+9	-7.126160E-1	-6.318970E-1	2.043533E-2	4.236794E-2	3.149223E-2	5.998611E-3	-8.930359E-1	1.041870E-1
3.467500E+9	-7.437744E-1	-5.958252E-1	2.285957E-2	3.997231E-2	3.180695E-2	5.054474E-3	-8.915710E-1	1.124573E-1
3.692000E+9	-7.684631E-1	-5.620728E-1	2.425003E-2	3.760719E-2	3.208160E-2	4.066467E-3	-8.887939E-1	1.186218E-1
3.916500E+9	-7.908936E-1	-5.305481E-1	2.517509E-2	3.469467E-2	3.263283E-2	2.624512E-3	-8.883362E-1	1.244507E-1
4.141000E+9	-8.102112E-1	-5.004883E-1	2.659416E-2	3.255844E-2	3.281403E-2	2.191544E-3	-8.854980E-1	1.322937E-1
4.365500E+9	-8.248901E-1	-4.724731E-1	2.770233E-2	3.020954E-2	3.283501E-2	1.270294E-3	-8.836060E-1	1.372070E-1
4.590000E+9	-8.387146E-1	-4.469604E-1	2.819729E-2	2.823162E-2	3.260994E-2	4.825592E-4	-8.814697E-1	1.451721E-1
4.814500E+9	-8.511047E-1	-4.236755E-1	2.918243E-2	2.648640E-2	3.309250E-2	-6.656647E-4	-8.795471E-1	1.520691E-1
5.039000E+9	-8.626404E-1	-4.001465E-1	2.959538E-2	2.450752E-2	3.280830E-2	-1.293182E-3	-8.772278E-1	1.579285E-1
5.263500E+9	-8.725586E-1	-3.776245E-1	2.993870E-2	2.220154E-2	3.276443E-2	-2.170563E-3	-8.751526E-1	1.646729E-1
5.488000E+9	-8.790894E-1	-3.578491E-1	3.053093E-2	2.113914E-2	3.307152E-2	-2.540588E-3	-8.726196E-1	1.716003E-1
5.712500E+9	-8.870850E-1	-3.389282E-1	3.094864E-2	1.921749E-2	3.241158E-2	-3.438950E-3	-8.703613E-1	1.781616E-1
5.937000E+9	-8.936768E-1	-3.201294E-1	3.116989E-2	1.817513E-2	3.247261E-2	-4.318237E-3	-8.675232E-1	1.838989E-1
6.161500E+9	-8.996887E-1	-3.041077E-1	3.061771E-2	1.627064E-2	3.239632E-2	-4.894257E-3	-8.659363E-1	1.928711E-1
6.386000E+9	-9.044495E-1	-2.861938E-1	3.132057E-2	1.526070E-2	3.190231E-2	-5.569458E-3	-8.614502E-1	1.984558E-1
6.610500E+9	-9.088440E-1	-2.712708E-1	3.144836E-2	1.391411E-2	3.207588E-2	-6.025314E-3	-8.596497E-1	2.029114E-1
6.835000E+9	-9.139099E-1	-2.568665E-1	3.127670E-2	1.271248E-2	3.147507E-2	-6.547928E-3	-8.558044E-1	2.123413E-1
7.059500E+9	-9.165039E-1	-2.432251E-1	3.096104E-2	1.154613E-2	3.139687E-2	-7.642746E-3	-8.503113E-1	2.149048E-1
7.284000E+9	-9.202576E-1	-2.285767E-1	3.088188E-2	1.092148E-2	3.097153E-2	-8.625984E-3	-8.505249E-1	2.193604E-1
7.508500E+9	-9.238892E-1	-2.155151E-1	3.087616E-2	1.011372E-2	3.066635E-2	-8.387566E-3	-8.443298E-1	2.261047E-1
7.733000E+9	-9.252625E-1	-2.033081E-1	3.033447E-2	8.543015E-3	3.014565E-2	-8.243561E-3	-8.422546E-1	2.295532E-1
7.957500E+9	-9.279480E-1	-1.907043E-1	2.975464E-2	8.030891E-3	2.967358E-2	-9.330750E-3	-8.406067E-1	2.377625E-1
8.182000E+9	-9.303284E-1	-1.782532E-1	3.005791E-2	6.435394E-3	2.950287E-2	-9.921074E-3	-8.389893E-1	2.423401E-1
8.406500E+9	-9.319153E-1	-1.677856E-1	2.993393E-2	5.366325E-3	2.915668E-2	-1.014423E-2	-8.342590E-1	2.500000E-1
8.631000E+9	-9.342957E-1	-1.563721E-1	2.962208E-2	4.994392E-3	2.877140E-2	-1.060009E-2	-8.308716E-1	2.543030E-1
8.855500E+9	-9.349670E-1	-1.460266E-1	2.874947E-2	4.216194E-3	2.806664E-2	-1.087761E-2	-8.273010E-1	2.603760E-1
9.080001E+9	-9.365845E-1	-1.369934E-1	2.871132E-2	3.710747E-3	2.750206E-2	-1.147175E-2	-8.224792E-1	2.670288E-1
9.304500E+9	-9.376831E-1	-1.243286E-1	2.859592E-2	2.572060E-3	2.719307E-2	-1.202488E-2	-8.194885E-1	2.707520E-1
9.529000E+9	-9.384155E-1	-1.166992E-1	2.807045E-2	2.100945E-3	2.649879E-2	-1.135254E-2	-8.172302E-1	2.765808E-1
9.753500E+9	-9.398499E-1	-1.074829E-1	2.698421E-2	1.528740E-3	2.634335E-2	-1.275349E-2	-8.117065E-1	2.827454E-1
9.978000E+9	-9.406433E-1	-9.802246E-2	2.790642E-2	4.186630E-4	2.486324E-2	-1.281261E-2	-8.087158E-1	2.863159E-1
1.020250E+10	-9.415894E-1	-8.959961E-2	2.713966E-2	1.430511E-4	2.559185E-2	-1.252747E-2	-8.049927E-1	2.920532E-1
1.042700E+10	-9.428406E-1	-8.047485E-2	2.637577E-2	2.861023E-4	2.527046E-2	-1.255798E-2	-7.996521E-1	2.971191E-1
1.065150E+10	-9.416809E-1	-7.211304E-2	2.572346E-2	-7.963181E-4	2.455997E-2	-1.300526E-2	-7.973938E-1	3.004150E-1
1.087600E+10	-9.431763E-1	-6.329346E-2	2.599716E-2	-2.689362E-4	2.442169E-2	-1.373386E-2	-7.945251E-1	3.064880E-1
1.110050E+10	-9.434814E-1	-5.435181E-2	2.552032E-2	-9.689331E-4	2.289200E-2	-1.313019E-2	-7.885132E-1	3.117981E-1
1.132500E+10	-9.431152E-1	-4.699707E-2	2.476025E-2	-1.375198E-3	2.313042E-2	-1.320267E-2	-7.848206E-1	3.144531E-1
1.154950E+10	-9.428711E-1	-3.784180E-2	2.498913E-2	-1.246452E-3	2.285290E-2	-1.324081E-2	-7.824097E-1	3.208313E-1
1.177400E+10	-9.430237E-1	-3.115845E-2	2.413464E-2	-2.117157E-3	2.202702E-2	-1.300049E-2	-7.771606E-1	3.266907E-1
1.199850E+10	-9.437256E-1	-2.355957E-2	2.385139E-2	-1.571655E-3	2.163792E-2	-1.363659E-2	-7.736816E-1	3.293152E-1
1.222300E+10	-9.422913E-1	-1.574707E-2	2.409649E-2	-1.783371E-3	2.189541E-2	-1.375484E-2	-7.705994E-1	3.335571E-1
1.244750E+10	-9.434204E-1	-9.582520E-3	2.308273E-2	-2.544403E-3	2.110767E-2	-1.356792E-2	-7.657776E-1	3.394165E-1
1.267200E+10	-9.432983E-1	-2.227783E-3	2.274418E-2	-2.702713E-3	2.060986E-2	-1.425171E-2	-7.610168E-1	3.419800E-1
1.289650E+10	-9.414673E-1	4.486084E-3	2.251053E-2	-3.120422E-3	2.078724E-2	-1.373482E-2	-7.603760E-1	3.441772E-1
1.312100E+10	-9.419861E-1	1.119995E-2	2.231407E-2	-3.355026E-3	1.996994E-2	-1.429939E-2	-7.550659E-1	3.510742E-1
1.334550E+10	-9.411316E-1	1.751709E-2	2.205372E-2	-3.314018E-3	1.981544E-2	-1.418114E-2	-7.497864E-1	3.531189E-1
1.357000E+10	-9.395447E-1	2.401733E-2	2.197170E-2	-2.554893E-3	1.915073E-2	-1.348019E-2	-7.475281E-1	3.544006E-1
1.379450E+10	-9.406433E-1	3.054810E-2	2.113342E-2	-3.558159E-3	1.837063E-2	-1.355171E-2	-7.442627E-1	3.617554E-1
1.401900E+10	-9.402466E-1	3.634644E-2	2.088833E-2	-3.267288E-3	1.885033E-2	-1.462460E-2	-7.374573E-1	3.649597E-1
1.424350E+10	-9.392700E-1	4.418945E-2	2.073956E-2	-4.628181E-3	1.765728E-2	-1.303864E-2	-7.367554E-1	3.679504E-1
1.446800E+10	-9.389343E-1	5.139160E-2	2.012730E-2	-3.464699E-3	1.817322E-2	-1.312447E-2	-7.318115E-1	3.744812E-1
1.469250E+10	-9.377747E-1	5.715942E-2	2.073956E-2	-3.562927E-3	1.770592E-2	-1.286030E-2	-7.247314E-1	3.778076E-1
1.491700E+10	-9.364014E-1	6.317139E-2	1.971912E-2	-3.876686E-3	1.731396E-2	-1.365471E-2	-7.228088E-1	3.789673E-1
1.514150E+10	-9.353638E-1	6.872559E-2	1.949978E-2	-4.160881E-3	1.657200E-2	-1.373959E-2	-7.198486E-1	3.842163E-1
1.536600E+10	-9.341431E-1	7.620239E-2	1.915932E-2	-3.707886E-3	1.606178E-2	-1.375771E-2	-7.125854E-1	3.889465E-1
1.559050E+10	-9.331055E-1	8.187866E-2	1.788044E-2	-4.859924E-3	1.659203E-2	-1.225376E-2	-7.112732E-1	3.891602E-1
1.581500E+10	-9.323730E-1	8.786011E-2	1.779556E-2	-4.600525E-3	1.569653E-2	-1.344585E-2	-7.076721E-1	3.923950E-1
1.603950E+10	-9.308472E-1	9.341431E-2	1.941204E-2	-6.043434E-3	1.444006E-2	-1.346350E-2	-7.023010E-1	3.982544E-1
1.626400E+10	-9.306641E-1	9.936523E-2	1.844406E-2	-2.979279E-3	1.540947E-2	-1.388836E-2	-6.985779E-1	3.992004E-1
1.648850E+10	-9.287415E-1	1.049805E-1	1.748371E-2	-4.384041E-3	1.460552E-2	-1.382875E-2	-6.972656E-1	4.042358E-1
1.671300E+10	-9.267883E-1	1.099854E-1	1.723289E-2	-3.740311E-3	1.488113E-2	-1.352406E-2	-6.906128E-1	4.078674E-1
1.693750E+10	-9.270935E-1	1.156616E-1	1.727962E-2	-3.217697E-3	1.510811E-2	-1.302433E-2	-6.867371E-1	4.093933E-1
1.716200E+10	-9.260254E-1	1.211243E-1	1.786423E-2	-5.071640E-3	1.394463E-2	-1.438093E-2	-6.849060E-1	4.143066E-1
1.738650E+10	-9.240112E-1	1.286621E-1	1.634789E-2	-5.754471E-3	1.295996E-2	-1.374435E-2	-6.781006E-1	4.179687E-1
1.761100E+10	-9.228821E-1	1.335754E-1	1.620102E-2	-3.956795E-3	1.393414E-2	-1.286316E-2	-6.769714E-1	4.187927E-1
1.783550E+10	-9.206848E-1	1.394958E-1	1.655102E-2	-5.567551E-3	1.350212E-2	-1.371288E-2	-6.752014E-1	4.237366E-1
1.806000E+10	-9.187317E-1	1.444092E-1	1.648426E-2	-4.569054E-3	1.232243E-2	-1.207209E-2	-6.685486E-1	4.299622E-1
1.828450E+10	-9.174500E-1	1.491394E-1	1.612091E-2	-3.640175E-3	1.203346E-2	-1.298761E-2	-6.653748E-1	4.285278E-1
1.850900E+10	-9.151001E-1	1.541748E-1	1.548624E-2	-5.416393E-3	1.175976E-2	-1.297092E-2	-6.624756E-1	4.328918E-1
1.873350E+10	-9.146423E-1	1.605225E-1	1.589584E-2	-4.370689E-3	1.156282E-2	-1.267147E-2	-6.555786E-1	4.386902E-1
1.895800E+10	-9.110413E-1	1.647949E-1	1.528263E-2	-4.407406E-3	1.018333E-2	-1.229334E-2	-6.528320E-1	4.390259E-1
1.918250E+10	-9.091187E-1	1.707153E-1	1.399326E-2	-5.032539E-3	1.089191E-2	-1.274729E-2	-6.507874E-1	4.425659E-1
1.940700E+10	-9.077454E-1	1.753845E-1	1.355553E-2	-3.978252E-3	1.003742E-2	-1.336622E-2	-6.430969E-1	4.472656E-1
1.963150E+10	-9.055481E-1	1.798401E-1	1.505852E-2	-4.337311E-3	9.574890E-3	-1.244497E-2	-6.392212E-1	4.478455E-1
1.985600E+10	-9.042358E-1	1.864929E-1	1.464367E-2	-3.861427E-3	9.049892E-3	-1.262569E-2	-6.394653E-1	4.522095E-1
2.008050E+10	-9.009094E-1	1.883850E-1	1.421547E-2	-3.623009E-3	8.845806E-3	-1.374435E-2	-6.323242E-1	4.569397E-1
2.030500E+10	-8.986816E-1	1.937866E-1	1.280689E-2	-3.515720E-3	1.010656E-2	-1.079893E-2	-6.272583E-1	4.555969E-1
2.052950E+10	-8.972473E-1	1.989136E-1	1.263046E-2	-3.952026E-3	8.510113E-3	-1.270103E-2	-6.254883E-1	4.588013E-1
2.075400E+10	-8.945007E-1	2.034912E-1	1.203918E-2	-3.254890E-3	6.667614E-3	-1.217318E-2	-6.225281E-1	4.681396E-1
2.097850E+10	-8.922119E-1	2.086182E-1	1.043463E-2	-5.004406E-3	6.738663E-3	-1.124001E-2	-6.148071E-1	4.669800E-1
2.120300E+10	-8.868103E-1	2.120972E-1	1.159143E-2	-3.710270E-3	7.234097E-3	-1.143742E-2	-6.141968E-1	4.657898E-1
2.142750E+10	-8.876038E-1	2.179260E-1	1.183414E-2	-6.174564E-3	7.168770E-3	-1.083136E-2	-6.117554E-1	4.727783E-1
2.165200E+10	-8.843079E-1	2.234497E-1	1.142597E-2	-4.714012E-3	5.892754E-3	-1.088619E-2	-6.043701E-1	4.749146E-1
2.187650E+10	-8.798523E-1	2.250977E-1	1.067686E-2	-4.610062E-3	6.645679E-3	-1.216316E-2	-6.018066E-1	4.772644E-1
2.210100E+10	-8.779297E-1	2.308960E-1	1.042366E-2	-4.755020E-3	6.525517E-3	-1.122856E-2	-5.989380E-1	4.830627E-1
2.232550E+10	-8.738403E-1	2.330627E-1	1.005507E-2	-3.448963E-3	4.687309E-3	-1.162624E-2	-5.920410E-1	4.852600E-1
2.255000E+10	-8.708801E-1	2.404175E-1	1.063967E-2	-2.128124E-3	5.050659E-3	-9.718895E-3	-5.892029E-1	4.854736E-1
2.277450E+10	-8.670959E-1	2.434082E-1	8.141518E-3	-4.382133E-3	4.110813E-3	-1.077986E-2	-5.840149E-1	4.911194E-1
2.299900E+10	-8.649597E-1	2.471619E-1	9.122849E-3	-2.748489E-3	4.334927E-3	-1.012135E-2	-5.785522E-1	4.925537E-1
2.322350E+10	-8.629150E-1	2.509460E-1	8.841038E-3	-2.974033E-3	1.198292E-3	-9.755611E-3	-5.759888E-1	4.929810E-1
2.344800E+10	-8.592224E-1	2.532349E-1	7.416248E-3	-3.659964E-3	5.936623E-4	-1.053762E-2	-5.711060E-1	4.981689E-1
2.367250E+10	-8.547668E-1	2.576599E-1	7.301092E-3	-1.794577E-3	1.099586E-3	-9.745121E-3	-5.645447E-1	5.003967E-1
2.389700E+10	-8.529968E-1	2.610168E-1	6.336451E-3	-1.906633E-3	-2.827644E-4	-8.671761E-3	-5.619812E-1	4.990845E-1
2.412150E+10	-8.491211E-1	2.605896E-1	6.050348E-3	9.059906E-5	-6.508827E-4	-7.435083E-3	-5.556641E-1	5.073853E-1
2.434600E+10	-8.450928E-1	2.661133E-1	7.124901E-3	-2.377033E-4	-1.144409E-3	-7.829666E-3	-5.503235E-1	5.105591E-1
2.457050E+10	-8.401184E-1	2.698669E-1	6.309271E-3	-1.418114E-3	-2.977610E-3	-7.749319E-3	-5.484314E-1	5.071716E-1
2.479500E+10	-8.393250E-1	2.717285E-1	4.899740E-3	-7.038116E-4	-2.399206E-3	-6.546736E-3	-5.420532E-1	5.161133E-1
2.501950E+10	-8.341675E-1	2.731934E-1	3.260136E-3	7.787943E-4	-2.166748E-3	-4.467487E-3	-5.341492E-1	5.144958E-1
2.524400E+10	-8.323364E-1	2.760315E-1	3.349423E-3	2.725363E-3	-2.104759E-3	-4.082203E-3	-5.316162E-1	5.144653E-1
2.546850E+10	-8.276367E-1	2.793579E-1	4.463911E-3	2.698183E-3	-4.142761E-3	-2.337456E-3	-5.275879E-1	5.193481E-1
2.569300E+10	-8.228760E-1	2.804260E-1	4.392624E-3	4.006863E-3	-2.128839E-3	-2.324343E-3	-5.216370E-1	5.174866E-1
2.591750E+10	-8.201294E-1	2.834473E-1	4.952669E-3	3.545761E-3	-1.922190E-3	-1.163006E-3	-5.189209E-1	5.177002E-1
2.614200E+10	-8.165283E-1	2.844238E-1	4.985332E-3	4.703522E-3	-2.085328E-3	-1.712680E-3	-5.203552E-1	5.234375E-1
2.636650E+10	-8.140259E-1	2.850952E-1	4.281044E-3	3.737688E-3	-3.517270E-3	8.763075E-4	-5.130615E-1	5.266418E-1
2.659100E+10	-8.099365E-1	2.864990E-1	3.226280E-3	6.706953E-3	-4.062414E-3	3.452778E-3	-5.036621E-1	5.282288E-1
2.681550E+10	-8.067017E-1	2.864075E-1	4.772663E-3	8.181572E-3	-2.415538E-3	2.196431E-3	-5.043335E-1	5.286255E-1
2.704000E+10	-8.064575E-1	2.889404E-1	3.213406E-3	8.858681E-3	-3.141165E-3	2.802610E-3	-5.001221E-1	5.347290E-1
2.726450E+10	-8.019409E-1	2.888184E-1	4.581928E-3	9.143353E-3	-3.916025E-3	4.679918E-3	-4.880676E-1	5.315247E-1
2.748900E+10	-7.988281E-1	2.908630E-1	5.424500E-3	1.108837E-2	-3.929615E-3	4.433155E-3	-4.895935E-1	5.312500E-1
2.771350E+10	-7.935791E-1	2.884521E-1	3.700256E-3	1.161385E-2	-1.575947E-3	4.958868E-3	-4.820557E-1	5.352173E-1
2.793800E+10	-7.946472E-1	2.877502E-1	4.741669E-3	1.052999E-2	-1.658201E-3	6.766081E-3	-4.761963E-1	5.340881E-1
2.816250E+10	-7.958984E-1	2.913208E-1	4.149437E-3	1.223373E-2	-4.200935E-3	8.089542E-3	-4.757385E-1	5.345154E-1
2.838700E+10	-7.895813E-1	2.896729E-1	5.842686E-3	1.198292E-2	-3.942013E-3	1.161909E-2	-4.686584E-1	5.377502E-1
2.861150E+10	-7.903442E-1	2.919617E-1	5.624294E-3	1.124668E-2	-2.614975E-3	1.065302E-2	-4.626160E-1	5.356750E-1
2.883600E+10	-7.868347E-1	2.920532E-1	5.548000E-3	1.457167E-2	-8.811951E-4	1.219797E-2	-4.631348E-1	5.367126E-1
2.906050E+10	-7.874756E-1	2.912903E-1	4.595757E-3	1.389742E-2	-2.581596E-3	1.538420E-2	-4.596863E-1	5.409546E-1
2.928500E+10	-7.848206E-1	2.938843E-1	8.501053E-3	1.612663E-2	-5.589008E-3	1.557875E-2	-4.528198E-1	5.431519E-1
2.950950E+10	-7.821655E-1	2.941284E-1	6.815910E-3	1.886940E-2	9.379387E-4	1.446962E-2	-4.541931E-1	5.472107E-1
2.973400E+10	-7.830505E-1	2.935181E-1	5.939484E-3	1.875114E-2	3.713131E-3	1.559544E-2	-4.461670E-1	5.485840E-1
2.995850E+10	-7.817078E-1	2.935486E-1	8.575439E-3	1.748848E-2	3.600121E-3	1.650333E-2	-4.454346E-1	5.469360E-1
3.018300E+10	-7.788391E-1	2.909546E-1	1.194859E-2	1.614189E-2	3.503799E-3	1.838779E-2	-4.420166E-1	5.537720E-1
3.040750E+10	-7.794495E-1	2.950439E-1	1.424694E-2	1.893425E-2	4.693031E-3	1.793861E-2	-4.355774E-1	5.531616E-1
3.063200E+10	-7.790222E-1	2.957764E-1	1.349354E-2	1.898193E-2	4.809380E-3	2.234650E-2	-4.306946E-1	5.552368E-1
3.085650E+10	-7.802124E-1	2.982483E-1	1.182938E-2	2.044487E-2	5.614281E-3	1.921272E-2	-4.284363E-1	5.585937E-1
3.108100E+10	-7.775879E-1	2.955627E-1	1.369953E-2	1.762009E-2	6.740570E-3	1.977730E-2	-4.222412E-1	5.582886E-1
3.130550E+10	-7.762146E-1	2.970581E-1	1.055622E-2	1.807976E-2	6.854057E-3	2.167130E-2	-4.124451E-1	5.579224E-1
3.153000E+10	-7.798157E-1	2.957764E-1	1.242638E-2	2.169132E-2	1.026917E-2	2.063179E-2	-4.086304E-1	5.573425E-1
3.175450E+10	-7.789001E-1	2.976685E-1	1.647663E-2	2.187443E-2	8.937836E-3	1.874924E-2	-4.074707E-1	5.572205E-1
3.197900E+10	-7.781067E-1	3.002014E-1	1.865959E-2	2.215099E-2	9.814262E-3	2.139378E-2	-3.980103E-1	5.569153E-1
3.220350E+10	-7.797241E-1	3.034058E-1	1.863003E-2	2.467060E-2	8.112907E-3	2.315998E-2	-3.947449E-1	5.610046E-1
3.242800E+10	-7.802429E-1	3.029785E-1	1.670837E-2	1.916409E-2	1.276875E-2	2.193069E-2	-3.905640E-1	5.641785E-1
3.265250E+10	-7.807617E-1	3.102112E-1	1.791573E-2	2.615547E-2	1.237679E-2	2.194977E-2	-3.858032E-1	5.645447E-1
3.287700E+10	-7.795715E-1	3.073120E-1	2.038288E-2	2.048397E-2	1.543808E-2	2.311802E-2	-3.823547E-1	5.657654E-1
3.310150E+10	-7.802124E-1	3.092041E-1	1.944447E-2	1.963997E-2	1.643753E-2	2.355099E-2	-3.757629E-1	5.617371E-1
3.332600E+10	-7.802124E-1	3.143616E-1	2.245998E-2	2.216053E-2	1.464939E-2	2.233982E-2	-3.723145E-1	5.631104E-1
3.355050E+10	-7.801819E-1	3.143921E-1	1.793766E-2	2.335548E-2	1.656055E-2	1.962280E-2	-3.737793E-1	5.675964E-1
3.377500E+10	-7.809753E-1	3.144836E-1	2.433872E-2	2.380943E-2	1.913929E-2	2.067947E-2	-3.658752E-1	5.623169E-1
3.399950E+10	-7.799683E-1	3.196411E-1	2.606678E-2	2.153301E-2	2.033710E-2	2.424526E-2	-3.651428E-1	5.663757E-1
3.422400E+10	-7.799377E-1	3.230286E-1	2.730656E-2	2.067757E-2	2.161217E-2	2.143669E-2	-3.612061E-1	5.746765E-1
3.444850E+10	-7.782593E-1	3.247375E-1	2.508068E-2	2.067947E-2	2.443981E-2	2.056122E-2	-3.561401E-1	5.721741E-1
3.467300E+10	-7.795715E-1	3.252258E-1	2.832890E-2	1.992989E-2	1.894951E-2	2.114105E-2	-3.496399E-1	5.724487E-1
3.489750E+10	-7.823486E-1	3.254089E-1	2.841568E-2	1.968956E-2	2.516174E-2	2.087784E-2	-3.493958E-1	5.764160E-1
3.512200E+10	-7.843018E-1	3.265686E-1	2.506161E-2	1.882076E-2	2.287197E-2	1.981926E-2	-3.381348E-1	5.721436E-1
3.534650E+10	-7.793884E-1	3.280334E-1	3.195572E-2	1.974297E-2	2.138710E-2	1.850796E-2	-3.381348E-1	5.801697E-1
3.557100E+10	-7.822876E-1	3.349609E-1	3.242302E-2	2.162933E-2	2.541447E-2	2.382469E-2	-3.298645E-1	5.852356E-1
3.579550E+10	-7.780457E-1	3.372192E-1	2.841282E-2	1.622105E-2	2.534485E-2	1.676464E-2	-3.245850E-1	5.788574E-1
3.602000E+10	-7.803955E-1	3.413086E-1	3.065109E-2	1.317787E-2	3.047562E-2	2.270699E-2	-3.243408E-1	5.776062E-1
3.624450E+10	-7.826233E-1	3.424988E-1	2.717972E-2	2.012444E-2	2.776241E-2	1.768017E-2	-3.201599E-1	5.703735E-1
3.646900E+10	-7.789612E-1	3.495483E-1	2.968693E-2	1.851082E-2	2.872849E-2	1.670456E-2	-3.141785E-1	5.736389E-1
3.669350E+10	-7.776794E-1	3.493958E-1	3.194237E-2	1.728439E-2	2.969170E-2	1.804447E-2	-3.100586E-1	5.797424E-1
3.691800E+10	-7.789001E-1	3.549500E-1	3.356361E-2	1.515007E-2	3.011322E-2	1.900578E-2	-3.085632E-1	5.809937E-1
3.714250E+10	-7.758484E-1	3.536377E-1	3.071594E-2	1.809502E-2	2.784538E-2	2.242851E-2	-2.985840E-1	5.811768E-1
3.736700E+10	-7.764893E-1	3.621216E-1	3.004074E-2	1.368332E-2	2.975178E-2	2.183437E-2	-2.931824E-1	5.843811E-1
3.759150E+10	-7.739258E-1	3.610535E-1	2.968693E-2	1.604271E-2	3.318596E-2	1.691628E-2	-2.975159E-1	5.866394E-1
3.781600E+10	-7.707825E-1	3.679504E-1	3.144264E-2	1.588821E-2	3.276825E-2	1.939392E-2	-2.861633E-1	5.860596E-1
3.804050E+10	-7.754822E-1	3.669128E-1	3.004742E-2	1.302814E-2	3.128433E-2	2.117157E-2	-2.804871E-1	5.873413E-1
3.826500E+10	-7.757874E-1	3.746338E-1	3.722382E-2	1.299286E-2	2.977180E-2	1.927185E-2	-2.787781E-1	5.875549E-1
3.848950E+10	-7.725525E-1	3.763428E-1	3.999519E-2	1.146126E-2	3.337860E-2	1.549911E-2	-2.692871E-1	5.915527E-1
3.871400E+10	-7.701111E-1	3.710632E-1	3.628159E-2	1.335144E-2	3.296661E-2	1.016617E-2	-2.663574E-1	5.874329E-1
3.893850E+10	-7.744141E-1	3.756104E-1	3.707123E-2	1.775932E-2	3.327179E-2	1.856232E-2	-2.585144E-1	5.849609E-1
3.916300E+10	-7.745972E-1	3.877258E-1	3.722954E-2	1.726341E-2	2.986813E-2	1.187038E-2	-2.574768E-1	5.892944E-1
3.938750E+10	-7.705688E-1	3.850708E-1	3.679848E-2	1.161194E-2	3.212738E-2	1.351166E-2	-2.610779E-1	5.879822E-1
3.961200E+10	-7.711487E-1	3.866882E-1	3.993034E-2	1.034164E-2	3.715515E-2	1.329231E-2	-2.516174E-1	5.875854E-1
