!Date: 10/28/2005, 12:34 PM

!Vgs = -3.000000E+0
!Vds = 2.000000E+0
!Ig = -1.505800E-5
!Id = 3.373000E-1

# HZ S RI R 50
1.000000E+8	9.595337E-1	-2.320557E-1	-8.594238E+0	7.661133E-1	1.000881E-3	1.090908E-2	-1.506500E-1	-8.695984E-2
3.245000E+8	7.194519E-1	-6.372986E-1	-7.156982E+0	2.943115E+0	1.246738E-2	2.719498E-2	-2.839203E-1	-1.533813E-1
5.490000E+8	3.941650E-1	-8.570557E-1	-5.695312E+0	4.140381E+0	2.675056E-2	3.531265E-2	-3.357544E-1	-1.772003E-1
7.735000E+8	9.640503E-2	-9.256897E-1	-4.336914E+0	4.499756E+0	3.976822E-2	3.732491E-2	-4.044342E-1	-1.938019E-1
9.980000E+8	-1.346436E-1	-9.106140E-1	-3.217041E+0	4.410889E+0	4.956627E-2	3.495026E-2	-4.538879E-1	-1.786652E-1
1.222500E+9	-3.097839E-1	-8.604736E-1	-2.385986E+0	4.194580E+0	5.707169E-2	3.191948E-2	-4.842682E-1	-1.676178E-1
1.447000E+9	-4.395142E-1	-7.991638E-1	-1.776001E+0	3.904297E+0	6.211472E-2	2.870750E-2	-5.122986E-1	-1.501160E-1
1.671500E+9	-5.347290E-1	-7.365723E-1	-1.321655E+0	3.606812E+0	6.591415E-2	2.519989E-2	-5.311279E-1	-1.351318E-1
1.896000E+9	-6.079712E-1	-6.758118E-1	-9.822998E-1	3.325439E+0	6.907654E-2	2.184296E-2	-5.461426E-1	-1.197510E-1
2.120500E+9	-6.622620E-1	-6.211548E-1	-7.274170E-1	3.081177E+0	7.157135E-2	1.854706E-2	-5.568237E-1	-1.065063E-1
2.345000E+9	-7.048340E-1	-5.692749E-1	-5.253906E-1	2.857178E+0	7.300186E-2	1.529694E-2	-5.659180E-1	-9.213257E-2
2.569500E+9	-7.351074E-1	-5.244446E-1	-3.687744E-1	2.642700E+0	7.393265E-2	1.255798E-2	-5.711365E-1	-8.105469E-2
2.794000E+9	-7.622986E-1	-4.867249E-1	-2.471924E-1	2.466187E+0	7.479858E-2	1.022720E-2	-5.772095E-1	-7.000732E-2
3.018500E+9	-7.828369E-1	-4.497070E-1	-1.462402E-1	2.304810E+0	7.563400E-2	7.606506E-3	-5.795898E-1	-5.926514E-2
3.243000E+9	-8.001099E-1	-4.168396E-1	-6.396484E-2	2.157593E+0	7.626724E-2	5.352020E-3	-5.833130E-1	-5.117798E-2
3.467500E+9	-8.147888E-1	-3.881531E-1	5.126953E-3	2.030029E+0	7.675552E-2	3.040314E-3	-5.854797E-1	-4.217529E-2
3.692000E+9	-8.268433E-1	-3.614502E-1	6.335449E-2	1.908936E+0	7.659531E-2	1.499176E-3	-5.870056E-1	-3.469849E-2
3.916500E+9	-8.375854E-1	-3.362427E-1	1.105957E-1	1.801575E+0	7.678604E-2	-5.149841E-4	-5.897522E-1	-2.679443E-2
4.141000E+9	-8.461609E-1	-3.131714E-1	1.519775E-1	1.706360E+0	7.744598E-2	-2.311707E-3	-5.912170E-1	-2.001953E-2
4.365500E+9	-8.521729E-1	-2.927856E-1	1.865234E-1	1.619873E+0	7.699585E-2	-4.077911E-3	-5.917358E-1	-1.376343E-2
4.590000E+9	-8.580933E-1	-2.743225E-1	2.162476E-1	1.533325E+0	7.711792E-2	-5.691528E-3	-5.929260E-1	-6.958008E-3
4.814500E+9	-8.644104E-1	-2.571411E-1	2.403564E-1	1.456360E+0	7.700729E-2	-6.881714E-3	-5.936890E-1	-7.934570E-4
5.039000E+9	-8.686218E-1	-2.391663E-1	2.617187E-1	1.388000E+0	7.716370E-2	-8.743286E-3	-5.944824E-1	4.730225E-3
5.263500E+9	-8.730774E-1	-2.229004E-1	2.804565E-1	1.324524E+0	7.706070E-2	-1.022720E-2	-5.953979E-1	1.089478E-2
5.488000E+9	-8.751831E-1	-2.091675E-1	2.980957E-1	1.267151E+0	7.601166E-2	-1.172638E-2	-5.952148E-1	1.675415E-2
5.712500E+9	-8.788147E-1	-1.955872E-1	3.132324E-1	1.209717E+0	7.615280E-2	-1.346588E-2	-5.954285E-1	2.148437E-2
5.937000E+9	-8.813782E-1	-1.810608E-1	3.252563E-1	1.156189E+0	7.572556E-2	-1.470947E-2	-5.951538E-1	2.691650E-2
6.161500E+9	-8.839111E-1	-1.704407E-1	3.367920E-1	1.107727E+0	7.558823E-2	-1.631546E-2	-5.957336E-1	3.326416E-2
6.386000E+9	-8.866272E-1	-1.572876E-1	3.466187E-1	1.062012E+0	7.519913E-2	-1.712418E-2	-5.940857E-1	3.787231E-2
6.610500E+9	-8.874207E-1	-1.463623E-1	3.561401E-1	1.019897E+0	7.475662E-2	-1.866150E-2	-5.957947E-1	4.183960E-2
6.835000E+9	-8.897095E-1	-1.361694E-1	3.638306E-1	9.774475E-1	7.453156E-2	-1.969147E-2	-5.951233E-1	4.910278E-2
7.059500E+9	-8.903503E-1	-1.263428E-1	3.684692E-1	9.402161E-1	7.457733E-2	-2.136230E-2	-5.916138E-1	5.130005E-2
7.284000E+9	-8.909912E-1	-1.157837E-1	3.742981E-1	9.039917E-1	7.363129E-2	-2.220154E-2	-5.939331E-1	5.471802E-2
7.508500E+9	-8.936462E-1	-1.061401E-1	3.783569E-1	8.684998E-1	7.304764E-2	-2.331161E-2	-5.907593E-1	6.024170E-2
7.733000E+9	-8.923035E-1	-9.692383E-2	3.830261E-1	8.372498E-1	7.247925E-2	-2.465057E-2	-5.915222E-1	6.143188E-2
7.957500E+9	-8.944092E-1	-8.746338E-2	3.871765E-1	8.041992E-1	7.233047E-2	-2.612686E-2	-5.918274E-1	6.796265E-2
8.182000E+9	-8.947449E-1	-7.873535E-2	3.912354E-1	7.768555E-1	7.187271E-2	-2.762604E-2	-5.921326E-1	7.089233E-2
8.406500E+9	-8.944702E-1	-7.180786E-2	3.923645E-1	7.477722E-1	7.048035E-2	-2.780533E-2	-5.894470E-1	7.702637E-2
8.631000E+9	-8.949585E-1	-6.307983E-2	3.965454E-1	7.212524E-1	7.038498E-2	-2.907181E-2	-5.902100E-1	8.041382E-2
8.855500E+9	-8.949585E-1	-5.551147E-2	3.984070E-1	6.947021E-1	6.949997E-2	-3.009796E-2	-5.889282E-1	8.499146E-2
9.080001E+9	-8.958435E-1	-4.913330E-2	3.982544E-1	6.689758E-1	6.887817E-2	-3.107452E-2	-5.869751E-1	8.975220E-2
9.304500E+9	-8.961182E-1	-4.046631E-2	3.993835E-1	6.457520E-1	6.800842E-2	-3.218079E-2	-5.863953E-1	9.231567E-2
9.529000E+9	-8.955383E-1	-3.439331E-2	4.001770E-1	6.230469E-1	6.749725E-2	-3.350830E-2	-5.865784E-1	9.729004E-2
9.753500E+9	-8.962708E-1	-2.722168E-2	4.009705E-1	6.016235E-1	6.665039E-2	-3.444672E-2	-5.842896E-1	1.015015E-1
9.978000E+9	-8.955994E-1	-2.020264E-2	4.010925E-1	5.809021E-1	6.554794E-2	-3.521729E-2	-5.824280E-1	1.043091E-1
1.020250E+10	-8.956909E-1	-1.461792E-2	4.015503E-1	5.605774E-1	6.519699E-2	-3.554153E-2	-5.824585E-1	1.089172E-1
1.042700E+10	-8.958740E-1	-7.232666E-3	4.005432E-1	5.408630E-1	6.468582E-2	-3.697205E-2	-5.804443E-1	1.120300E-1
1.065150E+10	-8.956909E-1	-1.220703E-3	3.994446E-1	5.240784E-1	6.331635E-2	-3.733444E-2	-5.781250E-1	1.141663E-1
1.087600E+10	-8.956604E-1	5.004883E-3	3.997498E-1	5.057678E-1	6.287766E-2	-3.861618E-2	-5.789185E-1	1.192627E-1
1.110050E+10	-8.948669E-1	1.168823E-2	3.990784E-1	4.884644E-1	6.200218E-2	-3.979111E-2	-5.758362E-1	1.230774E-1
1.132500E+10	-8.945618E-1	1.736450E-2	3.981934E-1	4.723969E-1	6.092834E-2	-3.968430E-2	-5.745850E-1	1.238403E-1
1.154950E+10	-8.947144E-1	2.359009E-2	3.971558E-1	4.558105E-1	6.036949E-2	-4.054070E-2	-5.757446E-1	1.283264E-1
1.177400E+10	-8.927917E-1	2.929687E-2	3.952637E-1	4.400482E-1	5.947304E-2	-4.112816E-2	-5.737305E-1	1.332397E-1
1.199850E+10	-8.924561E-1	3.479004E-2	3.948059E-1	4.254456E-1	5.858994E-2	-4.169083E-2	-5.715637E-1	1.350098E-1
1.222300E+10	-8.927002E-1	4.104614E-2	3.930817E-1	4.112244E-1	5.809212E-2	-4.289246E-2	-5.706787E-1	1.370544E-1
1.244750E+10	-8.919373E-1	4.553223E-2	3.913269E-1	3.968811E-1	5.693054E-2	-4.337692E-2	-5.701599E-1	1.417236E-1
1.267200E+10	-8.917847E-1	5.050659E-2	3.891602E-1	3.834229E-1	5.586433E-2	-4.419136E-2	-5.664978E-1	1.420288E-1
1.289650E+10	-8.904114E-1	5.538940E-2	3.861389E-1	3.701935E-1	5.603218E-2	-4.457664E-2	-5.687561E-1	1.457520E-1
1.312100E+10	-8.902893E-1	6.066895E-2	3.849030E-1	3.589478E-1	5.426788E-2	-4.536247E-2	-5.664978E-1	1.506958E-1
1.334550E+10	-8.890686E-1	6.555176E-2	3.832092E-1	3.465881E-1	5.351639E-2	-4.503059E-2	-5.636902E-1	1.522522E-1
1.357000E+10	-8.883667E-1	6.909180E-2	3.806000E-1	3.341522E-1	5.314636E-2	-4.567528E-2	-5.638428E-1	1.520996E-1
1.379450E+10	-8.873901E-1	7.467651E-2	3.781281E-1	3.233032E-1	5.281639E-2	-4.674339E-2	-5.643616E-1	1.591492E-1
1.401900E+10	-8.865051E-1	7.977295E-2	3.776093E-1	3.138733E-1	5.054855E-2	-4.682159E-2	-5.595703E-1	1.608276E-1
1.424350E+10	-8.863831E-1	8.432007E-2	3.738708E-1	3.023376E-1	5.028915E-2	-4.807663E-2	-5.606995E-1	1.631165E-1
1.446800E+10	-8.866272E-1	9.057617E-2	3.721008E-1	2.914276E-1	4.881859E-2	-4.771423E-2	-5.590820E-1	1.691589E-1
1.469250E+10	-8.846436E-1	9.591675E-2	3.695068E-1	2.822266E-1	4.816246E-2	-4.837227E-2	-5.544739E-1	1.718445E-1
1.491700E+10	-8.829041E-1	9.878540E-2	3.673401E-1	2.719116E-1	4.706001E-2	-4.848480E-2	-5.551453E-1	1.719666E-1
1.514150E+10	-8.814697E-1	1.043091E-1	3.644257E-1	2.621460E-1	4.636955E-2	-4.941368E-2	-5.541687E-1	1.769714E-1
1.536600E+10	-8.815613E-1	1.091614E-1	3.625946E-1	2.535858E-1	4.465866E-2	-4.933167E-2	-5.501404E-1	1.796570E-1
1.559050E+10	-8.789673E-1	1.133728E-1	3.598785E-1	2.445374E-1	4.433250E-2	-4.936409E-2	-5.500488E-1	1.804810E-1
1.581500E+10	-8.784485E-1	1.166382E-1	3.559875E-1	2.360229E-1	4.371834E-2	-4.940033E-2	-5.496216E-1	1.831665E-1
1.603950E+10	-8.771973E-1	1.221924E-1	3.544159E-1	2.270966E-1	4.146767E-2	-5.107689E-2	-5.476990E-1	1.878967E-1
1.626400E+10	-8.774109E-1	1.256409E-1	3.524323E-1	2.186890E-1	4.088402E-2	-5.179596E-2	-5.473022E-1	1.868591E-1
1.648850E+10	-8.757324E-1	1.296997E-1	3.486176E-1	2.118988E-1	4.035187E-2	-5.174065E-2	-5.465393E-1	1.917114E-1
1.671300E+10	-8.750000E-1	1.352234E-1	3.461304E-1	2.028351E-1	4.074669E-2	-5.283546E-2	-5.433350E-1	1.939697E-1
1.693750E+10	-8.737488E-1	1.385498E-1	3.442078E-1	1.965790E-1	3.796005E-2	-5.224991E-2	-5.427551E-1	1.955261E-1
1.716200E+10	-8.725586E-1	1.431885E-1	3.398285E-1	1.889191E-1	3.764534E-2	-5.263138E-2	-5.433044E-1	2.014160E-1
1.738650E+10	-8.710327E-1	1.486206E-1	3.384705E-1	1.833344E-1	3.725624E-2	-5.246544E-2	-5.397034E-1	2.037964E-1
1.761100E+10	-8.697510E-1	1.521912E-1	3.355408E-1	1.770172E-1	3.560638E-2	-5.282211E-2	-5.402832E-1	2.036743E-1
1.783550E+10	-8.673096E-1	1.569214E-1	3.336487E-1	1.695709E-1	3.372002E-2	-5.253029E-2	-5.401001E-1	2.098083E-1
1.806000E+10	-8.678894E-1	1.603394E-1	3.301544E-1	1.640472E-1	3.357697E-2	-5.288696E-2	-5.355530E-1	2.139282E-1
1.828450E+10	-8.647156E-1	1.639404E-1	3.280334E-1	1.592712E-1	3.275871E-2	-5.317688E-2	-5.350952E-1	2.114258E-1
1.850900E+10	-8.646240E-1	1.665649E-1	3.236694E-1	1.519012E-1	3.279495E-2	-5.344009E-2	-5.361633E-1	2.179871E-1
1.873350E+10	-8.647766E-1	1.713257E-1	3.227539E-1	1.464081E-1	3.058052E-2	-5.462646E-2	-5.304871E-1	2.229919E-1
1.895800E+10	-8.601379E-1	1.749878E-1	3.196259E-1	1.403046E-1	2.972984E-2	-5.395508E-2	-5.294800E-1	2.204285E-1
1.918250E+10	-8.611145E-1	1.785583E-1	3.173065E-1	1.362305E-1	2.893829E-2	-5.439568E-2	-5.299072E-1	2.224731E-1
1.940700E+10	-8.581543E-1	1.834412E-1	3.136444E-1	1.312714E-1	2.784920E-2	-5.398560E-2	-5.255127E-1	2.307434E-1
1.963150E+10	-8.564148E-1	1.849060E-1	3.105927E-1	1.258240E-1	2.506065E-2	-5.429649E-2	-5.242310E-1	2.303467E-1
1.985600E+10	-8.554687E-1	1.903687E-1	3.086395E-1	1.215363E-1	2.556801E-2	-5.333138E-2	-5.259705E-1	2.319641E-1
2.008050E+10	-8.542786E-1	1.928406E-1	3.062897E-1	1.155396E-1	2.445221E-2	-5.298615E-2	-5.234070E-1	2.385254E-1
2.030500E+10	-8.541870E-1	1.974182E-1	3.044281E-1	1.124573E-1	2.263260E-2	-5.345726E-2	-5.211182E-1	2.350159E-1
2.052950E+10	-8.517761E-1	2.000427E-1	3.016510E-1	1.082611E-1	2.127075E-2	-5.483246E-2	-5.225525E-1	2.390442E-1
2.075400E+10	-8.499146E-1	2.045593E-1	2.991333E-1	1.043549E-1	2.155495E-2	-5.423164E-2	-5.193176E-1	2.443542E-1
2.097850E+10	-8.497009E-1	2.089539E-1	2.959595E-1	9.872437E-2	2.016449E-2	-5.303001E-2	-5.164795E-1	2.470093E-1
2.120300E+10	-8.467407E-1	2.089233E-1	2.940826E-1	9.724426E-2	1.935768E-2	-5.435944E-2	-5.158386E-1	2.458191E-1
2.142750E+10	-8.453979E-1	2.151184E-1	2.924042E-1	9.147644E-2	1.695061E-2	-5.345917E-2	-5.160828E-1	2.521667E-1
2.165200E+10	-8.430176E-1	2.173462E-1	2.913208E-1	8.753967E-2	1.605034E-2	-5.320358E-2	-5.113525E-1	2.525940E-1
2.187650E+10	-8.424377E-1	2.216187E-1	2.862701E-1	8.715820E-2	1.597977E-2	-5.229378E-2	-5.133972E-1	2.546387E-1
2.210100E+10	-8.394775E-1	2.261353E-1	2.836456E-1	8.058167E-2	1.555252E-2	-5.257225E-2	-5.119324E-1	2.639465E-1
2.232550E+10	-8.394165E-1	2.281799E-1	2.830963E-1	7.876587E-2	1.370811E-2	-5.205917E-2	-5.094910E-1	2.657776E-1
2.255000E+10	-8.378296E-1	2.308350E-1	2.826233E-1	7.388306E-2	1.467323E-2	-5.195999E-2	-5.067444E-1	2.671509E-1
2.277450E+10	-8.353577E-1	2.359619E-1	2.781219E-1	7.275391E-2	1.169777E-2	-5.203819E-2	-5.061035E-1	2.684326E-1
2.299900E+10	-8.326721E-1	2.377625E-1	2.769470E-1	6.716919E-2	1.091385E-2	-5.200768E-2	-5.008545E-1	2.728577E-1
2.322350E+10	-8.312378E-1	2.422485E-1	2.770386E-1	6.449890E-2	8.640289E-3	-5.013466E-2	-5.008240E-1	2.734680E-1
2.344800E+10	-8.302917E-1	2.425842E-1	2.736511E-1	6.436157E-2	8.352280E-3	-5.144501E-2	-5.003052E-1	2.787170E-1
2.367250E+10	-8.287964E-1	2.486267E-1	2.710724E-1	6.076050E-2	7.711411E-3	-5.070305E-2	-4.936218E-1	2.814636E-1
2.389700E+10	-8.255615E-1	2.512207E-1	2.694855E-1	5.725098E-2	5.632401E-3	-5.119705E-2	-4.970398E-1	2.836456E-1
2.412150E+10	-8.239441E-1	2.541809E-1	2.672729E-1	5.357361E-2	4.352570E-3	-4.946518E-2	-4.921875E-1	2.884216E-1
2.434600E+10	-8.211975E-1	2.580566E-1	2.648926E-1	5.273437E-2	3.614426E-3	-4.915428E-2	-4.871674E-1	2.891235E-1
2.457050E+10	-8.190308E-1	2.596130E-1	2.659302E-1	4.811096E-2	1.955032E-3	-4.883957E-2	-4.887238E-1	2.904968E-1
2.479500E+10	-8.190918E-1	2.644043E-1	2.598114E-1	4.769897E-2	1.739502E-3	-4.794121E-2	-4.849243E-1	2.963257E-1
2.501950E+10	-8.153992E-1	2.654724E-1	2.617340E-1	4.513550E-2	-1.302719E-3	-4.578209E-2	-4.805145E-1	2.972717E-1
2.524400E+10	-8.153076E-1	2.688599E-1	2.609711E-1	4.306030E-2	-1.659393E-3	-4.535484E-2	-4.825134E-1	2.990570E-1
2.546850E+10	-8.111267E-1	2.743835E-1	2.578278E-1	4.338074E-2	-2.229691E-3	-4.263878E-2	-4.766998E-1	3.033905E-1
2.569300E+10	-8.091125E-1	2.744751E-1	2.581635E-1	3.968811E-2	-2.574921E-3	-4.353333E-2	-4.758759E-1	3.021088E-1
2.591750E+10	-8.086853E-1	2.785950E-1	2.561035E-1	3.753662E-2	-3.528595E-3	-4.220581E-2	-4.739838E-1	3.043365E-1
2.614200E+10	-8.053589E-1	2.811584E-1	2.555542E-1	3.813171E-2	-3.974915E-3	-4.208374E-2	-4.792633E-1	3.096161E-1
2.636650E+10	-8.045654E-1	2.820740E-1	2.536621E-1	3.475952E-2	-3.942490E-3	-4.380035E-2	-4.739990E-1	3.143463E-1
2.659100E+10	-8.005981E-1	2.855530E-1	2.535095E-1	3.208923E-2	-4.125595E-3	-4.052353E-2	-4.674072E-1	3.153687E-1
2.681550E+10	-7.968140E-1	2.859802E-1	2.533569E-1	3.036499E-2	-6.574631E-3	-4.150581E-2	-4.701080E-1	3.169250E-1
2.704000E+10	-7.976074E-1	2.912598E-1	2.499084E-1	2.887726E-2	-7.566452E-3	-3.897095E-2	-4.650116E-1	3.255005E-1
2.726450E+10	-7.937622E-1	2.916870E-1	2.513885E-1	2.479553E-2	-6.416321E-3	-4.005241E-2	-4.596100E-1	3.264160E-1
2.748900E+10	-7.922363E-1	2.960510E-1	2.500458E-1	2.281189E-2	-9.824753E-3	-3.603935E-2	-4.591064E-1	3.258972E-1
2.771350E+10	-7.892456E-1	2.971497E-1	2.506714E-1	2.122498E-2	-1.171684E-2	-3.517723E-2	-4.578705E-1	3.312531E-1
2.793800E+10	-7.889709E-1	2.984924E-1	2.525940E-1	1.930237E-2	-1.160812E-2	-3.426552E-2	-4.561615E-1	3.282013E-1
2.816250E+10	-7.857666E-1	3.001404E-1	2.498169E-1	1.737213E-2	-1.382637E-2	-3.401756E-2	-4.528961E-1	3.340302E-1
2.838700E+10	-7.832336E-1	3.030396E-1	2.489014E-1	1.619720E-2	-1.037788E-2	-3.202248E-2	-4.508820E-1	3.411255E-1
2.861150E+10	-7.839050E-1	3.067627E-1	2.506104E-1	1.388550E-2	-1.268959E-2	-3.278160E-2	-4.483643E-1	3.398285E-1
2.883600E+10	-7.803345E-1	3.086853E-1	2.497177E-1	1.200867E-2	-1.264763E-2	-3.229904E-2	-4.471436E-1	3.409576E-1
2.906050E+10	-7.778015E-1	3.112183E-1	2.488251E-1	1.023865E-2	-1.395988E-2	-2.935982E-2	-4.433289E-1	3.454742E-1
2.928500E+10	-7.777100E-1	3.146362E-1	2.480545E-1	7.789612E-3	-1.547241E-2	-2.623558E-2	-4.427185E-1	3.491974E-1
2.950950E+10	-7.722168E-1	3.153992E-1	2.509766E-1	6.240845E-3	-1.180363E-2	-2.351093E-2	-4.429474E-1	3.500977E-1
2.973400E+10	-7.730103E-1	3.168030E-1	2.523804E-1	1.953125E-3	-1.584339E-2	-2.646446E-2	-4.383850E-1	3.574982E-1
2.995850E+10	-7.669373E-1	3.195190E-1	2.483368E-1	1.861572E-3	-1.527214E-2	-2.481270E-2	-4.338531E-1	3.573303E-1
3.018300E+10	-7.664185E-1	3.203735E-1	2.507629E-1	-3.326416E-3	-1.497173E-2	-2.582455E-2	-4.339447E-1	3.672943E-1
3.040750E+10	-7.633972E-1	3.210754E-1	2.500610E-1	-4.241943E-3	-1.595116E-2	-2.318573E-2	-4.297333E-1	3.657532E-1
3.063200E+10	-7.627869E-1	3.217773E-1	2.519684E-1	-8.514404E-3	-1.539612E-2	-2.275467E-2	-4.293976E-1	3.723755E-1
3.085650E+10	-7.584534E-1	3.239441E-1	2.524261E-1	-7.080078E-3	-1.379776E-2	-2.216339E-2	-4.239960E-1	3.750610E-1
3.108100E+10	-7.609253E-1	3.275757E-1	2.533569E-1	-8.560181E-3	-1.388073E-2	-1.789093E-2	-4.183960E-1	3.793488E-1
3.130550E+10	-7.548828E-1	3.248901E-1	2.528687E-1	-1.321411E-2	-1.460361E-2	-1.771832E-2	-4.140778E-1	3.807526E-1
3.153000E+10	-7.567749E-1	3.287964E-1	2.540283E-1	-1.921082E-2	-1.684666E-2	-1.539040E-2	-4.107361E-1	3.860016E-1
3.175450E+10	-7.541504E-1	3.279724E-1	2.490463E-1	-2.240753E-2	-1.451778E-2	-1.530313E-2	-4.093018E-1	3.894196E-1
3.197900E+10	-7.548218E-1	3.337708E-1	2.533875E-1	-2.403259E-2	-1.386929E-2	-1.220417E-2	-3.995819E-1	3.934631E-1
3.220350E+10	-7.513428E-1	3.339233E-1	2.495880E-1	-2.663422E-2	-1.618099E-2	-1.285362E-2	-4.002533E-1	3.977509E-1
3.242800E+10	-7.509155E-1	3.348694E-1	2.539520E-1	-3.169250E-2	-1.250648E-2	-1.064587E-2	-3.936462E-1	3.966980E-1
3.265250E+10	-7.488098E-1	3.400574E-1	2.542114E-1	-3.849792E-2	-1.456642E-2	-5.877972E-3	-3.904114E-1	3.992004E-1
3.287700E+10	-7.444458E-1	3.422852E-1	2.575989E-1	-3.878784E-2	-1.106596E-2	-7.932663E-3	-3.857727E-1	4.049072E-1
3.310150E+10	-7.406311E-1	3.421021E-1	2.548065E-1	-4.379272E-2	-1.134348E-2	-5.348682E-3	-3.789673E-1	4.031830E-1
3.332600E+10	-7.392273E-1	3.484497E-1	2.558136E-1	-4.669189E-2	-1.190138E-2	-5.637169E-3	-3.820648E-1	4.065857E-1
3.355050E+10	-7.390442E-1	3.404236E-1	2.536163E-1	-5.285645E-2	-8.738518E-3	-4.985332E-3	-3.746185E-1	4.105988E-1
3.377500E+10	-7.394104E-1	3.471680E-1	2.530060E-1	-5.442810E-2	-1.163530E-2	-2.978802E-3	-3.693237E-1	4.135742E-1
3.399950E+10	-7.352600E-1	3.489685E-1	2.549744E-1	-6.086731E-2	-9.857655E-3	-3.475189E-3	-3.728485E-1	4.129639E-1
3.422400E+10	-7.317200E-1	3.503418E-1	2.541656E-1	-6.347656E-2	-8.298397E-3	-1.446247E-3	-3.641663E-1	4.253845E-1
3.444850E+10	-7.343750E-1	3.498230E-1	2.543793E-1	-6.654358E-2	-9.904861E-3	-1.398087E-3	-3.558502E-1	4.234009E-1
3.467300E+10	-7.312317E-1	3.490295E-1	2.577515E-1	-7.423401E-2	-5.000353E-3	1.311541E-3	-3.512878E-1	4.281921E-1
3.489750E+10	-7.330933E-1	3.536072E-1	2.543793E-1	-7.598877E-2	-4.715443E-3	2.789259E-3	-3.467712E-1	4.315033E-1
3.512200E+10	-7.288208E-1	3.511658E-1	2.523041E-1	-7.756042E-2	-4.241705E-3	-2.987385E-4	-3.397675E-1	4.286346E-1
3.534650E+10	-7.292786E-1	3.582153E-1	2.544708E-1	-8.404541E-2	-2.245545E-3	2.706528E-3	-3.434601E-1	4.380188E-1
3.557100E+10	-7.304993E-1	3.535156E-1	2.529144E-1	-9.289551E-2	-9.809017E-3	5.010128E-3	-3.255920E-1	4.435577E-1
3.579550E+10	-7.255249E-1	3.581238E-1	2.499771E-1	-9.111786E-2	-7.734597E-4	5.630553E-4	-3.191071E-1	4.412842E-1
3.602000E+10	-7.249756E-1	3.570862E-1	2.471466E-1	-1.032486E-1	-4.384279E-3	6.087065E-3	-3.210602E-1	4.366913E-1
3.624450E+10	-7.264709E-1	3.599854E-1	2.446060E-1	-1.013641E-1	-5.387783E-3	3.066301E-3	-3.148804E-1	4.417725E-1
3.646900E+10	-7.236023E-1	3.613281E-1	2.453537E-1	-1.118317E-1	-3.476858E-3	4.457474E-3	-3.125458E-1	4.423523E-1
3.669350E+10	-7.233276E-1	3.581543E-1	2.416229E-1	-1.177292E-1	-3.709793E-4	1.006508E-2	-2.938385E-1	4.440613E-1
3.691800E+10	-7.249451E-1	3.601685E-1	2.404022E-1	-1.225510E-1	1.819134E-3	8.895397E-3	-2.905121E-1	4.470215E-1
3.714250E+10	-7.193604E-1	3.611145E-1	2.410889E-1	-1.246414E-1	2.670527E-3	5.267143E-3	-2.835236E-1	4.552002E-1
3.736700E+10	-7.161255E-1	3.676758E-1	2.373962E-1	-1.309509E-1	1.347065E-3	9.284496E-3	-2.736816E-1	4.525299E-1
3.759150E+10	-7.177124E-1	3.658142E-1	2.271957E-1	-1.343231E-1	7.767677E-3	6.729603E-3	-2.716522E-1	4.564667E-1
3.781600E+10	-7.110901E-1	3.686218E-1	2.275848E-1	-1.354294E-1	7.453918E-3	1.292229E-2	-2.652435E-1	4.531250E-1
3.804050E+10	-7.158203E-1	3.662109E-1	2.247009E-1	-1.397247E-1	1.163006E-2	5.886078E-3	-2.512970E-1	4.501343E-1
3.826500E+10	-7.197266E-1	3.720398E-1	2.268982E-1	-1.505814E-1	8.166313E-3	1.127863E-2	-2.483521E-1	4.559479E-1
3.848950E+10	-7.163086E-1	3.742371E-1	2.237930E-1	-1.498184E-1	8.040428E-3	8.558750E-3	-2.415161E-1	4.531250E-1
3.871400E+10	-7.111206E-1	3.732605E-1	2.178345E-1	-1.620102E-1	1.304483E-2	5.585194E-3	-2.313538E-1	4.509430E-1
3.893850E+10	-7.200928E-1	3.809814E-1	2.158890E-1	-1.652374E-1	1.352978E-2	8.793831E-3	-2.262726E-1	4.442291E-1
3.916300E+10	-7.141113E-1	3.822937E-1	2.094727E-1	-1.711044E-1	1.392937E-2	1.014709E-2	-2.166901E-1	4.546356E-1
3.938750E+10	-7.124329E-1	3.816528E-1	2.072144E-1	-1.734238E-1	1.681614E-2	7.510185E-3	-2.247467E-1	4.487152E-1
