!Date: 10/28/2005, 12:34 PM

!Vgs = -3.000000E+0
!Vds = 1.000000E+0
!Ig = -1.432100E-5
!Id = 2.648300E-1

# HZ S RI R 50
1.000000E+8	9.754944E-1	-1.781616E-1	-1.084351E+0	7.366943E-2	9.138584E-4	5.854130E-3	-8.063965E-1	-7.229614E-2
3.245000E+8	8.317261E-1	-5.167847E-1	-9.648743E-1	2.947693E-1	5.024433E-3	1.537323E-2	-8.479309E-1	-2.325439E-2
5.490000E+8	6.070557E-1	-7.569885E-1	-8.200073E-1	4.480286E-1	1.167107E-2	2.177048E-2	-8.255615E-1	5.493164E-3
7.735000E+8	3.589478E-1	-8.933411E-1	-6.714783E-1	5.293884E-1	1.951218E-2	2.501678E-2	-8.333130E-1	7.812500E-3
9.980000E+8	1.310730E-1	-9.476013E-1	-5.374146E-1	5.593262E-1	2.603149E-2	2.611732E-2	-8.360596E-1	1.776123E-2
1.222500E+9	-6.445312E-2	-9.501038E-1	-4.238281E-1	5.614624E-1	3.207779E-2	2.566910E-2	-8.334045E-1	2.169800E-2
1.447000E+9	-2.227478E-1	-9.223938E-1	-3.308716E-1	5.454102E-1	3.692245E-2	2.414513E-2	-8.363647E-1	2.963257E-2
1.671500E+9	-3.486938E-1	-8.802490E-1	-2.578735E-1	5.222473E-1	3.993797E-2	2.264786E-2	-8.366699E-1	3.634644E-2
1.896000E+9	-4.499817E-1	-8.313599E-1	-1.992950E-1	4.954529E-1	4.345322E-2	2.054977E-2	-8.376160E-1	4.391479E-2
2.120500E+9	-5.301819E-1	-7.814026E-1	-1.518860E-1	4.647675E-1	4.593277E-2	1.873589E-2	-8.385620E-1	5.136108E-2
2.345000E+9	-5.966187E-1	-7.303772E-1	-1.144867E-1	4.382935E-1	4.740715E-2	1.651001E-2	-8.391113E-1	5.911255E-2
2.569500E+9	-6.458130E-1	-6.823730E-1	-8.436584E-2	4.112549E-1	4.918861E-2	1.403809E-2	-8.371277E-1	6.594849E-2
2.794000E+9	-6.888428E-1	-6.404114E-1	-6.027222E-2	3.865509E-1	5.043221E-2	1.228523E-2	-8.381042E-1	7.351685E-2
3.018500E+9	-7.232666E-1	-5.984802E-1	-4.037476E-2	3.641663E-1	5.117226E-2	1.064110E-2	-8.366699E-1	8.068848E-2
3.243000E+9	-7.527161E-1	-5.614319E-1	-2.319336E-2	3.433380E-1	5.181503E-2	9.103775E-3	-8.360596E-1	8.746338E-2
3.467500E+9	-7.777405E-1	-5.267639E-1	-9.460449E-3	3.258667E-1	5.199051E-2	7.419586E-3	-8.342896E-1	9.429932E-2
3.692000E+9	-7.972412E-1	-4.942627E-1	2.212524E-3	3.072662E-1	5.236816E-2	5.800247E-3	-8.323975E-1	1.005859E-1
3.916500E+9	-8.150940E-1	-4.645691E-1	1.196289E-2	2.909088E-1	5.284691E-2	4.457474E-3	-8.320007E-1	1.076965E-1
4.141000E+9	-8.304443E-1	-4.361267E-1	2.093506E-2	2.752838E-1	5.372429E-2	3.206253E-3	-8.295288E-1	1.155090E-1
4.365500E+9	-8.417664E-1	-4.098511E-1	2.781677E-2	2.628479E-1	5.337524E-2	1.550674E-3	-8.287354E-1	1.203003E-1
4.590000E+9	-8.527527E-1	-3.869019E-1	3.445435E-2	2.492752E-1	5.325699E-2	7.820129E-4	-8.278503E-1	1.275330E-1
4.814500E+9	-8.625793E-1	-3.648987E-1	3.953552E-2	2.384491E-1	5.380058E-2	-5.531311E-4	-8.255920E-1	1.346130E-1
5.039000E+9	-8.711548E-1	-3.436584E-1	4.462433E-2	2.267075E-1	5.367851E-2	-1.707077E-3	-8.240051E-1	1.407471E-1
5.263500E+9	-8.785400E-1	-3.225098E-1	4.861450E-2	2.157898E-1	5.340385E-2	-3.141403E-3	-8.222961E-1	1.466980E-1
5.488000E+9	-8.838196E-1	-3.049011E-1	5.231476E-2	2.062836E-1	5.381775E-2	-3.963470E-3	-8.203125E-1	1.547241E-1
5.712500E+9	-8.899536E-1	-2.870483E-1	5.550385E-2	1.979446E-1	5.345917E-2	-4.940033E-3	-8.183899E-1	1.603699E-1
5.937000E+9	-8.941650E-1	-2.698364E-1	5.806732E-2	1.896133E-1	5.371666E-2	-6.055832E-3	-8.158875E-1	1.666870E-1
6.161500E+9	-8.988647E-1	-2.556152E-1	6.077576E-2	1.814880E-1	5.363655E-2	-7.083893E-3	-8.143311E-1	1.750488E-1
6.386000E+9	-9.031982E-1	-2.396240E-1	6.251526E-2	1.738586E-1	5.307579E-2	-8.373260E-3	-8.103333E-1	1.805725E-1
6.610500E+9	-9.064636E-1	-2.261353E-1	6.445312E-2	1.666107E-1	5.324936E-2	-8.714676E-3	-8.091736E-1	1.853027E-1
6.835000E+9	-9.102478E-1	-2.129211E-1	6.634521E-2	1.592941E-1	5.270767E-2	-1.011276E-2	-8.056335E-1	1.945190E-1
7.059500E+9	-9.117737E-1	-2.005310E-1	6.697845E-2	1.537323E-1	5.234528E-2	-1.054955E-2	-8.003235E-1	1.982727E-1
7.284000E+9	-9.143372E-1	-1.875305E-1	6.882477E-2	1.482086E-1	5.201149E-2	-1.178932E-2	-8.010559E-1	2.029724E-1
7.508500E+9	-9.173889E-1	-1.760864E-1	6.911469E-2	1.421051E-1	5.167580E-2	-1.223183E-2	-7.958069E-1	2.097168E-1
7.733000E+9	-9.177246E-1	-1.643677E-1	6.954956E-2	1.366730E-1	5.135155E-2	-1.298523E-2	-7.931519E-1	2.131042E-1
7.957500E+9	-9.197998E-1	-1.519165E-1	7.129669E-2	1.315308E-1	5.075073E-2	-1.391983E-2	-7.915649E-1	2.204895E-1
8.182000E+9	-9.216614E-1	-1.411438E-1	7.170105E-2	1.271667E-1	5.048370E-2	-1.466560E-2	-7.890015E-1	2.256470E-1
8.406500E+9	-9.219971E-1	-1.323242E-1	7.152176E-2	1.236954E-1	5.009842E-2	-1.607513E-2	-7.852783E-1	2.325745E-1
8.631000E+9	-9.237366E-1	-1.210327E-1	7.282257E-2	1.183586E-1	4.946327E-2	-1.594543E-2	-7.819214E-1	2.371521E-1
8.855500E+9	-9.240417E-1	-1.119080E-1	7.310486E-2	1.136894E-1	4.896545E-2	-1.646423E-2	-7.799072E-1	2.441711E-1
9.080001E+9	-9.255981E-1	-1.039429E-1	7.288742E-2	1.096230E-1	4.828453E-2	-1.792336E-2	-7.744446E-1	2.504272E-1
9.304500E+9	-9.258423E-1	-9.210205E-2	7.385254E-2	1.059113E-1	4.755020E-2	-1.886559E-2	-7.720642E-1	2.541809E-1
9.529000E+9	-9.263916E-1	-8.523560E-2	7.416153E-2	1.021500E-1	4.641914E-2	-1.838684E-2	-7.689514E-1	2.600403E-1
9.753500E+9	-9.279175E-1	-7.669067E-2	7.364273E-2	9.936523E-2	4.674530E-2	-1.904297E-2	-7.640991E-1	2.655334E-1
9.978000E+9	-9.271545E-1	-6.906128E-2	7.306671E-2	9.553146E-2	4.631996E-2	-2.006912E-2	-7.610779E-1	2.694092E-1
1.020250E+10	-9.284363E-1	-6.048584E-2	7.300949E-2	9.252930E-2	4.571152E-2	-2.031326E-2	-7.576904E-1	2.757568E-1
1.042700E+10	-9.293213E-1	-5.255127E-2	7.349777E-2	8.926392E-2	4.465485E-2	-2.135849E-2	-7.530518E-1	2.813721E-1
1.065150E+10	-9.289246E-1	-4.400635E-2	7.329178E-2	8.692932E-2	4.477310E-2	-2.163506E-2	-7.500000E-1	2.836609E-1
1.087600E+10	-9.296265E-1	-3.671265E-2	7.338715E-2	8.422470E-2	4.384422E-2	-2.192688E-2	-7.463989E-1	2.895813E-1
1.110050E+10	-9.288940E-1	-2.822876E-2	7.330704E-2	8.182526E-2	4.306793E-2	-2.158928E-2	-7.416382E-1	2.956543E-1
1.132500E+10	-9.288635E-1	-2.151489E-2	7.302094E-2	7.923126E-2	4.295349E-2	-2.216530E-2	-7.379761E-1	2.982483E-1
1.154950E+10	-9.281311E-1	-1.312256E-2	7.255173E-2	7.617187E-2	4.200172E-2	-2.255058E-2	-7.357788E-1	3.034058E-1
1.177400E+10	-9.279480E-1	-6.256104E-3	7.231903E-2	7.451630E-2	4.124832E-2	-2.334023E-2	-7.302551E-1	3.100891E-1
1.199850E+10	-9.272766E-1	-9.155273E-5	7.181931E-2	7.239151E-2	4.134750E-2	-2.339554E-2	-7.259521E-1	3.112488E-1
1.222300E+10	-9.268799E-1	6.896973E-3	7.230377E-2	7.011032E-2	4.098511E-2	-2.343178E-2	-7.224426E-1	3.163452E-1
1.244750E+10	-9.271545E-1	1.300049E-2	7.147217E-2	6.763458E-2	4.000473E-2	-2.437973E-2	-7.188721E-1	3.225098E-1
1.267200E+10	-9.271240E-1	1.956177E-2	7.112503E-2	6.599045E-2	3.971481E-2	-2.492142E-2	-7.136230E-1	3.236694E-1
1.289650E+10	-9.261780E-1	2.539062E-2	7.074738E-2	6.418610E-2	3.959274E-2	-2.395821E-2	-7.124329E-1	3.274536E-1
1.312100E+10	-9.264832E-1	3.173828E-2	7.024765E-2	6.235123E-2	3.862190E-2	-2.399254E-2	-7.070618E-1	3.342896E-1
1.334550E+10	-9.258423E-1	3.872681E-2	7.096481E-2	6.091309E-2	3.891945E-2	-2.497864E-2	-7.019348E-1	3.364258E-1
1.357000E+10	-9.239197E-1	4.379272E-2	7.070923E-2	5.946732E-2	3.718185E-2	-2.487564E-2	-6.981812E-1	3.377991E-1
1.379450E+10	-9.247742E-1	4.956055E-2	7.003403E-2	5.726624E-2	3.721046E-2	-2.526283E-2	-6.961365E-1	3.435974E-1
1.401900E+10	-9.231262E-1	5.474854E-2	7.007980E-2	5.596542E-2	3.605461E-2	-2.535820E-2	-6.911011E-1	3.479004E-1
1.424350E+10	-9.230347E-1	6.158447E-2	6.842422E-2	5.384445E-2	3.579903E-2	-2.526855E-2	-6.885071E-1	3.498535E-1
1.446800E+10	-9.221497E-1	6.808472E-2	6.959534E-2	5.295563E-2	3.597641E-2	-2.645111E-2	-6.835937E-1	3.563843E-1
1.469250E+10	-9.205933E-1	7.379150E-2	6.863022E-2	5.215836E-2	3.492546E-2	-2.621078E-2	-6.769714E-1	3.599854E-1
1.491700E+10	-9.186401E-1	7.870483E-2	6.870651E-2	5.125046E-2	3.460312E-2	-2.652931E-2	-6.763916E-1	3.600159E-1
1.514150E+10	-9.181824E-1	8.508301E-2	6.789398E-2	4.980469E-2	3.409386E-2	-2.666283E-2	-6.717224E-1	3.668823E-1
1.536600E+10	-9.164429E-1	9.097290E-2	6.781387E-2	4.703522E-2	3.331757E-2	-2.667427E-2	-6.638184E-1	3.688049E-1
1.559050E+10	-9.161682E-1	9.628296E-2	6.815338E-2	4.662323E-2	3.305626E-2	-2.678871E-2	-6.627502E-1	3.710937E-1
1.581500E+10	-9.145813E-1	1.018677E-1	6.716919E-2	4.561615E-2	3.295898E-2	-2.631950E-2	-6.591797E-1	3.743286E-1
1.603950E+10	-9.147949E-1	1.069946E-1	6.702423E-2	4.441071E-2	3.099918E-2	-2.619839E-2	-6.532898E-1	3.797302E-1
1.626400E+10	-9.127502E-1	1.132202E-1	6.695175E-2	4.260635E-2	3.180313E-2	-2.739906E-2	-6.516418E-1	3.810425E-1
1.648850E+10	-9.117126E-1	1.180725E-1	6.527710E-2	4.238129E-2	3.068829E-2	-2.719212E-2	-6.476746E-1	3.852234E-1
1.671300E+10	-9.106140E-1	1.220398E-1	6.586075E-2	4.033279E-2	2.986908E-2	-2.808285E-2	-6.420898E-1	3.886719E-1
1.693750E+10	-9.090271E-1	1.274719E-1	6.592560E-2	4.049683E-2	2.988815E-2	-2.743149E-2	-6.390076E-1	3.890991E-1
1.716200E+10	-9.084473E-1	1.333313E-1	6.560516E-2	3.989792E-2	3.005600E-2	-2.779579E-2	-6.356201E-1	3.940735E-1
1.738650E+10	-9.065247E-1	1.385193E-1	6.607437E-2	3.924561E-2	2.919292E-2	-2.712917E-2	-6.315308E-1	3.976440E-1
1.761100E+10	-9.047546E-1	1.431885E-1	6.497574E-2	3.816986E-2	2.867889E-2	-2.823639E-2	-6.289673E-1	3.972778E-1
1.783550E+10	-9.038391E-1	1.503906E-1	6.497955E-2	3.853607E-2	2.976131E-2	-2.804089E-2	-6.262817E-1	4.033203E-1
1.806000E+10	-9.031372E-1	1.533813E-1	6.592560E-2	3.697205E-2	2.726364E-2	-2.739620E-2	-6.192627E-1	4.075317E-1
1.828450E+10	-9.002380E-1	1.587830E-1	6.455612E-2	3.555298E-2	2.754593E-2	-2.836037E-2	-6.157837E-1	4.081421E-1
1.850900E+10	-8.993225E-1	1.630859E-1	6.501389E-2	3.557587E-2	2.665806E-2	-2.844620E-2	-6.147766E-1	4.130859E-1
1.873350E+10	-8.975830E-1	1.675110E-1	6.227112E-2	3.553009E-2	2.626324E-2	-2.834988E-2	-6.065979E-1	4.166260E-1
1.895800E+10	-8.932190E-1	1.733398E-1	6.439209E-2	3.424835E-2	2.581215E-2	-2.701092E-2	-6.027832E-1	4.152222E-1
1.918250E+10	-8.926697E-1	1.767273E-1	6.489944E-2	3.354263E-2	2.425385E-2	-2.825069E-2	-6.003113E-1	4.191589E-1
1.940700E+10	-8.908081E-1	1.822815E-1	6.341553E-2	3.409576E-2	2.512836E-2	-2.796555E-2	-5.951538E-1	4.259949E-1
1.963150E+10	-8.901672E-1	1.866150E-1	6.399155E-2	3.205109E-2	2.392864E-2	-2.856445E-2	-5.893860E-1	4.244080E-1
1.985600E+10	-8.865967E-1	1.911011E-1	6.352997E-2	3.181076E-2	2.338600E-2	-2.908325E-2	-5.887756E-1	4.279785E-1
2.008050E+10	-8.854065E-1	1.947021E-1	6.241035E-2	3.078842E-2	2.225018E-2	-2.821732E-2	-5.842285E-1	4.323120E-1
2.030500E+10	-8.821716E-1	1.997375E-1	6.380081E-2	3.003311E-2	2.216434E-2	-2.831078E-2	-5.780029E-1	4.328003E-1
2.052950E+10	-8.819275E-1	2.041931E-1	6.212234E-2	2.918053E-2	2.060127E-2	-2.762413E-2	-5.743713E-1	4.347534E-1
2.075400E+10	-8.788147E-1	2.082214E-1	6.491852E-2	2.810287E-2	2.073765E-2	-2.862072E-2	-5.720520E-1	4.407349E-1
2.097850E+10	-8.780823E-1	2.133179E-1	6.433105E-2	2.829742E-2	1.954174E-2	-2.870464E-2	-5.652466E-1	4.424438E-1
2.120300E+10	-8.735046E-1	2.163391E-1	6.502914E-2	2.759552E-2	2.073479E-2	-2.942562E-2	-5.633240E-1	4.422302E-1
2.142750E+10	-8.732605E-1	2.214355E-1	6.359482E-2	2.793503E-2	2.032089E-2	-2.799225E-2	-5.613403E-1	4.472351E-1
2.165200E+10	-8.688354E-1	2.250671E-1	6.641006E-2	2.757645E-2	1.990891E-2	-2.709579E-2	-5.562134E-1	4.475098E-1
2.187650E+10	-8.649292E-1	2.296448E-1	6.607056E-2	2.557755E-2	1.877785E-2	-2.674866E-2	-5.547791E-1	4.509888E-1
2.210100E+10	-8.648682E-1	2.335815E-1	6.528854E-2	2.690125E-2	1.768589E-2	-2.750683E-2	-5.516357E-1	4.563599E-1
2.232550E+10	-8.613892E-1	2.354431E-1	6.496429E-2	2.749634E-2	1.804638E-2	-2.622986E-2	-5.430603E-1	4.574890E-1
2.255000E+10	-8.581848E-1	2.404175E-1	6.451035E-2	2.484512E-2	1.699257E-2	-2.797794E-2	-5.392456E-1	4.592285E-1
2.277450E+10	-8.551941E-1	2.477722E-1	6.499863E-2	2.593994E-2	1.640797E-2	-2.728558E-2	-5.373535E-1	4.623108E-1
2.299900E+10	-8.541260E-1	2.471313E-1	6.520844E-2	2.359772E-2	1.515579E-2	-2.580738E-2	-5.289612E-1	4.644470E-1
2.322350E+10	-8.505554E-1	2.537537E-1	6.651306E-2	2.385712E-2	1.354504E-2	-2.607632E-2	-5.276489E-1	4.660645E-1
2.344800E+10	-8.471985E-1	2.540588E-1	6.665802E-2	2.332687E-2	1.426411E-2	-2.744579E-2	-5.246277E-1	4.705200E-1
2.367250E+10	-8.454590E-1	2.592468E-1	6.618500E-2	2.225113E-2	1.203156E-2	-2.647305E-2	-5.155945E-1	4.725952E-1
2.389700E+10	-8.409729E-1	2.630920E-1	6.686020E-2	2.138138E-2	1.041985E-2	-2.782536E-2	-5.136414E-1	4.726868E-1
2.412150E+10	-8.375244E-1	2.653198E-1	6.494904E-2	2.212143E-2	1.132202E-2	-2.487659E-2	-5.079346E-1	4.776001E-1
2.434600E+10	-8.348389E-1	2.690735E-1	6.500626E-2	2.076340E-2	8.919716E-3	-2.659130E-2	-5.040894E-1	4.785461E-1
2.457050E+10	-8.327332E-1	2.727356E-1	6.592941E-2	1.830673E-2	9.166718E-3	-2.625465E-2	-5.008240E-1	4.761353E-1
2.479500E+10	-8.282776E-1	2.746887E-1	6.593704E-2	2.016068E-2	9.795189E-3	-2.536392E-2	-4.949341E-1	4.828796E-1
2.501950E+10	-8.236084E-1	2.768555E-1	6.594849E-2	1.870346E-2	8.143425E-3	-2.514458E-2	-4.848633E-1	4.828186E-1
2.524400E+10	-8.219910E-1	2.785339E-1	6.605148E-2	1.711273E-2	7.294655E-3	-2.153778E-2	-4.830322E-1	4.824524E-1
2.546850E+10	-8.172607E-1	2.838440E-1	6.787872E-2	1.795959E-2	9.378433E-3	-2.040672E-2	-4.799652E-1	4.868317E-1
2.569300E+10	-8.146973E-1	2.824097E-1	6.858826E-2	1.834106E-2	8.385658E-3	-2.176285E-2	-4.748993E-1	4.848633E-1
2.591750E+10	-8.109436E-1	2.858276E-1	7.009125E-2	1.680374E-2	6.079674E-3	-1.944733E-2	-4.747467E-1	4.860687E-1
2.614200E+10	-8.083191E-1	2.880859E-1	6.896973E-2	1.704025E-2	5.400658E-3	-2.120590E-2	-4.752045E-1	4.908142E-1
2.636650E+10	-8.061829E-1	2.894287E-1	6.882477E-2	1.608658E-2	5.821228E-3	-1.918030E-2	-4.649963E-1	4.956970E-1
2.659100E+10	-8.023071E-1	2.902832E-1	6.846619E-2	1.365662E-2	5.063057E-3	-1.915073E-2	-4.566956E-1	4.947205E-1
2.681550E+10	-7.993164E-1	2.899780E-1	7.023621E-2	1.393127E-2	4.992485E-3	-1.604271E-2	-4.568176E-1	4.947662E-1
2.704000E+10	-7.982788E-1	2.936707E-1	7.016754E-2	1.094818E-2	4.350662E-3	-1.860523E-2	-4.483948E-1	5.015869E-1
2.726450E+10	-7.921143E-1	2.946472E-1	7.144165E-2	1.102829E-2	5.719185E-3	-1.705265E-2	-4.404907E-1	5.000916E-1
2.748900E+10	-7.894897E-1	2.951355E-1	7.071304E-2	1.103210E-2	3.499031E-3	-1.550865E-2	-4.402771E-1	4.997864E-1
2.771350E+10	-7.867126E-1	2.957764E-1	7.075500E-2	8.983612E-3	5.464554E-3	-1.691628E-2	-4.350281E-1	5.024719E-1
2.793800E+10	-7.847290E-1	2.954712E-1	7.085800E-2	9.952545E-3	2.750397E-3	-1.338100E-2	-4.336243E-1	5.010376E-1
2.816250E+10	-7.842712E-1	2.977905E-1	7.114792E-2	6.175995E-3	2.817631E-3	-1.178932E-2	-4.287720E-1	5.038452E-1
2.838700E+10	-7.822266E-1	2.955322E-1	7.152557E-2	6.385803E-3	4.179478E-3	-1.424074E-2	-4.208679E-1	5.060730E-1
2.861150E+10	-7.816467E-1	2.997131E-1	7.241058E-2	5.229950E-3	3.570557E-3	-1.329947E-2	-4.159851E-1	5.045776E-1
2.883600E+10	-7.783203E-1	2.978210E-1	6.999588E-2	5.039215E-3	3.001690E-3	-8.981705E-3	-4.117432E-1	5.008850E-1
2.906050E+10	-7.752075E-1	2.998657E-1	7.211304E-2	4.257202E-3	4.776478E-3	-8.864403E-3	-4.098511E-1	5.079346E-1
2.928500E+10	-7.727966E-1	3.017273E-1	6.947327E-2	3.726959E-3	5.901814E-3	-8.781910E-3	-4.064941E-1	5.063782E-1
2.950950E+10	-7.730103E-1	3.031006E-1	7.133484E-2	-4.119873E-4	5.135298E-3	-4.623890E-3	-4.033508E-1	5.098267E-1
2.973400E+10	-7.705383E-1	3.019104E-1	7.139587E-2	1.399994E-3	6.450176E-3	-8.391380E-3	-3.991089E-1	5.111389E-1
2.995850E+10	-7.700500E-1	3.018799E-1	7.114410E-2	3.471375E-4	6.748915E-3	-6.377935E-3	-3.959045E-1	5.066528E-1
3.018300E+10	-7.683411E-1	3.003845E-1	7.365417E-2	5.722046E-5	6.692171E-3	-3.178596E-3	-3.911743E-1	5.198059E-1
3.040750E+10	-7.662964E-1	3.044434E-1	7.217407E-2	-6.294250E-4	9.166241E-3	-5.648136E-3	-3.851929E-1	5.183411E-1
3.063200E+10	-7.688599E-1	3.039856E-1	7.265854E-2	-1.934052E-3	9.063244E-3	-4.409313E-3	-3.851318E-1	5.166016E-1
3.085650E+10	-7.681885E-1	3.045654E-1	7.262802E-2	-4.913330E-3	7.616282E-3	-5.268574E-3	-3.742065E-1	5.209351E-1
3.108100E+10	-7.666016E-1	3.060303E-1	7.115555E-2	-5.146027E-3	8.920193E-3	-2.366543E-3	-3.720398E-1	5.192871E-1
3.130550E+10	-7.655334E-1	3.090515E-1	7.144928E-2	-7.530212E-3	7.857800E-3	-9.737015E-4	-3.620605E-1	5.185852E-1
3.153000E+10	-7.666626E-1	3.034973E-1	7.083130E-2	-7.270813E-3	9.509563E-3	-3.164768E-3	-3.601074E-1	5.222473E-1
3.175450E+10	-7.662354E-1	3.110046E-1	6.913376E-2	-1.005936E-2	6.106377E-3	-2.637148E-3	-3.579712E-1	5.223389E-1
3.197900E+10	-7.642517E-1	3.109741E-1	6.746674E-2	-7.625580E-3	1.041269E-2	-8.482933E-4	-3.470459E-1	5.226746E-1
3.220350E+10	-7.681885E-1	3.092041E-1	7.194138E-2	-1.180267E-2	1.138926E-2	9.703636E-4	-3.429260E-1	5.271606E-1
3.242800E+10	-7.703857E-1	3.126526E-1	6.554794E-2	-1.091385E-2	1.394796E-2	2.294540E-3	-3.414612E-1	5.229187E-1
3.265250E+10	-7.673340E-1	3.148193E-1	6.681824E-2	-1.083374E-2	1.181650E-2	1.134872E-3	-3.360596E-1	5.234070E-1
3.287700E+10	-7.662048E-1	3.140259E-1	6.930923E-2	-1.023865E-2	1.573181E-2	-2.020836E-3	-3.324280E-1	5.277100E-1
3.310150E+10	-7.675171E-1	3.176575E-1	6.141281E-2	-1.159668E-2	1.647663E-2	3.366470E-3	-3.225708E-1	5.232544E-1
3.332600E+10	-7.643433E-1	3.222656E-1	6.377792E-2	-1.336670E-2	1.748753E-2	8.268356E-3	-3.241882E-1	5.196228E-1
3.355050E+10	-7.654419E-1	3.237915E-1	6.711197E-2	-1.192474E-2	1.692867E-2	2.861023E-4	-3.198242E-1	5.218201E-1
3.377500E+10	-7.644348E-1	3.235779E-1	6.932068E-2	-1.300049E-2	1.819420E-2	-2.036095E-3	-3.119507E-1	5.202332E-1
3.399950E+10	-7.651978E-1	3.210449E-1	6.625366E-2	-1.735687E-2	1.794910E-2	6.513596E-4	-3.119202E-1	5.186157E-1
3.422400E+10	-7.676697E-1	3.297424E-1	6.453705E-2	-1.761627E-2	1.650238E-2	-2.605438E-3	-3.103638E-1	5.268250E-1
3.444850E+10	-7.635193E-1	3.302307E-1	6.278610E-2	-1.517868E-2	1.990223E-2	1.125336E-3	-3.046265E-1	5.247803E-1
3.467300E+10	-7.633667E-1	3.334351E-1	6.298828E-2	-1.871109E-2	1.770210E-2	2.784729E-4	-2.991028E-1	5.236816E-1
3.489750E+10	-7.641602E-1	3.364258E-1	6.076050E-2	-1.972198E-2	1.796722E-2	9.422302E-4	-2.963867E-1	5.297241E-1
3.512200E+10	-7.650757E-1	3.354492E-1	6.017113E-2	-1.595688E-2	1.952076E-2	2.485275E-3	-2.888794E-1	5.260620E-1
3.534650E+10	-7.662964E-1	3.340149E-1	5.998230E-2	-1.828575E-2	1.968765E-2	-8.945465E-4	-2.879944E-1	5.285034E-1
3.557100E+10	-7.666626E-1	3.362427E-1	5.877495E-2	-2.235985E-2	2.073288E-2	2.996445E-3	-2.810059E-1	5.310059E-1
3.579550E+10	-7.681274E-1	3.418579E-1	6.152153E-2	-1.675606E-2	2.800560E-2	4.224777E-4	-2.732544E-1	5.234985E-1
3.602000E+10	-7.660217E-1	3.458862E-1	6.115913E-2	-2.085876E-2	2.531910E-2	-1.588821E-3	-2.671814E-1	5.241089E-1
3.624450E+10	-7.607117E-1	3.474731E-1	5.843353E-2	-2.387047E-2	2.589989E-2	-1.551628E-3	-2.653198E-1	5.259705E-1
3.646900E+10	-7.665100E-1	3.525391E-1	5.988884E-2	-2.007103E-2	1.848221E-2	1.565933E-3	-2.654419E-1	5.281372E-1
3.669350E+10	-7.642212E-1	3.526306E-1	5.828094E-2	-2.448273E-2	2.208233E-2	7.047653E-4	-2.605591E-1	5.258179E-1
3.691800E+10	-7.638550E-1	3.560181E-1	5.941200E-2	-1.990891E-2	2.539635E-2	5.549431E-3	-2.518921E-1	5.261841E-1
3.714250E+10	-7.648010E-1	3.576660E-1	5.573654E-2	-2.163506E-2	2.086449E-2	3.688812E-3	-2.592773E-1	5.253296E-1
3.736700E+10	-7.630615E-1	3.636169E-1	5.320358E-2	-1.870346E-2	2.158642E-2	-6.370544E-4	-2.419434E-1	5.221863E-1
3.759150E+10	-7.600403E-1	3.612976E-1	5.237389E-2	-2.206230E-2	2.279758E-2	-1.335144E-4	-2.453613E-1	5.227356E-1
3.781600E+10	-7.564392E-1	3.664551E-1	5.652237E-2	-1.928329E-2	2.355671E-2	-2.429962E-3	-2.411499E-1	5.249023E-1
3.804050E+10	-7.547302E-1	3.712158E-1	6.172943E-2	-2.671242E-2	2.718830E-2	2.975464E-3	-2.309265E-1	5.274353E-1
3.826500E+10	-7.579346E-1	3.725281E-1	5.673027E-2	-2.169991E-2	2.234650E-2	-1.110077E-3	-2.249451E-1	5.289001E-1
3.848950E+10	-7.588196E-1	3.747864E-1	5.204964E-2	-1.667404E-2	2.596474E-2	1.300812E-3	-2.179260E-1	5.207520E-1
3.871400E+10	-7.576904E-1	3.795776E-1	5.504799E-2	-2.623940E-2	2.853870E-2	-2.007484E-3	-2.160950E-1	5.264282E-1
3.893850E+10	-7.550049E-1	3.843384E-1	5.743027E-2	-1.984596E-2	2.883434E-2	-3.999710E-3	-2.089844E-1	5.221558E-1
3.916300E+10	-7.560120E-1	3.831177E-1	5.864334E-2	-2.659225E-2	2.610683E-2	-1.889229E-3	-2.086792E-1	5.243530E-1
3.938750E+10	-7.544556E-1	3.889465E-1	5.607605E-2	-2.522659E-2	2.940178E-2	-1.487732E-4	-2.099609E-1	5.177307E-1
3.961200E+10	-7.539673E-1	3.846741E-1	5.363655E-2	-2.717400E-2	2.725029E-2	-3.352165E-3	-1.926575E-1	5.206604E-1
