!Date: 10/28/2005, 12:34 PM

!Vgs = -5.000000E+0
!Vds = 4.000000E+0
!Ig = -3.805400E-5
!Id = 7.912200E-3

# HZ S RI R 50
1.000000E+8	9.857788E-1	-8.413696E-2	-2.169922E+0	1.146240E-1	1.431465E-3	1.393747E-2	8.899231E-1	-2.484131E-2
3.245000E+8	9.454041E-1	-2.449341E-1	-2.078613E+0	4.508057E-1	8.535385E-3	3.713608E-2	8.529968E-1	-1.273804E-1
5.490000E+8	8.804016E-1	-3.906860E-1	-1.957214E+0	7.113647E-1	2.003098E-2	5.852509E-2	8.316040E-1	-1.988525E-1
7.735000E+8	7.966614E-1	-5.155640E-1	-1.783630E+0	9.223633E-1	3.486633E-2	7.527924E-2	7.948914E-1	-2.645264E-1
9.980000E+8	7.036743E-1	-6.177063E-1	-1.590210E+0	1.092529E+0	5.134583E-2	8.914948E-2	7.564392E-1	-3.179932E-1
1.222500E+9	6.007385E-1	-6.990662E-1	-1.398071E+0	1.233093E+0	6.892395E-2	9.814453E-2	7.149353E-1	-3.671875E-1
1.447000E+9	4.973450E-1	-7.600708E-1	-1.197632E+0	1.316101E+0	8.628845E-2	1.041069E-1	6.743469E-1	-4.093628E-1
1.671500E+9	3.954468E-1	-8.032837E-1	-9.979248E-1	1.364136E+0	1.032677E-1	1.082344E-1	6.302795E-1	-4.450378E-1
1.896000E+9	2.971802E-1	-8.314209E-1	-8.164673E-1	1.389465E+0	1.206818E-1	1.090431E-1	5.900574E-1	-4.730225E-1
2.120500E+9	2.042542E-1	-8.476868E-1	-6.527710E-1	1.397217E+0	1.373215E-1	1.075211E-1	5.508118E-1	-4.994812E-1
2.345000E+9	1.186523E-1	-8.524170E-1	-4.998169E-1	1.382568E+0	1.517792E-1	1.025925E-1	5.133972E-1	-5.209656E-1
2.569500E+9	4.452515E-2	-8.477173E-1	-3.571167E-1	1.348572E+0	1.643753E-1	9.701538E-2	4.767456E-1	-5.392151E-1
2.794000E+9	-2.700806E-2	-8.413696E-1	-2.373047E-1	1.315186E+0	1.750946E-1	9.066010E-2	4.436646E-1	-5.542908E-1
3.018500E+9	-8.782959E-2	-8.286133E-1	-1.306763E-1	1.273560E+0	1.845169E-1	8.312988E-2	4.095764E-1	-5.699463E-1
3.243000E+9	-1.436157E-1	-8.139648E-1	-3.131104E-2	1.224121E+0	1.936493E-1	7.579041E-2	3.766174E-1	-5.817871E-1
3.467500E+9	-1.947632E-1	-7.980347E-1	5.297852E-2	1.172119E+0	2.002869E-1	6.835937E-2	3.485107E-1	-5.928650E-1
3.692000E+9	-2.415771E-1	-7.795105E-1	1.276245E-1	1.112976E+0	2.073746E-1	6.114197E-2	3.191833E-1	-6.047058E-1
3.916500E+9	-2.852173E-1	-7.596130E-1	1.926880E-1	1.060059E+0	2.129822E-1	5.271149E-2	2.917175E-1	-6.141052E-1
4.141000E+9	-3.226624E-1	-7.401733E-1	2.498779E-1	1.006348E+0	2.175598E-1	4.468536E-2	2.646179E-1	-6.222839E-1
4.365500E+9	-3.548584E-1	-7.205200E-1	2.992554E-1	9.547119E-1	2.212372E-1	3.656006E-2	2.383118E-1	-6.303406E-1
4.590000E+9	-3.850403E-1	-7.028503E-1	3.432007E-1	9.022522E-1	2.248383E-1	2.921295E-2	2.110291E-1	-6.366272E-1
4.814500E+9	-4.118652E-1	-6.844788E-1	3.801270E-1	8.477783E-1	2.284470E-1	2.188110E-2	1.875000E-1	-6.444092E-1
5.039000E+9	-4.385986E-1	-6.648865E-1	4.129639E-1	7.963257E-1	2.304230E-1	1.364899E-2	1.625061E-1	-6.518250E-1
5.263500E+9	-4.638977E-1	-6.447144E-1	4.405823E-1	7.481689E-1	2.317200E-1	5.996704E-3	1.370544E-1	-6.572571E-1
5.488000E+9	-4.828491E-1	-6.281738E-1	4.639282E-1	7.034607E-1	2.319870E-1	-1.335144E-3	1.143188E-1	-6.608887E-1
5.712500E+9	-5.028076E-1	-6.117249E-1	4.847717E-1	6.596680E-1	2.337112E-1	-8.163452E-3	9.100342E-2	-6.658325E-1
5.937000E+9	-5.189819E-1	-5.951538E-1	5.012817E-1	6.142273E-1	2.337570E-1	-1.548767E-2	6.704712E-2	-6.698914E-1
6.161500E+9	-5.358276E-1	-5.794678E-1	5.151062E-1	5.711670E-1	2.342148E-1	-2.223969E-2	4.544067E-2	-6.735535E-1
6.386000E+9	-5.525208E-1	-5.632324E-1	5.269775E-1	5.287476E-1	2.331161E-1	-2.866364E-2	2.163696E-2	-6.775818E-1
6.610500E+9	-5.669556E-1	-5.479126E-1	5.369873E-1	4.908447E-1	2.333374E-1	-3.515625E-2	-1.770020E-3	-6.810913E-1
6.835000E+9	-5.799255E-1	-5.350647E-1	5.449524E-1	4.576111E-1	2.325363E-1	-4.175568E-2	-2.453613E-2	-6.810608E-1
7.059500E+9	-5.913086E-1	-5.205994E-1	5.481262E-1	4.188232E-1	2.316742E-1	-4.714966E-2	-4.318237E-2	-6.825562E-1
7.284000E+9	-6.033630E-1	-5.073242E-1	5.519104E-1	3.842773E-1	2.303085E-1	-5.392456E-2	-6.744385E-2	-6.856689E-1
7.508500E+9	-6.139221E-1	-4.945374E-1	5.547791E-1	3.534546E-1	2.286758E-1	-5.919647E-2	-8.895874E-2	-6.837158E-1
7.733000E+9	-6.232300E-1	-4.823303E-1	5.534973E-1	3.204346E-1	2.267456E-1	-6.417084E-2	-1.080627E-1	-6.842346E-1
7.957500E+9	-6.333618E-1	-4.695129E-1	5.543213E-1	2.917175E-1	2.246933E-1	-6.998444E-2	-1.315918E-1	-6.834412E-1
8.182000E+9	-6.419678E-1	-4.560547E-1	5.523071E-1	2.617493E-1	2.243042E-1	-7.546234E-2	-1.516113E-1	-6.825562E-1
8.406500E+9	-6.501465E-1	-4.453125E-1	5.499573E-1	2.348633E-1	2.220688E-1	-7.952881E-2	-1.721191E-1	-6.806030E-1
8.631000E+9	-6.593628E-1	-4.338989E-1	5.486145E-1	2.110596E-1	2.195053E-1	-8.474731E-2	-1.934509E-1	-6.785889E-1
8.855500E+9	-6.662903E-1	-4.236145E-1	5.438843E-1	1.843262E-1	2.164993E-1	-8.975983E-2	-2.137146E-1	-6.757507E-1
9.080001E+9	-6.733398E-1	-4.154358E-1	5.395813E-1	1.601257E-1	2.148895E-1	-9.458923E-2	-2.323303E-1	-6.708984E-1
9.304500E+9	-6.806946E-1	-4.010315E-1	5.323486E-1	1.370544E-1	2.115707E-1	-9.832001E-2	-2.513428E-1	-6.676025E-1
9.529000E+9	-6.868896E-1	-3.931274E-1	5.278931E-1	1.160889E-1	2.094345E-1	-1.034851E-1	-2.709656E-1	-6.624451E-1
9.753500E+9	-6.943359E-1	-3.826294E-1	5.216370E-1	9.609985E-2	2.065659E-1	-1.070557E-1	-2.880554E-1	-6.573792E-1
9.978000E+9	-6.987915E-1	-3.733215E-1	5.153503E-1	7.775879E-2	2.036133E-1	-1.114655E-1	-3.070679E-1	-6.539917E-1
1.020250E+10	-7.045898E-1	-3.664856E-1	5.075989E-1	5.795288E-2	2.013016E-1	-1.145477E-1	-3.258667E-1	-6.474915E-1
1.042700E+10	-7.115173E-1	-3.561096E-1	5.001221E-1	3.997803E-2	1.982574E-1	-1.186905E-1	-3.420410E-1	-6.413574E-1
1.065150E+10	-7.164307E-1	-3.473206E-1	4.917908E-1	2.372742E-2	1.953506E-1	-1.224976E-1	-3.579712E-1	-6.361389E-1
1.087600E+10	-7.221985E-1	-3.375244E-1	4.836884E-1	8.193970E-3	1.916275E-1	-1.251297E-1	-3.761902E-1	-6.295166E-1
1.110050E+10	-7.261658E-1	-3.287354E-1	4.769745E-1	-6.240845E-3	1.882095E-1	-1.291656E-1	-3.937378E-1	-6.227417E-1
1.132500E+10	-7.304687E-1	-3.221130E-1	4.690552E-1	-2.139282E-2	1.849976E-1	-1.313019E-1	-4.075317E-1	-6.171265E-1
1.154950E+10	-7.354126E-1	-3.128052E-1	4.590454E-1	-3.619385E-2	1.824188E-1	-1.351013E-1	-4.268494E-1	-6.065979E-1
1.177400E+10	-7.388916E-1	-3.046265E-1	4.513702E-1	-4.957581E-2	1.798935E-1	-1.378860E-1	-4.407043E-1	-5.980225E-1
1.199850E+10	-7.437744E-1	-2.962646E-1	4.425659E-1	-6.086731E-2	1.753693E-1	-1.406937E-1	-4.544067E-1	-5.915833E-1
1.222300E+10	-7.473450E-1	-2.886963E-1	4.334869E-1	-7.228088E-2	1.729050E-1	-1.422958E-1	-4.710999E-1	-5.844727E-1
1.244750E+10	-7.518921E-1	-2.817383E-1	4.257355E-1	-8.381653E-2	1.691360E-1	-1.449280E-1	-4.853516E-1	-5.736084E-1
1.267200E+10	-7.560425E-1	-2.753906E-1	4.167938E-1	-9.518433E-2	1.664581E-1	-1.481018E-1	-4.981384E-1	-5.674438E-1
1.289650E+10	-7.585754E-1	-2.671814E-1	4.078674E-1	-1.046753E-1	1.638489E-1	-1.497650E-1	-5.123596E-1	-5.572815E-1
1.312100E+10	-7.634583E-1	-2.590942E-1	3.974457E-1	-1.142120E-1	1.603470E-1	-1.519699E-1	-5.260925E-1	-5.462036E-1
1.334550E+10	-7.663879E-1	-2.525024E-1	3.894196E-1	-1.236267E-1	1.575851E-1	-1.551437E-1	-5.373840E-1	-5.394592E-1
1.357000E+10	-7.700195E-1	-2.444763E-1	3.809052E-1	-1.323853E-1	1.525345E-1	-1.558685E-1	-5.520630E-1	-5.308533E-1
1.379450E+10	-7.733765E-1	-2.384949E-1	3.718567E-1	-1.404266E-1	1.500473E-1	-1.584702E-1	-5.653076E-1	-5.177917E-1
1.401900E+10	-7.749939E-1	-2.324524E-1	3.644104E-1	-1.477661E-1	1.472168E-1	-1.602859E-1	-5.737000E-1	-5.092163E-1
1.424350E+10	-7.782898E-1	-2.261047E-1	3.559265E-1	-1.542358E-1	1.437302E-1	-1.627197E-1	-5.884094E-1	-4.994507E-1
1.446800E+10	-7.809753E-1	-2.197266E-1	3.472137E-1	-1.615143E-1	1.399918E-1	-1.632690E-1	-5.990601E-1	-4.861755E-1
1.469250E+10	-7.837219E-1	-2.121582E-1	3.382263E-1	-1.691132E-1	1.374893E-1	-1.658020E-1	-6.065674E-1	-4.778137E-1
1.491700E+10	-7.869263E-1	-2.061462E-1	3.287659E-1	-1.752930E-1	1.332092E-1	-1.673050E-1	-6.207275E-1	-4.684448E-1
1.514150E+10	-7.888184E-1	-1.985779E-1	3.206635E-1	-1.800385E-1	1.304550E-1	-1.679306E-1	-6.306152E-1	-4.544373E-1
1.536600E+10	-7.923279E-1	-1.919861E-1	3.130035E-1	-1.862793E-1	1.273727E-1	-1.694260E-1	-6.372986E-1	-4.441528E-1
1.559050E+10	-7.945251E-1	-1.869812E-1	3.041534E-1	-1.895294E-1	1.239929E-1	-1.706696E-1	-6.492615E-1	-4.356079E-1
1.581500E+10	-7.970581E-1	-1.813049E-1	2.945557E-1	-1.949310E-1	1.201401E-1	-1.734238E-1	-6.592407E-1	-4.215088E-1
1.603950E+10	-7.987671E-1	-1.734924E-1	2.868805E-1	-2.007751E-1	1.176147E-1	-1.741791E-1	-6.658630E-1	-4.124146E-1
1.626400E+10	-8.012390E-1	-1.672058E-1	2.798920E-1	-2.039337E-1	1.138077E-1	-1.738586E-1	-6.758728E-1	-4.024353E-1
1.648850E+10	-8.039856E-1	-1.609497E-1	2.713776E-1	-2.076721E-1	1.095123E-1	-1.747589E-1	-6.843872E-1	-3.865051E-1
1.671300E+10	-8.051147E-1	-1.544800E-1	2.649994E-1	-2.112274E-1	1.078339E-1	-1.766357E-1	-6.919250E-1	-3.763733E-1
1.693750E+10	-8.074951E-1	-1.509705E-1	2.566833E-1	-2.145996E-1	1.046982E-1	-1.779785E-1	-7.010498E-1	-3.659668E-1
1.716200E+10	-8.100586E-1	-1.441345E-1	2.469330E-1	-2.175217E-1	1.004715E-1	-1.790161E-1	-7.091370E-1	-3.521118E-1
1.738650E+10	-8.113403E-1	-1.369934E-1	2.407455E-1	-2.207947E-1	9.782410E-2	-1.783295E-1	-7.142334E-1	-3.406677E-1
1.761100E+10	-8.130188E-1	-1.300049E-1	2.339096E-1	-2.217255E-1	9.523010E-2	-1.792526E-1	-7.227478E-1	-3.311462E-1
1.783550E+10	-8.154602E-1	-1.248169E-1	2.257004E-1	-2.245865E-1	9.111786E-2	-1.801224E-1	-7.300110E-1	-3.156433E-1
1.806000E+10	-8.171387E-1	-1.202698E-1	2.203903E-1	-2.284927E-1	9.027863E-2	-1.815872E-1	-7.344360E-1	-3.047485E-1
1.828450E+10	-8.186646E-1	-1.143494E-1	2.137146E-1	-2.283707E-1	8.654022E-2	-1.809158E-1	-7.420044E-1	-2.960815E-1
1.850900E+10	-8.201599E-1	-1.089172E-1	2.059860E-1	-2.320175E-1	8.318329E-2	-1.805954E-1	-7.481995E-1	-2.822571E-1
1.873350E+10	-8.226624E-1	-1.021729E-1	1.992416E-1	-2.343292E-1	7.969666E-2	-1.829071E-1	-7.510376E-1	-2.687683E-1
1.895800E+10	-8.231812E-1	-9.695435E-2	1.928024E-1	-2.365723E-1	7.637024E-2	-1.825409E-1	-7.568054E-1	-2.601013E-1
1.918250E+10	-8.241882E-1	-9.243774E-2	1.862106E-1	-2.352524E-1	7.286835E-2	-1.818237E-1	-7.633972E-1	-2.462463E-1
1.940700E+10	-8.249512E-1	-8.563232E-2	1.794052E-1	-2.375488E-1	6.945801E-2	-1.834641E-1	-7.660828E-1	-2.301331E-1
1.963150E+10	-8.276062E-1	-8.212280E-2	1.726532E-1	-2.385864E-1	6.803131E-2	-1.836853E-1	-7.685242E-1	-2.235107E-1
1.985600E+10	-8.285522E-1	-7.525635E-2	1.669693E-1	-2.411118E-1	6.404877E-2	-1.827545E-1	-7.763672E-1	-2.088928E-1
2.008050E+10	-8.288574E-1	-7.107544E-2	1.600647E-1	-2.413025E-1	6.315613E-2	-1.840820E-1	-7.777710E-1	-1.928711E-1
2.030500E+10	-8.295288E-1	-6.478882E-2	1.558304E-1	-2.399979E-1	5.892181E-2	-1.837006E-1	-7.794495E-1	-1.853027E-1
2.052950E+10	-8.324280E-1	-6.015015E-2	1.494751E-1	-2.422180E-1	5.611420E-2	-1.856995E-1	-7.846375E-1	-1.730042E-1
2.075400E+10	-8.332520E-1	-5.407715E-2	1.439514E-1	-2.417679E-1	5.308533E-2	-1.839600E-1	-7.886963E-1	-1.602173E-1
2.097850E+10	-8.334656E-1	-4.830933E-2	1.374359E-1	-2.428589E-1	5.178833E-2	-1.849060E-1	-7.879944E-1	-1.470947E-1
2.120300E+10	-8.337708E-1	-4.388428E-2	1.336441E-1	-2.420883E-1	4.707336E-2	-1.829758E-1	-7.931824E-1	-1.394958E-1
2.142750E+10	-8.373108E-1	-3.842163E-2	1.272888E-1	-2.417603E-1	4.616547E-2	-1.834030E-1	-7.976685E-1	-1.250610E-1
2.165200E+10	-8.391113E-1	-3.186035E-2	1.202240E-1	-2.428970E-1	4.367828E-2	-1.825180E-1	-7.988892E-1	-1.134949E-1
2.187650E+10	-8.364563E-1	-2.539062E-2	1.168137E-1	-2.419739E-1	4.093933E-2	-1.834259E-1	-8.013000E-1	-1.021423E-1
2.210100E+10	-8.402100E-1	-1.937866E-2	1.099777E-1	-2.443237E-1	3.888702E-2	-1.831512E-1	-8.035278E-1	-8.874512E-2
2.232550E+10	-8.398132E-1	-1.498413E-2	1.034088E-1	-2.434082E-1	3.437042E-2	-1.816330E-1	-8.044739E-1	-7.537842E-2
2.255000E+10	-8.404846E-1	-9.613037E-3	9.979248E-2	-2.420197E-1	3.290558E-2	-1.830597E-1	-8.070068E-1	-6.738281E-2
2.277450E+10	-8.407593E-1	-2.990723E-3	9.427643E-2	-2.435913E-1	2.904510E-2	-1.832199E-1	-8.081360E-1	-4.803467E-2
2.299900E+10	-8.436279E-1	1.037598E-3	9.011078E-2	-2.436142E-1	2.784729E-2	-1.827316E-1	-8.080139E-1	-3.869629E-2
2.322350E+10	-8.425903E-1	6.988525E-3	8.512115E-2	-2.427597E-1	2.497101E-2	-1.828384E-1	-8.091736E-1	-2.813721E-2
2.344800E+10	-8.410339E-1	1.095581E-2	8.040619E-2	-2.418289E-1	2.261353E-2	-1.818771E-1	-8.111572E-1	-1.235962E-2
2.367250E+10	-8.446350E-1	1.684570E-2	7.474518E-2	-2.413940E-1	2.020264E-2	-1.822662E-1	-8.087769E-1	1.525879E-4
2.389700E+10	-8.424072E-1	2.377319E-2	7.130432E-2	-2.413559E-1	1.731873E-2	-1.812363E-1	-8.074341E-1	9.735107E-3
2.412150E+10	-8.442383E-1	2.844238E-2	6.327057E-2	-2.416916E-1	1.383972E-2	-1.810608E-1	-8.059387E-1	2.523804E-2
2.434600E+10	-8.413696E-1	3.292847E-2	6.122589E-2	-2.403030E-1	1.141357E-2	-1.817169E-1	-8.047791E-1	3.277588E-2
2.457050E+10	-8.425293E-1	3.912354E-2	5.696106E-2	-2.393875E-1	8.178711E-3	-1.814117E-1	-8.044739E-1	4.669189E-2
2.479500E+10	-8.441467E-1	4.437256E-2	5.173492E-2	-2.394104E-1	5.187988E-3	-1.808090E-1	-8.015747E-1	6.051636E-2
2.501950E+10	-8.424072E-1	4.614258E-2	4.565430E-2	-2.386169E-1	7.171631E-4	-1.806793E-1	-7.974243E-1	7.049561E-2
2.524400E+10	-8.430176E-1	5.123901E-2	4.067993E-2	-2.370529E-1	-1.411438E-3	-1.789398E-1	-7.977905E-1	8.065796E-2
2.546850E+10	-8.444519E-1	5.889893E-2	3.764343E-2	-2.348251E-1	-3.440857E-3	-1.780090E-1	-7.951660E-1	9.298706E-2
2.569300E+10	-8.418884E-1	6.304932E-2	3.366852E-2	-2.343140E-1	-3.662109E-3	-1.761246E-1	-7.922668E-1	1.007385E-1
2.591750E+10	-8.456116E-1	7.067871E-2	2.922821E-2	-2.330627E-1	-6.340027E-3	-1.731110E-1	-7.941589E-1	1.127014E-1
2.614200E+10	-8.429565E-1	7.354736E-2	2.923584E-2	-2.310181E-1	-8.354187E-3	-1.761322E-1	-7.921753E-1	1.258545E-1
2.636650E+10	-8.446655E-1	7.754517E-2	2.390289E-2	-2.305679E-1	-1.163483E-2	-1.759338E-1	-7.892151E-1	1.390991E-1
2.659100E+10	-8.423462E-1	8.346558E-2	1.911163E-2	-2.291183E-1	-1.351166E-2	-1.753998E-1	-7.843628E-1	1.478882E-1
2.681550E+10	-8.421326E-1	8.648682E-2	1.571655E-2	-2.286911E-1	-1.615143E-2	-1.744995E-1	-7.832336E-1	1.589050E-1
2.704000E+10	-8.441772E-1	9.289551E-2	9.712219E-3	-2.275162E-1	-1.828766E-2	-1.727066E-1	-7.818604E-1	1.753845E-1
2.726450E+10	-8.418884E-1	1.008606E-1	6.729126E-3	-2.263107E-1	-2.114105E-2	-1.729431E-1	-7.686768E-1	1.849976E-1
2.748900E+10	-8.398743E-1	1.044312E-1	2.815247E-3	-2.226944E-1	-2.452087E-2	-1.713638E-1	-7.697144E-1	1.920471E-1
2.771350E+10	-8.404846E-1	1.073914E-1	8.392334E-4	-2.216873E-1	-2.563477E-2	-1.707687E-1	-7.653809E-1	2.028809E-1
2.793800E+10	-8.405762E-1	1.104736E-1	-3.913879E-3	-2.206497E-1	-2.618408E-2	-1.714554E-1	-7.620544E-1	2.123413E-1
2.816250E+10	-8.403931E-1	1.153564E-1	-6.904602E-3	-2.191086E-1	-3.150177E-2	-1.706161E-1	-7.595825E-1	2.240601E-1
2.838700E+10	-8.369751E-1	1.214600E-1	-1.184082E-2	-2.200928E-1	-3.693390E-2	-1.667404E-1	-7.539978E-1	2.365417E-1
2.861150E+10	-8.394165E-1	1.265564E-1	-1.515961E-2	-2.155304E-1	-3.595734E-2	-1.672058E-1	-7.443848E-1	2.448120E-1
2.883600E+10	-8.396912E-1	1.352844E-1	-1.958466E-2	-2.167740E-1	-3.670502E-2	-1.687469E-1	-7.431946E-1	2.506714E-1
2.906050E+10	-8.366089E-1	1.370239E-1	-2.316284E-2	-2.121887E-1	-3.911591E-2	-1.632080E-1	-7.352295E-1	2.661438E-1
2.928500E+10	-8.359985E-1	1.432495E-1	-2.215576E-2	-2.114182E-1	-4.096222E-2	-1.637573E-1	-7.318115E-1	2.716980E-1
2.950950E+10	-8.367310E-1	1.481323E-1	-2.907562E-2	-2.068481E-1	-4.261780E-2	-1.606369E-1	-7.299805E-1	2.798157E-1
2.973400E+10	-8.358459E-1	1.523743E-1	-3.125763E-2	-2.087555E-1	-4.754639E-2	-1.622467E-1	-7.241211E-1	2.926331E-1
2.995850E+10	-8.315430E-1	1.567383E-1	-3.749847E-2	-2.067719E-1	-4.702759E-2	-1.635284E-1	-7.253418E-1	3.044128E-1
3.018300E+10	-8.316956E-1	1.621704E-1	-3.823090E-2	-2.051392E-1	-5.125427E-2	-1.601181E-1	-7.133484E-1	3.159485E-1
3.040750E+10	-8.307800E-1	1.678467E-1	-4.075623E-2	-2.012024E-1	-5.105591E-2	-1.594620E-1	-7.073059E-1	3.223572E-1
3.063200E+10	-8.311768E-1	1.701355E-1	-4.389954E-2	-2.030563E-1	-5.455780E-2	-1.583633E-1	-7.012329E-1	3.329163E-1
3.085650E+10	-8.285522E-1	1.759949E-1	-4.360199E-2	-2.013931E-1	-5.404663E-2	-1.603088E-1	-6.943359E-1	3.433533E-1
3.108100E+10	-8.297424E-1	1.789246E-1	-4.905701E-2	-1.983643E-1	-5.922699E-2	-1.578598E-1	-6.881714E-1	3.555298E-1
3.130550E+10	-8.260803E-1	1.859741E-1	-5.300903E-2	-1.947861E-1	-6.150818E-2	-1.555023E-1	-6.746521E-1	3.672791E-1
3.153000E+10	-8.288574E-1	1.883240E-1	-5.435944E-2	-1.935883E-1	-6.716919E-2	-1.555939E-1	-6.680603E-1	3.695068E-1
3.175450E+10	-8.225098E-1	1.967468E-1	-5.827332E-2	-1.922531E-1	-6.791687E-2	-1.519089E-1	-6.656799E-1	3.845825E-1
3.197900E+10	-8.245850E-1	1.962585E-1	-6.198120E-2	-1.919861E-1	-7.050323E-2	-1.526794E-1	-6.497192E-1	3.929443E-1
3.220350E+10	-8.204346E-1	2.034302E-1	-6.511688E-2	-1.910629E-1	-7.254028E-2	-1.477661E-1	-6.407776E-1	4.017029E-1
3.242800E+10	-8.224487E-1	2.089233E-1	-6.891632E-2	-1.875916E-1	-7.263947E-2	-1.501083E-1	-6.333618E-1	4.087219E-1
3.265250E+10	-8.251648E-1	2.152405E-1	-6.823730E-2	-1.833954E-1	-7.695007E-2	-1.486740E-1	-6.221619E-1	4.102478E-1
3.287700E+10	-8.148499E-1	2.161865E-1	-7.140350E-2	-1.813965E-1	-7.901001E-2	-1.479874E-1	-6.191406E-1	4.222717E-1
3.310150E+10	-8.204346E-1	2.204285E-1	-7.491302E-2	-1.787720E-1	-8.326721E-2	-1.413345E-1	-6.065674E-1	4.284363E-1
3.332600E+10	-8.154602E-1	2.276917E-1	-7.837677E-2	-1.787643E-1	-8.214569E-2	-1.434708E-1	-5.998230E-1	4.366455E-1
3.355050E+10	-8.117371E-1	2.324219E-1	-8.135223E-2	-1.750031E-1	-8.200836E-2	-1.413116E-1	-5.982666E-1	4.382019E-1
3.377500E+10	-8.122864E-1	2.363892E-1	-7.888031E-2	-1.716156E-1	-8.577728E-2	-1.359329E-1	-5.850220E-1	4.476318E-1
3.399950E+10	-8.092041E-1	2.411194E-1	-8.395386E-2	-1.717987E-1	-8.788300E-2	-1.408310E-1	-5.796509E-1	4.538879E-1
3.422400E+10	-8.117065E-1	2.471619E-1	-8.686829E-2	-1.730804E-1	-8.903503E-2	-1.377029E-1	-5.684814E-1	4.628906E-1
3.444850E+10	-8.034668E-1	2.492065E-1	-8.605957E-2	-1.709900E-1	-9.269714E-2	-1.340256E-1	-5.628967E-1	4.697571E-1
3.467300E+10	-8.005676E-1	2.515869E-1	-8.745575E-2	-1.674042E-1	-9.631348E-2	-1.394196E-1	-5.560608E-1	4.807739E-1
3.489750E+10	-8.031311E-1	2.572632E-1	-9.145355E-2	-1.638260E-1	-9.249878E-2	-1.345673E-1	-5.475769E-1	4.842529E-1
3.512200E+10	-7.986450E-1	2.611694E-1	-9.530640E-2	-1.630783E-1	-9.414673E-2	-1.266403E-1	-5.266724E-1	4.877319E-1
3.534650E+10	-7.965698E-1	2.586975E-1	-1.026077E-1	-1.614304E-1	-1.036606E-1	-1.285019E-1	-5.249939E-1	5.006714E-1
3.557100E+10	-7.978821E-1	2.690430E-1	-9.593201E-2	-1.640854E-1	-1.049652E-1	-1.282806E-1	-5.061646E-1	5.109253E-1
3.579550E+10	-7.929687E-1	2.734375E-1	-1.026382E-1	-1.579590E-1	-1.062469E-1	-1.287231E-1	-4.895630E-1	5.103760E-1
3.602000E+10	-7.910156E-1	2.834167E-1	-1.053238E-1	-1.543198E-1	-1.067581E-1	-1.307220E-1	-4.866028E-1	5.122070E-1
3.624450E+10	-7.882385E-1	2.867432E-1	-1.094971E-1	-1.520233E-1	-1.128960E-1	-1.210899E-1	-4.738770E-1	5.205078E-1
3.646900E+10	-7.849426E-1	2.899780E-1	-1.116638E-1	-1.479568E-1	-1.168098E-1	-1.180458E-1	-4.631042E-1	5.276794E-1
3.669350E+10	-7.826233E-1	2.942810E-1	-1.105194E-1	-1.434860E-1	-1.168060E-1	-1.177902E-1	-4.508057E-1	5.262451E-1
3.691800E+10	-7.840271E-1	2.952271E-1	-1.180649E-1	-1.412048E-1	-1.148567E-1	-1.141167E-1	-4.348755E-1	5.370789E-1
3.714250E+10	-7.754822E-1	2.948303E-1	-1.183472E-1	-1.427536E-1	-1.178207E-1	-1.148376E-1	-4.264832E-1	5.302734E-1
3.736700E+10	-7.749939E-1	3.006287E-1	-1.206741E-1	-1.369324E-1	-1.224594E-1	-1.103401E-1	-4.144287E-1	5.419617E-1
3.759150E+10	-7.679749E-1	3.070984E-1	-1.204987E-1	-1.345139E-1	-1.249199E-1	-1.093063E-1	-3.971863E-1	5.436707E-1
3.781600E+10	-7.687073E-1	3.107605E-1	-1.261215E-1	-1.279907E-1	-1.280441E-1	-1.080017E-1	-3.960876E-1	5.476074E-1
3.804050E+10	-7.673340E-1	3.087769E-1	-1.306992E-1	-1.212006E-1	-1.263809E-1	-1.054153E-1	-3.785706E-1	5.495911E-1
3.826500E+10	-7.624512E-1	3.208313E-1	-1.322479E-1	-1.245117E-1	-1.331787E-1	-1.016998E-1	-3.627930E-1	5.593262E-1
3.848950E+10	-7.599792E-1	3.204346E-1	-1.304398E-1	-1.281738E-1	-1.245461E-1	-9.771729E-2	-3.540955E-1	5.599060E-1
3.871400E+10	-7.567444E-1	3.256836E-1	-1.283264E-1	-1.222687E-1	-1.300354E-1	-9.305573E-2	-3.319702E-1	5.516052E-1
3.893850E+10	-7.575989E-1	3.281250E-1	-1.330948E-1	-1.160202E-1	-1.356506E-1	-9.143829E-2	-3.218994E-1	5.537720E-1
