!Date: 10/28/2005, 12:34 PM

!Vgs = 0.000000E+0
!Vds = 5.000000E+0
!Ig = -2.892200E-6
!Id = 9.292700E-1

# HZ S RI R 50
1.000000E+8	9.567566E-1	-2.069397E-1	-5.019775E+0	7.885742E-2	4.158020E-4	1.043081E-2	-2.104797E-1	-1.383209E-1
3.245000E+8	7.539673E-1	-5.895081E-1	-4.228271E+0	1.535645E+0	1.226807E-2	3.211594E-2	-4.291534E-1	-1.290588E-1
5.490000E+8	4.644775E-1	-8.184509E-1	-3.339478E+0	2.243042E+0	2.881432E-2	4.270744E-2	-4.231720E-1	-1.078339E-1
7.735000E+8	1.858215E-1	-9.079895E-1	-2.557373E+0	2.504639E+0	4.464149E-2	4.583359E-2	-4.765472E-1	-1.352081E-1
9.980000E+8	-4.351807E-2	-9.116211E-1	-1.928589E+0	2.494507E+0	5.680656E-2	4.477119E-2	-5.113831E-1	-1.137695E-1
1.222500E+9	-2.242126E-1	-8.758240E-1	-1.440186E+0	2.386597E+0	6.594467E-2	4.157257E-2	-5.241089E-1	-1.103516E-1
1.447000E+9	-3.606262E-1	-8.237915E-1	-1.074463E+0	2.238403E+0	7.265091E-2	3.780365E-2	-5.472107E-1	-9.689331E-2
1.671500E+9	-4.631348E-1	-7.662048E-1	-8.045654E-1	2.083496E+0	7.777786E-2	3.381348E-2	-5.586853E-1	-8.682251E-2
1.896000E+9	-5.427856E-1	-7.088623E-1	-6.005859E-1	1.935181E+0	8.218002E-2	2.982712E-2	-5.708008E-1	-7.461548E-2
2.120500E+9	-6.023865E-1	-6.557007E-1	-4.425659E-1	1.797668E+0	8.566666E-2	2.595139E-2	-5.792542E-1	-6.607056E-2
2.345000E+9	-6.507263E-1	-6.040955E-1	-3.164673E-1	1.668701E+0	8.779907E-2	2.210999E-2	-5.877991E-1	-5.322266E-2
2.569500E+9	-6.859741E-1	-5.586853E-1	-2.185059E-1	1.550171E+0	8.971024E-2	1.864624E-2	-5.888977E-1	-4.379272E-2
2.794000E+9	-7.164307E-1	-5.202942E-1	-1.403809E-1	1.449097E+0	9.116364E-2	1.563263E-2	-5.952454E-1	-3.604126E-2
3.018500E+9	-7.394714E-1	-4.830627E-1	-7.836914E-2	1.352295E+0	9.187317E-2	1.247787E-2	-5.963135E-1	-2.468872E-2
3.243000E+9	-7.599487E-1	-4.490051E-1	-2.673340E-2	1.269531E+0	9.264755E-2	9.727478E-3	-5.979004E-1	-2.114868E-2
3.467500E+9	-7.768555E-1	-4.198608E-1	1.727295E-2	1.194641E+0	9.307098E-2	7.556915E-3	-6.027222E-1	-1.077271E-2
3.692000E+9	-7.905273E-1	-3.920288E-1	5.474854E-2	1.126587E+0	9.359741E-2	4.962921E-3	-5.997925E-1	-4.577637E-3
3.916500E+9	-8.020935E-1	-3.657227E-1	8.380127E-2	1.062622E+0	9.412384E-2	2.876282E-3	-6.058350E-1	-6.103516E-4
4.141000E+9	-8.122864E-1	-3.414612E-1	1.087036E-1	1.004883E+0	9.466171E-2	8.125305E-4	-6.041565E-1	9.979248E-3
4.365500E+9	-8.191223E-1	-3.205566E-1	1.320801E-1	9.528809E-1	9.443283E-2	-1.346588E-3	-6.048584E-1	1.196289E-2
4.590000E+9	-8.269653E-1	-3.010864E-1	1.504211E-1	9.040527E-1	9.460831E-2	-3.417969E-3	-6.081543E-1	2.075195E-2
4.814500E+9	-8.338928E-1	-2.832031E-1	1.663818E-1	8.603821E-1	9.454346E-2	-5.462646E-3	-6.063232E-1	2.597046E-2
5.039000E+9	-8.386230E-1	-2.650452E-1	1.802673E-1	8.187256E-1	9.472656E-2	-6.984711E-3	-6.069031E-1	2.975464E-2
5.263500E+9	-8.441162E-1	-2.477722E-1	1.925049E-1	7.809448E-1	9.425354E-2	-9.204865E-3	-6.069031E-1	3.707886E-2
5.488000E+9	-8.471375E-1	-2.331543E-1	2.033386E-1	7.450867E-1	9.457779E-2	-1.108170E-2	-6.069336E-1	4.208374E-2
5.712500E+9	-8.511963E-1	-2.192993E-1	2.127380E-1	7.112732E-1	9.441376E-2	-1.230621E-2	-6.065369E-1	4.733276E-2
5.937000E+9	-8.546143E-1	-2.048035E-1	2.211609E-1	6.797180E-1	9.425735E-2	-1.416016E-2	-6.062317E-1	5.169678E-2
6.161500E+9	-8.576355E-1	-1.930847E-1	2.290039E-1	6.520996E-1	9.349823E-2	-1.599503E-2	-6.064148E-1	5.953979E-2
6.386000E+9	-8.598328E-1	-1.800537E-1	2.351685E-1	6.238098E-1	9.396744E-2	-1.765442E-2	-6.025696E-1	6.246948E-2
6.610500E+9	-8.611450E-1	-1.688538E-1	2.402344E-1	5.981140E-1	9.300995E-2	-1.904678E-2	-6.045532E-1	6.527710E-2
6.835000E+9	-8.638916E-1	-1.578674E-1	2.450256E-1	5.713196E-1	9.265518E-2	-2.082825E-2	-6.023254E-1	7.464600E-2
7.059500E+9	-8.656006E-1	-1.479797E-1	2.489319E-1	5.493164E-1	9.266281E-2	-2.181625E-2	-5.965576E-1	7.318115E-2
7.284000E+9	-8.669434E-1	-1.377563E-1	2.520142E-1	5.291443E-1	9.152222E-2	-2.289200E-2	-6.026001E-1	7.919312E-2
7.508500E+9	-8.685303E-1	-1.275330E-1	2.541199E-1	5.080566E-1	9.180069E-2	-2.412796E-2	-5.942993E-1	8.129883E-2
7.733000E+9	-8.687134E-1	-1.181335E-1	2.560272E-1	4.891357E-1	9.086609E-2	-2.578735E-2	-6.007385E-1	8.319092E-2
7.957500E+9	-8.707275E-1	-1.079102E-1	2.604523E-1	4.699402E-1	8.968353E-2	-2.690506E-2	-5.964355E-1	9.133911E-2
8.182000E+9	-8.703003E-1	-9.902954E-2	2.629547E-1	4.530029E-1	9.036255E-2	-2.798843E-2	-5.996399E-1	9.237671E-2
8.406500E+9	-8.707581E-1	-9.228516E-2	2.638397E-1	4.355621E-1	8.953857E-2	-3.018951E-2	-5.961304E-1	1.005554E-1
8.631000E+9	-8.724365E-1	-8.291626E-2	2.662964E-1	4.192200E-1	8.871460E-2	-3.106689E-2	-5.943909E-1	1.015320E-1
8.855500E+9	-8.725281E-1	-7.543945E-2	2.674103E-1	4.029999E-1	8.782196E-2	-3.281021E-2	-5.943604E-1	1.072998E-1
9.080001E+9	-8.728943E-1	-6.872559E-2	2.678375E-1	3.878632E-1	8.730698E-2	-3.322220E-2	-5.914001E-1	1.124573E-1
9.304500E+9	-8.734131E-1	-5.914307E-2	2.686005E-1	3.737183E-1	8.654404E-2	-3.517532E-2	-5.905457E-1	1.137085E-1
9.529000E+9	-8.731384E-1	-5.404663E-2	2.689819E-1	3.603363E-1	8.641434E-2	-3.586197E-2	-5.909119E-1	1.193237E-1
9.753500E+9	-8.741760E-1	-4.660034E-2	2.702942E-1	3.480225E-1	8.495331E-2	-3.785706E-2	-5.868225E-1	1.234436E-1
9.978000E+9	-8.730469E-1	-4.019165E-2	2.696533E-1	3.345642E-1	8.427048E-2	-3.866959E-2	-5.862732E-1	1.254883E-1
1.020250E+10	-8.740234E-1	-3.317261E-2	2.695465E-1	3.230591E-1	8.359146E-2	-3.972244E-2	-5.856628E-1	1.318054E-1
1.042700E+10	-8.745117E-1	-2.597046E-2	2.696228E-1	3.109894E-1	8.258438E-2	-3.987122E-2	-5.818787E-1	1.346741E-1
1.065150E+10	-8.737183E-1	-1.940918E-2	2.695770E-1	3.002777E-1	8.204651E-2	-4.170609E-2	-5.815125E-1	1.368713E-1
1.087600E+10	-8.743286E-1	-1.330566E-2	2.688141E-1	2.896576E-1	8.104706E-2	-4.187012E-2	-5.805664E-1	1.422729E-1
1.110050E+10	-8.744202E-1	-6.072998E-3	2.693481E-1	2.784729E-1	8.031845E-2	-4.307556E-2	-5.775452E-1	1.458435E-1
1.132500E+10	-8.733826E-1	-7.324219E-4	2.685547E-1	2.687073E-1	7.997131E-2	-4.379654E-2	-5.761108E-1	1.479187E-1
1.154950E+10	-8.735657E-1	6.286621E-3	2.677155E-1	2.585602E-1	7.865906E-2	-4.474258E-2	-5.753174E-1	1.519470E-1
1.177400E+10	-8.718567E-1	1.113892E-2	2.665405E-1	2.489777E-1	7.798767E-2	-4.533768E-2	-5.732117E-1	1.556091E-1
1.199850E+10	-8.719177E-1	1.644897E-2	2.662048E-1	2.397461E-1	7.706451E-2	-4.678726E-2	-5.714417E-1	1.577454E-1
1.222300E+10	-8.721313E-1	2.252197E-2	2.655792E-1	2.328796E-1	7.582474E-2	-4.729080E-2	-5.702820E-1	1.617432E-1
1.244750E+10	-8.711243E-1	2.758789E-2	2.638245E-1	2.226562E-1	7.525253E-2	-4.796982E-2	-5.698242E-1	1.659546E-1
1.267200E+10	-8.711548E-1	3.207397E-2	2.629089E-1	2.155609E-1	7.424164E-2	-4.897308E-2	-5.661926E-1	1.675720E-1
1.289650E+10	-8.695679E-1	3.765869E-2	2.613831E-1	2.067261E-1	7.368851E-2	-4.926300E-2	-5.669556E-1	1.695862E-1
1.312100E+10	-8.702087E-1	4.281616E-2	2.601929E-1	1.986694E-1	7.279968E-2	-5.068970E-2	-5.640564E-1	1.742554E-1
1.334550E+10	-8.702087E-1	4.833984E-2	2.593994E-1	1.916962E-1	7.241440E-2	-5.126953E-2	-5.617371E-1	1.767883E-1
1.357000E+10	-8.680725E-1	5.197144E-2	2.582550E-1	1.836548E-1	7.143021E-2	-5.229950E-2	-5.602417E-1	1.781006E-1
1.379450E+10	-8.678894E-1	5.746460E-2	2.566833E-1	1.769714E-1	7.076645E-2	-5.300140E-2	-5.605469E-1	1.817322E-1
1.401900E+10	-8.670349E-1	6.259155E-2	2.550812E-1	1.710052E-1	6.969452E-2	-5.300903E-2	-5.556030E-1	1.844177E-1
1.424350E+10	-8.667908E-1	6.881714E-2	2.537231E-1	1.644592E-1	6.970215E-2	-5.401230E-2	-5.563354E-1	1.869812E-1
1.446800E+10	-8.658142E-1	7.250977E-2	2.528076E-1	1.579437E-1	6.683350E-2	-5.429459E-2	-5.543518E-1	1.930237E-1
1.469250E+10	-8.634338E-1	7.742310E-2	2.520752E-1	1.526489E-1	6.649017E-2	-5.571365E-2	-5.491943E-1	1.958618E-1
1.491700E+10	-8.636169E-1	8.233643E-2	2.503357E-1	1.456146E-1	6.577301E-2	-5.590439E-2	-5.495911E-1	1.947937E-1
1.514150E+10	-8.617859E-1	8.666992E-2	2.477341E-1	1.403503E-1	6.458282E-2	-5.685806E-2	-5.489197E-1	2.009583E-1
1.536600E+10	-8.626404E-1	9.161377E-2	2.466812E-1	1.339569E-1	6.445312E-2	-5.669785E-2	-5.435486E-1	2.035828E-1
1.559050E+10	-8.609924E-1	9.454346E-2	2.453003E-1	1.292419E-1	6.303787E-2	-5.730057E-2	-5.431213E-1	2.034607E-1
1.581500E+10	-8.599854E-1	1.004944E-1	2.430267E-1	1.227493E-1	6.150436E-2	-5.803680E-2	-5.442200E-1	2.073059E-1
1.603950E+10	-8.578796E-1	1.054687E-1	2.427292E-1	1.177826E-1	6.047440E-2	-5.849457E-2	-5.381775E-1	2.117310E-1
1.626400E+10	-8.572998E-1	1.090393E-1	2.403030E-1	1.135025E-1	6.049919E-2	-5.960274E-2	-5.399475E-1	2.112122E-1
1.648850E+10	-8.571472E-1	1.141663E-1	2.388382E-1	1.079178E-1	6.040382E-2	-5.919075E-2	-5.384827E-1	2.159119E-1
1.671300E+10	-8.553162E-1	1.178284E-1	2.369614E-1	1.024323E-1	5.685234E-2	-6.174278E-2	-5.352173E-1	2.189636E-1
1.693750E+10	-8.551331E-1	1.211853E-1	2.362671E-1	9.790802E-2	5.778122E-2	-6.036568E-2	-5.334473E-1	2.196960E-1
1.716200E+10	-8.540344E-1	1.269226E-1	2.353363E-1	9.332275E-2	5.644417E-2	-6.103134E-2	-5.326538E-1	2.242432E-1
1.738650E+10	-8.526001E-1	1.300354E-1	2.320938E-1	9.034729E-2	5.408287E-2	-6.204605E-2	-5.287170E-1	2.274475E-1
1.761100E+10	-8.507996E-1	1.351318E-1	2.308197E-1	8.621216E-2	5.356979E-2	-6.225395E-2	-5.294800E-1	2.277527E-1
1.783550E+10	-8.500671E-1	1.406250E-1	2.287903E-1	8.078766E-2	5.315208E-2	-6.205940E-2	-5.289612E-1	2.330322E-1
1.806000E+10	-8.498230E-1	1.430664E-1	2.272339E-1	7.794189E-2	5.242920E-2	-6.274033E-2	-5.244446E-1	2.363281E-1
1.828450E+10	-8.478088E-1	1.464844E-1	2.258835E-1	7.450867E-2	5.041504E-2	-6.269073E-2	-5.231934E-1	2.356567E-1
1.850900E+10	-8.481140E-1	1.513672E-1	2.247467E-1	7.038116E-2	4.983902E-2	-6.292725E-2	-5.221863E-1	2.406006E-1
1.873350E+10	-8.458557E-1	1.546021E-1	2.234116E-1	6.570435E-2	4.870605E-2	-6.436920E-2	-5.174561E-1	2.467957E-1
1.895800E+10	-8.428650E-1	1.573792E-1	2.206116E-1	6.266785E-2	4.756546E-2	-6.434631E-2	-5.151978E-1	2.446899E-1
1.918250E+10	-8.420715E-1	1.620178E-1	2.192841E-1	5.934143E-2	4.600906E-2	-6.411743E-2	-5.162659E-1	2.462769E-1
1.940700E+10	-8.401184E-1	1.656799E-1	2.164917E-1	5.522919E-2	4.529572E-2	-6.295776E-2	-5.117493E-1	2.539368E-1
1.963150E+10	-8.395386E-1	1.685181E-1	2.150345E-1	5.197144E-2	4.499435E-2	-6.344986E-2	-5.088501E-1	2.515259E-1
1.985600E+10	-8.381958E-1	1.734009E-1	2.142181E-1	4.817963E-2	4.405594E-2	-6.348038E-2	-5.099182E-1	2.530823E-1
2.008050E+10	-8.363342E-1	1.753845E-1	2.126236E-1	4.607391E-2	4.243088E-2	-6.538391E-2	-5.092163E-1	2.626953E-1
2.030500E+10	-8.360901E-1	1.790466E-1	2.108078E-1	4.459381E-2	4.206467E-2	-6.515884E-2	-5.010986E-1	2.616272E-1
2.052950E+10	-8.335876E-1	1.829529E-1	2.099991E-1	3.925323E-2	4.019928E-2	-6.619644E-2	-5.035095E-1	2.621765E-1
2.075400E+10	-8.329163E-1	1.865234E-1	2.086716E-1	3.806305E-2	3.924179E-2	-6.589890E-2	-4.997864E-1	2.676849E-1
2.097850E+10	-8.294678E-1	1.903381E-1	2.072983E-1	3.379059E-2	3.757095E-2	-6.642914E-2	-4.952393E-1	2.703094E-1
2.120300E+10	-8.284912E-1	1.926880E-1	2.043915E-1	3.140259E-2	3.726578E-2	-6.507111E-2	-4.985962E-1	2.693939E-1
2.142750E+10	-8.286438E-1	1.969299E-1	2.026291E-1	2.989960E-2	3.619385E-2	-6.544113E-2	-4.974365E-1	2.758484E-1
2.165200E+10	-8.258362E-1	2.005310E-1	2.019501E-1	2.621460E-2	3.549576E-2	-6.522369E-2	-4.927216E-1	2.766418E-1
2.187650E+10	-8.240356E-1	2.032776E-1	2.013474E-1	2.397919E-2	3.622437E-2	-6.429291E-2	-4.952393E-1	2.803650E-1
2.210100E+10	-8.226013E-1	2.088623E-1	1.995850E-1	2.245331E-2	3.320694E-2	-6.466675E-2	-4.899597E-1	2.874146E-1
2.232550E+10	-8.206787E-1	2.098694E-1	1.978455E-1	1.916504E-2	3.269958E-2	-6.687164E-2	-4.859009E-1	2.896881E-1
2.255000E+10	-8.195190E-1	2.134705E-1	1.963882E-1	1.618958E-2	3.003311E-2	-6.519318E-2	-4.845428E-1	2.879181E-1
2.277450E+10	-8.185730E-1	2.175903E-1	1.932297E-1	1.512909E-2	3.091049E-2	-6.621552E-2	-4.827881E-1	2.960815E-1
2.299900E+10	-8.159485E-1	2.200928E-1	1.931839E-1	1.191711E-2	2.979279E-2	-6.712341E-2	-4.771423E-1	2.952118E-1
2.322350E+10	-8.152771E-1	2.230835E-1	1.931610E-1	9.399414E-3	2.856445E-2	-6.591415E-2	-4.763184E-1	2.972260E-1
2.344800E+10	-8.132324E-1	2.256470E-1	1.920166E-1	8.293152E-3	2.708817E-2	-6.659317E-2	-4.752045E-1	3.010406E-1
2.367250E+10	-8.126221E-1	2.280579E-1	1.897583E-1	4.699707E-3	2.600479E-2	-6.524658E-2	-4.687347E-1	3.043060E-1
2.389700E+10	-8.085937E-1	2.328186E-1	1.885376E-1	4.974365E-3	2.464676E-2	-6.508636E-2	-4.684296E-1	3.048553E-1
2.412150E+10	-8.079224E-1	2.336731E-1	1.872025E-1	1.304626E-3	2.401733E-2	-6.557083E-2	-4.636230E-1	3.102417E-1
2.434600E+10	-8.055420E-1	2.386169E-1	1.847153E-1	-1.396179E-3	2.147293E-2	-6.578827E-2	-4.596252E-1	3.106232E-1
2.457050E+10	-8.031006E-1	2.397156E-1	1.820755E-1	-1.785278E-3	2.127838E-2	-6.501770E-2	-4.580994E-1	3.113708E-1
2.479500E+10	-8.027954E-1	2.447510E-1	1.806870E-1	-5.561829E-3	1.824951E-2	-6.324005E-2	-4.550171E-1	3.187866E-1
2.501950E+10	-7.980652E-1	2.474670E-1	1.815033E-1	-6.118774E-3	1.702118E-2	-6.294250E-2	-4.453278E-1	3.187866E-1
2.524400E+10	-7.971191E-1	2.492981E-1	1.786652E-1	-9.674072E-3	1.746368E-2	-6.154442E-2	-4.459991E-1	3.179321E-1
2.546850E+10	-7.981873E-1	2.531738E-1	1.785355E-1	-8.438110E-3	1.744461E-2	-6.038666E-2	-4.442291E-1	3.223877E-1
2.569300E+10	-7.958069E-1	2.555237E-1	1.774216E-1	-9.826660E-3	1.647758E-2	-6.034851E-2	-4.415741E-1	3.200073E-1
2.591750E+10	-7.922668E-1	2.589417E-1	1.773148E-1	-1.423645E-2	1.556969E-2	-5.932808E-2	-4.411621E-1	3.213959E-1
2.614200E+10	-7.919006E-1	2.617187E-1	1.764679E-1	-1.373291E-2	1.485443E-2	-5.976105E-2	-4.389801E-1	3.289032E-1
2.636650E+10	-7.892151E-1	2.620850E-1	1.761322E-1	-1.552582E-2	1.350975E-2	-6.142616E-2	-4.356689E-1	3.321533E-1
2.659100E+10	-7.866821E-1	2.646484E-1	1.758575E-1	-1.756287E-2	1.519585E-2	-5.845642E-2	-4.303741E-1	3.358765E-1
2.681550E+10	-7.849426E-1	2.656555E-1	1.745529E-1	-1.967621E-2	1.212883E-2	-6.002426E-2	-4.289093E-1	3.361664E-1
2.704000E+10	-7.855835E-1	2.703552E-1	1.682358E-1	-1.958466E-2	1.229286E-2	-5.982208E-2	-4.251556E-1	3.424988E-1
2.726450E+10	-7.799377E-1	2.739868E-1	1.730118E-1	-2.193451E-2	8.249283E-3	-5.738831E-2	-4.176331E-1	3.406525E-1
2.748900E+10	-7.798157E-1	2.750854E-1	1.710587E-1	-2.426147E-2	1.067734E-2	-6.139946E-2	-4.150391E-1	3.399353E-1
2.771350E+10	-7.736816E-1	2.783813E-1	1.711884E-1	-2.562714E-2	9.057999E-3	-5.559731E-2	-4.109192E-1	3.448792E-1
2.793800E+10	-7.775574E-1	2.771912E-1	1.665268E-1	-2.977753E-2	1.000023E-2	-5.315971E-2	-4.100342E-1	3.453064E-1
2.816250E+10	-7.748108E-1	2.792664E-1	1.680603E-1	-2.931976E-2	8.245468E-3	-5.539894E-2	-4.079285E-1	3.484344E-1
2.838700E+10	-7.696533E-1	2.825928E-1	1.650238E-1	-3.273010E-2	7.654190E-3	-5.472183E-2	-4.043732E-1	3.508759E-1
2.861150E+10	-7.709351E-1	2.857361E-1	1.636429E-1	-3.128052E-2	4.669189E-3	-5.486107E-2	-3.960876E-1	3.502655E-1
2.883600E+10	-7.691345E-1	2.880554E-1	1.627579E-1	-3.777313E-2	4.623413E-3	-5.203056E-2	-3.963470E-1	3.504333E-1
2.906050E+10	-7.687073E-1	2.910461E-1	1.648102E-1	-3.677368E-2	4.915237E-3	-5.217552E-2	-3.939819E-1	3.577881E-1
2.928500E+10	-7.637329E-1	2.930603E-1	1.651306E-1	-3.756714E-2	5.079269E-3	-5.122566E-2	-3.864594E-1	3.566284E-1
2.950950E+10	-7.621155E-1	2.977600E-1	1.614761E-1	-3.953552E-2	4.074097E-3	-5.063438E-2	-3.944092E-1	3.591614E-1
2.973400E+10	-7.633667E-1	2.963562E-1	1.614990E-1	-4.284668E-2	4.867554E-3	-4.980087E-2	-3.818512E-1	3.609161E-1
2.995850E+10	-7.572021E-1	2.994690E-1	1.610489E-1	-4.419708E-2	1.176834E-3	-4.916573E-2	-3.833466E-1	3.604889E-1
3.018300E+10	-7.572021E-1	2.989197E-1	1.604462E-1	-4.608154E-2	3.400803E-3	-4.819679E-2	-3.793488E-1	3.710327E-1
3.040750E+10	-7.571106E-1	3.024597E-1	1.576843E-1	-4.589844E-2	3.267288E-3	-4.825783E-2	-3.768921E-1	3.681335E-1
3.063200E+10	-7.554932E-1	3.044128E-1	1.565399E-1	-4.863739E-2	9.155273E-5	-4.765892E-2	-3.730011E-1	3.752441E-1
3.085650E+10	-7.520752E-1	3.061218E-1	1.589050E-1	-5.484772E-2	2.027512E-3	-4.906273E-2	-3.680115E-1	3.691559E-1
3.108100E+10	-7.505188E-1	3.068848E-1	1.591415E-1	-5.521393E-2	1.150131E-3	-4.410744E-2	-3.610077E-1	3.779297E-1
3.130550E+10	-7.484741E-1	3.091431E-1	1.588364E-1	-5.009460E-2	1.827240E-3	-4.576492E-2	-3.510437E-1	3.775177E-1
3.153000E+10	-7.528992E-1	3.138123E-1	1.544952E-1	-5.638123E-2	1.514435E-3	-4.483414E-2	-3.534546E-1	3.756256E-1
3.175450E+10	-7.459412E-1	3.091736E-1	1.518021E-1	-5.644989E-2	6.443024E-3	-4.306412E-2	-3.507080E-1	3.852081E-1
3.197900E+10	-7.499695E-1	3.162231E-1	1.538696E-1	-6.036377E-2	1.443863E-3	-4.681587E-2	-3.403168E-1	3.795624E-1
3.220350E+10	-7.452698E-1	3.165894E-1	1.502304E-1	-6.278229E-2	2.956390E-3	-4.356194E-2	-3.405609E-1	3.844757E-1
3.242800E+10	-7.475586E-1	3.185730E-1	1.501007E-1	-6.301117E-2	-6.618500E-4	-4.233932E-2	-3.349152E-1	3.863220E-1
3.265250E+10	-7.452393E-1	3.227844E-1	1.465607E-1	-6.556702E-2	-5.474091E-4	-4.191017E-2	-3.262024E-1	3.873444E-1
3.287700E+10	-7.418823E-1	3.228455E-1	1.468201E-1	-6.925201E-2	1.468658E-4	-3.965187E-2	-3.346100E-1	3.854675E-1
3.310150E+10	-7.389526E-1	3.243103E-1	1.424103E-1	-6.785583E-2	-1.461029E-3	-3.834152E-2	-3.193054E-1	3.902893E-1
3.332600E+10	-7.352295E-1	3.297424E-1	1.451721E-1	-7.226562E-2	-2.847672E-3	-3.798676E-2	-3.162842E-1	3.823242E-1
3.355050E+10	-7.362061E-1	3.247070E-1	1.441269E-1	-7.582855E-2	2.273560E-3	-3.719139E-2	-3.142700E-1	3.872833E-1
3.377500E+10	-7.324829E-1	3.292542E-1	1.451721E-1	-7.030487E-2	-8.430481E-4	-3.712845E-2	-3.085022E-1	3.810120E-1
3.399950E+10	-7.324524E-1	3.329468E-1	1.427765E-1	-7.299805E-2	6.103516E-5	-3.863525E-2	-3.128815E-1	3.890991E-1
3.422400E+10	-7.290955E-1	3.345947E-1	1.404495E-1	-7.665253E-2	-2.399445E-3	-3.618050E-2	-3.042603E-1	4.002533E-1
3.444850E+10	-7.296143E-1	3.351135E-1	1.386795E-1	-7.996368E-2	9.269714E-4	-3.342819E-2	-2.951660E-1	3.923035E-1
3.467300E+10	-7.256775E-1	3.379822E-1	1.385193E-1	-8.586121E-2	1.941681E-3	-3.696632E-2	-2.971649E-1	3.923645E-1
3.489750E+10	-7.287903E-1	3.387146E-1	1.328430E-1	-8.039856E-2	4.583359E-3	-3.635216E-2	-2.923279E-1	4.001465E-1
3.512200E+10	-7.269897E-1	3.384399E-1	1.351700E-1	-8.628082E-2	5.054474E-4	-3.744316E-2	-2.826385E-1	3.912354E-1
3.534650E+10	-7.266846E-1	3.416138E-1	1.347046E-1	-9.066772E-2	-3.068924E-3	-3.442764E-2	-2.815857E-1	3.990021E-1
3.557100E+10	-7.254944E-1	3.416748E-1	1.331635E-1	-9.392548E-2	-5.151749E-3	-3.569603E-2	-2.729492E-1	3.987885E-1
3.579550E+10	-7.244568E-1	3.438416E-1	1.283188E-1	-9.400177E-2	-4.215240E-4	-3.429985E-2	-2.695465E-1	4.019470E-1
3.602000E+10	-7.235413E-1	3.451843E-1	1.258011E-1	-9.164429E-2	-2.811432E-3	-3.597832E-2	-2.659302E-1	3.943176E-1
3.624450E+10	-7.207947E-1	3.485413E-1	1.247292E-1	-9.224319E-2	-6.103516E-5	-3.275299E-2	-2.673340E-1	3.951569E-1
3.646900E+10	-7.188416E-1	3.551331E-1	1.250305E-1	-9.513855E-2	-3.620148E-3	-3.193855E-2	-2.594452E-1	4.028473E-1
3.669350E+10	-7.153320E-1	3.493958E-1	1.210442E-1	-1.010742E-1	4.191399E-3	-3.094673E-2	-2.475281E-1	3.958130E-1
3.691800E+10	-7.202148E-1	3.528442E-1	1.171913E-1	-9.914780E-2	1.867294E-3	-2.999687E-2	-2.462616E-1	3.996429E-1
3.714250E+10	-7.164612E-1	3.559875E-1	1.173668E-1	-9.771347E-2	-2.049446E-3	-2.791309E-2	-2.456818E-1	4.039459E-1
3.736700E+10	-7.123718E-1	3.599548E-1	1.166115E-1	-1.029663E-1	3.254890E-3	-2.966213E-2	-2.409821E-1	3.943481E-1
3.759150E+10	-7.100525E-1	3.591309E-1	1.113205E-1	-1.024551E-1	6.564140E-3	-3.012276E-2	-2.359619E-1	3.985901E-1
3.781600E+10	-7.129822E-1	3.653564E-1	1.111183E-1	-1.088486E-1	4.425049E-4	-3.027630E-2	-2.232971E-1	3.978577E-1
3.804050E+10	-7.091370E-1	3.677673E-1	1.175652E-1	-1.090240E-1	4.877090E-3	-2.877235E-2	-2.192383E-1	3.956299E-1
3.826500E+10	-7.111816E-1	3.661194E-1	1.086540E-1	-1.051636E-1	2.285004E-3	-3.535271E-2	-2.197571E-1	3.981781E-1
3.848950E+10	-7.123108E-1	3.653870E-1	1.053696E-1	-1.111679E-1	9.784698E-4	-2.805328E-2	-2.106781E-1	3.913574E-1
3.871400E+10	-7.138062E-1	3.631592E-1	1.058464E-1	-1.091423E-1	2.326965E-4	-2.785110E-2	-2.068787E-1	3.875580E-1
3.893850E+10	-7.094116E-1	3.750000E-1	1.060104E-1	-1.102333E-1	4.915237E-3	-2.835369E-2	-1.929474E-1	3.938751E-1
3.916300E+10	-7.116394E-1	3.747559E-1	9.622955E-2	-1.140442E-1	5.247116E-3	-2.955818E-2	-1.982422E-1	3.898773E-1
3.938750E+10	-7.122498E-1	3.737793E-1	1.000061E-1	-1.151390E-1	3.509521E-3	-3.068542E-2	-1.994324E-1	3.854065E-1
