!Date: 10/28/2005, 12:34 PM

!Vgs = -7.000000E+0
!Vds = 2.000000E+0
!Ig = -5.419900E-5
!Id = 1.013700E-3

# HZ S RI R 50
1.000000E+8	9.906006E-1	-4.043579E-2	-7.308483E-3	1.539421E-2	2.850533E-3	1.227760E-2	9.812012E-1	-1.013184E-2
3.245000E+8	9.780884E-1	-1.121826E-1	3.814697E-4	4.249763E-2	7.091522E-3	4.214287E-2	9.588623E-1	-9.475708E-2
5.490000E+8	9.611816E-1	-1.820984E-1	8.583069E-3	6.967163E-2	1.576614E-2	6.877518E-2	9.512024E-1	-1.557007E-1
7.735000E+8	9.402466E-1	-2.501831E-1	2.125549E-2	9.400177E-2	2.785492E-2	9.262466E-2	9.317017E-1	-2.158508E-1
9.980000E+8	9.165649E-1	-3.127136E-1	3.590393E-2	1.165771E-1	4.220200E-2	1.147232E-1	9.105835E-1	-2.690735E-1
1.222500E+9	8.870850E-1	-3.739319E-1	5.233765E-2	1.359787E-1	5.858612E-2	1.342773E-1	8.873901E-1	-3.238525E-1
1.447000E+9	8.546448E-1	-4.315796E-1	7.071686E-2	1.535797E-1	7.675934E-2	1.510315E-1	8.593445E-1	-3.736877E-1
1.671500E+9	8.192444E-1	-4.847107E-1	9.000397E-2	1.698837E-1	9.595490E-2	1.665573E-1	8.296509E-1	-4.189148E-1
1.896000E+9	7.809143E-1	-5.331116E-1	1.126175E-1	1.835785E-1	1.178513E-1	1.803741E-1	8.016968E-1	-4.602661E-1
2.120500E+9	7.414246E-1	-5.780945E-1	1.367111E-1	1.931229E-1	1.405792E-1	1.899796E-1	7.708130E-1	-5.027771E-1
2.345000E+9	6.979980E-1	-6.206055E-1	1.609879E-1	1.987305E-1	1.651459E-1	1.957016E-1	7.368774E-1	-5.413208E-1
2.569500E+9	6.559448E-1	-6.557312E-1	1.837769E-1	2.025757E-1	1.874008E-1	1.996994E-1	7.030334E-1	-5.769348E-1
2.794000E+9	6.127319E-1	-6.896057E-1	2.068481E-1	2.037277E-1	2.104645E-1	2.002640E-1	6.679382E-1	-6.087952E-1
3.018500E+9	5.684509E-1	-7.186584E-1	2.290421E-1	2.023773E-1	2.322388E-1	1.989365E-1	6.317139E-1	-6.397705E-1
3.243000E+9	5.249939E-1	-7.452698E-1	2.505035E-1	1.986694E-1	2.532196E-1	1.949768E-1	5.932922E-1	-6.669006E-1
3.467500E+9	4.812927E-1	-7.678528E-1	2.710724E-1	1.944275E-1	2.728424E-1	1.905823E-1	5.571899E-1	-6.906433E-1
3.692000E+9	4.388428E-1	-7.871704E-1	2.902832E-1	1.871185E-1	2.924805E-1	1.836548E-1	5.196228E-1	-7.138672E-1
3.916500E+9	3.950806E-1	-8.035583E-1	3.084564E-1	1.785736E-1	3.109436E-1	1.749573E-1	4.819031E-1	-7.317505E-1
4.141000E+9	3.544312E-1	-8.178711E-1	3.262634E-1	1.697845E-1	3.282471E-1	1.660919E-1	4.469604E-1	-7.490540E-1
4.365500E+9	3.148499E-1	-8.306580E-1	3.421631E-1	1.593933E-1	3.438263E-1	1.551666E-1	4.110413E-1	-7.644348E-1
4.590000E+9	2.742004E-1	-8.419189E-1	3.570709E-1	1.470795E-1	3.584137E-1	1.432953E-1	3.743591E-1	-7.783508E-1
4.814500E+9	2.359314E-1	-8.486633E-1	3.710480E-1	1.346283E-1	3.723602E-1	1.310577E-1	3.401794E-1	-7.904358E-1
5.039000E+9	1.980591E-1	-8.554382E-1	3.837585E-1	1.205139E-1	3.843536E-1	1.174316E-1	3.059387E-1	-8.019714E-1
5.263500E+9	1.612244E-1	-8.589172E-1	3.944855E-1	1.062012E-1	3.952026E-1	1.030731E-1	2.712708E-1	-8.104553E-1
5.488000E+9	1.271057E-1	-8.620911E-1	4.046631E-1	9.243774E-2	4.048004E-1	8.891296E-2	2.388916E-1	-8.173218E-1
5.712500E+9	9.213257E-2	-8.641052E-1	4.133148E-1	7.769775E-2	4.132843E-1	7.424927E-2	2.065430E-1	-8.246765E-1
5.937000E+9	5.917358E-2	-8.634033E-1	4.199219E-1	6.141663E-2	4.206696E-1	5.873108E-2	1.730652E-1	-8.304443E-1
6.161500E+9	2.853394E-2	-8.640442E-1	4.264679E-1	4.730225E-2	4.264221E-1	4.393005E-2	1.418762E-1	-8.343201E-1
6.386000E+9	-3.784180E-3	-8.632812E-1	4.314423E-1	3.146362E-2	4.313049E-1	2.839661E-2	1.103516E-1	-8.380432E-1
6.610500E+9	-3.149414E-2	-8.614502E-1	4.350433E-1	1.622009E-2	4.346008E-1	1.365662E-2	7.882690E-2	-8.400269E-1
6.835000E+9	-6.149292E-2	-8.589783E-1	4.384766E-1	1.647949E-3	4.380035E-1	-1.083374E-3	4.910278E-2	-8.405151E-1
7.059500E+9	-8.743286E-2	-8.540649E-1	4.398346E-1	-1.200867E-2	4.400482E-1	-1.504517E-2	2.316284E-2	-8.397217E-1
7.284000E+9	-1.146545E-1	-8.506775E-1	4.412079E-1	-2.682495E-2	4.407806E-1	-2.980042E-2	-8.361816E-3	-8.395081E-1
7.508500E+9	-1.417847E-1	-8.452454E-1	4.416351E-1	-4.124451E-2	4.412384E-1	-4.438782E-2	-3.677368E-2	-8.357849E-1
7.733000E+9	-1.654053E-1	-8.395386E-1	4.411926E-1	-5.526733E-2	4.404144E-1	-5.775452E-2	-6.176758E-2	-8.336182E-1
7.957500E+9	-1.897888E-1	-8.342590E-1	4.397736E-1	-6.935120E-2	4.396210E-1	-7.064819E-2	-9.042358E-2	-8.318787E-1
8.182000E+9	-2.121887E-1	-8.280945E-1	4.394226E-1	-8.197021E-2	4.381561E-1	-8.477783E-2	-1.150818E-1	-8.281555E-1
8.406500E+9	-2.345886E-1	-8.215027E-1	4.363708E-1	-9.498596E-2	4.346161E-1	-9.666443E-2	-1.414185E-1	-8.227844E-1
8.631000E+9	-2.577820E-1	-8.148193E-1	4.341278E-1	-1.071625E-1	4.326324E-1	-1.103058E-1	-1.669312E-1	-8.188171E-1
8.855500E+9	-2.777710E-1	-8.081360E-1	4.300690E-1	-1.193237E-1	4.290009E-1	-1.220245E-1	-1.913147E-1	-8.118591E-1
9.080001E+9	-2.971802E-1	-8.014832E-1	4.270172E-1	-1.308899E-1	4.258728E-1	-1.327362E-1	-2.141418E-1	-8.053589E-1
9.304500E+9	-3.180237E-1	-7.933960E-1	4.222107E-1	-1.413879E-1	4.207611E-1	-1.439514E-1	-2.366028E-1	-7.978516E-1
9.529000E+9	-3.353882E-1	-7.868347E-1	4.193268E-1	-1.532745E-1	4.171295E-1	-1.544647E-1	-2.607117E-1	-7.904663E-1
9.753500E+9	-3.543396E-1	-7.785950E-1	4.138794E-1	-1.635284E-1	4.125366E-1	-1.654510E-1	-2.807007E-1	-7.819519E-1
9.978000E+9	-3.717346E-1	-7.699585E-1	4.082489E-1	-1.738281E-1	4.069977E-1	-1.749115E-1	-3.011169E-1	-7.761841E-1
1.020250E+10	-3.890686E-1	-7.630920E-1	4.029999E-1	-1.832886E-1	4.017792E-1	-1.849823E-1	-3.232422E-1	-7.664795E-1
1.042700E+10	-4.060059E-1	-7.538757E-1	3.972168E-1	-1.932831E-1	3.960419E-1	-1.943207E-1	-3.423767E-1	-7.586365E-1
1.065150E+10	-4.216003E-1	-7.462769E-1	3.917084E-1	-2.015076E-1	3.895569E-1	-2.031097E-1	-3.611145E-1	-7.505798E-1
1.087600E+10	-4.368591E-1	-7.375793E-1	3.848877E-1	-2.098846E-1	3.840485E-1	-2.117615E-1	-3.807068E-1	-7.398071E-1
1.110050E+10	-4.519043E-1	-7.285461E-1	3.780823E-1	-2.190247E-1	3.768616E-1	-2.202911E-1	-3.992615E-1	-7.301636E-1
1.132500E+10	-4.662781E-1	-7.210083E-1	3.716888E-1	-2.261353E-1	3.706207E-1	-2.270660E-1	-4.168091E-1	-7.219849E-1
1.154950E+10	-4.819946E-1	-7.120667E-1	3.662262E-1	-2.330322E-1	3.647308E-1	-2.336578E-1	-4.363403E-1	-7.099915E-1
1.177400E+10	-4.936829E-1	-7.035217E-1	3.595428E-1	-2.398834E-1	3.592682E-1	-2.408447E-1	-4.514771E-1	-6.997070E-1
1.199850E+10	-5.082397E-1	-6.950684E-1	3.530731E-1	-2.469330E-1	3.512573E-1	-2.481689E-1	-4.673767E-1	-6.903992E-1
1.222300E+10	-5.202332E-1	-6.869507E-1	3.464508E-1	-2.544861E-1	3.447266E-1	-2.537689E-1	-4.847412E-1	-6.794739E-1
1.244750E+10	-5.337524E-1	-6.781616E-1	3.386383E-1	-2.601013E-1	3.380585E-1	-2.612457E-1	-5.005798E-1	-6.667786E-1
1.267200E+10	-5.455627E-1	-6.698914E-1	3.324280E-1	-2.664337E-1	3.309784E-1	-2.670898E-1	-5.132751E-1	-6.580200E-1
1.289650E+10	-5.569153E-1	-6.612854E-1	3.251648E-1	-2.702789E-1	3.238831E-1	-2.712250E-1	-5.302734E-1	-6.469421E-1
1.312100E+10	-5.695496E-1	-6.523132E-1	3.175507E-1	-2.762451E-1	3.167725E-1	-2.772217E-1	-5.444946E-1	-6.318970E-1
1.334550E+10	-5.795288E-1	-6.441040E-1	3.118134E-1	-2.819214E-1	3.104248E-1	-2.825012E-1	-5.555420E-1	-6.239319E-1
1.357000E+10	-5.924377E-1	-6.336670E-1	3.043213E-1	-2.865448E-1	3.013611E-1	-2.868042E-1	-5.709534E-1	-6.135254E-1
1.379450E+10	-6.002808E-1	-6.275940E-1	2.975616E-1	-2.912903E-1	2.959595E-1	-2.909698E-1	-5.841675E-1	-5.975952E-1
1.401900E+10	-6.105957E-1	-6.178589E-1	2.906952E-1	-2.939148E-1	2.891541E-1	-2.957611E-1	-5.935364E-1	-5.889893E-1
1.424350E+10	-6.219177E-1	-6.092224E-1	2.823639E-1	-2.991638E-1	2.826385E-1	-2.987366E-1	-6.080017E-1	-5.767212E-1
1.446800E+10	-6.305237E-1	-6.009827E-1	2.760315E-1	-3.022766E-1	2.752991E-1	-3.025665E-1	-6.191406E-1	-5.614319E-1
1.469250E+10	-6.393127E-1	-5.920105E-1	2.695007E-1	-3.062439E-1	2.683411E-1	-3.065796E-1	-6.275024E-1	-5.520630E-1
1.491700E+10	-6.494446E-1	-5.857544E-1	2.629089E-1	-3.102722E-1	2.611084E-1	-3.103485E-1	-6.415405E-1	-5.411987E-1
1.514150E+10	-6.571045E-1	-5.742493E-1	2.546082E-1	-3.120422E-1	2.544708E-1	-3.123779E-1	-6.525269E-1	-5.242004E-1
1.536600E+10	-6.671753E-1	-5.662537E-1	2.469635E-1	-3.158722E-1	2.466736E-1	-3.157806E-1	-6.595764E-1	-5.132446E-1
1.559050E+10	-6.748657E-1	-5.573730E-1	2.409668E-1	-3.178253E-1	2.389374E-1	-3.183899E-1	-6.713257E-1	-5.031738E-1
1.581500E+10	-6.833801E-1	-5.493164E-1	2.337494E-1	-3.193512E-1	2.327881E-1	-3.197174E-1	-6.823120E-1	-4.887085E-1
1.603950E+10	-6.914368E-1	-5.412903E-1	2.269287E-1	-3.234253E-1	2.259216E-1	-3.226471E-1	-6.900330E-1	-4.770813E-1
1.626400E+10	-7.001953E-1	-5.331726E-1	2.214813E-1	-3.236694E-1	2.197876E-1	-3.238373E-1	-6.997375E-1	-4.650269E-1
1.648850E+10	-7.076111E-1	-5.237427E-1	2.144928E-1	-3.260345E-1	2.118988E-1	-3.264313E-1	-7.097778E-1	-4.498596E-1
1.671300E+10	-7.145386E-1	-5.161133E-1	2.065277E-1	-3.290100E-1	2.062073E-1	-3.284149E-1	-7.156982E-1	-4.384460E-1
1.693750E+10	-7.213745E-1	-5.078125E-1	2.012787E-1	-3.294983E-1	1.995239E-1	-3.304291E-1	-7.252197E-1	-4.264832E-1
1.716200E+10	-7.282410E-1	-4.991150E-1	1.945038E-1	-3.320007E-1	1.934204E-1	-3.309937E-1	-7.314758E-1	-4.105225E-1
1.738650E+10	-7.351990E-1	-4.903259E-1	1.876068E-1	-3.338623E-1	1.867523E-1	-3.320160E-1	-7.367859E-1	-3.979797E-1
1.761100E+10	-7.413330E-1	-4.830627E-1	1.811371E-1	-3.333282E-1	1.794739E-1	-3.336639E-1	-7.463684E-1	-3.883972E-1
1.783550E+10	-7.495422E-1	-4.728394E-1	1.755371E-1	-3.350220E-1	1.748199E-1	-3.354492E-1	-7.548523E-1	-3.729553E-1
1.806000E+10	-7.562561E-1	-4.662170E-1	1.699829E-1	-3.352509E-1	1.698151E-1	-3.356628E-1	-7.589111E-1	-3.601379E-1
1.828450E+10	-7.605286E-1	-4.553528E-1	1.638489E-1	-3.359375E-1	1.617737E-1	-3.354645E-1	-7.650452E-1	-3.507996E-1
1.850900E+10	-7.674561E-1	-4.495544E-1	1.584473E-1	-3.375702E-1	1.556854E-1	-3.375397E-1	-7.727661E-1	-3.361816E-1
1.873350E+10	-7.739258E-1	-4.414673E-1	1.514282E-1	-3.390656E-1	1.505737E-1	-3.370972E-1	-7.769165E-1	-3.206482E-1
1.895800E+10	-7.783203E-1	-4.326172E-1	1.456299E-1	-3.393097E-1	1.456451E-1	-3.371582E-1	-7.825317E-1	-3.123169E-1
1.918250E+10	-7.835999E-1	-4.255676E-1	1.397552E-1	-3.389282E-1	1.389618E-1	-3.377838E-1	-7.890015E-1	-2.974854E-1
1.940700E+10	-7.870178E-1	-4.158936E-1	1.317291E-1	-3.375854E-1	1.329041E-1	-3.384705E-1	-7.905884E-1	-2.811890E-1
1.963150E+10	-7.955627E-1	-4.089355E-1	1.277313E-1	-3.400116E-1	1.281738E-1	-3.390045E-1	-7.937927E-1	-2.719116E-1
1.985600E+10	-7.989807E-1	-3.999634E-1	1.227875E-1	-3.378143E-1	1.205902E-1	-3.375854E-1	-8.018494E-1	-2.591858E-1
2.008050E+10	-8.058167E-1	-3.930054E-1	1.170959E-1	-3.391724E-1	1.160736E-1	-3.377686E-1	-8.057251E-1	-2.424316E-1
2.030500E+10	-8.088989E-1	-3.855286E-1	1.103210E-1	-3.388519E-1	1.090698E-1	-3.375854E-1	-8.067017E-1	-2.317810E-1
2.052950E+10	-8.160095E-1	-3.774719E-1	1.041260E-1	-3.383331E-1	1.045074E-1	-3.358765E-1	-8.133545E-1	-2.212219E-1
2.075400E+10	-8.187561E-1	-3.692932E-1	1.000061E-1	-3.381653E-1	1.005249E-1	-3.379517E-1	-8.142700E-1	-2.065430E-1
2.097850E+10	-8.235779E-1	-3.610535E-1	9.553528E-2	-3.370361E-1	9.523010E-2	-3.365784E-1	-8.143311E-1	-1.951599E-1
2.120300E+10	-8.263245E-1	-3.527527E-1	8.938599E-2	-3.354645E-1	8.883667E-2	-3.351440E-1	-8.197937E-1	-1.868896E-1
2.142750E+10	-8.319092E-1	-3.453064E-1	8.398437E-2	-3.344421E-1	8.457947E-2	-3.366089E-1	-8.247070E-1	-1.701660E-1
2.165200E+10	-8.358459E-1	-3.363037E-1	7.965088E-2	-3.345947E-1	7.952881E-2	-3.352203E-1	-8.258667E-1	-1.579895E-1
2.187650E+10	-8.397522E-1	-3.284912E-1	7.452393E-2	-3.345642E-1	7.417297E-2	-3.329010E-1	-8.270569E-1	-1.450500E-1
2.210100E+10	-8.446655E-1	-3.193359E-1	7.135010E-2	-3.345032E-1	7.072449E-2	-3.342438E-1	-8.342590E-1	-1.324768E-1
2.232550E+10	-8.479614E-1	-3.128052E-1	6.475830E-2	-3.304901E-1	6.405640E-2	-3.334198E-1	-8.334045E-1	-1.196289E-1
2.255000E+10	-8.514099E-1	-3.029785E-1	6.039429E-2	-3.345032E-1	6.086731E-2	-3.329926E-1	-8.351746E-1	-1.097107E-1
2.277450E+10	-8.533630E-1	-2.940369E-1	5.645752E-2	-3.332367E-1	5.485535E-2	-3.315582E-1	-8.371277E-1	-9.332275E-2
2.299900E+10	-8.585510E-1	-2.873230E-1	5.062866E-2	-3.307953E-1	5.221558E-2	-3.308105E-1	-8.358459E-1	-8.044434E-2
2.322350E+10	-8.595886E-1	-2.803345E-1	4.675293E-2	-3.299255E-1	4.583740E-2	-3.304138E-1	-8.367004E-1	-7.138062E-2
2.344800E+10	-8.619385E-1	-2.726135E-1	4.222107E-2	-3.306732E-1	4.162598E-2	-3.290710E-1	-8.403625E-1	-5.575562E-2
2.367250E+10	-8.645020E-1	-2.639160E-1	3.610229E-2	-3.273315E-1	3.645325E-2	-3.270416E-1	-8.399963E-1	-4.202271E-2
2.389700E+10	-8.657532E-1	-2.583618E-1	3.234863E-2	-3.271942E-1	3.198242E-2	-3.270111E-1	-8.404236E-1	-3.179932E-2
2.412150E+10	-8.697205E-1	-2.524109E-1	2.883911E-2	-3.258209E-1	2.763367E-2	-3.256378E-1	-8.390198E-1	-1.617432E-2
2.434600E+10	-8.719788E-1	-2.442322E-1	2.413940E-2	-3.247223E-1	2.392578E-2	-3.235779E-1	-8.357849E-1	-4.882812E-3
2.457050E+10	-8.754578E-1	-2.396851E-1	2.067566E-2	-3.239594E-1	2.041626E-2	-3.227539E-1	-8.381348E-1	6.774902E-3
2.479500E+10	-8.780823E-1	-2.306824E-1	1.594543E-2	-3.217926E-1	1.536560E-2	-3.227386E-1	-8.361816E-1	2.349854E-2
2.501950E+10	-8.791199E-1	-2.251587E-1	1.026917E-2	-3.207550E-1	1.040649E-2	-3.220673E-1	-8.299561E-1	3.314209E-2
2.524400E+10	-8.844604E-1	-2.169189E-1	5.737305E-3	-3.176575E-1	5.523682E-3	-3.174744E-1	-8.336182E-1	4.223633E-2
2.546850E+10	-8.850098E-1	-2.093201E-1	3.158569E-3	-3.170471E-1	2.365112E-3	-3.162689E-1	-8.300781E-1	5.761719E-2
2.569300E+10	-8.890686E-1	-2.019043E-1	-1.602173E-3	-3.139038E-1	-1.480103E-3	-3.145447E-1	-8.260193E-1	6.536865E-2
2.591750E+10	-8.913269E-1	-1.950684E-1	-4.486084E-3	-3.122559E-1	-4.013062E-3	-3.129883E-1	-8.270569E-1	7.751465E-2
2.614200E+10	-8.917847E-1	-1.837158E-1	-7.385254E-3	-3.109741E-1	-9.002686E-3	-3.109436E-1	-8.278809E-1	9.024048E-2
2.636650E+10	-8.963623E-1	-1.797791E-1	-1.284790E-2	-3.100586E-1	-1.165771E-2	-3.096008E-1	-8.239136E-1	1.046448E-1
2.659100E+10	-8.965149E-1	-1.719360E-1	-1.602173E-2	-3.113861E-1	-1.489258E-2	-3.091431E-1	-8.200378E-1	1.138611E-1
2.681550E+10	-8.982849E-1	-1.675720E-1	-1.890564E-2	-3.097534E-1	-2.171326E-2	-3.083801E-1	-8.203735E-1	1.241150E-1
2.704000E+10	-9.012146E-1	-1.559448E-1	-2.284241E-2	-3.074799E-1	-2.299500E-2	-3.060455E-1	-8.180542E-1	1.438904E-1
2.726450E+10	-9.012146E-1	-1.513062E-1	-2.713013E-2	-3.033295E-1	-2.590942E-2	-3.058624E-1	-8.106689E-1	1.491089E-1
2.748900E+10	-9.040527E-1	-1.431580E-1	-3.089905E-2	-3.048248E-1	-2.890015E-2	-3.034363E-1	-8.084106E-1	1.587524E-1
2.771350E+10	-9.026489E-1	-1.354980E-1	-3.544617E-2	-3.026276E-1	-3.834534E-2	-3.026428E-1	-8.023376E-1	1.752625E-1
2.793800E+10	-9.065552E-1	-1.325073E-1	-3.718567E-2	-2.984772E-1	-3.672791E-2	-3.007202E-1	-8.013000E-1	1.818542E-1
2.816250E+10	-9.081726E-1	-1.217041E-1	-4.063416E-2	-2.976379E-1	-4.035950E-2	-2.986450E-1	-8.007812E-1	1.948853E-1
2.838700E+10	-9.091797E-1	-1.166992E-1	-4.449463E-2	-2.943573E-1	-4.550171E-2	-2.949524E-1	-7.932129E-1	2.057800E-1
2.861150E+10	-9.115601E-1	-1.080627E-1	-5.006409E-2	-2.978058E-1	-5.133057E-2	-2.949066E-1	-7.871094E-1	2.137451E-1
2.883600E+10	-9.128723E-1	-1.003113E-1	-5.397034E-2	-2.934265E-1	-5.206299E-2	-2.943878E-1	-7.823486E-1	2.223816E-1
2.906050E+10	-9.142456E-1	-9.774780E-2	-5.448914E-2	-2.917633E-1	-5.616760E-2	-2.904205E-1	-7.749634E-1	2.388000E-1
2.928500E+10	-9.153137E-1	-8.819580E-2	-5.995178E-2	-2.888184E-1	-5.924988E-2	-2.902222E-1	-7.734070E-1	2.478943E-1
2.950950E+10	-9.141541E-1	-7.891846E-2	-5.891418E-2	-2.863159E-1	-6.040955E-2	-2.847900E-1	-7.760010E-1	2.535095E-1
2.973400E+10	-9.178467E-1	-7.583618E-2	-6.278992E-2	-2.825317E-1	-6.140137E-2	-2.828522E-1	-7.680054E-1	2.679138E-1
2.995850E+10	-9.165344E-1	-6.494141E-2	-6.661987E-2	-2.860718E-1	-6.243896E-2	-2.852325E-1	-7.638550E-1	2.770081E-1
3.018300E+10	-9.161682E-1	-5.987549E-2	-6.834412E-2	-2.813873E-1	-7.185364E-2	-2.788544E-1	-7.576294E-1	2.947693E-1
3.040750E+10	-9.188538E-1	-5.346680E-2	-7.255554E-2	-2.811890E-1	-7.167053E-2	-2.825775E-1	-7.529602E-1	3.017273E-1
3.063200E+10	-9.194336E-1	-4.592896E-2	-7.539368E-2	-2.794647E-1	-7.466125E-2	-2.769928E-1	-7.497559E-1	3.139038E-1
3.085650E+10	-9.189453E-1	-4.049683E-2	-7.850647E-2	-2.744446E-1	-7.902527E-2	-2.749939E-1	-7.450256E-1	3.261108E-1
3.108100E+10	-9.205017E-1	-3.671265E-2	-8.311462E-2	-2.772369E-1	-8.157349E-2	-2.746429E-1	-7.342834E-1	3.380127E-1
3.130550E+10	-9.185791E-1	-2.807617E-2	-8.915710E-2	-2.714691E-1	-8.403015E-2	-2.716675E-1	-7.232361E-1	3.453369E-1
3.153000E+10	-9.212646E-1	-1.925659E-2	-8.851624E-2	-2.698059E-1	-8.525085E-2	-2.704468E-1	-7.155762E-1	3.548889E-1
3.175450E+10	-9.206848E-1	-8.056641E-3	-9.318542E-2	-2.714844E-1	-9.225464E-2	-2.674255E-1	-7.106323E-1	3.676147E-1
3.197900E+10	-9.247437E-1	-6.591797E-3	-9.149170E-2	-2.695007E-1	-9.652710E-2	-2.671356E-1	-7.009583E-1	3.725891E-1
3.220350E+10	-9.234009E-1	9.155273E-5	-1.000519E-1	-2.678223E-1	-9.649658E-2	-2.636719E-1	-6.923828E-1	3.843079E-1
3.242800E+10	-9.236450E-1	1.055908E-2	-9.774780E-2	-2.634125E-1	-1.013336E-1	-2.618561E-1	-6.889648E-1	3.957825E-1
3.265250E+10	-9.236755E-1	1.629639E-2	-9.999084E-2	-2.578735E-1	-1.018677E-1	-2.593994E-1	-6.784058E-1	4.049072E-1
3.287700E+10	-9.237061E-1	1.849365E-2	-1.021271E-1	-2.617950E-1	-1.034851E-1	-2.611389E-1	-6.742859E-1	4.064636E-1
3.310150E+10	-9.193420E-1	2.825928E-2	-1.081238E-1	-2.570648E-1	-1.092682E-1	-2.547607E-1	-6.622314E-1	4.193420E-1
3.332600E+10	-9.239502E-1	3.659058E-2	-1.081696E-1	-2.536163E-1	-1.125793E-1	-2.581482E-1	-6.549072E-1	4.241333E-1
3.355050E+10	-9.237976E-1	4.290771E-2	-1.114044E-1	-2.527008E-1	-1.164551E-1	-2.498856E-1	-6.461182E-1	4.350281E-1
3.377500E+10	-9.233398E-1	4.885864E-2	-1.132584E-1	-2.493896E-1	-1.134338E-1	-2.484207E-1	-6.381531E-1	4.346008E-1
3.399950E+10	-9.216003E-1	5.331421E-2	-1.127701E-1	-2.475357E-1	-1.169968E-1	-2.467728E-1	-6.357422E-1	4.503479E-1
3.422400E+10	-9.217834E-1	6.225586E-2	-1.203613E-1	-2.436600E-1	-1.198807E-1	-2.464294E-1	-6.283569E-1	4.650879E-1
3.444850E+10	-9.222412E-1	6.909180E-2	-1.200104E-1	-2.462616E-1	-1.215134E-1	-2.460480E-1	-6.174316E-1	4.681091E-1
3.467300E+10	-9.197388E-1	7.107544E-2	-1.233902E-1	-2.435837E-1	-1.244354E-1	-2.419662E-1	-6.123657E-1	4.785461E-1
3.489750E+10	-9.223022E-1	8.209229E-2	-1.236115E-1	-2.407150E-1	-1.266251E-1	-2.435226E-1	-5.960388E-1	4.904175E-1
3.512200E+10	-9.174194E-1	8.480835E-2	-1.278915E-1	-2.415237E-1	-1.279602E-1	-2.397995E-1	-5.884399E-1	4.947510E-1
3.534650E+10	-9.182129E-1	8.889771E-2	-1.339417E-1	-2.381058E-1	-1.293335E-1	-2.378159E-1	-5.794067E-1	5.077515E-1
3.557100E+10	-9.212646E-1	9.872437E-2	-1.322708E-1	-2.390976E-1	-1.324844E-1	-2.353745E-1	-5.594177E-1	5.115967E-1
3.579550E+10	-9.204712E-1	1.054077E-1	-1.390076E-1	-2.347031E-1	-1.357269E-1	-2.333450E-1	-5.503235E-1	5.187988E-1
3.602000E+10	-9.195862E-1	1.124268E-1	-1.396866E-1	-2.317200E-1	-1.409378E-1	-2.338562E-1	-5.428162E-1	5.239563E-1
3.624450E+10	-9.213257E-1	1.168518E-1	-1.411285E-1	-2.273102E-1	-1.416473E-1	-2.324829E-1	-5.341797E-1	5.320129E-1
3.646900E+10	-9.184570E-1	1.275024E-1	-1.421661E-1	-2.253113E-1	-1.495285E-1	-2.279282E-1	-5.285339E-1	5.415955E-1
3.669350E+10	-9.123230E-1	1.304626E-1	-1.478424E-1	-2.239838E-1	-1.466675E-1	-2.212143E-1	-5.058594E-1	5.505981E-1
3.691800E+10	-9.149780E-1	1.390381E-1	-1.504745E-1	-2.229538E-1	-1.464462E-1	-2.205276E-1	-4.992676E-1	5.530701E-1
3.714250E+10	-9.125977E-1	1.413574E-1	-1.529541E-1	-2.164536E-1	-1.524353E-1	-2.174225E-1	-4.911499E-1	5.590210E-1
3.736700E+10	-9.115906E-1	1.517639E-1	-1.553650E-1	-2.206039E-1	-1.561127E-1	-2.169189E-1	-4.776306E-1	5.641479E-1
3.759150E+10	-9.097290E-1	1.573486E-1	-1.553421E-1	-2.152863E-1	-1.590881E-1	-2.180252E-1	-4.620667E-1	5.711670E-1
3.781600E+10	-9.069214E-1	1.677551E-1	-1.562805E-1	-2.106323E-1	-1.587372E-1	-2.134323E-1	-4.502258E-1	5.717773E-1
3.804050E+10	-9.097595E-1	1.689148E-1	-1.623154E-1	-2.095871E-1	-1.654739E-1	-2.104492E-1	-4.356689E-1	5.851440E-1
3.826500E+10	-9.055481E-1	1.746826E-1	-1.654358E-1	-2.040710E-1	-1.639786E-1	-2.090225E-1	-4.266663E-1	5.874634E-1
3.848950E+10	-9.038696E-1	1.814270E-1	-1.689529E-1	-2.052994E-1	-1.682434E-1	-2.109756E-1	-4.104919E-1	5.944214E-1
3.871400E+10	-9.049377E-1	1.887207E-1	-1.632843E-1	-1.993256E-1	-1.683578E-1	-2.034378E-1	-3.943176E-1	5.888672E-1
3.893850E+10	-8.995056E-1	1.902466E-1	-1.710129E-1	-1.963654E-1	-1.673050E-1	-1.964493E-1	-3.851013E-1	5.970154E-1
