!Date: 10/28/2005, 12:34 PM

!Vgs = -4.000000E+0
!Vds = 2.000000E+0
!Ig = -2.002900E-5
!Id = 1.269500E-1

# HZ S RI R 50
1.000000E+8	9.624329E-1	-2.218933E-1	-1.214990E+1	1.350098E+0	2.060890E-3	1.224661E-2	2.465591E-1	-9.091187E-2
3.245000E+8	7.442322E-1	-6.026001E-1	-1.044873E+1	4.198730E+0	1.302052E-2	2.789021E-2	1.197815E-1	-2.235947E-1
5.490000E+8	4.483948E-1	-8.215332E-1	-8.431152E+0	5.787109E+0	2.753258E-2	3.773880E-2	2.359009E-2	-2.906342E-1
7.735000E+8	1.673279E-1	-9.048157E-1	-6.503906E+0	6.348877E+0	4.141045E-2	4.037285E-2	-7.698059E-2	-3.196106E-1
9.980000E+8	-5.883789E-2	-9.063110E-1	-4.905518E+0	6.334229E+0	5.204964E-2	3.915215E-2	-1.554718E-1	-3.135834E-1
1.222500E+9	-2.359924E-1	-8.698120E-1	-3.685303E+0	6.095947E+0	6.029701E-2	3.619957E-2	-2.120972E-1	-3.031464E-1
1.447000E+9	-3.703308E-1	-8.177185E-1	-2.760498E+0	5.727783E+0	6.641006E-2	3.258896E-2	-2.581482E-1	-2.846069E-1
1.671500E+9	-4.722290E-1	-7.608643E-1	-2.060059E+0	5.327393E+0	7.129669E-2	2.875900E-2	-2.924347E-1	-2.672272E-1
1.896000E+9	-5.509338E-1	-7.032471E-1	-1.537354E+0	4.938721E+0	7.529068E-2	2.506638E-2	-3.188171E-1	-2.479858E-1
2.120500E+9	-6.110535E-1	-6.501465E-1	-1.134521E+0	4.585449E+0	7.794571E-2	2.082825E-2	-3.393097E-1	-2.304993E-1
2.345000E+9	-6.577454E-1	-5.990295E-1	-8.164062E-1	4.257568E+0	7.978821E-2	1.745605E-2	-3.547363E-1	-2.148437E-1
2.569500E+9	-6.918945E-1	-5.541992E-1	-5.677490E-1	3.954102E+0	8.138275E-2	1.467514E-2	-3.679199E-1	-2.005615E-1
2.794000E+9	-7.218323E-1	-5.161133E-1	-3.740234E-1	3.694458E+0	8.276367E-2	1.156998E-2	-3.765717E-1	-1.881256E-1
3.018500E+9	-7.448120E-1	-4.792786E-1	-2.110596E-1	3.451416E+0	8.293915E-2	8.792877E-3	-3.844757E-1	-1.776581E-1
3.243000E+9	-7.648315E-1	-4.460144E-1	-7.763672E-2	3.237305E+0	8.402252E-2	5.847931E-3	-3.929596E-1	-1.671448E-1
3.467500E+9	-7.817383E-1	-4.172058E-1	3.308105E-2	3.047729E+0	8.434296E-2	3.894806E-3	-3.979187E-1	-1.587372E-1
3.692000E+9	-7.954407E-1	-3.900757E-1	1.284180E-1	2.867554E+0	8.473587E-2	1.491547E-3	-4.037628E-1	-1.516418E-1
3.916500E+9	-8.077698E-1	-3.641052E-1	2.044678E-1	2.702881E+0	8.525848E-2	-8.125305E-4	-4.095154E-1	-1.436462E-1
4.141000E+9	-8.176880E-1	-3.402710E-1	2.719727E-1	2.556030E+0	8.522797E-2	-2.746582E-3	-4.133759E-1	-1.373749E-1
4.365500E+9	-8.247375E-1	-3.197021E-1	3.280029E-1	2.420532E+0	8.456421E-2	-5.256653E-3	-4.170990E-1	-1.312408E-1
4.590000E+9	-8.319092E-1	-3.006897E-1	3.758545E-1	2.293335E+0	8.483124E-2	-6.603241E-3	-4.207306E-1	-1.253967E-1
4.814500E+9	-8.390503E-1	-2.821960E-1	4.150391E-1	2.176636E+0	8.529663E-2	-7.984161E-3	-4.241943E-1	-1.197052E-1
5.039000E+9	-8.442688E-1	-2.637024E-1	4.501953E-1	2.071167E+0	8.482742E-2	-1.062775E-2	-4.273834E-1	-1.154175E-1
5.263500E+9	-8.489380E-1	-2.468872E-1	4.799194E-1	1.971985E+0	8.498764E-2	-1.249313E-2	-4.306488E-1	-1.101685E-1
5.488000E+9	-8.514099E-1	-2.334290E-1	5.067139E-1	1.882385E+0	8.426666E-2	-1.397324E-2	-4.326477E-1	-1.061707E-1
5.712500E+9	-8.562317E-1	-2.196045E-1	5.311890E-1	1.793579E+0	8.414078E-2	-1.514816E-2	-4.360809E-1	-1.022491E-1
5.937000E+9	-8.597412E-1	-2.039185E-1	5.507812E-1	1.713013E+0	8.445358E-2	-1.713562E-2	-4.393311E-1	-9.815979E-2
6.161500E+9	-8.622131E-1	-1.930237E-1	5.678101E-1	1.640076E+0	8.346176E-2	-1.891708E-2	-4.409790E-1	-9.307861E-2
6.386000E+9	-8.649597E-1	-1.797485E-1	5.834961E-1	1.567627E+0	8.306885E-2	-2.037430E-2	-4.424896E-1	-9.004211E-2
6.610500E+9	-8.670654E-1	-1.684570E-1	5.984497E-1	1.501038E+0	8.276749E-2	-2.156448E-2	-4.459229E-1	-8.761597E-2
6.835000E+9	-8.698425E-1	-1.578064E-1	6.096802E-1	1.435059E+0	8.237839E-2	-2.326202E-2	-4.495697E-1	-8.314514E-2
7.059500E+9	-8.709717E-1	-1.477051E-1	6.169434E-1	1.377258E+0	8.168030E-2	-2.483749E-2	-4.480591E-1	-8.067322E-2
7.284000E+9	-8.717041E-1	-1.379395E-1	6.255493E-1	1.320312E+0	8.145523E-2	-2.637482E-2	-4.526215E-1	-7.820129E-2
7.508500E+9	-8.741455E-1	-1.271362E-1	6.336060E-1	1.265076E+0	8.093262E-2	-2.718353E-2	-4.535675E-1	-7.336426E-2
7.733000E+9	-8.742981E-1	-1.180115E-1	6.388550E-1	1.214722E+0	8.007431E-2	-2.868271E-2	-4.541473E-1	-7.243347E-2
7.957500E+9	-8.757324E-1	-1.085510E-1	6.449585E-1	1.165710E+0	7.957840E-2	-3.012085E-2	-4.579926E-1	-6.925964E-2
8.182000E+9	-8.768921E-1	-9.997559E-2	6.491699E-1	1.120361E+0	7.827377E-2	-3.149414E-2	-4.601593E-1	-6.701660E-2
8.406500E+9	-8.769836E-1	-9.292603E-2	6.508789E-1	1.075562E+0	7.814407E-2	-3.277588E-2	-4.616394E-1	-6.289673E-2
8.631000E+9	-8.786926E-1	-8.352661E-2	6.547852E-1	1.031616E+0	7.715607E-2	-3.477097E-2	-4.638367E-1	-6.140137E-2
8.855500E+9	-8.782654E-1	-7.608032E-2	6.567993E-1	9.909668E-1	7.658768E-2	-3.526306E-2	-4.668884E-1	-5.728149E-2
9.080001E+9	-8.793945E-1	-6.933594E-2	6.571350E-1	9.527588E-1	7.576752E-2	-3.693390E-2	-4.673309E-1	-5.334473E-2
9.304500E+9	-8.794556E-1	-5.920410E-2	6.578064E-1	9.155273E-1	7.519913E-2	-3.791046E-2	-4.695129E-1	-5.143738E-2
9.529000E+9	-8.793030E-1	-5.453491E-2	6.582642E-1	8.793945E-1	7.506561E-2	-3.929901E-2	-4.720764E-1	-4.898071E-2
9.753500E+9	-8.804626E-1	-4.736328E-2	6.577454E-1	8.453979E-1	7.354355E-2	-4.002762E-2	-4.725800E-1	-4.475403E-2
9.978000E+9	-8.794556E-1	-3.988647E-2	6.562805E-1	8.128357E-1	7.186127E-2	-4.154205E-2	-4.741974E-1	-4.364014E-2
1.020250E+10	-8.805237E-1	-3.417969E-2	6.552429E-1	7.810974E-1	7.144928E-2	-4.251099E-2	-4.767303E-1	-3.939819E-2
1.042700E+10	-8.807678E-1	-2.706909E-2	6.536560E-1	7.509155E-1	6.998825E-2	-4.299927E-2	-4.770355E-1	-3.688049E-2
1.065150E+10	-8.801880E-1	-2.099609E-2	6.516113E-1	7.216187E-1	6.950378E-2	-4.437256E-2	-4.784088E-1	-3.541565E-2
1.087600E+10	-8.800964E-1	-1.425171E-2	6.493225E-1	6.936646E-1	6.822205E-2	-4.513168E-2	-4.816742E-1	-3.347778E-2
1.110050E+10	-8.803711E-1	-7.354736E-3	6.471558E-1	6.663818E-1	6.786346E-2	-4.616547E-2	-4.826202E-1	-3.021240E-2
1.132500E+10	-8.797607E-1	-1.190186E-3	6.444702E-1	6.404419E-1	6.617355E-2	-4.722595E-2	-4.830780E-1	-2.905273E-2
1.154950E+10	-8.806152E-1	4.241943E-3	6.412964E-1	6.152039E-1	6.548691E-2	-4.813385E-2	-4.870758E-1	-2.540588E-2
1.177400E+10	-8.789062E-1	9.674072E-3	6.367187E-1	5.914307E-1	6.502533E-2	-4.827881E-2	-4.877930E-1	-2.005005E-2
1.199850E+10	-8.791504E-1	1.480103E-2	6.343994E-1	5.675659E-1	6.327438E-2	-4.957199E-2	-4.883575E-1	-2.044678E-2
1.222300E+10	-8.790894E-1	2.066040E-2	6.312866E-1	5.449829E-1	6.245422E-2	-5.008507E-2	-4.908905E-1	-1.774597E-2
1.244750E+10	-8.774109E-1	2.618408E-2	6.261597E-1	5.222168E-1	6.220818E-2	-5.096245E-2	-4.915924E-1	-1.272583E-2
1.267200E+10	-8.782043E-1	3.143311E-2	6.218567E-1	5.008545E-1	6.065941E-2	-5.218124E-2	-4.923859E-1	-1.266479E-2
1.289650E+10	-8.771667E-1	3.619385E-2	6.163940E-1	4.811401E-1	5.936623E-2	-5.234337E-2	-4.973145E-1	-1.010132E-2
1.312100E+10	-8.772583E-1	4.080200E-2	6.126099E-1	4.611511E-1	5.839539E-2	-5.344582E-2	-4.978027E-1	-4.119873E-3
1.334550E+10	-8.763733E-1	4.660034E-2	6.086121E-1	4.426270E-1	5.781937E-2	-5.417442E-2	-4.974670E-1	-4.577637E-3
1.357000E+10	-8.753662E-1	4.992676E-2	6.031494E-1	4.235535E-1	5.652237E-2	-5.508232E-2	-5.012817E-1	-3.692627E-3
1.379450E+10	-8.757324E-1	5.639648E-2	5.977478E-1	4.066772E-1	5.574417E-2	-5.519676E-2	-5.029297E-1	4.028320E-3
1.401900E+10	-8.749390E-1	6.030273E-2	5.932007E-1	3.903198E-1	5.467033E-2	-5.627441E-2	-5.015869E-1	4.486084E-3
1.424350E+10	-8.750305E-1	6.640625E-2	5.879517E-1	3.735657E-1	5.321884E-2	-5.623627E-2	-5.055847E-1	7.659912E-3
1.446800E+10	-8.743896E-1	7.189941E-2	5.840759E-1	3.567810E-1	5.235100E-2	-5.836296E-2	-5.069580E-1	1.321411E-2
1.469250E+10	-8.723145E-1	7.479858E-2	5.791626E-1	3.413086E-1	5.030441E-2	-5.777931E-2	-5.044556E-1	1.495361E-2
1.491700E+10	-8.712158E-1	7.983398E-2	5.742187E-1	3.262329E-1	4.954910E-2	-5.727768E-2	-5.089111E-1	1.507568E-2
1.514150E+10	-8.710327E-1	8.517456E-2	5.676270E-1	3.118896E-1	4.804802E-2	-5.876923E-2	-5.095215E-1	2.233887E-2
1.536600E+10	-8.686218E-1	8.963013E-2	5.625305E-1	2.959595E-1	4.738235E-2	-5.927849E-2	-5.099182E-1	2.349854E-2
1.559050E+10	-8.690796E-1	9.460449E-2	5.578613E-1	2.825623E-1	4.561424E-2	-6.007576E-2	-5.122070E-1	2.413940E-2
1.581500E+10	-8.684692E-1	9.838867E-2	5.510864E-1	2.692871E-1	4.535294E-2	-6.024551E-2	-5.144043E-1	2.975464E-2
1.603950E+10	-8.673401E-1	1.028137E-1	5.461731E-1	2.561646E-1	4.369354E-2	-6.031036E-2	-5.133057E-1	3.231812E-2
1.626400E+10	-8.676758E-1	1.069641E-1	5.410156E-1	2.441711E-1	4.337883E-2	-6.122398E-2	-5.158997E-1	3.405762E-2
1.648850E+10	-8.657227E-1	1.113892E-1	5.349731E-1	2.330322E-1	4.162598E-2	-6.081963E-2	-5.187073E-1	3.897095E-2
1.671300E+10	-8.646545E-1	1.159668E-1	5.285339E-1	2.199097E-1	4.098129E-2	-6.175995E-2	-5.166626E-1	4.306030E-2
1.693750E+10	-8.641968E-1	1.199951E-1	5.247803E-1	2.098083E-1	3.904152E-2	-6.201935E-2	-5.194702E-1	4.388428E-2
1.716200E+10	-8.637390E-1	1.233826E-1	5.173340E-1	1.983643E-1	3.823853E-2	-6.271744E-2	-5.218201E-1	4.864502E-2
1.738650E+10	-8.623047E-1	1.291199E-1	5.115662E-1	1.892395E-1	3.745651E-2	-6.323624E-2	-5.195312E-1	5.151367E-2
1.761100E+10	-8.606567E-1	1.315613E-1	5.065308E-1	1.789856E-1	3.632164E-2	-6.244278E-2	-5.233459E-1	5.279541E-2
1.783550E+10	-8.611450E-1	1.355286E-1	4.989166E-1	1.688538E-1	3.526688E-2	-6.324005E-2	-5.255737E-1	5.905151E-2
1.806000E+10	-8.598328E-1	1.409912E-1	4.957428E-1	1.591644E-1	3.344727E-2	-6.346893E-2	-5.245361E-1	6.491089E-2
1.828450E+10	-8.569031E-1	1.450806E-1	4.917603E-1	1.495667E-1	3.221893E-2	-6.310272E-2	-5.241394E-1	6.396484E-2
1.850900E+10	-8.572693E-1	1.500549E-1	4.832611E-1	1.403809E-1	3.226471E-2	-6.391907E-2	-5.285645E-1	6.933594E-2
1.873350E+10	-8.561401E-1	1.526794E-1	4.783173E-1	1.314240E-1	2.854156E-2	-6.441879E-2	-5.259705E-1	7.577515E-2
1.895800E+10	-8.542175E-1	1.565247E-1	4.741974E-1	1.221619E-1	2.816391E-2	-6.439972E-2	-5.275574E-1	7.360840E-2
1.918250E+10	-8.538208E-1	1.600647E-1	4.696808E-1	1.145782E-1	2.701950E-2	-6.419373E-2	-5.292358E-1	7.925415E-2
1.940700E+10	-8.527222E-1	1.632385E-1	4.616547E-1	1.083069E-1	2.657318E-2	-6.448746E-2	-5.293274E-1	8.670044E-2
1.963150E+10	-8.513184E-1	1.683960E-1	4.553833E-1	9.910583E-2	2.452469E-2	-6.366348E-2	-5.283813E-1	8.496094E-2
1.985600E+10	-8.492737E-1	1.701660E-1	4.488983E-1	9.378052E-2	2.475357E-2	-6.389236E-2	-5.325623E-1	9.063721E-2
2.008050E+10	-8.487244E-1	1.751404E-1	4.446869E-1	8.576965E-2	2.336121E-2	-6.446838E-2	-5.318604E-1	9.756470E-2
2.030500E+10	-8.470154E-1	1.773376E-1	4.403687E-1	8.119202E-2	2.162170E-2	-6.619263E-2	-5.302429E-1	9.939575E-2
2.052950E+10	-8.449707E-1	1.809998E-1	4.340210E-1	7.272339E-2	1.987076E-2	-6.386185E-2	-5.322571E-1	1.020813E-1
2.075400E+10	-8.455811E-1	1.855774E-1	4.280396E-1	6.645203E-2	1.754379E-2	-6.363297E-2	-5.303955E-1	1.082458E-1
2.097850E+10	-8.449402E-1	1.894836E-1	4.247894E-1	6.132507E-2	1.807404E-2	-6.344604E-2	-5.295105E-1	1.105347E-1
2.120300E+10	-8.413696E-1	1.915894E-1	4.196167E-1	5.619812E-2	1.675797E-2	-6.438828E-2	-5.332031E-1	1.100769E-1
2.142750E+10	-8.408813E-1	1.954651E-1	4.137268E-1	4.862976E-2	1.501083E-2	-6.345749E-2	-5.349426E-1	1.174011E-1
2.165200E+10	-8.392334E-1	2.000122E-1	4.086304E-1	4.576111E-2	1.351929E-2	-6.382751E-2	-5.329285E-1	1.208496E-1
2.187650E+10	-8.375854E-1	2.032166E-1	4.031067E-1	3.836060E-2	1.171875E-2	-6.414795E-2	-5.339355E-1	1.248169E-1
2.210100E+10	-8.373413E-1	2.073975E-1	3.975830E-1	3.439331E-2	1.079941E-2	-6.247711E-2	-5.357361E-1	1.315918E-1
2.232550E+10	-8.350220E-1	2.095947E-1	3.929901E-1	2.919006E-2	9.624481E-3	-6.326675E-2	-5.334167E-1	1.348572E-1
2.255000E+10	-8.356934E-1	2.153320E-1	3.871918E-1	2.304077E-2	9.525299E-3	-6.259155E-2	-5.345459E-1	1.363831E-1
2.277450E+10	-8.325500E-1	2.186584E-1	3.831329E-1	1.963806E-2	8.052826E-3	-6.153679E-2	-5.335999E-1	1.419067E-1
2.299900E+10	-8.312073E-1	2.202454E-1	3.797455E-1	1.583862E-2	5.794525E-3	-6.291199E-2	-5.314331E-1	1.473083E-1
2.322350E+10	-8.303223E-1	2.241516E-1	3.762817E-1	9.658813E-3	4.306793E-3	-6.330109E-2	-5.310669E-1	1.492615E-1
2.344800E+10	-8.271484E-1	2.264709E-1	3.716278E-1	6.408691E-3	3.524780E-3	-6.139565E-2	-5.340576E-1	1.565552E-1
2.367250E+10	-8.283997E-1	2.307129E-1	3.647766E-1	2.609253E-3	1.989365E-3	-6.237793E-2	-5.295410E-1	1.604309E-1
2.389700E+10	-8.255920E-1	2.341614E-1	3.605804E-1	-1.037598E-3	-6.484985E-4	-6.215096E-2	-5.326538E-1	1.621399E-1
2.412150E+10	-8.234863E-1	2.384338E-1	3.547668E-1	-4.989624E-3	-1.653671E-3	-6.015015E-2	-5.298157E-1	1.671143E-1
2.434600E+10	-8.208618E-1	2.426147E-1	3.510284E-1	-7.308960E-3	-2.048492E-3	-5.910873E-2	-5.280151E-1	1.742859E-1
2.457050E+10	-8.185730E-1	2.447815E-1	3.474121E-1	-1.190186E-2	-4.306793E-3	-5.847359E-2	-5.281067E-1	1.746521E-1
2.479500E+10	-8.198242E-1	2.471619E-1	3.415222E-1	-1.477051E-2	-5.367279E-3	-5.795670E-2	-5.263672E-1	1.799622E-1
2.501950E+10	-8.163147E-1	2.510681E-1	3.387756E-1	-1.707458E-2	-7.114410E-3	-5.667496E-2	-5.234680E-1	1.825562E-1
2.524400E+10	-8.156128E-1	2.533875E-1	3.335724E-1	-2.052307E-2	-6.553650E-3	-5.637550E-2	-5.256653E-1	1.832275E-1
2.546850E+10	-8.116760E-1	2.567749E-1	3.304443E-1	-2.046204E-2	-6.380081E-3	-5.460548E-2	-5.231628E-1	1.910706E-1
2.569300E+10	-8.110046E-1	2.585144E-1	3.282471E-1	-2.256775E-2	-9.101868E-3	-5.480003E-2	-5.200806E-1	1.921997E-1
2.591750E+10	-8.099670E-1	2.642212E-1	3.242340E-1	-2.697754E-2	-1.093674E-2	-5.469704E-2	-5.232239E-1	1.941833E-1
2.614200E+10	-8.061829E-1	2.653809E-1	3.183136E-1	-2.882385E-2	-1.172256E-2	-5.466080E-2	-5.247498E-1	2.007141E-1
2.636650E+10	-8.048096E-1	2.663269E-1	3.161469E-1	-3.094482E-2	-1.284409E-2	-5.238152E-2	-5.231934E-1	2.074585E-1
2.659100E+10	-8.035278E-1	2.691345E-1	3.128510E-1	-3.340149E-2	-1.314354E-2	-5.211449E-2	-5.178528E-1	2.084351E-1
2.681550E+10	-8.007812E-1	2.720642E-1	3.106995E-1	-3.538513E-2	-1.449585E-2	-5.073166E-2	-5.202637E-1	2.120972E-1
2.704000E+10	-7.991028E-1	2.761230E-1	3.053589E-1	-3.623962E-2	-1.707840E-2	-5.030251E-2	-5.199890E-1	2.210693E-1
2.726450E+10	-7.976379E-1	2.793884E-1	3.033600E-1	-3.982544E-2	-1.750755E-2	-4.874229E-2	-5.148926E-1	2.232666E-1
2.748900E+10	-7.955322E-1	2.825012E-1	3.035278E-1	-4.116821E-2	-1.708412E-2	-4.679108E-2	-5.159912E-1	2.243042E-1
2.771350E+10	-7.929077E-1	2.828674E-1	2.996674E-1	-4.156494E-2	-1.918602E-2	-4.633141E-2	-5.099792E-1	2.308655E-1
2.793800E+10	-7.932434E-1	2.856750E-1	2.974396E-1	-4.414368E-2	-1.927567E-2	-4.363632E-2	-5.128784E-1	2.304382E-1
2.816250E+10	-7.905579E-1	2.876892E-1	2.904358E-1	-4.615784E-2	-2.231979E-2	-4.729462E-2	-5.121155E-1	2.365723E-1
2.838700E+10	-7.888794E-1	2.895813E-1	2.887268E-1	-4.840088E-2	-2.384377E-2	-4.321480E-2	-5.100098E-1	2.413330E-1
2.861150E+10	-7.873230E-1	2.933044E-1	2.864380E-1	-4.959106E-2	-2.304077E-2	-3.915024E-2	-5.065918E-1	2.448730E-1
2.883600E+10	-7.847595E-1	2.969360E-1	2.813721E-1	-5.200195E-2	-2.356148E-2	-4.125214E-2	-5.073853E-1	2.449646E-1
2.906050E+10	-7.838745E-1	3.001099E-1	2.821350E-1	-5.281067E-2	-2.650452E-2	-3.856850E-2	-5.035706E-1	2.542114E-1
2.928500E+10	-7.823486E-1	3.020325E-1	2.816010E-1	-5.256653E-2	-2.722168E-2	-3.856277E-2	-5.029297E-1	2.536621E-1
2.950950E+10	-7.788086E-1	3.050537E-1	2.787628E-1	-5.635071E-2	-2.628517E-2	-3.703308E-2	-5.069885E-1	2.609863E-1
2.973400E+10	-7.758789E-1	3.062439E-1	2.769165E-1	-5.421448E-2	-2.463150E-2	-3.385925E-2	-5.033875E-1	2.640991E-1
2.995850E+10	-7.746277E-1	3.125610E-1	2.762909E-1	-5.760193E-2	-2.758598E-2	-3.510666E-2	-5.045166E-1	2.700195E-1
3.018300E+10	-7.714539E-1	3.088989E-1	2.761536E-1	-5.957031E-2	-2.953148E-2	-3.134727E-2	-5.028992E-1	2.779541E-1
3.040750E+10	-7.685852E-1	3.135376E-1	2.708740E-1	-6.024170E-2	-3.071213E-2	-3.311157E-2	-4.982605E-1	2.788239E-1
3.063200E+10	-7.705994E-1	3.130493E-1	2.705841E-1	-6.216431E-2	-2.610207E-2	-2.853489E-2	-4.977875E-1	2.870026E-1
3.085650E+10	-7.666321E-1	3.160706E-1	2.704010E-1	-6.457520E-2	-2.700615E-2	-2.988911E-2	-4.925537E-1	2.923126E-1
3.108100E+10	-7.655945E-1	3.185730E-1	2.675323E-1	-6.283569E-2	-2.889442E-2	-2.627945E-2	-4.897461E-1	2.980804E-1
3.130550E+10	-7.581482E-1	3.213806E-1	2.661591E-1	-6.788635E-2	-3.156471E-2	-2.446365E-2	-4.880981E-1	2.986603E-1
3.153000E+10	-7.622681E-1	3.268127E-1	2.645569E-1	-7.160950E-2	-3.385735E-2	-2.590370E-2	-4.849396E-1	3.023682E-1
3.175450E+10	-7.577209E-1	3.237000E-1	2.635803E-1	-6.994629E-2	-3.077316E-2	-2.702999E-2	-4.837494E-1	3.144836E-1
3.197900E+10	-7.591248E-1	3.299255E-1	2.633667E-1	-7.339478E-2	-3.180122E-2	-2.227592E-2	-4.761810E-1	3.163757E-1
3.220350E+10	-7.580261E-1	3.301086E-1	2.639771E-1	-7.202148E-2	-3.168106E-2	-1.968765E-2	-4.778595E-1	3.187866E-1
3.242800E+10	-7.545166E-1	3.299255E-1	2.626495E-1	-7.635498E-2	-3.238106E-2	-1.792336E-2	-4.735413E-1	3.247528E-1
3.265250E+10	-7.529297E-1	3.356628E-1	2.621918E-1	-7.716370E-2	-3.251076E-2	-1.547241E-2	-4.705658E-1	3.241882E-1
3.287700E+10	-7.546997E-1	3.382568E-1	2.648315E-1	-8.090210E-2	-3.336143E-2	-1.131439E-2	-4.719543E-1	3.310394E-1
3.310150E+10	-7.473450E-1	3.374329E-1	2.598572E-1	-7.759094E-2	-3.442001E-2	-1.622772E-2	-4.613800E-1	3.359833E-1
3.332600E+10	-7.456360E-1	3.412170E-1	2.563019E-1	-8.453369E-2	-3.060627E-2	-9.085655E-3	-4.651184E-1	3.342590E-1
3.355050E+10	-7.432556E-1	3.405151E-1	2.603912E-1	-8.786011E-2	-3.136253E-2	-1.002502E-2	-4.591064E-1	3.455811E-1
3.377500E+10	-7.445068E-1	3.446350E-1	2.596893E-1	-8.685303E-2	-2.987194E-2	-6.422997E-3	-4.529724E-1	3.439178E-1
3.399950E+10	-7.380066E-1	3.453369E-1	2.543030E-1	-8.927917E-2	-3.317642E-2	-2.115250E-3	-4.603271E-1	3.567200E-1
3.422400E+10	-7.407837E-1	3.505554E-1	2.535248E-1	-9.410095E-2	-2.995682E-2	-3.512383E-3	-4.520264E-1	3.611908E-1
3.444850E+10	-7.385864E-1	3.501892E-1	2.526550E-1	-9.628296E-2	-3.176689E-2	-2.874374E-3	-4.484406E-1	3.644562E-1
3.467300E+10	-7.340393E-1	3.504639E-1	2.618408E-1	-9.121704E-2	-2.582073E-2	-4.083633E-3	-4.493256E-1	3.736725E-1
3.489750E+10	-7.367249E-1	3.531494E-1	2.555084E-1	-9.750366E-2	-2.972603E-2	1.569748E-3	-4.443970E-1	3.763275E-1
3.512200E+10	-7.386169E-1	3.539124E-1	2.508392E-1	-9.942627E-2	-2.894497E-2	2.065659E-3	-4.345093E-1	3.828278E-1
3.534650E+10	-7.318726E-1	3.540344E-1	2.526703E-1	-1.009369E-1	-2.615356E-2	4.852295E-3	-4.343109E-1	3.843079E-1
3.557100E+10	-7.295837E-1	3.535156E-1	2.537231E-1	-1.055450E-1	-2.421188E-2	5.640984E-3	-4.244232E-1	3.898773E-1
3.579550E+10	-7.287903E-1	3.554382E-1	2.534180E-1	-1.032410E-1	-2.546406E-2	5.455017E-3	-4.184265E-1	3.975830E-1
3.602000E+10	-7.292786E-1	3.588257E-1	2.458344E-1	-1.103516E-1	-2.652550E-2	6.269455E-3	-4.133148E-1	4.007721E-1
3.624450E+10	-7.282715E-1	3.595886E-1	2.467194E-1	-1.140289E-1	-2.613449E-2	1.002884E-2	-4.115295E-1	4.061584E-1
3.646900E+10	-7.235718E-1	3.666077E-1	2.451553E-1	-1.172104E-1	-2.834034E-2	9.866714E-3	-4.080811E-1	4.158173E-1
3.669350E+10	-7.207336E-1	3.625793E-1	2.447357E-1	-1.228714E-1	-2.398300E-2	9.900093E-3	-3.959808E-1	4.164276E-1
3.691800E+10	-7.195740E-1	3.672180E-1	2.470779E-1	-1.254425E-1	-2.392864E-2	1.572323E-2	-3.965759E-1	4.233246E-1
3.714250E+10	-7.164917E-1	3.679810E-1	2.474747E-1	-1.249619E-1	-2.054024E-2	1.815796E-2	-3.916779E-1	4.235840E-1
3.736700E+10	-7.141113E-1	3.717651E-1	2.450409E-1	-1.303558E-1	-2.227879E-2	1.681328E-2	-3.831635E-1	4.278870E-1
3.759150E+10	-7.146912E-1	3.721924E-1	2.457428E-1	-1.366959E-1	-1.603889E-2	1.740074E-2	-3.807678E-1	4.333496E-1
3.781600E+10	-7.126770E-1	3.757019E-1	2.461243E-1	-1.335526E-1	-1.543140E-2	1.588058E-2	-3.748474E-1	4.378510E-1
3.804050E+10	-7.130737E-1	3.717346E-1	2.394867E-1	-1.390457E-1	-1.779938E-2	2.372456E-2	-3.644409E-1	4.431305E-1
3.826500E+10	-7.063904E-1	3.716431E-1	2.398987E-1	-1.435547E-1	-1.433182E-2	1.728725E-2	-3.553925E-1	4.513855E-1
3.848950E+10	-7.059937E-1	3.822327E-1	2.454224E-1	-1.473236E-1	-1.503563E-2	2.192879E-2	-3.531342E-1	4.538879E-1
3.871400E+10	-7.077942E-1	3.754272E-1	2.433472E-1	-1.520309E-1	-1.216602E-2	2.398586E-2	-3.375549E-1	4.539185E-1
3.893850E+10	-7.037964E-1	3.796997E-1	2.405548E-1	-1.595230E-1	-8.702278E-3	2.550697E-2	-3.291168E-1	4.552765E-1
3.916300E+10	-7.044373E-1	3.822021E-1	2.352524E-1	-1.601639E-1	-9.336472E-3	2.774143E-2	-3.246307E-1	4.541168E-1
