!Date: 10/28/2005, 12:34 PM

!Vgs = -1.000000E+0
!Vds = 0.000000E+0
!Ig = -8.646000E-6
!Id = 4.084500E-4

# HZ S RI R 50
1.000000E+8	9.770813E-1	-1.534424E-1	-6.532669E-5	2.512097E-3	-9.932518E-4	1.098692E-3	-9.263916E-1	-1.702881E-2
3.245000E+8	8.682861E-1	-4.566956E-1	1.314402E-3	7.241726E-3	1.987696E-3	6.898165E-3	-9.330139E-1	5.828857E-3
5.490000E+8	6.890259E-1	-6.904297E-1	4.442215E-3	9.786606E-3	4.953861E-3	1.020145E-2	-9.235535E-1	2.081299E-2
7.735000E+8	4.765320E-1	-8.454895E-1	8.414745E-3	1.190662E-2	8.135319E-3	1.228809E-2	-9.240417E-1	2.880859E-2
9.980000E+8	2.674866E-1	-9.296875E-1	1.186752E-2	1.311827E-2	1.155376E-2	1.315308E-2	-9.216919E-1	3.582764E-2
1.222500E+9	7.586670E-2	-9.620361E-1	1.436281E-2	1.311350E-2	1.415300E-2	1.305866E-2	-9.202881E-1	4.284668E-2
1.447000E+9	-8.831787E-2	-9.582825E-1	1.706409E-2	1.274872E-2	1.717472E-2	1.237392E-2	-9.196167E-1	5.029297E-2
1.671500E+9	-2.255554E-1	-9.346008E-1	1.889706E-2	1.195335E-2	1.900578E-2	1.175690E-2	-9.180908E-1	5.752563E-2
1.896000E+9	-3.395081E-1	-8.984985E-1	2.083683E-2	1.075363E-2	2.059555E-2	1.075077E-2	-9.166870E-1	6.506348E-2
2.120500E+9	-4.331665E-1	-8.572388E-1	2.199650E-2	1.006222E-2	2.217388E-2	9.943962E-3	-9.163818E-1	7.327271E-2
2.345000E+9	-5.117493E-1	-8.119202E-1	2.320194E-2	8.961678E-3	2.331829E-2	8.843422E-3	-9.139709E-1	8.007812E-2
2.569500E+9	-5.734253E-1	-7.666321E-1	2.395821E-2	7.827759E-3	2.361012E-2	7.905006E-3	-9.128113E-1	8.691406E-2
2.794000E+9	-6.262512E-1	-7.255859E-1	2.492428E-2	7.168770E-3	2.485657E-2	6.813049E-3	-9.110718E-1	9.359741E-2
3.018500E+9	-6.694946E-1	-6.839600E-1	2.528381E-2	5.805016E-3	2.523232E-2	6.301880E-3	-9.085693E-1	9.997559E-2
3.243000E+9	-7.071228E-1	-6.447754E-1	2.556515E-2	4.849434E-3	2.562141E-2	4.428864E-3	-9.076233E-1	1.078491E-1
3.467500E+9	-7.388916E-1	-6.092529E-1	2.598381E-2	3.816605E-3	2.581024E-2	4.324913E-3	-9.055176E-1	1.140442E-1
3.692000E+9	-7.646790E-1	-5.747681E-1	2.580261E-2	3.179550E-3	2.629852E-2	3.283501E-3	-9.031982E-1	1.204834E-1
3.916500E+9	-7.882690E-1	-5.432129E-1	2.648354E-2	2.084732E-3	2.602768E-2	1.768112E-3	-9.020081E-1	1.281738E-1
4.141000E+9	-8.084106E-1	-5.124512E-1	2.657986E-2	1.167297E-3	2.610207E-2	1.358986E-3	-8.994446E-1	1.353455E-1
4.365500E+9	-8.236389E-1	-4.837646E-1	2.627087E-2	3.118515E-4	2.630520E-2	8.850098E-4	-8.970337E-1	1.414185E-1
4.590000E+9	-8.381958E-1	-4.587097E-1	2.648926E-2	-8.010864E-5	2.613449E-2	-2.670288E-4	-8.951416E-1	1.479187E-1
4.814500E+9	-8.513794E-1	-4.346619E-1	2.649498E-2	-7.266998E-4	2.658653E-2	-3.080368E-4	-8.925781E-1	1.548767E-1
5.039000E+9	-8.631287E-1	-4.112244E-1	2.621078E-2	-1.747131E-3	2.620506E-2	-1.398087E-3	-8.908997E-1	1.606140E-1
5.263500E+9	-8.731079E-1	-3.883362E-1	2.652836E-2	-2.077103E-3	2.616978E-2	-2.280235E-3	-8.887024E-1	1.674500E-1
5.488000E+9	-8.806763E-1	-3.677368E-1	2.674770E-2	-2.672195E-3	2.634239E-2	-2.678871E-3	-8.857727E-1	1.749878E-1
5.712500E+9	-8.888855E-1	-3.484192E-1	2.597237E-2	-3.285408E-3	2.611637E-2	-3.186226E-3	-8.832397E-1	1.800842E-1
5.937000E+9	-8.955688E-1	-3.297119E-1	2.572060E-2	-3.461838E-3	2.554798E-2	-4.257202E-3	-8.813171E-1	1.866455E-1
6.161500E+9	-9.017334E-1	-3.133240E-1	2.576828E-2	-4.494667E-3	2.540970E-2	-4.534721E-3	-8.784180E-1	1.946716E-1
6.386000E+9	-9.077454E-1	-2.952881E-1	2.544594E-2	-5.319595E-3	2.555752E-2	-4.850388E-3	-8.750610E-1	2.004089E-1
6.610500E+9	-9.117432E-1	-2.795715E-1	2.532101E-2	-6.067276E-3	2.502537E-2	-5.887032E-3	-8.726501E-1	2.057190E-1
6.835000E+9	-9.168701E-1	-2.651672E-1	2.495956E-2	-6.057739E-3	2.511120E-2	-6.432533E-3	-8.697510E-1	2.138977E-1
7.059500E+9	-9.193420E-1	-2.513428E-1	2.504158E-2	-6.246567E-3	2.468872E-2	-6.487846E-3	-8.647461E-1	2.180481E-1
7.284000E+9	-9.236450E-1	-2.367554E-1	2.442360E-2	-7.251740E-3	2.417374E-2	-6.955147E-3	-8.634644E-1	2.219238E-1
7.508500E+9	-9.277954E-1	-2.234192E-1	2.409554E-2	-7.798195E-3	2.404594E-2	-7.590294E-3	-8.598022E-1	2.298889E-1
7.733000E+9	-9.285278E-1	-2.101135E-1	2.350330E-2	-7.614136E-3	2.343369E-2	-7.744789E-3	-8.551331E-1	2.350159E-1
7.957500E+9	-9.323730E-1	-1.977234E-1	2.271652E-2	-8.154869E-3	2.281952E-2	-8.580208E-3	-8.536377E-1	2.401123E-1
8.182000E+9	-9.341431E-1	-1.848755E-1	2.283001E-2	-8.644104E-3	2.267361E-2	-8.474350E-3	-8.503418E-1	2.463989E-1
8.406500E+9	-9.358521E-1	-1.745605E-1	2.218437E-2	-8.569717E-3	2.246094E-2	-8.874893E-3	-8.453064E-1	2.517700E-1
8.631000E+9	-9.383240E-1	-1.626892E-1	2.182102E-2	-9.974480E-3	2.202702E-2	-9.588242E-3	-8.435669E-1	2.568665E-1
8.855500E+9	-9.388123E-1	-1.520386E-1	2.205276E-2	-9.421349E-3	2.134323E-2	-8.837700E-3	-8.396912E-1	2.630920E-1
9.080001E+9	-9.413147E-1	-1.426086E-1	2.079964E-2	-9.828568E-3	2.101612E-2	-9.863853E-3	-8.350525E-1	2.698669E-1
9.304500E+9	-9.419556E-1	-1.296997E-1	2.095699E-2	-9.673119E-3	2.034569E-2	-1.046848E-2	-8.329163E-1	2.737427E-1
9.529000E+9	-9.435120E-1	-1.227112E-1	2.031612E-2	-1.004791E-2	1.981544E-2	-1.009464E-2	-8.298035E-1	2.791748E-1
9.753500E+9	-9.440002E-1	-1.127625E-1	1.957607E-2	-1.043606E-2	1.960278E-2	-1.019764E-2	-8.243408E-1	2.850647E-1
9.978000E+9	-9.447327E-1	-1.030884E-1	1.934814E-2	-1.078033E-2	1.932907E-2	-1.031494E-2	-8.219604E-1	2.889404E-1
1.020250E+10	-9.463501E-1	-9.463501E-2	1.919746E-2	-1.064491E-2	1.895237E-2	-1.083851E-2	-8.181152E-1	2.947388E-1
1.042700E+10	-9.469910E-1	-8.505249E-2	1.899910E-2	-1.053905E-2	1.819229E-2	-1.054192E-2	-8.139343E-1	3.004456E-1
1.065150E+10	-9.473877E-1	-7.672119E-2	1.774597E-2	-1.069641E-2	1.814651E-2	-1.071644E-2	-8.098450E-1	3.036804E-1
1.087600E+10	-9.484253E-1	-6.851196E-2	1.757622E-2	-1.075077E-2	1.689148E-2	-1.117039E-2	-8.070984E-1	3.089600E-1
1.110050E+10	-9.487000E-1	-5.926514E-2	1.682663E-2	-1.112556E-2	1.713943E-2	-1.112652E-2	-8.020325E-1	3.143311E-1
1.132500E+10	-9.479675E-1	-5.163574E-2	1.652813E-2	-1.100349E-2	1.646423E-2	-1.140022E-2	-7.983398E-1	3.174744E-1
1.154950E+10	-9.488220E-1	-4.183960E-2	1.625538E-2	-1.074028E-2	1.635647E-2	-1.115036E-2	-7.958069E-1	3.222656E-1
1.177400E+10	-9.480286E-1	-3.463745E-2	1.624870E-2	-1.068306E-2	1.668930E-2	-1.058006E-2	-7.906799E-1	3.282166E-1
1.199850E+10	-9.487915E-1	-2.770996E-2	1.598930E-2	-1.144791E-2	1.588058E-2	-1.082993E-2	-7.870789E-1	3.311462E-1
1.222300E+10	-9.478760E-1	-1.983643E-2	1.489687E-2	-1.026535E-2	1.551104E-2	-1.123857E-2	-7.833862E-1	3.348694E-1
1.244750E+10	-9.479980E-1	-1.272583E-2	1.434278E-2	-1.080704E-2	1.464319E-2	-1.026106E-2	-7.792358E-1	3.409424E-1
1.267200E+10	-9.480896E-1	-5.462646E-3	1.491117E-2	-1.207542E-2	1.459312E-2	-1.104403E-2	-7.748718E-1	3.427429E-1
1.289650E+10	-9.474792E-1	9.460449E-4	1.408529E-2	-1.096106E-2	1.464272E-2	-1.038265E-2	-7.735596E-1	3.464355E-1
1.312100E+10	-9.479370E-1	7.965088E-3	1.421070E-2	-1.055002E-2	1.407862E-2	-1.057053E-2	-7.687378E-1	3.531189E-1
1.334550E+10	-9.472351E-1	1.492310E-2	1.333523E-2	-1.073837E-2	1.365614E-2	-1.025105E-2	-7.635498E-1	3.564453E-1
1.357000E+10	-9.457703E-1	2.087402E-2	1.333237E-2	-1.045465E-2	1.367664E-2	-1.012087E-2	-7.609863E-1	3.561707E-1
1.379450E+10	-9.469604E-1	2.770996E-2	1.203442E-2	-1.091671E-2	1.349497E-2	-1.039600E-2	-7.578735E-1	3.647766E-1
1.401900E+10	-9.468384E-1	3.442383E-2	1.373672E-2	-1.105976E-2	1.360321E-2	-1.088285E-2	-7.518921E-1	3.678589E-1
1.424350E+10	-9.453735E-1	4.101562E-2	1.291513E-2	-1.202631E-2	1.232576E-2	-1.042604E-2	-7.511902E-1	3.700256E-1
1.446800E+10	-9.453735E-1	4.718018E-2	1.228809E-2	-1.021576E-2	1.244068E-2	-1.046705E-2	-7.465210E-1	3.780518E-1
1.469250E+10	-9.434204E-1	5.426025E-2	1.240921E-2	-1.080227E-2	1.210260E-2	-1.109791E-2	-7.397156E-1	3.796082E-1
1.491700E+10	-9.441833E-1	6.088257E-2	1.151276E-2	-1.127195E-2	1.140451E-2	-1.069927E-2	-7.378540E-1	3.823547E-1
1.514150E+10	-9.416199E-1	6.701660E-2	1.101065E-2	-1.079464E-2	1.095295E-2	-1.015854E-2	-7.341309E-1	3.882446E-1
1.536600E+10	-9.396362E-1	7.269287E-2	1.092386E-2	-1.094532E-2	1.035309E-2	-1.002359E-2	-7.272644E-1	3.923645E-1
1.559050E+10	-9.393616E-1	7.901001E-2	1.043129E-2	-8.529186E-3	1.074982E-2	-1.141071E-2	-7.252502E-1	3.925476E-1
1.581500E+10	-9.382629E-1	8.514404E-2	1.080704E-2	-1.035833E-2	1.066828E-2	-8.916378E-3	-7.222290E-1	3.961487E-1
1.603950E+10	-9.375610E-1	9.182739E-2	9.693146E-3	-1.024437E-2	1.143599E-2	-1.001453E-2	-7.173462E-1	4.012451E-1
1.626400E+10	-9.371338E-1	9.674072E-2	1.037407E-2	-9.402752E-3	9.347439E-3	-1.042747E-2	-7.142334E-1	4.031067E-1
1.648850E+10	-9.347839E-1	1.029053E-1	1.014900E-2	-9.437084E-3	9.151459E-3	-9.640694E-3	-7.107849E-1	4.075012E-1
1.671300E+10	-9.329834E-1	1.090088E-1	1.036453E-2	-1.064968E-2	9.230614E-3	-9.704590E-3	-7.055054E-1	4.113159E-1
1.693750E+10	-9.324036E-1	1.145020E-1	8.895397E-3	-8.707523E-3	9.542465E-3	-1.017761E-2	-7.034912E-1	4.129639E-1
1.716200E+10	-9.316711E-1	1.210022E-1	9.249210E-3	-9.754181E-3	8.203506E-3	-1.022673E-2	-6.998596E-1	4.170837E-1
1.738650E+10	-9.292908E-1	1.265564E-1	8.244514E-3	-8.916855E-3	8.285046E-3	-8.420944E-3	-6.935120E-1	4.214783E-1
1.761100E+10	-9.277649E-1	1.330261E-1	9.090900E-3	-8.837700E-3	7.757187E-3	-9.288311E-3	-6.927185E-1	4.231567E-1
1.783550E+10	-9.256592E-1	1.391602E-1	7.855892E-3	-8.717537E-3	6.941795E-3	-1.004028E-2	-6.897583E-1	4.287109E-1
1.806000E+10	-9.258423E-1	1.442261E-1	7.255554E-3	-8.997917E-3	7.576942E-3	-9.074211E-3	-6.842041E-1	4.337158E-1
1.828450E+10	-9.224243E-1	1.499023E-1	6.745338E-3	-7.940292E-3	8.133411E-3	-9.757996E-3	-6.818542E-1	4.343567E-1
1.850900E+10	-9.204407E-1	1.558533E-1	6.736755E-3	-9.657860E-3	8.481979E-3	-8.904457E-3	-6.802368E-1	4.382324E-1
1.873350E+10	-9.190674E-1	1.589661E-1	7.077694E-3	-8.458138E-3	6.702900E-3	-9.109020E-3	-6.718750E-1	4.429321E-1
1.895800E+10	-9.172974E-1	1.659546E-1	6.316185E-3	-1.055336E-2	7.199764E-3	-8.821964E-3	-6.690063E-1	4.414368E-1
1.918250E+10	-9.157410E-1	1.696472E-1	5.876541E-3	-8.841038E-3	5.555153E-3	-1.055145E-2	-6.675720E-1	4.460144E-1
1.940700E+10	-9.112244E-1	1.754150E-1	5.511284E-3	-8.933067E-3	6.528854E-3	-8.616924E-3	-6.602783E-1	4.524536E-1
1.963150E+10	-9.123535E-1	1.800537E-1	6.517410E-3	-7.857323E-3	4.677296E-3	-8.121014E-3	-6.560059E-1	4.530029E-1
1.985600E+10	-9.087524E-1	1.861572E-1	5.207539E-3	-9.627342E-3	4.364967E-3	-8.159637E-3	-6.544800E-1	4.548035E-1
2.008050E+10	-9.076538E-1	1.891174E-1	4.323006E-3	-7.425308E-3	4.814148E-3	-8.581638E-3	-6.495972E-1	4.624329E-1
2.030500E+10	-9.043579E-1	1.958313E-1	3.628016E-3	-7.565260E-3	3.674030E-3	-8.203983E-3	-6.446838E-1	4.629211E-1
2.052950E+10	-9.014587E-1	1.994629E-1	4.461765E-3	-8.583069E-3	4.090786E-3	-8.232594E-3	-6.410828E-1	4.636841E-1
2.075400E+10	-8.987122E-1	2.048950E-1	3.618479E-3	-7.476091E-3	1.681328E-3	-8.309364E-3	-6.373596E-1	4.704590E-1
2.097850E+10	-8.970642E-1	2.097168E-1	2.766848E-3	-6.488323E-3	2.599239E-3	-7.482767E-3	-6.305847E-1	4.734497E-1
2.120300E+10	-8.940125E-1	2.118225E-1	3.686428E-3	-7.391453E-3	3.116369E-3	-6.025791E-3	-6.290588E-1	4.720764E-1
2.142750E+10	-8.917847E-1	2.182617E-1	2.097130E-3	-7.619619E-3	3.542662E-3	-6.287336E-3	-6.271667E-1	4.790344E-1
2.165200E+10	-8.882141E-1	2.225647E-1	3.756285E-3	-7.002354E-3	1.628876E-3	-6.371260E-3	-6.217957E-1	4.814453E-1
2.187650E+10	-8.846436E-1	2.276001E-1	-2.856255E-4	-7.668495E-3	1.831055E-4	-6.974697E-3	-6.205750E-1	4.832764E-1
2.210100E+10	-8.820801E-1	2.326660E-1	2.956390E-5	-7.487297E-3	-2.121925E-5	-5.758286E-3	-6.148682E-1	4.882507E-1
2.232550E+10	-8.798523E-1	2.366638E-1	-7.824898E-4	-5.978823E-3	-3.268719E-4	-5.221128E-3	-6.083069E-1	4.915161E-1
2.255000E+10	-8.764954E-1	2.392578E-1	3.507137E-4	-5.189657E-3	-8.678436E-4	-5.562782E-3	-6.059570E-1	4.938965E-1
2.277450E+10	-8.718872E-1	2.439880E-1	-2.286434E-4	-6.636620E-3	-1.408577E-3	-5.585194E-3	-6.001892E-1	4.969177E-1
2.299900E+10	-8.692932E-1	2.503052E-1	-1.959801E-3	-5.631447E-3	-9.055138E-4	-5.670786E-3	-5.950623E-1	4.989319E-1
2.322350E+10	-8.665161E-1	2.534485E-1	-2.541542E-4	-5.645037E-3	-3.319621E-3	-3.852248E-3	-5.935974E-1	5.026855E-1
2.344800E+10	-8.609924E-1	2.522888E-1	-1.681566E-3	-5.235910E-3	-2.098560E-3	-5.654097E-3	-5.888062E-1	5.047913E-1
2.367250E+10	-8.591614E-1	2.582703E-1	-3.472805E-3	-3.959417E-3	-2.644539E-3	-4.373550E-3	-5.825806E-1	5.075378E-1
2.389700E+10	-8.555298E-1	2.624512E-1	-4.441500E-3	-4.159689E-3	-4.476547E-3	-4.562140E-3	-5.802002E-1	5.090942E-1
2.412150E+10	-8.505554E-1	2.659302E-1	-5.116701E-3	-4.570484E-4	-4.373550E-3	-1.669645E-3	-5.742798E-1	5.153198E-1
2.434600E+10	-8.474731E-1	2.696533E-1	-4.783392E-3	-1.048565E-3	-4.530191E-3	-3.810406E-3	-5.689087E-1	5.141296E-1
2.457050E+10	-8.441162E-1	2.717896E-1	-5.872726E-3	6.105900E-4	-6.311893E-3	-1.435041E-3	-5.636902E-1	5.162354E-1
2.479500E+10	-8.418579E-1	2.737732E-1	-7.346153E-3	-1.589060E-3	-5.983353E-3	-1.891375E-3	-5.589294E-1	5.218506E-1
2.501950E+10	-8.356323E-1	2.763062E-1	-7.183313E-3	1.948118E-3	-6.708384E-3	4.856586E-4	-5.507202E-1	5.214844E-1
2.524400E+10	-8.328247E-1	2.780457E-1	-6.077766E-3	1.372814E-3	-7.889271E-3	3.389359E-3	-5.506897E-1	5.201111E-1
2.546850E+10	-8.291931E-1	2.815247E-1	-8.668900E-3	4.065514E-3	-6.474495E-3	4.431486E-3	-5.459290E-1	5.255737E-1
2.569300E+10	-8.251953E-1	2.806396E-1	-7.867336E-3	3.424644E-3	-5.057812E-3	4.450083E-3	-5.404358E-1	5.263367E-1
2.591750E+10	-8.230896E-1	2.845154E-1	-8.117199E-3	4.413605E-3	-5.932093E-3	5.195141E-3	-5.378723E-1	5.260315E-1
2.614200E+10	-8.176575E-1	2.872314E-1	-7.072926E-3	5.221367E-3	-7.704496E-3	6.247282E-3	-5.387268E-1	5.293579E-1
2.636650E+10	-8.158875E-1	2.866821E-1	-7.494688E-3	5.716801E-3	-7.429123E-3	7.592201E-3	-5.278320E-1	5.335999E-1
2.659100E+10	-8.121033E-1	2.888489E-1	-8.977413E-3	7.146358E-3	-7.507801E-3	8.193493E-3	-5.237122E-1	5.364075E-1
2.681550E+10	-8.071594E-1	2.880249E-1	-6.866455E-3	8.192062E-3	-8.433819E-3	9.830952E-3	-5.202637E-1	5.349731E-1
2.704000E+10	-8.065491E-1	2.881165E-1	-7.516384E-3	1.089668E-2	-9.786606E-3	9.838581E-3	-5.180359E-1	5.399780E-1
2.726450E+10	-8.027039E-1	2.906189E-1	-9.000778E-3	9.044170E-3	-9.742260E-3	1.107025E-2	-5.095825E-1	5.404968E-1
2.748900E+10	-7.993469E-1	2.886963E-1	-5.198479E-3	1.104879E-2	-6.355286E-3	1.076221E-2	-5.057678E-1	5.413513E-1
2.771350E+10	-7.992554E-1	2.922058E-1	-8.597851E-3	1.335287E-2	-6.054401E-3	1.294613E-2	-4.995422E-1	5.436707E-1
2.793800E+10	-7.936401E-1	2.901306E-1	-7.665634E-3	1.318264E-2	-7.556915E-3	1.449633E-2	-4.947510E-1	5.402222E-1
2.816250E+10	-7.902527E-1	2.913208E-1	-6.364822E-3	1.616955E-2	-5.806923E-3	1.506948E-2	-4.956665E-1	5.433655E-1
2.838700E+10	-7.904053E-1	2.886353E-1	-7.097244E-3	1.759720E-2	-4.728317E-3	1.655197E-2	-4.905090E-1	5.478516E-1
2.861150E+10	-7.888184E-1	2.917480E-1	-6.388664E-3	1.824951E-2	-4.178047E-3	1.742840E-2	-4.833679E-1	5.486145E-1
2.883600E+10	-7.867737E-1	2.932129E-1	-3.294945E-3	1.871872E-2	-6.843567E-3	1.946259E-2	-4.814453E-1	5.492554E-1
2.906050E+10	-7.859192E-1	2.908936E-1	-3.236771E-3	2.233982E-2	-4.281044E-3	2.026081E-2	-4.731445E-1	5.512085E-1
2.928500E+10	-7.879944E-1	2.918091E-1	-2.597809E-3	1.897621E-2	-1.534462E-3	2.271652E-2	-4.739075E-1	5.529175E-1
2.950950E+10	-7.826538E-1	2.948303E-1	-5.626678E-4	2.275944E-2	-3.090858E-3	2.326775E-2	-4.726868E-1	5.540466E-1
2.973400E+10	-7.857056E-1	2.922668E-1	-1.296997E-4	2.308178E-2	-6.914139E-4	2.153206E-2	-4.645386E-1	5.574951E-1
2.995850E+10	-7.797852E-1	2.926025E-1	-5.464554E-4	2.535248E-2	1.431465E-3	2.526569E-2	-4.653320E-1	5.568848E-1
3.018300E+10	-7.805176E-1	2.934570E-1	8.039474E-4	2.872276E-2	1.748085E-3	2.156925E-2	-4.582214E-1	5.627747E-1
3.040750E+10	-7.802429E-1	2.911072E-1	7.810593E-4	2.746964E-2	1.659393E-3	2.632523E-2	-4.543457E-1	5.613098E-1
3.063200E+10	-7.792664E-1	2.908325E-1	5.456924E-3	2.475929E-2	2.917290E-3	2.646828E-2	-4.554138E-1	5.669861E-1
3.085650E+10	-7.832031E-1	2.935181E-1	4.028320E-3	2.829456E-2	1.811981E-3	2.445698E-2	-4.429321E-1	5.692139E-1
3.108100E+10	-7.793579E-1	2.959595E-1	5.247116E-3	2.774715E-2	6.239891E-3	2.583885E-2	-4.414368E-1	5.699768E-1
3.130550E+10	-7.789307E-1	2.945862E-1	6.328583E-3	2.494335E-2	8.846283E-3	2.813530E-2	-4.338074E-1	5.689697E-1
3.153000E+10	-7.835693E-1	2.946777E-1	6.904602E-3	3.117943E-2	7.933617E-3	2.935982E-2	-4.289551E-1	5.702515E-1
3.175450E+10	-7.785645E-1	2.955933E-1	8.482933E-3	2.873802E-2	1.069355E-2	2.768421E-2	-4.265442E-1	5.717773E-1
3.197900E+10	-7.776184E-1	2.944031E-1	1.067734E-2	2.660465E-2	8.308411E-3	2.768707E-2	-4.200439E-1	5.730286E-1
3.220350E+10	-7.848206E-1	3.029175E-1	6.855011E-3	2.815056E-2	1.100349E-2	3.220940E-2	-4.168091E-1	5.699158E-1
3.242800E+10	-7.857056E-1	3.013306E-1	1.192665E-2	2.842712E-2	1.302052E-2	2.999973E-2	-4.165344E-1	5.760193E-1
3.265250E+10	-7.876587E-1	3.051147E-1	1.672363E-2	2.794647E-2	1.047802E-2	2.867889E-2	-4.031372E-1	5.782776E-1
3.287700E+10	-7.848511E-1	3.074646E-1	1.661491E-2	3.122902E-2	1.631165E-2	2.771187E-2	-4.042664E-1	5.798645E-1
3.310150E+10	-7.864990E-1	3.064575E-1	1.311874E-2	3.364944E-2	1.494694E-2	2.955818E-2	-4.005127E-1	5.793457E-1
3.332600E+10	-7.803650E-1	3.091431E-1	1.303673E-2	2.666664E-2	1.864719E-2	2.813721E-2	-3.969421E-1	5.752258E-1
3.355050E+10	-7.828064E-1	3.104858E-1	2.049160E-2	3.001499E-2	1.581478E-2	2.829552E-2	-3.924866E-1	5.838623E-1
3.377500E+10	-7.846985E-1	3.148193E-1	1.706314E-2	2.537537E-2	1.622486E-2	2.826023E-2	-3.844299E-1	5.764771E-1
3.399950E+10	-7.839050E-1	3.146362E-1	1.934433E-2	2.637482E-2	2.028084E-2	2.842045E-2	-3.874207E-1	5.795898E-1
3.422400E+10	-7.851868E-1	3.173828E-1	1.828480E-2	2.963829E-2	1.595688E-2	2.776241E-2	-3.790894E-1	5.930481E-1
3.444850E+10	-7.835999E-1	3.202515E-1	2.189922E-2	3.024006E-2	2.160358E-2	2.746201E-2	-3.715820E-1	5.853577E-1
3.467300E+10	-7.854309E-1	3.252258E-1	2.655506E-2	2.784824E-2	2.571869E-2	3.074837E-2	-3.747253E-1	5.914307E-1
3.489750E+10	-7.871399E-1	3.262329E-1	2.475548E-2	2.707195E-2	2.369499E-2	2.663612E-2	-3.703003E-1	5.945740E-1
3.512200E+10	-7.826233E-1	3.249512E-1	2.637959E-2	3.091335E-2	3.035450E-2	2.720070E-2	-3.600769E-1	5.870667E-1
3.534650E+10	-7.839966E-1	3.280334E-1	2.915001E-2	3.015614E-2	2.449512E-2	2.926731E-2	-3.604736E-1	5.968323E-1
3.557100E+10	-7.867737E-1	3.293457E-1	2.665997E-2	2.517986E-2	2.956104E-2	2.353382E-2	-3.493347E-1	5.993652E-1
3.579550E+10	-7.873840E-1	3.370056E-1	2.790165E-2	2.361298E-2	2.431870E-2	2.649021E-2	-3.468628E-1	5.990601E-1
3.602000E+10	-7.911682E-1	3.399963E-1	2.391720E-2	2.759266E-2	2.831745E-2	2.648067E-2	-3.439331E-1	5.966492E-1
3.624450E+10	-7.816772E-1	3.414917E-1	3.053761E-2	2.770424E-2	2.833462E-2	2.733612E-2	-3.422546E-1	5.960083E-1
3.646900E+10	-7.834473E-1	3.474426E-1	3.193092E-2	2.412605E-2	3.050613E-2	2.221966E-2	-3.343506E-1	5.990601E-1
3.669350E+10	-7.880859E-1	3.458557E-1	2.822304E-2	2.347374E-2	3.062153E-2	2.352428E-2	-3.293762E-1	5.950623E-1
3.691800E+10	-7.876892E-1	3.492737E-1	2.985287E-2	2.714348E-2	2.925301E-2	2.526379E-2	-3.246460E-1	6.033020E-1
3.714250E+10	-7.831116E-1	3.498230E-1	2.892399E-2	1.974487E-2	3.332520E-2	2.532196E-2	-3.247070E-1	6.041565E-1
3.736700E+10	-7.845459E-1	3.557434E-1	3.051949E-2	2.050114E-2	2.655029E-2	1.952839E-2	-3.140869E-1	6.018372E-1
3.759150E+10	-7.856445E-1	3.589783E-1	3.177452E-2	2.703285E-2	3.199959E-2	2.512169E-2	-3.112183E-1	6.067810E-1
3.781600E+10	-7.785645E-1	3.611450E-1	3.156662E-2	2.300453E-2	3.516197E-2	2.045631E-2	-3.144836E-1	6.052856E-1
3.804050E+10	-7.825317E-1	3.633118E-1	3.379631E-2	2.422142E-2	2.840519E-2	2.114677E-2	-2.947998E-1	6.057434E-1
3.826500E+10	-7.820740E-1	3.721619E-1	3.548241E-2	1.771164E-2	3.538513E-2	1.739311E-2	-2.925110E-1	6.109619E-1
3.848950E+10	-7.831421E-1	3.722534E-1	3.203773E-2	1.922607E-2	3.261185E-2	1.651573E-2	-2.916565E-1	6.091614E-1
3.871400E+10	-7.826233E-1	3.704529E-1	3.398895E-2	2.305412E-2	3.983307E-2	1.985550E-2	-2.852478E-1	6.056213E-1
3.893850E+10	-7.778015E-1	3.771973E-1	3.862953E-2	2.359581E-2	3.828239E-2	2.260780E-2	-2.862549E-1	6.074829E-1
3.916300E+10	-7.819824E-1	3.810730E-1	3.025913E-2	2.218533E-2	3.850937E-2	2.328682E-2	-2.803955E-1	6.068115E-1
3.938750E+10	-7.782593E-1	3.833923E-1	3.246307E-2	1.494217E-2	3.492546E-2	1.925850E-2	-2.803650E-1	6.149597E-1
