!Date: 10/28/2005, 12:34 PM

!Vgs = -7.000000E+0
!Vds = 4.000000E+0
!Ig = -6.138200E-5
!Id = 1.248100E-3

# HZ S RI R 50
1.000000E+8	9.906311E-1	-3.924561E-2	-1.082706E-2	1.283741E-2	1.306534E-3	1.372719E-2	9.813232E-1	-1.119995E-2
3.245000E+8	9.786682E-1	-1.094666E-1	-5.809784E-3	4.030609E-2	5.929947E-3	3.908348E-2	9.650879E-1	-9.243774E-2
5.490000E+8	9.626160E-1	-1.772461E-1	2.834320E-3	6.569672E-2	1.443863E-2	6.365967E-2	9.573669E-1	-1.514282E-1
7.735000E+8	9.431152E-1	-2.441101E-1	1.352692E-2	8.951569E-2	2.532959E-2	8.603668E-2	9.393005E-1	-2.097778E-1
9.980000E+8	9.197693E-1	-3.058777E-1	2.770996E-2	1.103210E-1	3.845978E-2	1.066895E-1	9.198914E-1	-2.618103E-1
1.222500E+9	8.923035E-1	-3.660278E-1	4.271698E-2	1.291580E-1	5.332947E-2	1.252823E-1	8.977051E-1	-3.148804E-1
1.447000E+9	8.616943E-1	-4.230347E-1	5.992126E-2	1.459961E-1	6.911469E-2	1.410980E-1	8.718262E-1	-3.641052E-1
1.671500E+9	8.275452E-1	-4.758606E-1	7.735443E-2	1.620026E-1	8.678436E-2	1.566772E-1	8.436279E-1	-4.094238E-1
1.896000E+9	7.911072E-1	-5.238342E-1	9.822845E-2	1.758423E-1	1.074219E-1	1.700134E-1	8.170776E-1	-4.507446E-1
2.120500E+9	7.535095E-1	-5.691833E-1	1.211472E-1	1.855469E-1	1.288986E-1	1.793823E-1	7.878113E-1	-4.927063E-1
2.345000E+9	7.115479E-1	-6.121826E-1	1.434250E-1	1.924820E-1	1.513062E-1	1.856079E-1	7.561035E-1	-5.320435E-1
2.569500E+9	6.710510E-1	-6.482849E-1	1.655273E-1	1.963196E-1	1.723022E-1	1.897125E-1	7.238159E-1	-5.672913E-1
2.794000E+9	6.282959E-1	-6.825867E-1	1.869583E-1	1.984253E-1	1.936493E-1	1.912308E-1	6.894531E-1	-5.999451E-1
3.018500E+9	5.852356E-1	-7.126465E-1	2.084503E-1	1.978912E-1	2.141418E-1	1.906586E-1	6.547852E-1	-6.320190E-1
3.243000E+9	5.425110E-1	-7.395020E-1	2.288513E-1	1.955185E-1	2.344208E-1	1.880951E-1	6.177063E-1	-6.603394E-1
3.467500E+9	5.000305E-1	-7.636719E-1	2.485733E-1	1.911621E-1	2.532806E-1	1.848450E-1	5.827332E-1	-6.851501E-1
3.692000E+9	4.574890E-1	-7.848206E-1	2.678070E-1	1.865997E-1	2.716980E-1	1.792297E-1	5.455322E-1	-7.095032E-1
3.916500E+9	4.147644E-1	-8.029480E-1	2.861481E-1	1.793060E-1	2.890778E-1	1.716614E-1	5.086365E-1	-7.284851E-1
4.141000E+9	3.740234E-1	-8.182068E-1	3.031464E-1	1.710663E-1	3.065948E-1	1.639709E-1	4.743347E-1	-7.471313E-1
4.365500E+9	3.347778E-1	-8.317871E-1	3.187866E-1	1.620636E-1	3.219299E-1	1.543121E-1	4.391174E-1	-7.645569E-1
4.590000E+9	2.938538E-1	-8.438416E-1	3.338623E-1	1.507874E-1	3.361511E-1	1.438141E-1	4.016418E-1	-7.798767E-1
4.814500E+9	2.552185E-1	-8.523560E-1	3.477783E-1	1.394348E-1	3.500671E-1	1.320801E-1	3.687439E-1	-7.921753E-1
5.039000E+9	2.171021E-1	-8.594360E-1	3.604736E-1	1.268311E-1	3.617554E-1	1.195984E-1	3.339233E-1	-8.055725E-1
5.263500E+9	1.796875E-1	-8.642883E-1	3.721771E-1	1.135406E-1	3.731079E-1	1.066284E-1	2.986450E-1	-8.146362E-1
5.488000E+9	1.454773E-1	-8.687134E-1	3.817291E-1	1.000519E-1	3.826294E-1	9.333801E-2	2.665710E-1	-8.225708E-1
5.712500E+9	1.099243E-1	-8.716431E-1	3.909607E-1	8.622742E-2	3.917236E-1	7.968140E-2	2.344055E-1	-8.314209E-1
5.937000E+9	7.736206E-2	-8.711243E-1	3.987427E-1	7.135010E-2	3.989105E-1	6.550598E-2	2.004700E-1	-8.374023E-1
6.161500E+9	4.611206E-2	-8.727722E-1	4.054565E-1	5.686951E-2	4.053192E-1	5.114746E-2	1.695251E-1	-8.429871E-1
6.386000E+9	1.287842E-2	-8.724365E-1	4.110260E-1	4.248047E-2	4.105072E-1	3.634644E-2	1.375427E-1	-8.475647E-1
6.610500E+9	-1.547241E-2	-8.709717E-1	4.148560E-1	2.803040E-2	4.148865E-1	2.218628E-2	1.049500E-1	-8.505554E-1
6.835000E+9	-4.562378E-2	-8.693542E-1	4.187775E-1	1.417542E-2	4.180603E-1	8.285522E-3	7.421875E-2	-8.516846E-1
7.059500E+9	-7.275391E-2	-8.643188E-1	4.214783E-1	7.934570E-4	4.203339E-1	-4.180908E-3	4.833984E-2	-8.515625E-1
7.284000E+9	-1.003113E-1	-8.616638E-1	4.227295E-1	-1.406860E-2	4.221039E-1	-1.989746E-2	1.687622E-2	-8.524170E-1
7.508500E+9	-1.273193E-1	-8.565674E-1	4.245148E-1	-2.830505E-2	4.233093E-1	-3.280640E-2	-1.196289E-2	-8.493958E-1
7.733000E+9	-1.531372E-1	-8.506470E-1	4.238129E-1	-4.090881E-2	4.228668E-1	-4.588318E-2	-3.771973E-2	-8.481445E-1
7.957500E+9	-1.772766E-1	-8.456116E-1	4.238129E-1	-5.364990E-2	4.225006E-1	-5.859375E-2	-6.750488E-2	-8.474121E-1
8.182000E+9	-2.004700E-1	-8.402405E-1	4.237366E-1	-6.674194E-2	4.221039E-1	-7.196045E-2	-9.234619E-2	-8.436890E-1
8.406500E+9	-2.230530E-1	-8.334961E-1	4.211578E-1	-8.020020E-2	4.194946E-1	-8.436584E-2	-1.190796E-1	-8.381653E-1
8.631000E+9	-2.459717E-1	-8.269348E-1	4.193115E-1	-9.230042E-2	4.173126E-1	-9.635925E-2	-1.453247E-1	-8.355103E-1
8.855500E+9	-2.672424E-1	-8.204956E-1	4.165955E-1	-1.039581E-1	4.149475E-1	-1.077881E-1	-1.697083E-1	-8.286133E-1
9.080001E+9	-2.868652E-1	-8.143921E-1	4.134521E-1	-1.152039E-1	4.115295E-1	-1.186981E-1	-1.932068E-1	-8.225098E-1
9.304500E+9	-3.086853E-1	-8.055115E-1	4.098358E-1	-1.264648E-1	4.077606E-1	-1.306000E-1	-2.164001E-1	-8.165283E-1
9.529000E+9	-3.263855E-1	-7.987671E-1	4.065552E-1	-1.372833E-1	4.045258E-1	-1.402588E-1	-2.415161E-1	-8.089294E-1
9.753500E+9	-3.462830E-1	-7.909241E-1	4.013977E-1	-1.474762E-1	3.998108E-1	-1.508179E-1	-2.616272E-1	-7.998047E-1
9.978000E+9	-3.637085E-1	-7.832642E-1	3.978882E-1	-1.575165E-1	3.953094E-1	-1.605530E-1	-2.835693E-1	-7.944336E-1
1.020250E+10	-3.812256E-1	-7.756042E-1	3.923492E-1	-1.671143E-1	3.905945E-1	-1.706848E-1	-3.056641E-1	-7.849426E-1
1.042700E+10	-3.992310E-1	-7.664490E-1	3.870239E-1	-1.766510E-1	3.852234E-1	-1.799622E-1	-3.251343E-1	-7.770996E-1
1.065150E+10	-4.139709E-1	-7.586365E-1	3.810730E-1	-1.850281E-1	3.794250E-1	-1.879730E-1	-3.437500E-1	-7.691040E-1
1.087600E+10	-4.308472E-1	-7.504272E-1	3.763733E-1	-1.945190E-1	3.738861E-1	-1.963806E-1	-3.647461E-1	-7.603149E-1
1.110050E+10	-4.461975E-1	-7.414246E-1	3.705292E-1	-2.028656E-1	3.680878E-1	-2.045746E-1	-3.840942E-1	-7.500916E-1
1.132500E+10	-4.617920E-1	-7.341614E-1	3.637695E-1	-2.099609E-1	3.616028E-1	-2.123718E-1	-4.021606E-1	-7.407532E-1
1.154950E+10	-4.754944E-1	-7.244873E-1	3.574829E-1	-2.179565E-1	3.560486E-1	-2.194519E-1	-4.221802E-1	-7.307129E-1
1.177400E+10	-4.893799E-1	-7.167053E-1	3.526154E-1	-2.244415E-1	3.491974E-1	-2.270050E-1	-4.376831E-1	-7.192993E-1
1.199850E+10	-5.037842E-1	-7.070007E-1	3.467407E-1	-2.317963E-1	3.429565E-1	-2.343140E-1	-4.538269E-1	-7.124939E-1
1.222300E+10	-5.168457E-1	-6.979675E-1	3.396301E-1	-2.375031E-1	3.379364E-1	-2.393951E-1	-4.715271E-1	-7.001343E-1
1.244750E+10	-5.292358E-1	-6.894531E-1	3.328857E-1	-2.447815E-1	3.316498E-1	-2.461700E-1	-4.884338E-1	-6.862793E-1
1.267200E+10	-5.427551E-1	-6.810913E-1	3.264008E-1	-2.505951E-1	3.241425E-1	-2.517700E-1	-5.017395E-1	-6.784363E-1
1.289650E+10	-5.538330E-1	-6.725464E-1	3.206024E-1	-2.553711E-1	3.180237E-1	-2.568970E-1	-5.183716E-1	-6.669006E-1
1.312100E+10	-5.655518E-1	-6.641846E-1	3.135223E-1	-2.613220E-1	3.113403E-1	-2.628632E-1	-5.328979E-1	-6.533508E-1
1.334550E+10	-5.779724E-1	-6.552124E-1	3.074951E-1	-2.665405E-1	3.042297E-1	-2.677460E-1	-5.455627E-1	-6.447449E-1
1.357000E+10	-5.891113E-1	-6.454468E-1	3.002472E-1	-2.709503E-1	2.956085E-1	-2.729797E-1	-5.609741E-1	-6.344604E-1
1.379450E+10	-5.987244E-1	-6.387329E-1	2.937469E-1	-2.762756E-1	2.923431E-1	-2.771912E-1	-5.759888E-1	-6.194763E-1
1.401900E+10	-6.085815E-1	-6.290588E-1	2.876282E-1	-2.799072E-1	2.848969E-1	-2.808380E-1	-5.837402E-1	-6.085205E-1
1.424350E+10	-6.182251E-1	-6.195984E-1	2.790833E-1	-2.838440E-1	2.774963E-1	-2.852936E-1	-6.003113E-1	-5.971985E-1
1.446800E+10	-6.286926E-1	-6.116943E-1	2.731171E-1	-2.884216E-1	2.711182E-1	-2.891846E-1	-6.119080E-1	-5.811462E-1
1.469250E+10	-6.373596E-1	-6.031189E-1	2.654877E-1	-2.914276E-1	2.648010E-1	-2.929230E-1	-6.207581E-1	-5.719299E-1
1.491700E+10	-6.465454E-1	-5.946045E-1	2.587433E-1	-2.959900E-1	2.571716E-1	-2.959900E-1	-6.357117E-1	-5.620422E-1
1.514150E+10	-6.562500E-1	-5.853577E-1	2.518158E-1	-2.987976E-1	2.500610E-1	-2.992554E-1	-6.462402E-1	-5.455933E-1
1.536600E+10	-6.658020E-1	-5.758362E-1	2.454376E-1	-3.025970E-1	2.443695E-1	-3.011169E-1	-6.542358E-1	-5.332336E-1
1.559050E+10	-6.745911E-1	-5.675049E-1	2.377625E-1	-3.036194E-1	2.370605E-1	-3.053589E-1	-6.658630E-1	-5.223389E-1
1.581500E+10	-6.810608E-1	-5.591736E-1	2.323761E-1	-3.066559E-1	2.303925E-1	-3.066101E-1	-6.774292E-1	-5.079956E-1
1.603950E+10	-6.907959E-1	-5.501709E-1	2.265472E-1	-3.092041E-1	2.248688E-1	-3.093414E-1	-6.842957E-1	-4.962769E-1
1.626400E+10	-6.974182E-1	-5.425110E-1	2.197571E-1	-3.110046E-1	2.174835E-1	-3.119812E-1	-6.962280E-1	-4.851685E-1
1.648850E+10	-7.070618E-1	-5.328979E-1	2.122955E-1	-3.126678E-1	2.104797E-1	-3.136444E-1	-7.046204E-1	-4.698792E-1
1.671300E+10	-7.126465E-1	-5.242004E-1	2.058105E-1	-3.138123E-1	2.042999E-1	-3.157806E-1	-7.111206E-1	-4.584351E-1
1.693750E+10	-7.207947E-1	-5.174255E-1	2.009583E-1	-3.183289E-1	1.981964E-1	-3.173981E-1	-7.215881E-1	-4.464111E-1
1.716200E+10	-7.274780E-1	-5.077820E-1	1.931305E-1	-3.183441E-1	1.918793E-1	-3.190002E-1	-7.297363E-1	-4.304504E-1
1.738650E+10	-7.352295E-1	-4.999695E-1	1.874847E-1	-3.203583E-1	1.856842E-1	-3.193665E-1	-7.346802E-1	-4.170532E-1
1.761100E+10	-7.414856E-1	-4.923401E-1	1.813812E-1	-3.210449E-1	1.791229E-1	-3.214722E-1	-7.440491E-1	-4.086304E-1
1.783550E+10	-7.493286E-1	-4.817200E-1	1.756287E-1	-3.225555E-1	1.732483E-1	-3.225250E-1	-7.512512E-1	-3.923340E-1
1.806000E+10	-7.548218E-1	-4.754944E-1	1.708221E-1	-3.232727E-1	1.681824E-1	-3.236847E-1	-7.556763E-1	-3.796387E-1
1.828450E+10	-7.611389E-1	-4.652405E-1	1.641541E-1	-3.236847E-1	1.623230E-1	-3.231659E-1	-7.634888E-1	-3.692017E-1
1.850900E+10	-7.668457E-1	-4.573975E-1	1.569519E-1	-3.251343E-1	1.562653E-1	-3.237762E-1	-7.714233E-1	-3.545532E-1
1.873350E+10	-7.732544E-1	-4.501038E-1	1.507721E-1	-3.261414E-1	1.498566E-1	-3.252106E-1	-7.751770E-1	-3.400574E-1
1.895800E+10	-7.792358E-1	-4.414978E-1	1.462402E-1	-3.270264E-1	1.459045E-1	-3.263855E-1	-7.813721E-1	-3.305969E-1
1.918250E+10	-7.849121E-1	-4.329529E-1	1.414795E-1	-3.265686E-1	1.391602E-1	-3.267822E-1	-7.872620E-1	-3.161621E-1
1.940700E+10	-7.885437E-1	-4.241943E-1	1.334534E-1	-3.284607E-1	1.327209E-1	-3.286743E-1	-7.909241E-1	-2.998657E-1
1.963150E+10	-7.952576E-1	-4.171753E-1	1.296539E-1	-3.275604E-1	1.270142E-1	-3.254242E-1	-7.949524E-1	-2.895508E-1
1.985600E+10	-8.000793E-1	-4.075623E-1	1.248779E-1	-3.266754E-1	1.215668E-1	-3.256683E-1	-8.013000E-1	-2.761841E-1
2.008050E+10	-8.038330E-1	-4.005127E-1	1.181030E-1	-3.276672E-1	1.156006E-1	-3.278198E-1	-8.053894E-1	-2.612000E-1
2.030500E+10	-8.105774E-1	-3.917542E-1	1.146851E-1	-3.261719E-1	1.107025E-1	-3.271790E-1	-8.059082E-1	-2.516785E-1
2.052950E+10	-8.141174E-1	-3.852539E-1	1.057281E-1	-3.274384E-1	1.049957E-1	-3.281403E-1	-8.112183E-1	-2.395630E-1
2.075400E+10	-8.178711E-1	-3.771057E-1	1.016388E-1	-3.269501E-1	1.015930E-1	-3.265228E-1	-8.155823E-1	-2.264404E-1
2.097850E+10	-8.235474E-1	-3.698120E-1	9.794617E-2	-3.273010E-1	9.611511E-2	-3.263855E-1	-8.154907E-1	-2.138977E-1
2.120300E+10	-8.263245E-1	-3.600159E-1	9.152222E-2	-3.254852E-1	9.045410E-2	-3.255768E-1	-8.201904E-1	-2.030640E-1
2.142750E+10	-8.330994E-1	-3.531189E-1	8.731079E-2	-3.260040E-1	8.482361E-2	-3.247833E-1	-8.268433E-1	-1.881714E-1
2.165200E+10	-8.375244E-1	-3.442993E-1	8.081055E-2	-3.245087E-1	8.071899E-2	-3.251038E-1	-8.273315E-1	-1.762085E-1
2.187650E+10	-8.400269E-1	-3.368530E-1	7.734680E-2	-3.241272E-1	7.568359E-2	-3.221283E-1	-8.325806E-1	-1.645203E-1
2.210100E+10	-8.450928E-1	-3.252258E-1	7.379150E-2	-3.258972E-1	7.028198E-2	-3.241730E-1	-8.343201E-1	-1.486511E-1
2.232550E+10	-8.478699E-1	-3.190918E-1	6.695557E-2	-3.222656E-1	6.666565E-2	-3.217926E-1	-8.338623E-1	-1.358948E-1
2.255000E+10	-8.535461E-1	-3.095703E-1	6.352234E-2	-3.213959E-1	6.240845E-2	-3.235474E-1	-8.372498E-1	-1.261292E-1
2.277450E+10	-8.547974E-1	-3.002014E-1	5.754089E-2	-3.209839E-1	5.667114E-2	-3.216095E-1	-8.406677E-1	-1.075134E-1
2.299900E+10	-8.596802E-1	-2.947998E-1	5.355835E-2	-3.214874E-1	5.191040E-2	-3.218079E-1	-8.385315E-1	-9.881592E-2
2.322350E+10	-8.623352E-1	-2.856140E-1	4.898071E-2	-3.205719E-1	4.827881E-2	-3.209229E-1	-8.433838E-1	-8.810425E-2
2.344800E+10	-8.623352E-1	-2.801514E-1	4.449463E-2	-3.200226E-1	4.437256E-2	-3.190765E-1	-8.432312E-1	-7.269287E-2
2.367250E+10	-8.655396E-1	-2.720032E-1	3.952026E-2	-3.195648E-1	3.919983E-2	-3.182526E-1	-8.421326E-1	-5.899048E-2
2.389700E+10	-8.676147E-1	-2.635803E-1	3.553772E-2	-3.172150E-1	3.254700E-2	-3.161469E-1	-8.455811E-1	-4.568481E-2
2.412150E+10	-8.703613E-1	-2.581177E-1	3.041077E-2	-3.165436E-1	3.018188E-2	-3.153687E-1	-8.426514E-1	-3.121948E-2
2.434600E+10	-8.722839E-1	-2.501831E-1	2.589417E-2	-3.148346E-1	2.734375E-2	-3.144684E-1	-8.400879E-1	-2.185059E-2
2.457050E+10	-8.757019E-1	-2.450256E-1	2.297974E-2	-3.155212E-1	2.154541E-2	-3.140564E-1	-8.438721E-1	-1.004028E-2
2.479500E+10	-8.803101E-1	-2.363586E-1	1.815796E-2	-3.144226E-1	1.815796E-2	-3.136139E-1	-8.382568E-1	8.331299E-3
2.501950E+10	-8.809204E-1	-2.308044E-1	1.394653E-2	-3.131866E-1	1.457214E-2	-3.129578E-1	-8.351135E-1	1.638794E-2
2.524400E+10	-8.871155E-1	-2.221375E-1	1.068115E-2	-3.098145E-1	8.636475E-3	-3.085175E-1	-8.365479E-1	2.645874E-2
2.546850E+10	-8.886414E-1	-2.148437E-1	6.408691E-3	-3.090515E-1	4.470825E-3	-3.083954E-1	-8.322754E-1	4.098511E-2
2.569300E+10	-8.897095E-1	-2.082520E-1	3.326416E-3	-3.055573E-1	9.613037E-4	-3.062134E-1	-8.333130E-1	4.931641E-2
2.591750E+10	-8.939819E-1	-1.991577E-1	-2.655029E-3	-3.061981E-1	-2.105713E-3	-3.069763E-1	-8.339233E-1	6.057739E-2
2.614200E+10	-8.945923E-1	-1.903076E-1	-5.279541E-3	-3.023224E-1	-3.402710E-3	-3.037720E-1	-8.334045E-1	7.516479E-2
2.636650E+10	-8.981934E-1	-1.872253E-1	-8.941650E-3	-3.033752E-1	-8.422852E-3	-3.022919E-1	-8.296204E-1	8.837891E-2
2.659100E+10	-8.963928E-1	-1.796875E-1	-1.206970E-2	-3.016663E-1	-1.174927E-2	-3.011017E-1	-8.265686E-1	9.921265E-2
2.681550E+10	-8.993835E-1	-1.729126E-1	-1.477051E-2	-3.004150E-1	-1.687622E-2	-2.990875E-1	-8.278809E-1	1.103210E-1
2.704000E+10	-9.006042E-1	-1.622009E-1	-1.951599E-2	-2.991943E-1	-2.027893E-2	-2.985229E-1	-8.243408E-1	1.296997E-1
2.726450E+10	-9.018860E-1	-1.559448E-1	-2.261353E-2	-2.999878E-1	-2.297974E-2	-2.974548E-1	-8.159790E-1	1.362915E-1
2.748900E+10	-9.059448E-1	-1.504822E-1	-2.938843E-2	-2.984161E-1	-2.827454E-2	-2.942047E-1	-8.127747E-1	1.447754E-1
2.771350E+10	-9.053955E-1	-1.440735E-1	-3.019714E-2	-2.931824E-1	-3.269958E-2	-2.931061E-1	-8.112488E-1	1.586304E-1
2.793800E+10	-9.081726E-1	-1.348572E-1	-3.616333E-2	-2.938080E-1	-3.504944E-2	-2.884674E-1	-8.078003E-1	1.679077E-1
2.816250E+10	-9.104614E-1	-1.307068E-1	-3.611755E-2	-2.917328E-1	-3.807068E-2	-2.933197E-1	-8.055420E-1	1.777344E-1
2.838700E+10	-9.098511E-1	-1.219482E-1	-4.277039E-2	-2.902222E-1	-4.241943E-2	-2.886200E-1	-8.023987E-1	1.923523E-1
2.861150E+10	-9.112854E-1	-1.153870E-1	-4.426575E-2	-2.893829E-1	-4.367065E-2	-2.885742E-1	-7.918396E-1	2.047424E-1
2.883600E+10	-9.115906E-1	-1.078186E-1	-4.957581E-2	-2.858887E-1	-4.876709E-2	-2.863464E-1	-7.907715E-1	2.122498E-1
2.906050E+10	-9.133911E-1	-1.022644E-1	-5.265808E-2	-2.842255E-1	-5.226135E-2	-2.809601E-1	-7.864990E-1	2.241211E-1
2.928500E+10	-9.162292E-1	-9.085083E-2	-5.474854E-2	-2.819214E-1	-5.714417E-2	-2.822266E-1	-7.803345E-1	2.322998E-1
2.950950E+10	-9.176331E-1	-8.529663E-2	-5.603027E-2	-2.795868E-1	-5.644226E-2	-2.794800E-1	-7.800598E-1	2.447510E-1
2.973400E+10	-9.190674E-1	-7.873535E-2	-5.731201E-2	-2.790527E-1	-6.118774E-2	-2.779388E-1	-7.774963E-1	2.528992E-1
2.995850E+10	-9.182434E-1	-7.250977E-2	-6.286621E-2	-2.762451E-1	-5.694580E-2	-2.748108E-1	-7.746277E-1	2.666016E-1
3.018300E+10	-9.187317E-1	-6.509399E-2	-6.501770E-2	-2.756958E-1	-6.304932E-2	-2.747650E-1	-7.692566E-1	2.816162E-1
3.040750E+10	-9.187927E-1	-5.722046E-2	-7.020569E-2	-2.755737E-1	-6.896973E-2	-2.753143E-1	-7.620239E-1	2.922058E-1
3.063200E+10	-9.188843E-1	-5.050659E-2	-7.099915E-2	-2.731323E-1	-7.090759E-2	-2.710266E-1	-7.576599E-1	3.007812E-1
3.085650E+10	-9.212036E-1	-4.635620E-2	-7.604980E-2	-2.711334E-1	-7.598877E-2	-2.717133E-1	-7.503662E-1	3.109436E-1
3.108100E+10	-9.222107E-1	-3.817749E-2	-7.574463E-2	-2.713165E-1	-7.569885E-2	-2.703247E-1	-7.406311E-1	3.246155E-1
3.130550E+10	-9.194641E-1	-2.990723E-2	-8.328247E-2	-2.686005E-1	-8.255005E-2	-2.672577E-1	-7.307129E-1	3.320923E-1
3.153000E+10	-9.245300E-1	-2.600098E-2	-8.341980E-2	-2.611389E-1	-8.041382E-2	-2.658081E-1	-7.275696E-1	3.429260E-1
3.175450E+10	-9.236755E-1	-1.629639E-2	-8.738708E-2	-2.631378E-1	-8.473206E-2	-2.624664E-1	-7.238464E-1	3.591614E-1
3.197900E+10	-9.224854E-1	-1.593018E-2	-8.576965E-2	-2.601013E-1	-8.865356E-2	-2.602844E-1	-7.083740E-1	3.618164E-1
3.220350E+10	-9.255981E-1	-4.821777E-3	-9.625244E-2	-2.588196E-1	-9.013367E-2	-2.580109E-1	-7.051392E-1	3.761902E-1
3.242800E+10	-9.236755E-1	2.380371E-3	-9.500122E-2	-2.578125E-1	-9.703064E-2	-2.583008E-1	-6.936035E-1	3.859253E-1
3.265250E+10	-9.254456E-1	8.911133E-3	-9.588623E-2	-2.550964E-1	-1.003876E-1	-2.518005E-1	-6.888733E-1	3.930664E-1
3.287700E+10	-9.244690E-1	1.626587E-2	-9.974670E-2	-2.553864E-1	-1.003723E-1	-2.504272E-1	-6.824951E-1	4.012756E-1
3.310150E+10	-9.286804E-1	2.160645E-2	-1.041565E-1	-2.501831E-1	-1.031799E-1	-2.505798E-1	-6.705322E-1	4.100037E-1
3.332600E+10	-9.213867E-1	3.054810E-2	-1.056976E-1	-2.493744E-1	-1.041718E-1	-2.485428E-1	-6.658630E-1	4.171448E-1
3.355050E+10	-9.247131E-1	3.384399E-2	-1.085358E-1	-2.458344E-1	-1.083908E-1	-2.444611E-1	-6.582947E-1	4.237976E-1
3.377500E+10	-9.281921E-1	4.541016E-2	-1.096649E-1	-2.403641E-1	-1.064987E-1	-2.444534E-1	-6.495056E-1	4.295044E-1
3.399950E+10	-9.218140E-1	5.297852E-2	-1.095963E-1	-2.423019E-1	-1.127090E-1	-2.445068E-1	-6.484985E-1	4.309998E-1
3.422400E+10	-9.260559E-1	5.856323E-2	-1.131897E-1	-2.417603E-1	-1.172180E-1	-2.416763E-1	-6.394958E-1	4.531250E-1
3.444850E+10	-9.272461E-1	6.405640E-2	-1.163864E-1	-2.389755E-1	-1.157150E-1	-2.415695E-1	-6.245117E-1	4.607544E-1
3.467300E+10	-9.219055E-1	6.838989E-2	-1.196060E-1	-2.363663E-1	-1.173172E-1	-2.427368E-1	-6.195068E-1	4.726257E-1
3.489750E+10	-9.222717E-1	7.583618E-2	-1.224518E-1	-2.361603E-1	-1.201859E-1	-2.332993E-1	-6.096191E-1	4.823914E-1
3.512200E+10	-9.214783E-1	8.361816E-2	-1.229095E-1	-2.312851E-1	-1.246185E-1	-2.367859E-1	-5.942688E-1	4.847717E-1
3.534650E+10	-9.250793E-1	8.749390E-2	-1.300354E-1	-2.413330E-1	-1.265640E-1	-2.336197E-1	-5.910645E-1	4.998474E-1
3.557100E+10	-9.190674E-1	9.097290E-2	-1.259537E-1	-2.333069E-1	-1.314011E-1	-2.288895E-1	-5.762024E-1	5.089417E-1
3.579550E+10	-9.237976E-1	9.963989E-2	-1.332092E-1	-2.306213E-1	-1.352997E-1	-2.314911E-1	-5.632629E-1	5.114136E-1
3.602000E+10	-9.251404E-1	1.043396E-1	-1.305084E-1	-2.243881E-1	-1.321335E-1	-2.289734E-1	-5.619202E-1	5.183105E-1
3.624450E+10	-9.199524E-1	1.174316E-1	-1.417465E-1	-2.268600E-1	-1.377869E-1	-2.276764E-1	-5.472107E-1	5.246277E-1
3.646900E+10	-9.163818E-1	1.217957E-1	-1.377945E-1	-2.221680E-1	-1.429138E-1	-2.258606E-1	-5.339661E-1	5.355225E-1
3.669350E+10	-9.168396E-1	1.258850E-1	-1.404572E-1	-2.229004E-1	-1.413498E-1	-2.231674E-1	-5.232544E-1	5.427246E-1
3.691800E+10	-9.165039E-1	1.304626E-1	-1.464081E-1	-2.204742E-1	-1.437302E-1	-2.193985E-1	-5.115051E-1	5.446472E-1
3.714250E+10	-9.149170E-1	1.360779E-1	-1.463699E-1	-2.165909E-1	-1.496964E-1	-2.136383E-1	-4.997864E-1	5.510559E-1
3.736700E+10	-9.161072E-1	1.451416E-1	-1.503143E-1	-2.134018E-1	-1.483536E-1	-2.112198E-1	-4.869080E-1	5.558472E-1
3.759150E+10	-9.098816E-1	1.496887E-1	-1.530991E-1	-2.091217E-1	-1.531906E-1	-2.184448E-1	-4.799500E-1	5.668945E-1
3.781600E+10	-9.122620E-1	1.618958E-1	-1.595840E-1	-2.131348E-1	-1.555786E-1	-2.094650E-1	-4.638367E-1	5.684814E-1
3.804050E+10	-9.138184E-1	1.622925E-1	-1.582413E-1	-2.067947E-1	-1.525497E-1	-2.089767E-1	-4.498901E-1	5.742493E-1
3.826500E+10	-9.044189E-1	1.709290E-1	-1.610870E-1	-2.087860E-1	-1.570511E-1	-2.084656E-1	-4.372253E-1	5.875549E-1
3.848950E+10	-9.076538E-1	1.777039E-1	-1.644592E-1	-2.068100E-1	-1.609802E-1	-2.067184E-1	-4.242554E-1	5.886536E-1
3.871400E+10	-9.026184E-1	1.735535E-1	-1.672668E-1	-1.991043E-1	-1.598663E-1	-1.956940E-1	-4.119263E-1	5.871277E-1
3.893850E+10	-9.051514E-1	1.839294E-1	-1.684341E-1	-2.018280E-1	-1.646118E-1	-2.005234E-1	-3.956909E-1	5.896606E-1
