!Date: 10/28/2005, 12:34 PM

!Vgs = -8.000000E+0
!Vds = 4.000000E+0
!Ig = -7.936100E-5
!Id = 1.209600E-3

# HZ S RI R 50
1.000000E+8	9.921570E-1	-3.854370E-2	-5.310535E-3	1.151657E-2	1.964092E-3	1.418972E-2	9.888611E-1	-1.040649E-2
3.245000E+8	9.786682E-1	-1.050720E-1	4.386902E-4	3.849792E-2	6.444931E-3	3.803635E-2	9.676514E-1	-9.149170E-2
5.490000E+8	9.640808E-1	-1.709900E-1	8.453369E-3	6.332779E-2	1.446152E-2	6.236267E-2	9.611206E-1	-1.499023E-1
7.735000E+8	9.456787E-1	-2.352600E-1	1.906586E-2	8.583832E-2	2.473831E-2	8.444977E-2	9.439697E-1	-2.077637E-1
9.980000E+8	9.245300E-1	-2.944946E-1	3.151321E-2	1.064606E-1	3.707886E-2	1.047096E-1	9.246521E-1	-2.594299E-1
1.222500E+9	8.983459E-1	-3.526917E-1	4.602814E-2	1.251373E-1	5.135727E-2	1.231041E-1	9.027100E-1	-3.120117E-1
1.447000E+9	8.698425E-1	-4.078064E-1	6.195831E-2	1.417694E-1	6.700134E-2	1.393127E-1	8.776855E-1	-3.610840E-1
1.671500E+9	8.376770E-1	-4.596863E-1	7.881165E-2	1.576920E-1	8.371735E-2	1.550751E-1	8.495178E-1	-4.061890E-1
1.896000E+9	8.031921E-1	-5.069580E-1	9.907532E-2	1.715164E-1	1.035080E-1	1.684647E-1	8.234253E-1	-4.471130E-1
2.120500E+9	7.680359E-1	-5.518799E-1	1.208115E-1	1.817017E-1	1.243286E-1	1.781158E-1	7.946777E-1	-4.896851E-1
2.345000E+9	7.286377E-1	-5.942383E-1	1.421585E-1	1.887436E-1	1.463852E-1	1.852188E-1	7.629700E-1	-5.289001E-1
2.569500E+9	6.896362E-1	-6.299744E-1	1.635132E-1	1.929321E-1	1.667480E-1	1.894531E-1	7.312927E-1	-5.645752E-1
2.794000E+9	6.496582E-1	-6.652527E-1	1.845169E-1	1.956787E-1	1.875458E-1	1.923828E-1	6.979065E-1	-5.974426E-1
3.018500E+9	6.090088E-1	-6.952209E-1	2.052612E-1	1.958542E-1	2.076950E-1	1.921768E-1	6.632690E-1	-6.279907E-1
3.243000E+9	5.677185E-1	-7.229919E-1	2.255630E-1	1.941223E-1	2.284851E-1	1.903381E-1	6.270752E-1	-6.574707E-1
3.467500E+9	5.267944E-1	-7.475586E-1	2.454834E-1	1.916199E-1	2.473373E-1	1.876373E-1	5.921631E-1	-6.824341E-1
3.692000E+9	4.858398E-1	-7.694702E-1	2.638397E-1	1.871643E-1	2.658997E-1	1.828766E-1	5.559692E-1	-7.076416E-1
3.916500E+9	4.440002E-1	-7.885742E-1	2.823181E-1	1.801453E-1	2.834778E-1	1.763306E-1	5.179138E-1	-7.276001E-1
4.141000E+9	4.046631E-1	-8.051147E-1	2.990112E-1	1.729736E-1	3.005219E-1	1.694183E-1	4.844971E-1	-7.458191E-1
4.365500E+9	3.670959E-1	-8.199768E-1	3.152466E-1	1.646118E-1	3.167725E-1	1.601257E-1	4.488831E-1	-7.643433E-1
4.590000E+9	3.267212E-1	-8.333435E-1	3.304749E-1	1.540222E-1	3.316803E-1	1.497192E-1	4.114990E-1	-7.792358E-1
4.814500E+9	2.893066E-1	-8.423157E-1	3.445129E-1	1.430817E-1	3.455811E-1	1.395721E-1	3.788147E-1	-7.921448E-1
5.039000E+9	2.520142E-1	-8.518372E-1	3.576965E-1	1.311951E-1	3.577881E-1	1.278076E-1	3.440552E-1	-8.058167E-1
5.263500E+9	2.154846E-1	-8.573914E-1	3.691254E-1	1.186981E-1	3.694153E-1	1.152344E-1	3.087463E-1	-8.153076E-1
5.488000E+9	1.810608E-1	-8.627625E-1	3.795929E-1	1.058044E-1	3.802643E-1	1.022034E-1	2.769775E-1	-8.235168E-1
5.712500E+9	1.460876E-1	-8.674316E-1	3.898163E-1	9.266663E-2	3.893127E-1	8.839417E-2	2.441101E-1	-8.321838E-1
5.937000E+9	1.133728E-1	-8.683167E-1	3.975372E-1	7.792664E-2	3.974762E-1	7.490540E-2	2.105713E-1	-8.390503E-1
6.161500E+9	8.261108E-2	-8.708191E-1	4.048309E-1	6.411743E-2	4.043121E-1	6.126404E-2	1.790161E-1	-8.449402E-1
6.386000E+9	4.983521E-2	-8.717957E-1	4.102325E-1	4.954529E-2	4.100647E-1	4.687500E-2	1.475525E-1	-8.487549E-1
6.610500E+9	2.130127E-2	-8.713379E-1	4.159241E-1	3.594971E-2	4.151459E-1	3.274536E-2	1.151123E-1	-8.524475E-1
6.835000E+9	-8.697510E-3	-8.704529E-1	4.194794E-1	2.133179E-2	4.192352E-1	1.866150E-2	8.508301E-2	-8.531494E-1
7.059500E+9	-3.573608E-2	-8.671570E-1	4.226379E-1	8.438110E-3	4.217377E-1	5.783081E-3	5.783081E-2	-8.535156E-1
7.284000E+9	-6.378174E-2	-8.647766E-1	4.250336E-1	-6.332397E-3	4.244385E-1	-8.819580E-3	2.630615E-2	-8.538208E-1
7.508500E+9	-9.140015E-2	-8.618164E-1	4.266663E-1	-1.983643E-2	4.257202E-1	-2.217102E-2	-1.434326E-3	-8.511047E-1
7.733000E+9	-1.161804E-1	-8.565979E-1	4.274445E-1	-3.343201E-2	4.265900E-1	-3.543091E-2	-2.752686E-2	-8.507996E-1
7.957500E+9	-1.407776E-1	-8.522949E-1	4.271851E-1	-4.631042E-2	4.259033E-1	-4.893494E-2	-5.728149E-2	-8.490906E-1
8.182000E+9	-1.640930E-1	-8.481750E-1	4.276123E-1	-5.892944E-2	4.264069E-1	-6.100464E-2	-8.255005E-2	-8.463135E-1
8.406500E+9	-1.875916E-1	-8.427429E-1	4.248657E-1	-7.168579E-2	4.246674E-1	-7.415771E-2	-1.094055E-1	-8.415527E-1
8.631000E+9	-2.105408E-1	-8.369141E-1	4.243774E-1	-8.433533E-2	4.228363E-1	-8.634949E-2	-1.352844E-1	-8.372498E-1
8.855500E+9	-2.318726E-1	-8.305054E-1	4.219666E-1	-9.663391E-2	4.210968E-1	-9.837341E-2	-1.599426E-1	-8.321228E-1
9.080001E+9	-2.520752E-1	-8.256836E-1	4.197388E-1	-1.075134E-1	4.185638E-1	-1.098633E-1	-1.831970E-1	-8.258057E-1
9.304500E+9	-2.735596E-1	-8.172302E-1	4.160767E-1	-1.190491E-1	4.145660E-1	-1.208801E-1	-2.066040E-1	-8.185730E-1
9.529000E+9	-2.926331E-1	-8.115540E-1	4.132690E-1	-1.298065E-1	4.118500E-1	-1.316071E-1	-2.304687E-1	-8.126831E-1
9.753500E+9	-3.127747E-1	-8.036804E-1	4.085693E-1	-1.410675E-1	4.080048E-1	-1.428223E-1	-2.506104E-1	-8.046265E-1
9.978000E+9	-3.305664E-1	-7.969360E-1	4.051056E-1	-1.505585E-1	4.031372E-1	-1.519318E-1	-2.721863E-1	-7.981567E-1
1.020250E+10	-3.480835E-1	-7.894592E-1	4.009705E-1	-1.606293E-1	3.992920E-1	-1.627960E-1	-2.945862E-1	-7.894287E-1
1.042700E+10	-3.659973E-1	-7.815552E-1	3.957520E-1	-1.705933E-1	3.939362E-1	-1.719513E-1	-3.141479E-1	-7.822571E-1
1.065150E+10	-3.823853E-1	-7.733765E-1	3.905487E-1	-1.798248E-1	3.892670E-1	-1.808014E-1	-3.334656E-1	-7.738037E-1
1.087600E+10	-3.993835E-1	-7.657471E-1	3.850861E-1	-1.883240E-1	3.828735E-1	-1.893921E-1	-3.535461E-1	-7.642517E-1
1.110050E+10	-4.155579E-1	-7.574768E-1	3.792725E-1	-1.976318E-1	3.788452E-1	-1.982117E-1	-3.729858E-1	-7.553406E-1
1.132500E+10	-4.301147E-1	-7.498169E-1	3.734283E-1	-2.049103E-1	3.716125E-1	-2.056274E-1	-3.903809E-1	-7.470093E-1
1.154950E+10	-4.457092E-1	-7.413940E-1	3.678589E-1	-2.113342E-1	3.661499E-1	-2.136230E-1	-4.112854E-1	-7.353516E-1
1.177400E+10	-4.598389E-1	-7.328796E-1	3.619385E-1	-2.197723E-1	3.605194E-1	-2.209778E-1	-4.261169E-1	-7.253418E-1
1.199850E+10	-4.749146E-1	-7.253418E-1	3.568573E-1	-2.279663E-1	3.541870E-1	-2.288361E-1	-4.429321E-1	-7.178650E-1
1.222300E+10	-4.872131E-1	-7.174072E-1	3.501740E-1	-2.342682E-1	3.479462E-1	-2.344513E-1	-4.613647E-1	-7.057800E-1
1.244750E+10	-5.010376E-1	-7.086487E-1	3.427734E-1	-2.409363E-1	3.419342E-1	-2.419586E-1	-4.770508E-1	-6.933594E-1
1.267200E+10	-5.145264E-1	-6.998901E-1	3.374786E-1	-2.476959E-1	3.357849E-1	-2.472839E-1	-4.908752E-1	-6.850891E-1
1.289650E+10	-5.254517E-1	-6.911011E-1	3.312225E-1	-2.523651E-1	3.295898E-1	-2.527313E-1	-5.079041E-1	-6.742249E-1
1.312100E+10	-5.383606E-1	-6.835022E-1	3.239746E-1	-2.589111E-1	3.220825E-1	-2.592468E-1	-5.235291E-1	-6.605835E-1
1.334550E+10	-5.503540E-1	-6.750183E-1	3.178406E-1	-2.641144E-1	3.171234E-1	-2.648926E-1	-5.347900E-1	-6.518250E-1
1.357000E+10	-5.638123E-1	-6.649475E-1	3.104858E-1	-2.694092E-1	3.081970E-1	-2.701263E-1	-5.514832E-1	-6.423645E-1
1.379450E+10	-5.714722E-1	-6.578369E-1	3.051758E-1	-2.746277E-1	3.037567E-1	-2.742462E-1	-5.660706E-1	-6.259460E-1
1.401900E+10	-5.823059E-1	-6.485901E-1	2.985382E-1	-2.789764E-1	2.969055E-1	-2.785950E-1	-5.732117E-1	-6.166077E-1
1.424350E+10	-5.937195E-1	-6.408691E-1	2.907715E-1	-2.822418E-1	2.902527E-1	-2.840881E-1	-5.888062E-1	-6.051331E-1
1.446800E+10	-6.034241E-1	-6.329651E-1	2.832336E-1	-2.871704E-1	2.830811E-1	-2.878113E-1	-6.019592E-1	-5.892944E-1
1.469250E+10	-6.132507E-1	-6.245422E-1	2.787170E-1	-2.904205E-1	2.758179E-1	-2.915497E-1	-6.106873E-1	-5.806274E-1
1.491700E+10	-6.234741E-1	-6.162415E-1	2.709045E-1	-2.954254E-1	2.694702E-1	-2.944183E-1	-6.255798E-1	-5.709839E-1
1.514150E+10	-6.322632E-1	-6.063232E-1	2.632141E-1	-2.981873E-1	2.622223E-1	-2.986145E-1	-6.376343E-1	-5.542908E-1
1.536600E+10	-6.421509E-1	-5.979309E-1	2.561798E-1	-3.019562E-1	2.550507E-1	-3.008118E-1	-6.455078E-1	-5.411987E-1
1.559050E+10	-6.517334E-1	-5.912170E-1	2.504120E-1	-3.056183E-1	2.487793E-1	-3.041992E-1	-6.573486E-1	-5.323486E-1
1.581500E+10	-6.597290E-1	-5.819092E-1	2.437134E-1	-3.073425E-1	2.423401E-1	-3.085937E-1	-6.682739E-1	-5.170898E-1
1.603950E+10	-6.690674E-1	-5.740967E-1	2.367401E-1	-3.105316E-1	2.354126E-1	-3.110352E-1	-6.756592E-1	-5.064392E-1
1.626400E+10	-6.761475E-1	-5.652771E-1	2.298126E-1	-3.118744E-1	2.290955E-1	-3.131561E-1	-6.866760E-1	-4.934998E-1
1.648850E+10	-6.853943E-1	-5.563965E-1	2.234192E-1	-3.145447E-1	2.224121E-1	-3.144531E-1	-6.967163E-1	-4.783630E-1
1.671300E+10	-6.927185E-1	-5.473328E-1	2.162933E-1	-3.170929E-1	2.158508E-1	-3.174133E-1	-7.042236E-1	-4.674683E-1
1.693750E+10	-7.004089E-1	-5.407410E-1	2.114868E-1	-3.184204E-1	2.101593E-1	-3.190765E-1	-7.143250E-1	-4.549866E-1
1.716200E+10	-7.073364E-1	-5.314941E-1	2.044525E-1	-3.209991E-1	2.033081E-1	-3.205414E-1	-7.205811E-1	-4.411926E-1
1.738650E+10	-7.147827E-1	-5.231018E-1	1.983337E-1	-3.222504E-1	1.961060E-1	-3.213806E-1	-7.266541E-1	-4.276428E-1
1.761100E+10	-7.228088E-1	-5.155640E-1	1.929932E-1	-3.229980E-1	1.903229E-1	-3.231354E-1	-7.355957E-1	-4.188843E-1
1.783550E+10	-7.300415E-1	-5.062866E-1	1.858521E-1	-3.253174E-1	1.845703E-1	-3.244171E-1	-7.449341E-1	-4.033813E-1
1.806000E+10	-7.357178E-1	-4.991150E-1	1.809692E-1	-3.277283E-1	1.796875E-1	-3.260956E-1	-7.497864E-1	-3.898621E-1
1.828450E+10	-7.427063E-1	-4.883728E-1	1.746216E-1	-3.278046E-1	1.736450E-1	-3.285675E-1	-7.560425E-1	-3.815002E-1
1.850900E+10	-7.484131E-1	-4.830322E-1	1.693726E-1	-3.280334E-1	1.669769E-1	-3.282166E-1	-7.644653E-1	-3.661194E-1
1.873350E+10	-7.556152E-1	-4.736328E-1	1.631165E-1	-3.304443E-1	1.619873E-1	-3.303528E-1	-7.685852E-1	-3.520508E-1
1.895800E+10	-7.616882E-1	-4.653320E-1	1.568909E-1	-3.317719E-1	1.555176E-1	-3.303986E-1	-7.733765E-1	-3.432922E-1
1.918250E+10	-7.664185E-1	-4.583130E-1	1.493683E-1	-3.316193E-1	1.500549E-1	-3.316040E-1	-7.810669E-1	-3.294983E-1
1.940700E+10	-7.727356E-1	-4.493713E-1	1.430969E-1	-3.316956E-1	1.429138E-1	-3.304901E-1	-7.843018E-1	-3.110352E-1
1.963150E+10	-7.807617E-1	-4.411011E-1	1.378174E-1	-3.299255E-1	1.374054E-1	-3.301392E-1	-7.874146E-1	-3.027649E-1
1.985600E+10	-7.832642E-1	-4.318542E-1	1.339417E-1	-3.318176E-1	1.324615E-1	-3.309326E-1	-7.949524E-1	-2.907715E-1
2.008050E+10	-7.879333E-1	-4.239807E-1	1.283264E-1	-3.337555E-1	1.279449E-1	-3.314667E-1	-7.987671E-1	-2.731323E-1
2.030500E+10	-7.937317E-1	-4.164734E-1	1.217957E-1	-3.314056E-1	1.210632E-1	-3.315887E-1	-7.991638E-1	-2.652283E-1
2.052950E+10	-7.994690E-1	-4.104614E-1	1.163330E-1	-3.311615E-1	1.159668E-1	-3.310089E-1	-8.080750E-1	-2.502441E-1
2.075400E+10	-8.053284E-1	-4.016418E-1	1.123657E-1	-3.320007E-1	1.116943E-1	-3.322601E-1	-8.103027E-1	-2.366943E-1
2.097850E+10	-8.074341E-1	-3.930054E-1	1.076050E-1	-3.330994E-1	1.057434E-1	-3.316803E-1	-8.099060E-1	-2.247009E-1
2.120300E+10	-8.124084E-1	-3.849182E-1	1.009521E-1	-3.308868E-1	1.000824E-1	-3.305664E-1	-8.166809E-1	-2.173462E-1
2.142750E+10	-8.192444E-1	-3.780823E-1	9.597778E-2	-3.319855E-1	9.483337E-2	-3.306274E-1	-8.215332E-1	-2.008362E-1
2.165200E+10	-8.247681E-1	-3.694153E-1	8.981323E-2	-3.302307E-1	8.876038E-2	-3.292084E-1	-8.229065E-1	-1.909790E-1
2.187650E+10	-8.282776E-1	-3.617249E-1	8.641052E-2	-3.301086E-1	8.708191E-2	-3.289795E-1	-8.253784E-1	-1.781616E-1
2.210100E+10	-8.323975E-1	-3.519287E-1	8.140564E-2	-3.302612E-1	8.065796E-2	-3.298187E-1	-8.312073E-1	-1.607056E-1
2.232550E+10	-8.348999E-1	-3.417053E-1	7.698059E-2	-3.299713E-1	7.398987E-2	-3.294373E-1	-8.305359E-1	-1.477966E-1
2.255000E+10	-8.411560E-1	-3.370361E-1	7.334900E-2	-3.294678E-1	7.104492E-2	-3.286743E-1	-8.336792E-1	-1.383057E-1
2.277450E+10	-8.429260E-1	-3.265686E-1	6.912231E-2	-3.286285E-1	6.579590E-2	-3.278656E-1	-8.373413E-1	-1.211853E-1
2.299900E+10	-8.470764E-1	-3.196716E-1	6.272888E-2	-3.285828E-1	6.221008E-2	-3.284302E-1	-8.350830E-1	-1.112976E-1
2.322350E+10	-8.496399E-1	-3.128357E-1	5.790710E-2	-3.271484E-1	5.758667E-2	-3.285370E-1	-8.402710E-1	-1.005249E-1
2.344800E+10	-8.536377E-1	-3.055725E-1	5.198669E-2	-3.270569E-1	5.264282E-2	-3.274841E-1	-8.423462E-1	-8.648682E-2
2.367250E+10	-8.576050E-1	-2.951660E-1	4.743958E-2	-3.267212E-1	4.710388E-2	-3.269196E-1	-8.375549E-1	-7.464600E-2
2.389700E+10	-8.564758E-1	-2.876892E-1	4.400635E-2	-3.254242E-1	4.238892E-2	-3.245239E-1	-8.423767E-1	-6.008911E-2
2.412150E+10	-8.612366E-1	-2.807312E-1	3.886414E-2	-3.244934E-1	3.657532E-2	-3.249359E-1	-8.408508E-1	-4.461670E-2
2.434600E+10	-8.624878E-1	-2.737122E-1	3.364563E-2	-3.209229E-1	3.440857E-2	-3.208466E-1	-8.394165E-1	-3.390503E-2
2.457050E+10	-8.654785E-1	-2.709961E-1	2.847290E-2	-3.210907E-1	2.920532E-2	-3.206787E-1	-8.393860E-1	-2.310181E-2
2.479500E+10	-8.702698E-1	-2.613525E-1	2.409363E-2	-3.197784E-1	2.409363E-2	-3.202972E-1	-8.385315E-1	-8.361816E-3
2.501950E+10	-8.704529E-1	-2.566223E-1	2.182007E-2	-3.202515E-1	2.113342E-2	-3.203278E-1	-8.337097E-1	3.448486E-3
2.524400E+10	-8.764954E-1	-2.486877E-1	1.565552E-2	-3.179321E-1	1.513672E-2	-3.170929E-1	-8.338928E-1	1.385498E-2
2.546850E+10	-8.796082E-1	-2.395630E-1	1.249695E-2	-3.163910E-1	1.100159E-2	-3.164978E-1	-8.319397E-1	2.777100E-2
2.569300E+10	-8.804626E-1	-2.327881E-1	1.028442E-2	-3.125153E-1	9.475708E-3	-3.153381E-1	-8.322754E-1	3.408813E-2
2.591750E+10	-8.851318E-1	-2.255859E-1	3.875732E-3	-3.144836E-1	4.852295E-3	-3.127289E-1	-8.320312E-1	4.727173E-2
2.614200E+10	-8.850708E-1	-2.190552E-1	1.571655E-3	-3.093109E-1	-2.899170E-4	-3.114166E-1	-8.333435E-1	6.149292E-2
2.636650E+10	-8.888855E-1	-2.102051E-1	-1.403809E-3	-3.098755E-1	-9.765625E-4	-3.104858E-1	-8.314209E-1	7.507324E-2
2.659100E+10	-8.912048E-1	-2.024231E-1	-6.484985E-3	-3.108826E-1	-5.462646E-3	-3.093109E-1	-8.265076E-1	8.694458E-2
2.681550E+10	-8.928528E-1	-1.982422E-1	-9.338379E-3	-3.078461E-1	-9.948730E-3	-3.090668E-1	-8.263855E-1	9.548950E-2
2.704000E+10	-8.967590E-1	-1.881409E-1	-1.269531E-2	-3.039398E-1	-1.509094E-2	-3.066406E-1	-8.253174E-1	1.156616E-1
2.726450E+10	-8.965454E-1	-1.810913E-1	-1.702881E-2	-3.046722E-1	-1.664734E-2	-3.044281E-1	-8.164978E-1	1.223450E-1
2.748900E+10	-8.971252E-1	-1.745605E-1	-2.265930E-2	-3.018646E-1	-2.456665E-2	-3.052368E-1	-8.128662E-1	1.315308E-1
2.771350E+10	-9.012756E-1	-1.686096E-1	-2.508545E-2	-3.036499E-1	-2.725220E-2	-3.031769E-1	-8.147583E-1	1.456604E-1
2.793800E+10	-9.034729E-1	-1.588745E-1	-2.813721E-2	-3.018341E-1	-2.801514E-2	-3.008423E-1	-8.107300E-1	1.523132E-1
2.816250E+10	-9.039307E-1	-1.525879E-1	-3.077698E-2	-2.991791E-1	-3.532410E-2	-3.005371E-1	-8.083801E-1	1.654663E-1
2.838700E+10	-9.037170E-1	-1.440430E-1	-3.695679E-2	-2.972412E-1	-3.868103E-2	-2.985077E-1	-8.041077E-1	1.798706E-1
2.861150E+10	-9.099426E-1	-1.392822E-1	-4.006958E-2	-2.985382E-1	-4.281616E-2	-2.945862E-1	-7.933044E-1	1.917725E-1
2.883600E+10	-9.105530E-1	-1.328430E-1	-4.435730E-2	-2.948761E-1	-4.248047E-2	-2.943573E-1	-7.938232E-1	1.986084E-1
2.906050E+10	-9.097900E-1	-1.242676E-1	-4.621887E-2	-2.910004E-1	-4.885864E-2	-2.918091E-1	-7.897949E-1	2.096863E-1
2.928500E+10	-9.148560E-1	-1.178589E-1	-5.102539E-2	-2.915192E-1	-5.007935E-2	-2.895660E-1	-7.853699E-1	2.197876E-1
2.950950E+10	-9.121094E-1	-1.066284E-1	-5.345154E-2	-2.865601E-1	-5.520630E-2	-2.897186E-1	-7.865906E-1	2.274170E-1
2.973400E+10	-9.161072E-1	-1.037292E-1	-5.432129E-2	-2.880707E-1	-5.889893E-2	-2.869720E-1	-7.800293E-1	2.407532E-1
2.995850E+10	-9.133606E-1	-9.460449E-2	-5.706787E-2	-2.865906E-1	-5.720520E-2	-2.810516E-1	-7.714539E-1	2.535706E-1
3.018300E+10	-9.148254E-1	-9.030151E-2	-6.028748E-2	-2.856293E-1	-6.240845E-2	-2.818604E-1	-7.712097E-1	2.690125E-1
3.040750E+10	-9.161682E-1	-8.435059E-2	-6.668091E-2	-2.808990E-1	-6.556702E-2	-2.828827E-1	-7.630920E-1	2.789307E-1
3.063200E+10	-9.161682E-1	-7.614136E-2	-6.352234E-2	-2.804413E-1	-6.523132E-2	-2.815857E-1	-7.614441E-1	2.871094E-1
3.085650E+10	-9.150085E-1	-6.939697E-2	-7.371521E-2	-2.763519E-1	-7.125854E-2	-2.808380E-1	-7.545166E-1	2.991028E-1
3.108100E+10	-9.216309E-1	-5.996704E-2	-7.325745E-2	-2.793884E-1	-7.409668E-2	-2.782745E-1	-7.475891E-1	3.117065E-1
3.130550E+10	-9.171753E-1	-5.603027E-2	-7.411194E-2	-2.765503E-1	-8.078003E-2	-2.732239E-1	-7.402954E-1	3.214417E-1
3.153000E+10	-9.214783E-1	-4.919434E-2	-7.876587E-2	-2.751007E-1	-8.343506E-2	-2.734375E-1	-7.362976E-1	3.243103E-1
3.175450E+10	-9.214783E-1	-3.860474E-2	-8.328247E-2	-2.722931E-1	-8.317566E-2	-2.753143E-1	-7.281799E-1	3.460999E-1
3.197900E+10	-9.190979E-1	-3.439331E-2	-9.167480E-2	-2.723083E-1	-9.138489E-2	-2.704620E-1	-7.193604E-1	3.538818E-1
3.220350E+10	-9.219360E-1	-2.987671E-2	-8.755493E-2	-2.692261E-1	-9.152222E-2	-2.704926E-1	-7.070618E-1	3.628540E-1
3.242800E+10	-9.245605E-1	-2.380371E-2	-9.347534E-2	-2.638855E-1	-9.283447E-2	-2.630463E-1	-7.047424E-1	3.746033E-1
3.265250E+10	-9.278259E-1	-1.266479E-2	-9.683228E-2	-2.676697E-1	-1.004791E-1	-2.631378E-1	-6.942749E-1	3.821106E-1
3.287700E+10	-9.271240E-1	-6.530762E-3	-9.643555E-2	-2.589874E-1	-9.960937E-2	-2.619629E-1	-6.928711E-1	3.858643E-1
3.310150E+10	-9.242859E-1	-3.173828E-3	-1.034851E-1	-2.549133E-1	-1.009521E-1	-2.597961E-1	-6.805725E-1	3.949890E-1
3.332600E+10	-9.254456E-1	5.828857E-3	-1.009216E-1	-2.582855E-1	-1.000671E-1	-2.536011E-1	-6.716919E-1	4.018250E-1
3.355050E+10	-9.263000E-1	1.245117E-2	-1.052704E-1	-2.507477E-1	-1.036530E-1	-2.580414E-1	-6.690369E-1	4.124451E-1
3.377500E+10	-9.243774E-1	2.117920E-2	-1.048050E-1	-2.497635E-1	-1.062469E-1	-2.477341E-1	-6.505737E-1	4.170837E-1
3.399950E+10	-9.237061E-1	3.012085E-2	-1.073456E-1	-2.533417E-1	-1.082916E-1	-2.549133E-1	-6.520386E-1	4.234619E-1
3.422400E+10	-9.243469E-1	3.240967E-2	-1.121368E-1	-2.508545E-1	-1.117859E-1	-2.488327E-1	-6.461792E-1	4.467163E-1
3.444850E+10	-9.263000E-1	4.287720E-2	-1.141891E-1	-2.490997E-1	-1.161194E-1	-2.500916E-1	-6.332397E-1	4.498596E-1
3.467300E+10	-9.244080E-1	4.711914E-2	-1.163712E-1	-2.493057E-1	-1.182175E-1	-2.458115E-1	-6.300659E-1	4.572144E-1
3.489750E+10	-9.248047E-1	5.358887E-2	-1.201706E-1	-2.436295E-1	-1.197205E-1	-2.423248E-1	-6.195068E-1	4.713745E-1
3.512200E+10	-9.256287E-1	5.889893E-2	-1.247406E-1	-2.460022E-1	-1.223526E-1	-2.422028E-1	-6.060486E-1	4.705200E-1
3.534650E+10	-9.249573E-1	6.472778E-2	-1.247101E-1	-2.430496E-1	-1.250839E-1	-2.406693E-1	-6.016235E-1	4.823608E-1
3.557100E+10	-9.259033E-1	6.909180E-2	-1.275482E-1	-2.417603E-1	-1.313858E-1	-2.385025E-1	-5.859985E-1	4.950562E-1
3.579550E+10	-9.243164E-1	7.516479E-2	-1.296539E-1	-2.383804E-1	-1.315689E-1	-2.357941E-1	-5.760193E-1	5.002441E-1
3.602000E+10	-9.241333E-1	8.325195E-2	-1.374893E-1	-2.362137E-1	-1.335602E-1	-2.369843E-1	-5.655518E-1	5.039062E-1
3.624450E+10	-9.263916E-1	9.338379E-2	-1.373749E-1	-2.329636E-1	-1.374435E-1	-2.353592E-1	-5.595398E-1	5.129089E-1
3.646900E+10	-9.243164E-1	9.768677E-2	-1.390839E-1	-2.326813E-1	-1.365585E-1	-2.309799E-1	-5.469971E-1	5.192566E-1
3.669350E+10	-9.175720E-1	1.039429E-1	-1.381836E-1	-2.293930E-1	-1.395950E-1	-2.293015E-1	-5.325012E-1	5.319214E-1
3.691800E+10	-9.161072E-1	1.124268E-1	-1.448975E-1	-2.262726E-1	-1.456451E-1	-2.300186E-1	-5.244141E-1	5.358276E-1
3.714250E+10	-9.184570E-1	1.128235E-1	-1.468811E-1	-2.263870E-1	-1.486435E-1	-2.206421E-1	-5.107422E-1	5.428467E-1
3.736700E+10	-9.193726E-1	1.231995E-1	-1.479492E-1	-2.214203E-1	-1.487808E-1	-2.213211E-1	-4.993896E-1	5.516663E-1
3.759150E+10	-9.122009E-1	1.331177E-1	-1.530533E-1	-2.230148E-1	-1.543274E-1	-2.215576E-1	-4.904785E-1	5.585937E-1
3.781600E+10	-9.157104E-1	1.350708E-1	-1.519775E-1	-2.176132E-1	-1.546326E-1	-2.161865E-1	-4.816895E-1	5.579834E-1
3.804050E+10	-9.221191E-1	1.403198E-1	-1.508560E-1	-2.132263E-1	-1.564407E-1	-2.116089E-1	-4.675293E-1	5.714111E-1
3.826500E+10	-9.146729E-1	1.484680E-1	-1.591187E-1	-2.136536E-1	-1.552811E-1	-2.142258E-1	-4.526367E-1	5.762329E-1
3.848950E+10	-9.112244E-1	1.558533E-1	-1.563263E-1	-2.115555E-1	-1.667709E-1	-2.131271E-1	-4.404907E-1	5.810242E-1
3.871400E+10	-9.112549E-1	1.539001E-1	-1.596603E-1	-2.099686E-1	-1.648788E-1	-2.040634E-1	-4.223328E-1	5.885315E-1
3.893850E+10	-9.083862E-1	1.667480E-1	-1.640091E-1	-2.037964E-1	-1.664963E-1	-2.093430E-1	-4.100647E-1	5.862122E-1
