!Date: 10/28/2005, 12:34 PM

!Vgs = -2.000000E+0
!Vds = 5.000000E+0
!Ig = -1.442400E-5
!Id = 5.734700E-1

# HZ S RI R 50
1.000000E+8	9.518127E-1	-2.294312E-1	-1.242822E+1	7.631836E-1	3.417015E-3	9.673119E-3	2.276840E-1	-8.207703E-2
3.245000E+8	7.206421E-1	-6.176758E-1	-1.064893E+1	4.367187E+0	1.185608E-2	2.806282E-2	1.315308E-2	-2.247543E-1
5.490000E+8	4.086914E-1	-8.388672E-1	-8.376953E+0	5.976074E+0	2.731705E-2	3.615570E-2	-6.423950E-2	-2.693176E-1
7.735000E+8	1.242371E-1	-9.108887E-1	-6.328125E+0	6.454590E+0	4.042435E-2	3.767967E-2	-1.678925E-1	-3.022003E-1
9.980000E+8	-1.012878E-1	-9.007263E-1	-4.716064E+0	6.350830E+0	5.037117E-2	3.626060E-2	-2.412872E-1	-2.821198E-1
1.222500E+9	-2.758789E-1	-8.567200E-1	-3.508789E+0	6.032959E+0	5.735970E-2	3.307915E-2	-2.881317E-1	-2.706757E-1
1.447000E+9	-4.057312E-1	-8.004150E-1	-2.609375E+0	5.623047E+0	6.314468E-2	2.941895E-2	-3.314056E-1	-2.496490E-1
1.671500E+9	-5.031433E-1	-7.410278E-1	-1.945312E+0	5.206787E+0	6.711197E-2	2.588272E-2	-3.592529E-1	-2.320862E-1
1.896000E+9	-5.783691E-1	-6.825867E-1	-1.455078E+0	4.809570E+0	7.023621E-2	2.220917E-2	-3.830719E-1	-2.120514E-1
2.120500E+9	-6.339111E-1	-6.289368E-1	-1.079102E+0	4.456299E+0	7.317352E-2	1.924515E-2	-3.997345E-1	-1.963959E-1
2.345000E+9	-6.785278E-1	-5.777893E-1	-7.783203E-1	4.128174E+0	7.475662E-2	1.576233E-2	-4.152069E-1	-1.789551E-1
2.569500E+9	-7.101746E-1	-5.333862E-1	-5.454102E-1	3.831787E+0	7.606888E-2	1.284409E-2	-4.235229E-1	-1.652985E-1
2.794000E+9	-7.384949E-1	-4.958801E-1	-3.654785E-1	3.576538E+0	7.722855E-2	1.039505E-2	-4.322815E-1	-1.534882E-1
3.018500E+9	-7.593384E-1	-4.595947E-1	-2.143555E-1	3.336304E+0	7.755661E-2	7.835388E-3	-4.387512E-1	-1.410980E-1
3.243000E+9	-7.778320E-1	-4.270020E-1	-9.094238E-2	3.130493E+0	7.826233E-2	5.607605E-3	-4.435883E-1	-1.324005E-1
3.467500E+9	-7.940674E-1	-3.984070E-1	1.159668E-2	2.945557E+0	7.859802E-2	3.204346E-3	-4.494476E-1	-1.224365E-1
3.692000E+9	-8.061523E-1	-3.721924E-1	1.008301E-1	2.773315E+0	7.860184E-2	1.525879E-3	-4.517517E-1	-1.155243E-1
3.916500E+9	-8.176880E-1	-3.464966E-1	1.710205E-1	2.614624E+0	7.899475E-2	-8.964539E-4	-4.584198E-1	-1.090088E-1
4.141000E+9	-8.268738E-1	-3.233948E-1	2.319336E-1	2.473999E+0	7.911301E-2	-2.269745E-3	-4.607697E-1	-9.999084E-2
4.365500E+9	-8.330994E-1	-3.029480E-1	2.857666E-1	2.343750E+0	7.894516E-2	-4.711151E-3	-4.633331E-1	-9.498596E-2
4.590000E+9	-8.400879E-1	-2.843933E-1	3.295898E-1	2.221191E+0	7.863235E-2	-5.912781E-3	-4.665527E-1	-8.805847E-2
4.814500E+9	-8.460083E-1	-2.663879E-1	3.665771E-1	2.111328E+0	7.942581E-2	-7.358551E-3	-4.683075E-1	-8.251953E-2
5.039000E+9	-8.510437E-1	-2.488708E-1	3.988037E-1	2.009644E+0	7.850266E-2	-9.536743E-3	-4.707794E-1	-7.781982E-2
5.263500E+9	-8.549194E-1	-2.322388E-1	4.273071E-1	1.916077E+0	7.872391E-2	-1.107025E-2	-4.730225E-1	-7.206726E-2
5.488000E+9	-8.577271E-1	-2.187500E-1	4.526367E-1	1.829834E+0	7.845688E-2	-1.267624E-2	-4.749603E-1	-6.697083E-2
5.712500E+9	-8.624878E-1	-2.052307E-1	4.751587E-1	1.745300E+0	7.836914E-2	-1.356506E-2	-4.761200E-1	-6.298828E-2
5.937000E+9	-8.650513E-1	-1.904907E-1	4.931030E-1	1.668152E+0	7.834244E-2	-1.546860E-2	-4.785614E-1	-5.886841E-2
6.161500E+9	-8.672791E-1	-1.797485E-1	5.105591E-1	1.599365E+0	7.766724E-2	-1.678467E-2	-4.803314E-1	-5.213928E-2
6.386000E+9	-8.700256E-1	-1.665649E-1	5.247192E-1	1.530579E+0	7.737350E-2	-1.815796E-2	-4.794617E-1	-4.916382E-2
6.610500E+9	-8.711548E-1	-1.563416E-1	5.393677E-1	1.467041E+0	7.676697E-2	-1.941681E-2	-4.828491E-1	-4.730225E-2
6.835000E+9	-8.741455E-1	-1.456299E-1	5.506592E-1	1.404175E+0	7.657623E-2	-2.092361E-2	-4.833374E-1	-3.935242E-2
7.059500E+9	-8.748169E-1	-1.353455E-1	5.570679E-1	1.348450E+0	7.611847E-2	-2.189255E-2	-4.809723E-1	-3.956604E-2
7.284000E+9	-8.762207E-1	-1.253967E-1	5.644531E-1	1.296082E+0	7.516098E-2	-2.337265E-2	-4.857941E-1	-3.564453E-2
7.508500E+9	-8.786011E-1	-1.153870E-1	5.714722E-1	1.244141E+0	7.520294E-2	-2.487183E-2	-4.821625E-1	-3.135681E-2
7.733000E+9	-8.776550E-1	-1.063232E-1	5.761719E-1	1.196716E+0	7.464981E-2	-2.519989E-2	-4.863434E-1	-3.134155E-2
7.957500E+9	-8.795471E-1	-9.710693E-2	5.844116E-1	1.151001E+0	7.362747E-2	-2.684784E-2	-4.876251E-1	-2.639771E-2
8.182000E+9	-8.800354E-1	-8.840942E-2	5.893555E-1	1.109680E+0	7.361221E-2	-2.847290E-2	-4.903259E-1	-2.468872E-2
8.406500E+9	-8.797302E-1	-8.203125E-2	5.912476E-1	1.065552E+0	7.278061E-2	-2.944183E-2	-4.900665E-1	-1.860046E-2
8.631000E+9	-8.805237E-1	-7.290649E-2	5.963745E-1	1.025024E+0	7.226181E-2	-3.032303E-2	-4.910736E-1	-1.783752E-2
8.855500E+9	-8.812561E-1	-6.594849E-2	5.982361E-1	9.856873E-1	7.116318E-2	-3.168869E-2	-4.922791E-1	-1.295471E-2
9.080001E+9	-8.817444E-1	-5.868530E-2	5.989075E-1	9.504089E-1	7.060242E-2	-3.296661E-2	-4.915924E-1	-9.414673E-3
9.304500E+9	-8.808899E-1	-4.937744E-2	6.003418E-1	9.147339E-1	7.059097E-2	-3.437042E-2	-4.925385E-1	-7.781982E-3
9.529000E+9	-8.811035E-1	-4.364014E-2	6.009827E-1	8.807068E-1	6.951904E-2	-3.467178E-2	-4.952087E-1	-3.723145E-3
9.753500E+9	-8.824768E-1	-3.674316E-2	6.003113E-1	8.483582E-1	6.864548E-2	-3.573608E-2	-4.942169E-1	5.035400E-4
9.978000E+9	-8.812866E-1	-3.085327E-2	6.001282E-1	8.185730E-1	6.782532E-2	-3.657913E-2	-4.948120E-1	1.159668E-3
1.020250E+10	-8.821106E-1	-2.426147E-2	5.999146E-1	7.881165E-1	6.714630E-2	-3.827667E-2	-4.958038E-1	4.806519E-3
1.042700E+10	-8.833008E-1	-1.727295E-2	5.993958E-1	7.601318E-1	6.604385E-2	-3.849792E-2	-4.953308E-1	7.217407E-3
1.065150E+10	-8.815002E-1	-1.074219E-2	5.984192E-1	7.325745E-1	6.565857E-2	-3.977203E-2	-4.957733E-1	9.277344E-3
1.087600E+10	-8.815918E-1	-4.394531E-3	5.968628E-1	7.063599E-1	6.458664E-2	-4.060364E-2	-4.973755E-1	1.289368E-2
1.110050E+10	-8.811951E-1	1.586914E-3	5.962219E-1	6.802063E-1	6.364441E-2	-4.071426E-2	-4.959106E-1	1.652527E-2
1.132500E+10	-8.806458E-1	6.530762E-3	5.933838E-1	6.555786E-1	6.256866E-2	-4.132843E-2	-4.963989E-1	1.637268E-2
1.154950E+10	-8.813171E-1	1.293945E-2	5.918274E-1	6.311646E-1	6.258774E-2	-4.350662E-2	-4.998016E-1	2.001953E-2
1.177400E+10	-8.797913E-1	1.876831E-2	5.881653E-1	6.087036E-1	6.163979E-2	-4.319382E-2	-4.996643E-1	2.497864E-2
1.199850E+10	-8.793640E-1	2.459717E-2	5.879822E-1	5.874634E-1	5.967331E-2	-4.405022E-2	-4.996490E-1	2.607727E-2
1.222300E+10	-8.794250E-1	3.036499E-2	5.838013E-1	5.659790E-1	5.963707E-2	-4.471970E-2	-5.002747E-1	2.737427E-2
1.244750E+10	-8.781433E-1	3.463745E-2	5.804749E-1	5.441895E-1	5.866432E-2	-4.577446E-2	-5.005188E-1	3.222656E-2
1.267200E+10	-8.789673E-1	4.006958E-2	5.777283E-1	5.242004E-1	5.706406E-2	-4.584694E-2	-5.002136E-1	3.228760E-2
1.289650E+10	-8.770752E-1	4.425049E-2	5.733948E-1	5.050964E-1	5.689430E-2	-4.700851E-2	-5.037537E-1	3.427124E-2
1.312100E+10	-8.778687E-1	4.946899E-2	5.695801E-1	4.854736E-1	5.583954E-2	-4.809380E-2	-5.042725E-1	3.948975E-2
1.334550E+10	-8.776245E-1	5.438232E-2	5.663452E-1	4.694824E-1	5.526161E-2	-4.878616E-2	-5.026550E-1	4.052734E-2
1.357000E+10	-8.751221E-1	5.786133E-2	5.637512E-1	4.505310E-1	5.332947E-2	-4.887199E-2	-5.049438E-1	4.135132E-2
1.379450E+10	-8.754272E-1	6.408691E-2	5.591431E-1	4.346008E-1	5.240822E-2	-4.985428E-2	-5.061035E-1	4.647827E-2
1.401900E+10	-8.751221E-1	6.872559E-2	5.559082E-1	4.194641E-1	5.183983E-2	-4.954338E-2	-5.045166E-1	4.788208E-2
1.424350E+10	-8.732605E-1	7.247925E-2	5.502625E-1	4.024658E-1	5.123711E-2	-5.052376E-2	-5.058594E-1	5.087280E-2
1.446800E+10	-8.731384E-1	7.888794E-2	5.474854E-1	3.885803E-1	4.961014E-2	-5.140305E-2	-5.065918E-1	5.694580E-2
1.469250E+10	-8.722229E-1	8.398437E-2	5.440063E-1	3.736267E-1	4.857063E-2	-5.123520E-2	-5.036621E-1	5.731201E-2
1.491700E+10	-8.707886E-1	8.773804E-2	5.389404E-1	3.583679E-1	4.700470E-2	-5.155754E-2	-5.073242E-1	5.770874E-2
1.514150E+10	-8.709412E-1	9.213257E-2	5.348206E-1	3.435974E-1	4.680443E-2	-5.208969E-2	-5.081177E-1	6.344604E-2
1.536600E+10	-8.692017E-1	9.765625E-2	5.300598E-1	3.301697E-1	4.628754E-2	-5.377960E-2	-5.046082E-1	6.665039E-2
1.559050E+10	-8.688354E-1	1.021729E-1	5.264282E-1	3.171997E-1	4.516602E-2	-5.360794E-2	-5.084229E-1	6.527710E-2
1.581500E+10	-8.668518E-1	1.051941E-1	5.216675E-1	3.046265E-1	4.300690E-2	-5.374908E-2	-5.093689E-1	6.976318E-2
1.603950E+10	-8.666687E-1	1.097717E-1	5.182495E-1	2.917175E-1	4.331398E-2	-5.304146E-2	-5.080261E-1	7.366943E-2
1.626400E+10	-8.653564E-1	1.142578E-1	5.130310E-1	2.814636E-1	4.200745E-2	-5.500031E-2	-5.090637E-1	7.345581E-2
1.648850E+10	-8.640137E-1	1.179810E-1	5.078125E-1	2.678223E-1	4.114151E-2	-5.524254E-2	-5.111389E-1	7.800293E-2
1.671300E+10	-8.629761E-1	1.225586E-1	5.033569E-1	2.564392E-1	3.975677E-2	-5.531883E-2	-5.095215E-1	7.998657E-2
1.693750E+10	-8.628845E-1	1.269226E-1	4.994507E-1	2.466125E-1	3.822899E-2	-5.497551E-2	-5.115967E-1	8.218384E-2
1.716200E+10	-8.616943E-1	1.303406E-1	4.936218E-1	2.362671E-1	3.820229E-2	-5.477524E-2	-5.110474E-1	8.767700E-2
1.738650E+10	-8.603210E-1	1.351318E-1	4.894409E-1	2.277222E-1	3.588676E-2	-5.537415E-2	-5.105896E-1	8.972168E-2
1.761100E+10	-8.576660E-1	1.391296E-1	4.850922E-1	2.175598E-1	3.629112E-2	-5.630684E-2	-5.132446E-1	8.978271E-2
1.783550E+10	-8.571167E-1	1.427917E-1	4.783783E-1	2.056580E-1	3.372383E-2	-5.662346E-2	-5.141602E-1	9.585571E-2
1.806000E+10	-8.578491E-1	1.472473E-1	4.765625E-1	1.981964E-1	3.247643E-2	-5.756378E-2	-5.123291E-1	1.000061E-1
1.828450E+10	-8.551025E-1	1.517639E-1	4.720306E-1	1.881104E-1	3.200912E-2	-5.676270E-2	-5.120850E-1	9.875488E-2
1.850900E+10	-8.548279E-1	1.535339E-1	4.667969E-1	1.799316E-1	3.131485E-2	-5.494308E-2	-5.140381E-1	1.037292E-1
1.873350E+10	-8.528748E-1	1.585693E-1	4.626770E-1	1.715546E-1	3.046799E-2	-5.719566E-2	-5.131531E-1	1.087646E-1
1.895800E+10	-8.509521E-1	1.608276E-1	4.572754E-1	1.629791E-1	2.945709E-2	-5.741119E-2	-5.117187E-1	1.082458E-1
1.918250E+10	-8.516235E-1	1.660461E-1	4.546356E-1	1.546326E-1	2.991867E-2	-5.563354E-2	-5.148315E-1	1.103821E-1
1.940700E+10	-8.486328E-1	1.677551E-1	4.480133E-1	1.470490E-1	2.730751E-2	-5.878639E-2	-5.120850E-1	1.197510E-1
1.963150E+10	-8.482056E-1	1.732788E-1	4.438934E-1	1.395874E-1	2.547264E-2	-5.750084E-2	-5.124512E-1	1.176147E-1
1.985600E+10	-8.475647E-1	1.760254E-1	4.395905E-1	1.331329E-1	2.587318E-2	-5.788612E-2	-5.149841E-1	1.215820E-1
2.008050E+10	-8.465576E-1	1.792908E-1	4.330597E-1	1.244049E-1	2.342987E-2	-5.872536E-2	-5.138550E-1	1.278076E-1
2.030500E+10	-8.439331E-1	1.824951E-1	4.300079E-1	1.199188E-1	2.217674E-2	-5.748940E-2	-5.102844E-1	1.279602E-1
2.052950E+10	-8.425598E-1	1.871338E-1	4.264679E-1	1.121979E-1	2.181816E-2	-5.707169E-2	-5.133362E-1	1.312561E-1
2.075400E+10	-8.426208E-1	1.890564E-1	4.220734E-1	1.058655E-1	2.006531E-2	-5.750275E-2	-5.118103E-1	1.355896E-1
2.097850E+10	-8.417969E-1	1.937256E-1	4.161377E-1	1.002045E-1	1.896095E-2	-5.633545E-2	-5.090027E-1	1.392517E-1
2.120300E+10	-8.391418E-1	1.954956E-1	4.132080E-1	9.510803E-2	1.886749E-2	-5.732536E-2	-5.108948E-1	1.354065E-1
2.142750E+10	-8.363647E-1	2.013245E-1	4.084778E-1	8.811951E-2	1.786041E-2	-5.664444E-2	-5.152283E-1	1.447449E-1
2.165200E+10	-8.368225E-1	2.048950E-1	4.055939E-1	8.364868E-2	1.715088E-2	-5.740356E-2	-5.134277E-1	1.470032E-1
2.187650E+10	-8.353882E-1	2.075195E-1	4.009399E-1	8.004761E-2	1.478195E-2	-5.659676E-2	-5.151062E-1	1.497192E-1
2.210100E+10	-8.330994E-1	2.129517E-1	3.970947E-1	7.232666E-2	1.325035E-2	-5.490112E-2	-5.168457E-1	1.578369E-1
2.232550E+10	-8.309631E-1	2.126160E-1	3.927155E-1	6.872559E-2	1.192665E-2	-5.803490E-2	-5.114441E-1	1.603088E-1
2.255000E+10	-8.299561E-1	2.182312E-1	3.875122E-1	6.402588E-2	1.092911E-2	-5.552483E-2	-5.140381E-1	1.610107E-1
2.277450E+10	-8.281250E-1	2.194214E-1	3.856964E-1	5.758667E-2	1.090431E-2	-5.725861E-2	-5.110779E-1	1.659241E-1
2.299900E+10	-8.279114E-1	2.233887E-1	3.802338E-1	5.337524E-2	1.053047E-2	-5.582619E-2	-5.104675E-1	1.697388E-1
2.322350E+10	-8.262329E-1	2.275696E-1	3.784332E-1	4.801941E-2	8.375168E-3	-5.509186E-2	-5.121155E-1	1.708984E-1
2.344800E+10	-8.241577E-1	2.279053E-1	3.731384E-1	4.508972E-2	6.696701E-3	-5.776787E-2	-5.113525E-1	1.776733E-1
2.367250E+10	-8.246460E-1	2.325439E-1	3.705902E-1	4.101562E-2	5.535126E-3	-5.378532E-2	-5.062561E-1	1.784668E-1
2.389700E+10	-8.196411E-1	2.363281E-1	3.665161E-1	3.430176E-2	3.459930E-3	-5.447388E-2	-5.100098E-1	1.819458E-1
2.412150E+10	-8.203735E-1	2.388916E-1	3.614655E-1	3.161621E-2	3.448486E-3	-5.262184E-2	-5.059204E-1	1.910400E-1
2.434600E+10	-8.171997E-1	2.433167E-1	3.572845E-1	2.824402E-2	7.438660E-4	-5.564690E-2	-5.035095E-1	1.893921E-1
2.457050E+10	-8.175964E-1	2.451782E-1	3.554382E-1	2.409363E-2	7.419586E-4	-5.406189E-2	-5.055542E-1	1.918335E-1
2.479500E+10	-8.139038E-1	2.510376E-1	3.495789E-1	2.043152E-2	-1.785278E-3	-5.235291E-2	-5.039673E-1	1.992493E-1
2.501950E+10	-8.120728E-1	2.525940E-1	3.445892E-1	1.828003E-2	-1.945496E-3	-5.154610E-2	-4.982147E-1	1.984558E-1
2.524400E+10	-8.131409E-1	2.551270E-1	3.433228E-1	1.464844E-2	-1.581192E-3	-4.983139E-2	-4.991150E-1	2.007751E-1
2.546850E+10	-8.088684E-1	2.582092E-1	3.414307E-1	1.327515E-2	-2.422333E-3	-5.010986E-2	-4.984283E-1	2.073975E-1
2.569300E+10	-8.070679E-1	2.593384E-1	3.388824E-1	9.811401E-3	-5.666733E-3	-4.994392E-2	-4.971161E-1	2.055054E-1
2.591750E+10	-8.059387E-1	2.633667E-1	3.353271E-1	5.569458E-3	-6.372452E-3	-4.866791E-2	-4.986115E-1	2.092896E-1
2.614200E+10	-8.018494E-1	2.659302E-1	3.304443E-1	5.981445E-3	-6.181717E-3	-4.847908E-2	-4.997406E-1	2.162476E-1
2.636650E+10	-8.012695E-1	2.673340E-1	3.294678E-1	1.205444E-3	-7.665634E-3	-4.738617E-2	-4.983063E-1	2.194519E-1
2.659100E+10	-7.988586E-1	2.719116E-1	3.276062E-1	-1.754761E-3	-8.104324E-3	-4.717255E-2	-4.943390E-1	2.246399E-1
2.681550E+10	-7.985229E-1	2.729492E-1	3.247223E-1	-5.050659E-3	-6.853104E-3	-4.768562E-2	-4.942627E-1	2.247314E-1
2.704000E+10	-7.983093E-1	2.761841E-1	3.212280E-1	-6.759644E-3	-9.740829E-3	-4.519272E-2	-4.951782E-1	2.347412E-1
2.726450E+10	-7.935181E-1	2.789612E-1	3.208008E-1	-1.103210E-2	-9.084702E-3	-4.468155E-2	-4.877625E-1	2.342377E-1
2.748900E+10	-7.908936E-1	2.791443E-1	3.163452E-1	-1.231384E-2	-1.123619E-2	-4.248047E-2	-4.895935E-1	2.379761E-1
2.771350E+10	-7.903748E-1	2.821045E-1	3.147583E-1	-1.420593E-2	-1.228333E-2	-4.272270E-2	-4.891052E-1	2.405243E-1
2.793800E+10	-7.901001E-1	2.845459E-1	3.126221E-1	-1.765442E-2	-1.428986E-2	-4.175186E-2	-4.851685E-1	2.426300E-1
2.816250E+10	-7.874146E-1	2.880859E-1	3.093414E-1	-1.930237E-2	-1.485825E-2	-3.887558E-2	-4.867401E-1	2.440948E-1
2.838700E+10	-7.839661E-1	2.908325E-1	3.064270E-1	-1.954651E-2	-1.371384E-2	-3.914261E-2	-4.842834E-1	2.524261E-1
2.861150E+10	-7.820740E-1	2.937012E-1	3.045654E-1	-2.546692E-2	-1.730347E-2	-3.370285E-2	-4.800110E-1	2.549896E-1
2.883600E+10	-7.830505E-1	2.964478E-1	3.025513E-1	-2.748108E-2	-1.808357E-2	-3.525162E-2	-4.796600E-1	2.503510E-1
2.906050E+10	-7.825317E-1	2.991943E-1	2.985382E-1	-2.659607E-2	-1.693535E-2	-3.582764E-2	-4.783783E-1	2.615051E-1
2.928500E+10	-7.780762E-1	3.028259E-1	2.965088E-1	-2.783203E-2	-1.752663E-2	-3.386116E-2	-4.770050E-1	2.637634E-1
2.950950E+10	-7.768860E-1	3.057251E-1	2.992554E-1	-3.099060E-2	-1.784897E-2	-3.529167E-2	-4.813232E-1	2.660675E-1
2.973400E+10	-7.723694E-1	3.074341E-1	2.986298E-1	-3.422546E-2	-1.729012E-2	-3.196716E-2	-4.780579E-1	2.709961E-1
2.995850E+10	-7.721863E-1	3.074951E-1	2.962036E-1	-3.652954E-2	-1.965904E-2	-3.303146E-2	-4.788971E-1	2.778320E-1
3.018300E+10	-7.671509E-1	3.108215E-1	2.928314E-1	-3.848267E-2	-1.955414E-2	-3.067398E-2	-4.758148E-1	2.857971E-1
3.040750E+10	-7.685242E-1	3.121643E-1	2.942352E-1	-4.173279E-2	-1.981354E-2	-2.824688E-2	-4.697113E-1	2.858734E-1
3.063200E+10	-7.682495E-1	3.141785E-1	2.925110E-1	-4.011536E-2	-2.263069E-2	-2.946472E-2	-4.758759E-1	2.949066E-1
3.085650E+10	-7.646790E-1	3.175659E-1	2.908478E-1	-4.425049E-2	-2.044296E-2	-2.553177E-2	-4.666901E-1	2.960358E-1
3.108100E+10	-7.628479E-1	3.158569E-1	2.896881E-1	-4.690552E-2	-2.092552E-2	-2.418518E-2	-4.637756E-1	3.003082E-1
3.130550E+10	-7.557983E-1	3.203735E-1	2.844238E-1	-4.727173E-2	-1.745415E-2	-2.449417E-2	-4.595947E-1	3.023834E-1
3.153000E+10	-7.590637E-1	3.223877E-1	2.875366E-1	-5.026245E-2	-2.127266E-2	-2.268791E-2	-4.573212E-1	3.038940E-1
3.175450E+10	-7.584839E-1	3.198242E-1	2.832794E-1	-5.784607E-2	-2.183056E-2	-2.278137E-2	-4.594879E-1	3.141937E-1
3.197900E+10	-7.552490E-1	3.277283E-1	2.854462E-1	-5.485535E-2	-2.467251E-2	-1.984596E-2	-4.504852E-1	3.125305E-1
3.220350E+10	-7.549133E-1	3.299866E-1	2.853546E-1	-5.671692E-2	-2.312851E-2	-1.901340E-2	-4.532166E-1	3.225403E-1
3.242800E+10	-7.573547E-1	3.346558E-1	2.797852E-1	-5.963135E-2	-2.004910E-2	-1.571178E-2	-4.472504E-1	3.245850E-1
3.265250E+10	-7.550354E-1	3.318787E-1	2.792358E-1	-6.520081E-2	-1.838589E-2	-1.536751E-2	-4.411621E-1	3.283997E-1
3.287700E+10	-7.487793E-1	3.348999E-1	2.815704E-1	-6.918335E-2	-2.187157E-2	-1.550579E-2	-4.428864E-1	3.282623E-1
3.310150E+10	-7.466736E-1	3.360901E-1	2.772217E-1	-6.689453E-2	-2.332115E-2	-1.229954E-2	-4.371643E-1	3.345337E-1
3.332600E+10	-7.434998E-1	3.419189E-1	2.782745E-1	-7.304382E-2	-2.622986E-2	-1.018715E-2	-4.382782E-1	3.396301E-1
3.355050E+10	-7.441406E-1	3.399048E-1	2.785492E-1	-7.214355E-2	-1.995277E-2	-7.510185E-3	-4.336395E-1	3.431854E-1
3.377500E+10	-7.408752E-1	3.422852E-1	2.729950E-1	-7.125854E-2	-1.731396E-2	-8.889198E-3	-4.315186E-1	3.483582E-1
3.399950E+10	-7.412415E-1	3.451843E-1	2.756805E-1	-7.798767E-2	-2.022362E-2	-8.374214E-3	-4.313812E-1	3.497162E-1
3.422400E+10	-7.398071E-1	3.498840E-1	2.758942E-1	-8.251953E-2	-2.137089E-2	-4.848480E-3	-4.290924E-1	3.554077E-1
3.444850E+10	-7.393494E-1	3.456421E-1	2.709503E-1	-8.583069E-2	-1.999855E-2	-6.855965E-3	-4.196472E-1	3.591156E-1
3.467300E+10	-7.346497E-1	3.525696E-1	2.802429E-1	-9.265137E-2	-1.631451E-2	-5.530357E-3	-4.213562E-1	3.688049E-1
3.489750E+10	-7.359314E-1	3.508911E-1	2.716064E-1	-8.952332E-2	-1.820469E-2	-6.960869E-3	-4.169312E-1	3.725891E-1
3.512200E+10	-7.328491E-1	3.515320E-1	2.691193E-1	-9.979248E-2	-2.153015E-2	-6.106377E-3	-4.092407E-1	3.752289E-1
3.534650E+10	-7.274475E-1	3.521423E-1	2.721100E-1	-9.875488E-2	-1.826382E-2	-7.686615E-4	-4.093323E-1	3.794861E-1
3.557100E+10	-7.291870E-1	3.569031E-1	2.702942E-1	-1.007843E-1	-1.881695E-2	-4.787445E-4	-3.973999E-1	3.853607E-1
3.579550E+10	-7.289734E-1	3.591614E-1	2.665253E-1	-1.027527E-1	-1.817608E-2	-4.005432E-5	-3.866882E-1	3.909607E-1
3.602000E+10	-7.285156E-1	3.609924E-1	2.673492E-1	-1.117554E-1	-2.172279E-2	-1.325607E-4	-3.875427E-1	3.876495E-1
3.624450E+10	-7.226868E-1	3.592834E-1	2.626343E-1	-1.099396E-1	-1.893330E-2	7.611275E-3	-3.865967E-1	3.956451E-1
3.646900E+10	-7.218933E-1	3.644714E-1	2.655945E-1	-1.117859E-1	-1.413012E-2	4.425526E-3	-3.801422E-1	4.035034E-1
3.669350E+10	-7.207947E-1	3.639221E-1	2.631836E-1	-1.182709E-1	-1.471853E-2	1.056671E-2	-3.789825E-1	4.061584E-1
3.691800E+10	-7.185059E-1	3.671875E-1	2.625122E-1	-1.244202E-1	-1.517344E-2	6.971359E-3	-3.702850E-1	4.047699E-1
3.714250E+10	-7.213135E-1	3.671265E-1	2.604218E-1	-1.267395E-1	-1.539993E-2	9.080887E-3	-3.641052E-1	4.140015E-1
3.736700E+10	-7.146301E-1	3.693237E-1	2.590179E-1	-1.268311E-1	-1.211071E-2	6.854534E-3	-3.572235E-1	4.115295E-1
3.759150E+10	-7.116089E-1	3.677979E-1	2.630463E-1	-1.334381E-1	-9.760857E-3	1.178932E-2	-3.513489E-1	4.163513E-1
3.781600E+10	-7.127075E-1	3.721619E-1	2.543945E-1	-1.374359E-1	-1.019859E-2	1.044369E-2	-3.461304E-1	4.203033E-1
3.804050E+10	-7.109680E-1	3.709412E-1	2.534485E-1	-1.399689E-1	-1.150322E-2	1.023388E-2	-3.329468E-1	4.225464E-1
3.826500E+10	-7.134094E-1	3.744202E-1	2.565308E-1	-1.418915E-1	-1.546383E-2	1.604462E-2	-3.305359E-1	4.281158E-1
3.848950E+10	-7.044678E-1	3.764648E-1	2.537384E-1	-1.476898E-1	-9.436131E-3	1.354074E-2	-3.225098E-1	4.340210E-1
3.871400E+10	-7.114868E-1	3.754578E-1	2.529297E-1	-1.462708E-1	-1.196527E-2	1.436663E-2	-3.152618E-1	4.287109E-1
3.893850E+10	-7.095642E-1	3.838196E-1	2.425232E-1	-1.541977E-1	-2.453327E-3	1.359224E-2	-3.045807E-1	4.355621E-1
3.916300E+10	-7.054443E-1	3.846130E-1	2.444229E-1	-1.585999E-1	-5.298615E-3	2.032948E-2	-3.049774E-1	4.335632E-1
3.938750E+10	-7.071533E-1	3.843994E-1	2.473602E-1	-1.652756E-1	-3.366470E-3	1.762867E-2	-3.035278E-1	4.368591E-1
