!Date: 10/28/2005, 12:34 PM

!Vgs = 0.000000E+0
!Vds = 3.000000E+0
!Ig = -1.802200E-6
!Id = 8.166100E-1

# HZ S RI R 50
1.000000E+8	9.714355E-1	-1.722107E-1	-6.860657E-1	5.645752E-3	8.201599E-5	7.764578E-3	-7.500610E-1	-1.901245E-1
3.245000E+8	8.356934E-1	-5.019226E-1	-5.849304E-1	1.676331E-1	5.715370E-3	1.736355E-2	-8.625793E-1	-6.283569E-2
5.490000E+8	6.205444E-1	-7.391663E-1	-4.866486E-1	2.736969E-1	1.338291E-2	2.555943E-2	-8.014832E-1	1.058960E-2
7.735000E+8	3.804932E-1	-8.767090E-1	-3.946838E-1	3.311310E-1	2.232647E-2	2.960682E-2	-8.138428E-1	7.019043E-3
9.980000E+8	1.576843E-1	-9.350586E-1	-3.131104E-1	3.507996E-1	3.051758E-2	3.140831E-2	-8.160706E-1	2.566528E-2
1.222500E+9	-3.503418E-2	-9.424744E-1	-2.402802E-1	3.502808E-1	3.709221E-2	3.073883E-2	-8.033142E-1	2.484131E-2
1.447000E+9	-1.925659E-1	-9.181519E-1	-1.815796E-1	3.412018E-1	4.255104E-2	2.910614E-2	-8.067932E-1	3.347778E-2
1.671500E+9	-3.196106E-1	-8.791199E-1	-1.355743E-1	3.271027E-1	4.686356E-2	2.684402E-2	-8.051758E-1	3.756714E-2
1.896000E+9	-4.212646E-1	-8.322754E-1	-9.831238E-2	3.094482E-1	5.059624E-2	2.497101E-2	-8.066101E-1	4.473877E-2
2.120500E+9	-5.024414E-1	-7.846680E-1	-6.866455E-2	2.916718E-1	5.384064E-2	2.254677E-2	-8.080139E-1	4.946899E-2
2.345000E+9	-5.699463E-1	-7.344360E-1	-4.432678E-2	2.743835E-1	5.582619E-2	2.017403E-2	-8.099365E-1	5.886841E-2
2.569500E+9	-6.209106E-1	-6.885986E-1	-2.505493E-2	2.566833E-1	5.750656E-2	1.769066E-2	-8.051758E-1	6.500244E-2
2.794000E+9	-6.644592E-1	-6.465759E-1	-9.475708E-3	2.416687E-1	5.910873E-2	1.544571E-2	-8.070984E-1	7.131958E-2
3.018500E+9	-6.996460E-1	-6.051025E-1	2.792358E-3	2.271347E-1	6.010628E-2	1.347351E-2	-8.052368E-1	7.952881E-2
3.243000E+9	-7.301941E-1	-5.675964E-1	1.378632E-2	2.140427E-1	6.091690E-2	1.177216E-2	-8.028870E-1	8.166504E-2
3.467500E+9	-7.556152E-1	-5.336914E-1	2.314758E-2	2.014313E-1	6.210136E-2	9.660721E-3	-8.042603E-1	9.197998E-2
3.692000E+9	-7.756042E-1	-5.015259E-1	3.031921E-2	1.905975E-1	6.215096E-2	8.064270E-3	-8.001709E-1	9.759521E-2
3.916500E+9	-7.947998E-1	-4.715576E-1	3.708649E-2	1.791000E-1	6.288147E-2	6.595612E-3	-8.030090E-1	1.012268E-1
4.141000E+9	-8.103943E-1	-4.433899E-1	4.222870E-2	1.697159E-1	6.307983E-2	5.039215E-3	-7.995605E-1	1.112671E-1
4.365500E+9	-8.221130E-1	-4.173279E-1	4.705048E-2	1.610565E-1	6.332779E-2	3.322601E-3	-7.979126E-1	1.136780E-1
4.590000E+9	-8.333740E-1	-3.939209E-1	5.065155E-2	1.529694E-1	6.363297E-2	2.109528E-3	-7.987061E-1	1.230774E-1
4.814500E+9	-8.434448E-1	-3.721924E-1	5.451202E-2	1.446991E-1	6.407166E-2	1.907349E-5	-7.952576E-1	1.282959E-1
5.039000E+9	-8.526001E-1	-3.508911E-1	5.756378E-2	1.375656E-1	6.391525E-2	-1.304626E-3	-7.946777E-1	1.332397E-1
5.263500E+9	-8.598022E-1	-3.303528E-1	6.003571E-2	1.306915E-1	6.373978E-2	-2.517700E-3	-7.926636E-1	1.409302E-1
5.488000E+9	-8.656616E-1	-3.124695E-1	6.242371E-2	1.241302E-1	6.394958E-2	-3.795624E-3	-7.905273E-1	1.466064E-1
5.712500E+9	-8.722839E-1	-2.949524E-1	6.436157E-2	1.176033E-1	6.385803E-2	-4.547119E-3	-7.883606E-1	1.528015E-1
5.937000E+9	-8.771667E-1	-2.773743E-1	6.613541E-2	1.124420E-1	6.381607E-2	-5.977631E-3	-7.866211E-1	1.579590E-1
6.161500E+9	-8.815918E-1	-2.631836E-1	6.784821E-2	1.070557E-1	6.385803E-2	-7.335663E-3	-7.851868E-1	1.670532E-1
6.386000E+9	-8.861084E-1	-2.469788E-1	6.853104E-2	1.020203E-1	6.354141E-2	-8.232117E-3	-7.806396E-1	1.717834E-1
6.610500E+9	-8.891296E-1	-2.332764E-1	6.989670E-2	9.676743E-2	6.328583E-2	-9.773254E-3	-7.804260E-1	1.756287E-1
6.835000E+9	-8.934326E-1	-2.200928E-1	7.064438E-2	9.241104E-2	6.311035E-2	-1.087189E-2	-7.749939E-1	1.861877E-1
7.059500E+9	-8.954773E-1	-2.074890E-1	7.148361E-2	8.784866E-2	6.266785E-2	-1.204681E-2	-7.688904E-1	1.860352E-1
7.284000E+9	-8.977356E-1	-1.948853E-1	7.189560E-2	8.414078E-2	6.221008E-2	-1.278687E-2	-7.730408E-1	1.919556E-1
7.508500E+9	-9.008789E-1	-1.828613E-1	7.247543E-2	8.059311E-2	6.208229E-2	-1.342583E-2	-7.635803E-1	1.951599E-1
7.733000E+9	-9.016418E-1	-1.713257E-1	7.315445E-2	7.650757E-2	6.140518E-2	-1.408958E-2	-7.668457E-1	1.975098E-1
7.957500E+9	-9.036865E-1	-1.590881E-1	7.387924E-2	7.293701E-2	6.075859E-2	-1.514244E-2	-7.626648E-1	2.077332E-1
8.182000E+9	-9.057007E-1	-1.481018E-1	7.335663E-2	7.023621E-2	6.061935E-2	-1.619148E-2	-7.637634E-1	2.118835E-1
8.406500E+9	-9.059143E-1	-1.394043E-1	7.344818E-2	6.655502E-2	6.061363E-2	-1.719475E-2	-7.588501E-1	2.215881E-1
8.631000E+9	-9.081116E-1	-1.282349E-1	7.469177E-2	6.345749E-2	5.989075E-2	-1.814079E-2	-7.541504E-1	2.239075E-1
8.855500E+9	-9.086914E-1	-1.190796E-1	7.416916E-2	6.039047E-2	5.938911E-2	-1.912117E-2	-7.526245E-1	2.304382E-1
9.080001E+9	-9.103088E-1	-1.109009E-1	7.331467E-2	5.738831E-2	5.857658E-2	-1.985359E-2	-7.480774E-1	2.362366E-1
9.304500E+9	-9.099731E-1	-9.988403E-2	7.332611E-2	5.451584E-2	5.784988E-2	-2.065086E-2	-7.443237E-1	2.402344E-1
9.529000E+9	-9.108582E-1	-9.307861E-2	7.312012E-2	5.211639E-2	5.766296E-2	-2.177811E-2	-7.434082E-1	2.457886E-1
9.753500E+9	-9.122009E-1	-8.422852E-2	7.368469E-2	4.996872E-2	5.697823E-2	-2.207947E-2	-7.373047E-1	2.523193E-1
9.978000E+9	-9.114685E-1	-7.592773E-2	7.339478E-2	4.739761E-2	5.742455E-2	-2.313423E-2	-7.351990E-1	2.536926E-1
1.020250E+10	-9.128418E-1	-6.820679E-2	7.296753E-2	4.551315E-2	5.615425E-2	-2.374458E-2	-7.322998E-1	2.612915E-1
1.042700E+10	-9.134521E-1	-5.908203E-2	7.332993E-2	4.315948E-2	5.601692E-2	-2.455711E-2	-7.268677E-1	2.661743E-1
1.065150E+10	-9.127502E-1	-5.151367E-2	7.240677E-2	4.118347E-2	5.462837E-2	-2.463722E-2	-7.251892E-1	2.698364E-1
1.087600E+10	-9.141541E-1	-4.455566E-2	7.144547E-2	3.968048E-2	5.455971E-2	-2.536964E-2	-7.218933E-1	2.747803E-1
1.110050E+10	-9.141235E-1	-3.585815E-2	7.156754E-2	3.715515E-2	5.373192E-2	-2.571297E-2	-7.164917E-1	2.807922E-1
1.132500E+10	-9.140930E-1	-2.893066E-2	7.096863E-2	3.548431E-2	5.343628E-2	-2.606773E-2	-7.137451E-1	2.833557E-1
1.154950E+10	-9.141846E-1	-2.163696E-2	7.113266E-2	3.362274E-2	5.301094E-2	-2.667999E-2	-7.113953E-1	2.889404E-1
1.177400E+10	-9.135132E-1	-1.513672E-2	7.058716E-2	3.239822E-2	5.218124E-2	-2.730942E-2	-7.070007E-1	2.946472E-1
1.199850E+10	-9.132385E-1	-7.873535E-3	7.110977E-2	3.052902E-2	5.175018E-2	-2.711105E-2	-7.034607E-1	2.974854E-1
1.222300E+10	-9.125366E-1	-5.187988E-4	6.946564E-2	2.898407E-2	5.061722E-2	-2.829170E-2	-6.997070E-1	3.003235E-1
1.244750E+10	-9.116516E-1	4.119873E-3	6.887436E-2	2.710342E-2	5.047035E-2	-2.832794E-2	-6.953430E-1	3.070984E-1
1.267200E+10	-9.122314E-1	1.123047E-2	6.870651E-2	2.579880E-2	4.976845E-2	-2.866364E-2	-6.909180E-1	3.098450E-1
1.289650E+10	-9.108887E-1	1.718140E-2	6.821060E-2	2.429962E-2	4.891205E-2	-2.935028E-2	-6.891479E-1	3.125000E-1
1.312100E+10	-9.113770E-1	2.334595E-2	6.756592E-2	2.295685E-2	4.798317E-2	-2.924538E-2	-6.854553E-1	3.180542E-1
1.334550E+10	-9.113159E-1	3.024292E-2	6.764221E-2	2.183151E-2	4.797173E-2	-2.959442E-2	-6.804504E-1	3.214417E-1
1.357000E+10	-9.098511E-1	3.436279E-2	6.839752E-2	2.058029E-2	4.741669E-2	-3.001022E-2	-6.778259E-1	3.218689E-1
1.379450E+10	-9.104614E-1	4.156494E-2	6.590652E-2	1.998138E-2	4.620934E-2	-3.076744E-2	-6.750793E-1	3.278809E-1
1.401900E+10	-9.089661E-1	4.693604E-2	6.695938E-2	1.795578E-2	4.578972E-2	-3.097534E-2	-6.688843E-1	3.319702E-1
1.424350E+10	-9.092407E-1	5.325317E-2	6.550980E-2	1.718903E-2	4.619980E-2	-3.125191E-2	-6.664734E-1	3.351440E-1
1.446800E+10	-9.070435E-1	5.923462E-2	6.597900E-2	1.612091E-2	4.474449E-2	-3.113556E-2	-6.622009E-1	3.410645E-1
1.469250E+10	-9.070435E-1	6.576538E-2	6.454086E-2	1.613617E-2	4.473305E-2	-3.170586E-2	-6.565247E-1	3.444519E-1
1.491700E+10	-9.053955E-1	7.116699E-2	6.472015E-2	1.394653E-2	4.342651E-2	-3.297806E-2	-6.539612E-1	3.440552E-1
1.514150E+10	-9.043579E-1	7.669067E-2	6.381989E-2	1.345062E-2	4.399872E-2	-3.145599E-2	-6.500549E-1	3.508301E-1
1.536600E+10	-9.020081E-1	8.233643E-2	6.286240E-2	1.263046E-2	4.285431E-2	-3.284454E-2	-6.442261E-1	3.556519E-1
1.559050E+10	-9.021912E-1	8.578491E-2	6.299973E-2	1.174927E-2	4.230309E-2	-3.200150E-2	-6.408997E-1	3.549194E-1
1.581500E+10	-8.994751E-1	9.185791E-2	6.251526E-2	9.540558E-3	4.103470E-2	-3.279114E-2	-6.380310E-1	3.586731E-1
1.603950E+10	-8.997498E-1	9.799194E-2	6.342697E-2	9.204865E-3	3.985405E-2	-3.335190E-2	-6.322632E-1	3.622437E-1
1.626400E+10	-8.995667E-1	1.034241E-1	6.195831E-2	9.510040E-3	4.073906E-2	-3.440857E-2	-6.309814E-1	3.653259E-1
1.648850E+10	-8.964844E-1	1.075745E-1	6.164932E-2	8.131027E-3	4.061127E-2	-3.443909E-2	-6.279297E-1	3.689575E-1
1.671300E+10	-8.959045E-1	1.130981E-1	6.198692E-2	7.295609E-3	3.923225E-2	-3.470421E-2	-6.226196E-1	3.716125E-1
1.693750E+10	-8.948059E-1	1.174316E-1	6.008339E-2	5.876541E-3	3.887177E-2	-3.518486E-2	-6.185608E-1	3.725891E-1
1.716200E+10	-8.938904E-1	1.233521E-1	6.027794E-2	5.310059E-3	3.847122E-2	-3.470802E-2	-6.155701E-1	3.781738E-1
1.738650E+10	-8.919678E-1	1.289368E-1	5.948830E-2	4.388809E-3	3.860474E-2	-3.440666E-2	-6.095276E-1	3.810120E-1
1.761100E+10	-8.896790E-1	1.334229E-1	5.936241E-2	5.229950E-3	3.748894E-2	-3.487206E-2	-6.074829E-1	3.811035E-1
1.783550E+10	-8.897400E-1	1.390076E-1	5.950165E-2	2.969742E-3	3.557587E-2	-3.435898E-2	-6.056824E-1	3.866272E-1
1.806000E+10	-8.890686E-1	1.431885E-1	5.871773E-2	2.189636E-3	3.610802E-2	-3.493500E-2	-5.980835E-1	3.910217E-1
1.828450E+10	-8.846130E-1	1.481628E-1	5.870247E-2	3.232956E-3	3.427887E-2	-3.492928E-2	-5.950317E-1	3.911743E-1
1.850900E+10	-8.839417E-1	1.529236E-1	5.752563E-2	1.649857E-3	3.388023E-2	-3.513336E-2	-5.939331E-1	3.962708E-1
1.873350E+10	-8.823242E-1	1.583557E-1	5.655861E-2	2.111435E-3	3.354645E-2	-3.520203E-2	-5.868835E-1	4.019165E-1
1.895800E+10	-8.800354E-1	1.621704E-1	5.768204E-2	2.593994E-4	3.355217E-2	-3.615761E-2	-5.827942E-1	3.995972E-1
1.918250E+10	-8.782043E-1	1.660461E-1	5.566025E-2	7.228851E-4	3.353691E-2	-3.483772E-2	-5.818481E-1	4.024963E-1
1.940700E+10	-8.763733E-1	1.718140E-1	5.475044E-2	1.792908E-4	3.200722E-2	-3.622627E-2	-5.745544E-1	4.093018E-1
1.963150E+10	-8.745117E-1	1.746521E-1	5.530167E-2	-1.487732E-4	3.144455E-2	-3.501511E-2	-5.700684E-1	4.079590E-1
1.985600E+10	-8.728943E-1	1.797485E-1	5.661201E-2	-2.401352E-3	3.122520E-2	-3.606796E-2	-5.685730E-1	4.096985E-1
2.008050E+10	-8.712463E-1	1.831055E-1	5.596924E-2	-2.120972E-3	3.058052E-2	-3.709030E-2	-5.643005E-1	4.177551E-1
2.030500E+10	-8.698120E-1	1.874390E-1	5.545616E-2	-1.272202E-3	2.938271E-2	-3.541183E-2	-5.571594E-1	4.170532E-1
2.052950E+10	-8.659973E-1	1.914978E-1	5.347824E-2	-1.451492E-3	2.902031E-2	-3.563881E-2	-5.575867E-1	4.165039E-1
2.075400E+10	-8.644714E-1	1.947632E-1	5.391693E-2	-3.353119E-3	2.932549E-2	-3.638649E-2	-5.517273E-1	4.225464E-1
2.097850E+10	-8.630066E-1	1.999512E-1	5.372810E-2	-1.886368E-3	2.703857E-2	-3.502274E-2	-5.442810E-1	4.259338E-1
2.120300E+10	-8.602295E-1	2.018433E-1	5.276489E-2	-3.267288E-3	2.595139E-2	-3.733063E-2	-5.457153E-1	4.244995E-1
2.142750E+10	-8.597107E-1	2.085876E-1	5.304718E-2	-4.652023E-3	2.712631E-2	-3.521919E-2	-5.406494E-1	4.309692E-1
2.165200E+10	-8.554382E-1	2.099915E-1	5.231476E-2	-4.350662E-3	2.607918E-2	-3.537178E-2	-5.351868E-1	4.315796E-1
2.187650E+10	-8.536682E-1	2.142639E-1	5.314255E-2	-6.256104E-3	2.520943E-2	-3.529167E-2	-5.325928E-1	4.338074E-1
2.210100E+10	-8.512878E-1	2.190552E-1	5.161476E-2	-6.380081E-3	2.473259E-2	-3.649712E-2	-5.294495E-1	4.405212E-1
2.232550E+10	-8.485718E-1	2.221680E-1	5.314827E-2	-5.746841E-3	2.333641E-2	-3.441620E-2	-5.213013E-1	4.424133E-1
2.255000E+10	-8.471680E-1	2.255249E-1	5.279350E-2	-6.629944E-3	2.404022E-2	-3.550339E-2	-5.203552E-1	4.401245E-1
2.277450E+10	-8.430481E-1	2.283325E-1	5.234337E-2	-7.591248E-3	2.303886E-2	-3.312111E-2	-5.143127E-1	4.469299E-1
2.299900E+10	-8.411560E-1	2.326965E-1	5.020714E-2	-5.846024E-3	2.193069E-2	-3.589058E-2	-5.081177E-1	4.476624E-1
2.322350E+10	-8.396912E-1	2.361450E-1	4.920387E-2	-6.381989E-3	2.133751E-2	-3.629303E-2	-5.072632E-1	4.472046E-1
2.344800E+10	-8.361511E-1	2.391357E-1	4.870796E-2	-6.475449E-3	2.023697E-2	-3.335762E-2	-5.041809E-1	4.520874E-1
2.367250E+10	-8.348389E-1	2.418518E-1	4.992485E-2	-7.612228E-3	1.981544E-2	-3.562355E-2	-4.940948E-1	4.544983E-1
2.389700E+10	-8.317261E-1	2.441101E-1	5.017471E-2	-6.525040E-3	1.782417E-2	-3.450775E-2	-4.944611E-1	4.514923E-1
2.412150E+10	-8.311157E-1	2.480164E-1	4.756546E-2	-6.795883E-3	1.609612E-2	-3.357697E-2	-4.856415E-1	4.602966E-1
2.434600E+10	-8.271790E-1	2.510376E-1	4.775238E-2	-6.856918E-3	1.694870E-2	-3.285980E-2	-4.798279E-1	4.592590E-1
2.457050E+10	-8.233337E-1	2.534180E-1	4.903221E-2	-9.000778E-3	1.508141E-2	-3.328323E-2	-4.800720E-1	4.593658E-1
2.479500E+10	-8.222961E-1	2.553406E-1	4.921150E-2	-9.279251E-3	1.563263E-2	-3.169060E-2	-4.710693E-1	4.656830E-1
2.501950E+10	-8.182678E-1	2.568665E-1	4.616928E-2	-7.699966E-3	1.513863E-2	-3.159714E-2	-4.627838E-1	4.628296E-1
2.524400E+10	-8.182983E-1	2.583008E-1	4.814529E-2	-8.338928E-3	1.384830E-2	-3.098774E-2	-4.610291E-1	4.635315E-1
2.546850E+10	-8.151550E-1	2.653503E-1	4.722786E-2	-7.940292E-3	1.506138E-2	-3.005600E-2	-4.570618E-1	4.689941E-1
2.569300E+10	-8.097534E-1	2.641602E-1	4.790878E-2	-1.060677E-2	1.410198E-2	-2.968884E-2	-4.530792E-1	4.663239E-1
2.591750E+10	-8.099365E-1	2.683716E-1	4.773140E-2	-9.536743E-3	1.473618E-2	-2.956104E-2	-4.506683E-1	4.665680E-1
2.614200E+10	-8.056946E-1	2.721252E-1	4.913712E-2	-1.048660E-2	1.362133E-2	-2.984142E-2	-4.507141E-1	4.717560E-1
2.636650E+10	-8.033142E-1	2.713623E-1	4.930305E-2	-8.775711E-3	1.304722E-2	-2.753544E-2	-4.434357E-1	4.736633E-1
2.659100E+10	-8.014526E-1	2.736206E-1	4.659843E-2	-9.263992E-3	1.318073E-2	-2.809334E-2	-4.339905E-1	4.761658E-1
2.681550E+10	-8.001709E-1	2.751160E-1	4.691505E-2	-9.336472E-3	1.222324E-2	-2.765942E-2	-4.331512E-1	4.739990E-1
2.704000E+10	-7.984009E-1	2.792053E-1	4.607773E-2	-1.038933E-2	1.105881E-2	-2.537441E-2	-4.283447E-1	4.802246E-1
2.726450E+10	-7.946167E-1	2.799072E-1	4.559898E-2	-1.032639E-2	1.269150E-2	-2.565098E-2	-4.168396E-1	4.802094E-1
2.748900E+10	-7.922668E-1	2.816162E-1	4.863548E-2	-1.109505E-2	1.353931E-2	-2.300358E-2	-4.136963E-1	4.804077E-1
2.771350E+10	-7.890930E-1	2.827759E-1	4.897499E-2	-1.188660E-2	9.455681E-3	-2.374649E-2	-4.109344E-1	4.812469E-1
2.793800E+10	-7.884521E-1	2.831116E-1	4.601097E-2	-1.038551E-2	1.360512E-2	-2.241421E-2	-4.084473E-1	4.779510E-1
2.816250E+10	-7.868042E-1	2.855835E-1	4.442787E-2	-1.079369E-2	1.140499E-2	-2.293777E-2	-4.027405E-1	4.816742E-1
2.838700E+10	-7.848511E-1	2.862854E-1	4.563904E-2	-9.838104E-3	1.023960E-2	-2.152824E-2	-3.985901E-1	4.833221E-1
2.861150E+10	-7.846375E-1	2.855225E-1	4.548264E-2	-1.329231E-2	1.078892E-2	-2.363873E-2	-3.921661E-1	4.804993E-1
2.883600E+10	-7.814941E-1	2.900391E-1	4.320717E-2	-1.013184E-2	1.097584E-2	-2.198505E-2	-3.902130E-1	4.822845E-1
2.906050E+10	-7.810059E-1	2.915955E-1	4.543877E-2	-1.108932E-2	1.014709E-2	-1.938629E-2	-3.845520E-1	4.839325E-1
2.928500E+10	-7.825012E-1	2.953491E-1	4.553604E-2	-1.301003E-2	1.404190E-2	-1.877785E-2	-3.786774E-1	4.838867E-1
2.950950E+10	-7.756348E-1	2.964783E-1	4.811668E-2	-1.062202E-2	1.288509E-2	-1.953316E-2	-3.795624E-1	4.872131E-1
2.973400E+10	-7.766418E-1	2.961426E-1	4.720497E-2	-1.083565E-2	1.218414E-2	-1.841831E-2	-3.730927E-1	4.884338E-1
2.995850E+10	-7.743530E-1	2.966919E-1	4.744911E-2	-1.314926E-2	1.281452E-2	-1.656818E-2	-3.749390E-1	4.891815E-1
3.018300E+10	-7.707520E-1	2.985229E-1	4.454994E-2	-1.324463E-2	1.191044E-2	-2.103996E-2	-3.667755E-1	4.916840E-1
3.040750E+10	-7.710571E-1	3.007812E-1	4.606438E-2	-1.728821E-2	1.320839E-2	-1.706600E-2	-3.616486E-1	4.901123E-1
3.063200E+10	-7.679749E-1	3.010864E-1	4.582405E-2	-1.077080E-2	1.171398E-2	-1.830864E-2	-3.590240E-1	4.955292E-1
3.085650E+10	-7.666016E-1	3.051453E-1	4.658127E-2	-1.281548E-2	1.319504E-2	-1.875401E-2	-3.527832E-1	4.905548E-1
3.108100E+10	-7.731934E-1	3.065491E-1	4.690933E-2	-1.438332E-2	1.195478E-2	-1.547527E-2	-3.453064E-1	4.945679E-1
3.130550E+10	-7.656555E-1	3.049316E-1	4.440498E-2	-1.305580E-2	1.441097E-2	-1.949406E-2	-3.367462E-1	4.914551E-1
3.153000E+10	-7.677307E-1	3.082886E-1	4.641533E-2	-1.387024E-2	1.404667E-2	-1.593685E-2	-3.356781E-1	4.880066E-1
3.175450E+10	-7.625122E-1	3.078613E-1	4.462624E-2	-1.247025E-2	1.363516E-2	-1.284170E-2	-3.357239E-1	4.962616E-1
3.197900E+10	-7.662048E-1	3.079529E-1	4.450226E-2	-1.662254E-2	1.328373E-2	-1.468182E-2	-3.244934E-1	4.877319E-1
3.220350E+10	-7.628784E-1	3.143921E-1	4.596710E-2	-1.930809E-2	1.494312E-2	-1.803970E-2	-3.251648E-1	4.945374E-1
3.242800E+10	-7.656250E-1	3.158264E-1	4.408264E-2	-1.683617E-2	1.444340E-2	-1.659107E-2	-3.161926E-1	4.948120E-1
3.265250E+10	-7.669373E-1	3.187256E-1	4.187965E-2	-1.539421E-2	1.440382E-2	-1.211500E-2	-3.110657E-1	4.921722E-1
3.287700E+10	-7.637939E-1	3.201294E-1	4.456520E-2	-1.741600E-2	1.196527E-2	-1.515770E-2	-3.144684E-1	4.950867E-1
3.310150E+10	-7.618103E-1	3.205261E-1	4.422569E-2	-1.271820E-2	1.274395E-2	-1.334572E-2	-3.002777E-1	4.927673E-1
3.332600E+10	-7.580261E-1	3.265991E-1	4.203987E-2	-1.361656E-2	1.561832E-2	-1.371193E-2	-2.994080E-1	4.860535E-1
3.355050E+10	-7.592163E-1	3.228760E-1	4.808998E-2	-1.967049E-2	1.579666E-2	-1.115990E-2	-2.978058E-1	4.951172E-1
3.377500E+10	-7.575989E-1	3.271179E-1	4.528236E-2	-1.813889E-2	1.701546E-2	-1.214123E-2	-2.934570E-1	4.877014E-1
3.399950E+10	-7.597656E-1	3.314209E-1	4.568100E-2	-1.889229E-2	1.749229E-2	-1.257801E-2	-2.947693E-1	4.896851E-1
3.422400E+10	-7.603760E-1	3.324890E-1	4.579544E-2	-2.205086E-2	1.673603E-2	-1.378250E-2	-2.884674E-1	4.959106E-1
3.444850E+10	-7.577515E-1	3.331299E-1	4.420853E-2	-2.151680E-2	1.829529E-2	-1.219273E-2	-2.835541E-1	4.936371E-1
3.467300E+10	-7.563782E-1	3.360291E-1	4.826927E-2	-1.943398E-2	1.427794E-2	-1.210308E-2	-2.800598E-1	4.935303E-1
3.489750E+10	-7.568359E-1	3.373718E-1	4.351807E-2	-1.898384E-2	1.694679E-2	-1.349735E-2	-2.753448E-1	4.970093E-1
3.512200E+10	-7.542419E-1	3.345947E-1	4.206276E-2	-1.788521E-2	2.045441E-2	-1.284695E-2	-2.670135E-1	4.922485E-1
3.534650E+10	-7.558289E-1	3.381958E-1	4.242134E-2	-2.316666E-2	1.737595E-2	-1.476288E-2	-2.654877E-1	4.927979E-1
3.557100E+10	-7.558899E-1	3.416443E-1	4.174614E-2	-2.188492E-2	1.754475E-2	-1.539516E-2	-2.598724E-1	4.962921E-1
3.579550E+10	-7.509766E-1	3.437805E-1	3.556442E-2	-1.803207E-2	1.533461E-2	-8.996010E-3	-2.539062E-1	4.891052E-1
3.602000E+10	-7.545166E-1	3.466187E-1	4.422760E-2	-2.115059E-2	2.173328E-2	-1.308060E-2	-2.527924E-1	4.910278E-1
3.624450E+10	-7.507935E-1	3.457642E-1	3.575897E-2	-2.068138E-2	1.331711E-2	-1.505756E-2	-2.473145E-1	4.868927E-1
3.646900E+10	-7.498474E-1	3.579712E-1	3.812981E-2	-2.351379E-2	2.147579E-2	-1.501179E-2	-2.401428E-1	4.950714E-1
3.669350E+10	-7.484436E-1	3.530884E-1	4.389191E-2	-1.817322E-2	2.002811E-2	-1.470566E-2	-2.340393E-1	4.932556E-1
3.691800E+10	-7.460937E-1	3.574219E-1	4.137039E-2	-2.006531E-2	1.776123E-2	-1.453304E-2	-2.313538E-1	4.894257E-1
3.714250E+10	-7.476501E-1	3.559875E-1	3.668213E-2	-1.983452E-2	1.978874E-2	-9.812355E-3	-2.304382E-1	5.011292E-1
3.736700E+10	-7.471619E-1	3.616333E-1	4.030800E-2	-2.015686E-2	1.934242E-2	-1.192760E-2	-2.230682E-1	4.846344E-1
3.759150E+10	-7.422180E-1	3.632202E-1	4.510498E-2	-2.124977E-2	2.073002E-2	-9.366035E-3	-2.228241E-1	4.905090E-1
3.781600E+10	-7.424927E-1	3.701477E-1	3.697777E-2	-1.744270E-2	2.495766E-2	-1.552486E-2	-2.211914E-1	4.977417E-1
3.804050E+10	-7.421875E-1	3.686523E-1	4.179955E-2	-1.973915E-2	2.224922E-2	-1.225471E-2	-2.140198E-1	4.879913E-1
3.826500E+10	-7.411499E-1	3.733521E-1	3.961372E-2	-1.993752E-2	2.255440E-2	-1.627064E-2	-2.092590E-1	4.911499E-1
3.848950E+10	-7.420044E-1	3.775635E-1	3.875160E-2	-1.985931E-2	2.424431E-2	-1.175499E-2	-2.013550E-1	4.905701E-1
3.871400E+10	-7.440186E-1	3.691711E-1	4.190445E-2	-2.579689E-2	2.043343E-2	-1.060486E-2	-1.984711E-1	4.870911E-1
3.893850E+10	-7.427673E-1	3.775330E-1	4.262733E-2	-2.545357E-2	2.339649E-2	-1.440334E-2	-1.945496E-1	4.863586E-1
3.916300E+10	-7.424316E-1	3.781128E-1	3.920174E-2	-1.891136E-2	2.314568E-2	-1.003075E-2	-1.928864E-1	4.899445E-1
3.938750E+10	-7.406616E-1	3.857727E-1	3.867340E-2	-2.066422E-2	1.642323E-2	-1.112938E-2	-1.932373E-1	4.823303E-1
