!Date: 10/28/2005, 12:34 PM

!Vgs = -3.000000E+0
!Vds = 0.000000E+0
!Ig = -1.403500E-5
!Id = 1.170200E-4

# HZ S RI R 50
1.000000E+8	9.785156E-1	-1.502686E-1	-3.585815E-4	3.493428E-3	-1.566410E-3	2.361774E-3	-9.072266E-1	-1.477051E-2
3.245000E+8	8.750610E-1	-4.476318E-1	2.269745E-3	8.409977E-3	2.059460E-3	8.268356E-3	-9.156189E-1	6.774902E-3
5.490000E+8	7.018433E-1	-6.789856E-1	6.052017E-3	1.294947E-2	5.315781E-3	1.283216E-2	-9.068298E-1	2.014160E-2
7.735000E+8	4.952698E-1	-8.352356E-1	1.015520E-2	1.538658E-2	9.911537E-3	1.539087E-2	-9.069519E-1	2.795410E-2
9.980000E+8	2.895508E-1	-9.230957E-1	1.408005E-2	1.670074E-2	1.389980E-2	1.680088E-2	-9.047546E-1	3.500366E-2
1.222500E+9	1.004944E-1	-9.591370E-1	1.769733E-2	1.688099E-2	1.781464E-2	1.698685E-2	-9.034119E-1	4.168701E-2
1.447000E+9	-6.396484E-2	-9.589844E-1	2.101803E-2	1.704597E-2	2.108479E-2	1.654911E-2	-9.024353E-1	4.934692E-2
1.671500E+9	-2.023315E-1	-9.381104E-1	2.394867E-2	1.585865E-2	2.350140E-2	1.551723E-2	-9.008789E-1	5.572510E-2
1.896000E+9	-3.170471E-1	-9.045105E-1	2.585888E-2	1.478386E-2	2.591228E-2	1.487541E-2	-9.002991E-1	6.362915E-2
2.120500E+9	-4.116211E-1	-8.651123E-1	2.831364E-2	1.358509E-2	2.779198E-2	1.326084E-2	-8.995056E-1	7.153320E-2
2.345000E+9	-4.920959E-1	-8.201904E-1	2.930260E-2	1.218414E-2	2.918720E-2	1.206017E-2	-8.974915E-1	7.849121E-2
2.569500E+9	-5.547791E-1	-7.757874E-1	3.036499E-2	1.048470E-2	3.038120E-2	1.043320E-2	-8.963013E-1	8.450317E-2
2.794000E+9	-6.093140E-1	-7.353821E-1	3.130531E-2	9.393692E-3	3.123379E-2	9.489059E-3	-8.944702E-1	9.216309E-2
3.018500E+9	-6.539001E-1	-6.936646E-1	3.248978E-2	7.799149E-3	3.236580E-2	8.140564E-3	-8.925781E-1	9.841919E-2
3.243000E+9	-6.925354E-1	-6.553650E-1	3.272629E-2	7.102966E-3	3.219795E-2	6.816864E-3	-8.919983E-1	1.058960E-1
3.467500E+9	-7.250671E-1	-6.197510E-1	3.295517E-2	6.181717E-3	3.264427E-2	5.878448E-3	-8.896484E-1	1.128845E-1
3.692000E+9	-7.516785E-1	-5.848389E-1	3.359985E-2	4.816055E-3	3.339005E-2	4.966736E-3	-8.881531E-1	1.184387E-1
3.916500E+9	-7.759705E-1	-5.527649E-1	3.352547E-2	3.854752E-3	3.397179E-2	3.974915E-3	-8.860168E-1	1.263733E-1
4.141000E+9	-7.969360E-1	-5.225830E-1	3.412437E-2	2.813339E-3	3.416252E-2	3.015518E-3	-8.844910E-1	1.334229E-1
4.365500E+9	-8.130188E-1	-4.940796E-1	3.416824E-2	2.399445E-3	3.437805E-2	2.143860E-3	-8.817444E-1	1.389160E-1
4.590000E+9	-8.277893E-1	-4.683228E-1	3.367805E-2	8.621216E-4	3.413963E-2	1.270294E-3	-8.800659E-1	1.459045E-1
4.814500E+9	-8.418274E-1	-4.440002E-1	3.459740E-2	7.438660E-5	3.413773E-2	2.136230E-4	-8.776855E-1	1.530762E-1
5.039000E+9	-8.533020E-1	-4.206238E-1	3.451729E-2	-3.681183E-4	3.438568E-2	-5.950928E-4	-8.757019E-1	1.585999E-1
5.263500E+9	-8.641663E-1	-3.971252E-1	3.427124E-2	-1.443863E-3	3.388786E-2	-1.745224E-3	-8.735657E-1	1.651917E-1
5.488000E+9	-8.719177E-1	-3.768005E-1	3.457832E-2	-2.344131E-3	3.459167E-2	-2.498627E-3	-8.712463E-1	1.723022E-1
5.712500E+9	-8.807983E-1	-3.572388E-1	3.402138E-2	-2.731323E-3	3.396416E-2	-3.131866E-3	-8.683472E-1	1.783447E-1
5.937000E+9	-8.875732E-1	-3.375854E-1	3.430367E-2	-3.290176E-3	3.390121E-2	-3.652573E-3	-8.661804E-1	1.854248E-1
6.161500E+9	-8.936768E-1	-3.211975E-1	3.380966E-2	-4.299164E-3	3.358269E-2	-4.417419E-3	-8.641052E-1	1.928406E-1
6.386000E+9	-8.998718E-1	-3.030396E-1	3.361511E-2	-5.239487E-3	3.354454E-2	-5.672455E-3	-8.598938E-1	1.984253E-1
6.610500E+9	-9.045410E-1	-2.878723E-1	3.314018E-2	-6.177902E-3	3.319550E-2	-5.966187E-3	-8.579407E-1	2.037048E-1
6.835000E+9	-9.097595E-1	-2.726746E-1	3.273964E-2	-6.538391E-3	3.289413E-2	-6.195068E-3	-8.552856E-1	2.118530E-1
7.059500E+9	-9.129333E-1	-2.589111E-1	3.294945E-2	-7.282257E-3	3.284836E-2	-7.156372E-3	-8.505554E-1	2.167969E-1
7.284000E+9	-9.165955E-1	-2.447815E-1	3.239632E-2	-7.112503E-3	3.191757E-2	-7.270813E-3	-8.488770E-1	2.210388E-1
7.508500E+9	-9.210205E-1	-2.307434E-1	3.213882E-2	-7.804871E-3	3.208160E-2	-8.098602E-3	-8.451233E-1	2.293396E-1
7.733000E+9	-9.228821E-1	-2.173767E-1	3.151512E-2	-8.104324E-3	3.157997E-2	-9.302139E-3	-8.407593E-1	2.337341E-1
7.957500E+9	-9.257202E-1	-2.049561E-1	3.108597E-2	-9.288788E-3	3.101158E-2	-9.327888E-3	-8.388672E-1	2.388916E-1
8.182000E+9	-9.280090E-1	-1.918640E-1	3.119946E-2	-9.407043E-3	3.087997E-2	-9.651184E-3	-8.361511E-1	2.449036E-1
8.406500E+9	-9.292908E-1	-1.817932E-1	3.031635E-2	-9.996414E-3	3.139496E-2	-1.003838E-2	-8.322754E-1	2.513733E-1
8.631000E+9	-9.321899E-1	-1.691895E-1	3.001404E-2	-1.062775E-2	3.017330E-2	-1.066780E-2	-8.292847E-1	2.566223E-1
8.855500E+9	-9.330750E-1	-1.590881E-1	2.995682E-2	-1.052284E-2	3.024292E-2	-1.123619E-2	-8.262939E-1	2.624817E-1
9.080001E+9	-9.349976E-1	-1.495361E-1	2.986813E-2	-1.160526E-2	2.942371E-2	-1.077080E-2	-8.208618E-1	2.687378E-1
9.304500E+9	-9.363098E-1	-1.359863E-1	2.896786E-2	-1.242638E-2	2.863503E-2	-1.171494E-2	-8.180237E-1	2.731323E-1
9.529000E+9	-9.373169E-1	-1.288147E-1	2.851486E-2	-1.253414E-2	2.861881E-2	-1.218128E-2	-8.155518E-1	2.782593E-1
9.753500E+9	-9.389954E-1	-1.191101E-1	2.815342E-2	-1.244164E-2	2.752876E-2	-1.228237E-2	-8.103027E-1	2.844238E-1
9.978000E+9	-9.391785E-1	-1.085205E-1	2.718735E-2	-1.341152E-2	2.730846E-2	-1.205063E-2	-8.070374E-1	2.897339E-1
1.020250E+10	-9.406738E-1	-1.007385E-1	2.655315E-2	-1.304340E-2	2.687931E-2	-1.299381E-2	-8.034363E-1	2.933960E-1
1.042700E+10	-9.417725E-1	-9.109497E-2	2.562523E-2	-1.292133E-2	2.627945E-2	-1.327324E-2	-7.987061E-1	3.003235E-1
1.065150E+10	-9.414062E-1	-8.209229E-2	2.627563E-2	-1.290035E-2	2.601433E-2	-1.276112E-2	-7.948914E-1	3.031006E-1
1.087600E+10	-9.427795E-1	-7.424927E-2	2.549362E-2	-1.350117E-2	2.573586E-2	-1.356316E-2	-7.920837E-1	3.085327E-1
1.110050E+10	-9.437256E-1	-6.497192E-2	2.534389E-2	-1.407051E-2	2.485752E-2	-1.311684E-2	-7.864380E-1	3.140564E-1
1.132500E+10	-9.429932E-1	-5.691528E-2	2.418900E-2	-1.437664E-2	2.458382E-2	-1.377201E-2	-7.828064E-1	3.177795E-1
1.154950E+10	-9.439697E-1	-4.776001E-2	2.520180E-2	-1.377487E-2	2.452564E-2	-1.348305E-2	-7.804260E-1	3.222351E-1
1.177400E+10	-9.429932E-1	-4.028320E-2	2.400494E-2	-1.309967E-2	2.387428E-2	-1.360989E-2	-7.750549E-1	3.283997E-1
1.199850E+10	-9.426880E-1	-3.347778E-2	2.362823E-2	-1.391983E-2	2.324963E-2	-1.411438E-2	-7.715759E-1	3.306885E-1
1.222300E+10	-9.437256E-1	-2.554321E-2	2.314758E-2	-1.430511E-2	2.281094E-2	-1.409626E-2	-7.676086E-1	3.359070E-1
1.244750E+10	-9.424133E-1	-1.840210E-2	2.281666E-2	-1.353836E-2	2.273178E-2	-1.377964E-2	-7.638245E-1	3.415222E-1
1.267200E+10	-9.424438E-1	-1.150513E-2	2.224064E-2	-1.469803E-2	2.165413E-2	-1.377583E-2	-7.583923E-1	3.444214E-1
1.289650E+10	-9.416504E-1	-4.669189E-3	2.178097E-2	-1.387215E-2	2.184772E-2	-1.371098E-2	-7.578125E-1	3.467712E-1
1.312100E+10	-9.424438E-1	2.471924E-3	2.142906E-2	-1.418495E-2	2.211666E-2	-1.428318E-2	-7.529907E-1	3.536987E-1
1.334550E+10	-9.427490E-1	9.124756E-3	2.150631E-2	-1.400661E-2	2.123928E-2	-1.341534E-2	-7.464294E-1	3.567810E-1
1.357000E+10	-9.416199E-1	1.504517E-2	2.114773E-2	-1.481438E-2	2.164364E-2	-1.402664E-2	-7.450562E-1	3.572083E-1
1.379450E+10	-9.406433E-1	2.395630E-2	2.042580E-2	-1.414204E-2	2.053070E-2	-1.483250E-2	-7.414856E-1	3.654785E-1
1.401900E+10	-9.411316E-1	2.923584E-2	1.997089E-2	-1.424885E-2	1.993370E-2	-1.385403E-2	-7.361145E-1	3.685303E-1
1.424350E+10	-9.410400E-1	3.656006E-2	2.069378E-2	-1.419735E-2	1.978588E-2	-1.452160E-2	-7.347412E-1	3.703613E-1
1.446800E+10	-9.397888E-1	4.248047E-2	1.836967E-2	-1.397610E-2	1.966190E-2	-1.400757E-2	-7.291565E-1	3.781738E-1
1.469250E+10	-9.381409E-1	4.910278E-2	1.919079E-2	-1.430035E-2	1.955318E-2	-1.343155E-2	-7.225342E-1	3.812561E-1
1.491700E+10	-9.382019E-1	5.557251E-2	1.961517E-2	-1.374435E-2	1.853371E-2	-1.415348E-2	-7.208557E-1	3.824768E-1
1.514150E+10	-9.373779E-1	6.213379E-2	1.826668E-2	-1.384354E-2	1.780891E-2	-1.397133E-2	-7.177429E-1	3.877869E-1
1.536600E+10	-9.353638E-1	6.912231E-2	1.850128E-2	-1.496792E-2	1.778030E-2	-1.457310E-2	-7.101135E-1	3.909302E-1
1.559050E+10	-9.360352E-1	7.516479E-2	1.825142E-2	-1.490784E-2	1.792049E-2	-1.312160E-2	-7.078247E-1	3.927917E-1
1.581500E+10	-9.334106E-1	8.053589E-2	1.719189E-2	-1.404381E-2	1.713562E-2	-1.434231E-2	-7.053528E-1	3.974915E-1
1.603950E+10	-9.329834E-1	8.666992E-2	1.769638E-2	-1.499176E-2	1.720142E-2	-1.484776E-2	-6.995544E-1	4.010315E-1
1.626400E+10	-9.312439E-1	9.338379E-2	1.572037E-2	-1.302528E-2	1.625729E-2	-1.392078E-2	-6.969910E-1	4.030151E-1
1.648850E+10	-9.311829E-1	9.841919E-2	1.643658E-2	-1.366711E-2	1.696682E-2	-1.481628E-2	-6.939697E-1	4.074402E-1
1.671300E+10	-9.292603E-1	1.048279E-1	1.644516E-2	-1.385021E-2	1.586151E-2	-1.566887E-2	-6.881104E-1	4.109192E-1
1.693750E+10	-9.284668E-1	1.095581E-1	1.520538E-2	-1.427317E-2	1.688099E-2	-1.402092E-2	-6.842346E-1	4.129028E-1
1.716200E+10	-9.277649E-1	1.154785E-1	1.504040E-2	-1.366901E-2	1.591206E-2	-1.497459E-2	-6.829834E-1	4.172058E-1
1.738650E+10	-9.267273E-1	1.219788E-1	1.484299E-2	-1.387930E-2	1.448870E-2	-1.359272E-2	-6.763611E-1	4.198608E-1
1.761100E+10	-9.233093E-1	1.274109E-1	1.522923E-2	-1.347685E-2	1.496887E-2	-1.423979E-2	-6.751709E-1	4.223328E-1
1.783550E+10	-9.223328E-1	1.343994E-1	1.490879E-2	-1.434565E-2	1.603031E-2	-1.370430E-2	-6.721802E-1	4.292297E-1
1.806000E+10	-9.223938E-1	1.387024E-1	1.415825E-2	-1.374674E-2	1.414919E-2	-1.430893E-2	-6.648865E-1	4.315186E-1
1.828450E+10	-9.194641E-1	1.433105E-1	1.501083E-2	-1.334667E-2	1.419735E-2	-1.450968E-2	-6.613159E-1	4.323730E-1
1.850900E+10	-9.198914E-1	1.491699E-1	1.357031E-2	-1.457882E-2	1.487112E-2	-1.428938E-2	-6.593323E-1	4.371338E-1
1.873350E+10	-9.160156E-1	1.556396E-1	1.309299E-2	-1.322937E-2	1.284409E-2	-1.420832E-2	-6.536255E-1	4.424133E-1
1.895800E+10	-9.128723E-1	1.588745E-1	1.368761E-2	-1.439238E-2	1.342487E-2	-1.309824E-2	-6.484375E-1	4.420166E-1
1.918250E+10	-9.114380E-1	1.640320E-1	1.290035E-2	-1.453590E-2	1.184654E-2	-1.381445E-2	-6.477356E-1	4.451904E-1
1.940700E+10	-9.093018E-1	1.708679E-1	1.267195E-2	-1.479578E-2	1.215744E-2	-1.498556E-2	-6.402283E-1	4.526672E-1
1.963150E+10	-9.100037E-1	1.756592E-1	1.074696E-2	-1.376152E-2	1.293850E-2	-1.407719E-2	-6.366577E-1	4.509888E-1
1.985600E+10	-9.071350E-1	1.804810E-1	1.200724E-2	-1.397276E-2	1.078510E-2	-1.392269E-2	-6.344910E-1	4.551697E-1
2.008050E+10	-9.020386E-1	1.852112E-1	1.179028E-2	-1.325035E-2	1.206160E-2	-1.359797E-2	-6.303101E-1	4.602356E-1
2.030500E+10	-9.013367E-1	1.896362E-1	1.053047E-2	-1.465464E-2	1.132917E-2	-1.400995E-2	-6.233521E-1	4.604797E-1
2.052950E+10	-8.993835E-1	1.958618E-1	9.896278E-3	-1.309776E-2	1.072693E-2	-1.463223E-2	-6.221008E-1	4.627075E-1
2.075400E+10	-8.975525E-1	1.984558E-1	1.075602E-2	-1.402092E-2	9.996414E-3	-1.302719E-2	-6.174622E-1	4.696655E-1
2.097850E+10	-8.945923E-1	2.037048E-1	9.616852E-3	-1.349449E-2	9.669781E-3	-1.367092E-2	-6.105957E-1	4.711914E-1
2.120300E+10	-8.916626E-1	2.094727E-1	9.928703E-3	-1.370096E-2	1.058578E-2	-1.358795E-2	-6.109619E-1	4.709167E-1
2.142750E+10	-8.890991E-1	2.146912E-1	8.484840E-3	-1.284122E-2	9.542942E-3	-1.356316E-2	-6.062317E-1	4.762573E-1
2.165200E+10	-8.867187E-1	2.205200E-1	8.206844E-3	-1.276493E-2	6.910324E-3	-1.378775E-2	-6.016541E-1	4.779053E-1
2.187650E+10	-8.818665E-1	2.232971E-1	7.339478E-3	-1.298523E-2	9.276390E-3	-1.160574E-2	-5.990601E-1	4.819031E-1
2.210100E+10	-8.802185E-1	2.291260E-1	9.983540E-3	-1.265001E-2	9.183407E-3	-1.302147E-2	-5.946655E-1	4.856873E-1
2.232550E+10	-8.759155E-1	2.326050E-1	5.452633E-3	-1.213932E-2	7.164955E-3	-1.366091E-2	-5.861816E-1	4.903259E-1
2.255000E+10	-8.762817E-1	2.380676E-1	6.045341E-3	-1.243210E-2	6.114960E-3	-1.268959E-2	-5.848999E-1	4.904175E-1
2.277450E+10	-8.712158E-1	2.423706E-1	5.492687E-3	-1.256418E-2	4.435539E-3	-1.307917E-2	-5.791931E-1	4.960937E-1
2.299900E+10	-8.677368E-1	2.445374E-1	5.315781E-3	-1.233721E-2	5.884647E-3	-1.118422E-2	-5.732422E-1	4.967957E-1
2.322350E+10	-8.652954E-1	2.492676E-1	4.035473E-3	-1.151752E-2	5.640984E-3	-1.321030E-2	-5.706787E-1	4.973755E-1
2.344800E+10	-8.590393E-1	2.502136E-1	4.839897E-3	-1.298666E-2	2.988338E-3	-1.258373E-2	-5.680847E-1	5.028076E-1
2.367250E+10	-8.587952E-1	2.547302E-1	2.543926E-3	-1.111650E-2	3.007889E-3	-1.151085E-2	-5.570679E-1	5.052795E-1
2.389700E+10	-8.524170E-1	2.600098E-1	2.203941E-3	-1.271152E-2	1.929760E-3	-1.297855E-2	-5.585022E-1	5.036316E-1
2.412150E+10	-8.526611E-1	2.632751E-1	2.164841E-3	-1.047564E-2	1.344681E-4	-1.002407E-2	-5.511475E-1	5.109558E-1
2.434600E+10	-8.461609E-1	2.666321E-1	2.278328E-3	-9.064674E-3	2.021313E-3	-9.328842E-3	-5.436401E-1	5.126953E-1
2.457050E+10	-8.441467E-1	2.691345E-1	-2.641678E-4	-8.093834E-3	-2.779961E-4	-9.727955E-3	-5.419617E-1	5.145569E-1
2.479500E+10	-8.396912E-1	2.727966E-1	-9.570122E-4	-8.423805E-3	-2.876520E-3	-7.613897E-3	-5.354919E-1	5.187683E-1
2.501950E+10	-8.351746E-1	2.749939E-1	-1.310349E-3	-7.885456E-3	-5.073547E-4	-8.546829E-3	-5.263062E-1	5.176086E-1
2.524400E+10	-8.328552E-1	2.762756E-1	-2.455235E-3	-7.621288E-3	-4.918575E-4	-4.724741E-3	-5.274658E-1	5.174561E-1
2.546850E+10	-8.262329E-1	2.805786E-1	-1.986742E-3	-3.891706E-3	-3.072739E-3	-6.581545E-3	-5.218201E-1	5.220032E-1
2.569300E+10	-8.230591E-1	2.796326E-1	-2.340317E-3	-5.926609E-3	-2.253056E-3	-4.546642E-3	-5.144043E-1	5.201721E-1
2.591750E+10	-8.214722E-1	2.841797E-1	-1.919270E-3	-3.684044E-3	-1.903176E-3	-3.859758E-3	-5.138245E-1	5.211792E-1
2.614200E+10	-8.179626E-1	2.867126E-1	-2.382159E-3	-2.681255E-3	-3.034592E-3	-4.577160E-3	-5.133972E-1	5.263062E-1
2.636650E+10	-8.137817E-1	2.871094E-1	-1.134992E-3	-2.246618E-3	-3.101587E-3	-3.502965E-3	-5.050659E-1	5.289307E-1
2.659100E+10	-8.088074E-1	2.875366E-1	-2.275348E-3	-9.274483E-5	-3.790855E-3	-1.510143E-3	-4.968262E-1	5.301514E-1
2.681550E+10	-8.067932E-1	2.881775E-1	-2.774835E-3	3.933907E-6	-3.849030E-3	-1.388669E-3	-4.993286E-1	5.297852E-1
2.704000E+10	-8.044739E-1	2.899170E-1	-1.793981E-3	1.131892E-4	-3.356457E-3	4.220009E-5	-4.908752E-1	5.372009E-1
2.726450E+10	-8.011169E-1	2.914124E-1	-3.603101E-3	-5.706549E-4	-2.616286E-3	1.572251E-3	-4.826355E-1	5.362244E-1
2.748900E+10	-7.967224E-1	2.919617E-1	-1.849234E-3	1.050234E-3	-2.085447E-3	4.677773E-4	-4.779358E-1	5.336609E-1
2.771350E+10	-7.934570E-1	2.922058E-1	-4.871607E-3	5.071878E-3	-3.408909E-3	3.700137E-3	-4.768372E-1	5.372314E-1
2.793800E+10	-7.922363E-1	2.907410E-1	-1.701832E-3	3.662586E-3	-4.226446E-3	4.401922E-3	-4.684753E-1	5.334778E-1
2.816250E+10	-7.901306E-1	2.918701E-1	-1.969814E-3	5.196571E-3	-4.337788E-3	5.474091E-3	-4.685364E-1	5.366211E-1
2.838700E+10	-7.872925E-1	2.931824E-1	-3.995895E-3	8.121967E-3	-3.470898E-3	8.875847E-3	-4.622498E-1	5.401917E-1
2.861150E+10	-7.859192E-1	2.935791E-1	-3.343582E-3	8.715153E-3	-4.518032E-3	8.289337E-3	-4.515076E-1	5.429382E-1
2.883600E+10	-7.835083E-1	2.933350E-1	-2.709389E-3	9.402752E-3	-4.240036E-3	1.063871E-2	-4.557800E-1	5.395813E-1
2.906050E+10	-7.839355E-1	2.908936E-1	-3.758430E-3	1.245689E-2	-3.095627E-3	1.031685E-2	-4.491272E-1	5.423584E-1
2.928500E+10	-7.804871E-1	2.939148E-1	-2.184868E-3	1.150227E-2	-2.159119E-3	1.242399E-2	-4.443665E-1	5.412903E-1
2.950950E+10	-7.785034E-1	2.956238E-1	-2.647877E-3	1.314211E-2	-2.427578E-3	1.325607E-2	-4.430542E-1	5.458984E-1
2.973400E+10	-7.784729E-1	2.932434E-1	-2.560616E-3	1.328564E-2	-3.108978E-4	1.643085E-2	-4.356689E-1	5.491638E-1
2.995850E+10	-7.740784E-1	2.944031E-1	2.369881E-4	1.340580E-2	1.967430E-3	1.468420E-2	-4.349670E-1	5.451660E-1
3.018300E+10	-7.745972E-1	2.934570E-1	1.269817E-3	1.387072E-2	2.555847E-4	1.503181E-2	-4.320374E-1	5.528259E-1
3.040750E+10	-7.746887E-1	2.960510E-1	-5.340576E-5	1.829433E-2	2.133369E-3	1.639843E-2	-4.257812E-1	5.533752E-1
3.063200E+10	-7.731934E-1	2.930603E-1	2.678871E-3	1.722050E-2	5.290985E-3	1.877880E-2	-4.243774E-1	5.583801E-1
3.085650E+10	-7.714844E-1	2.958374E-1	4.250526E-3	1.901150E-2	3.796577E-3	1.783180E-2	-4.148254E-1	5.591125E-1
3.108100E+10	-7.724915E-1	2.957764E-1	1.862526E-3	2.129459E-2	-3.938675E-4	2.254868E-2	-4.084473E-1	5.566711E-1
3.130550E+10	-7.740784E-1	2.940674E-1	2.094269E-3	2.014923E-2	5.044937E-3	1.815414E-2	-4.036560E-1	5.558777E-1
3.153000E+10	-7.714233E-1	2.970581E-1	3.954887E-3	1.568985E-2	9.120941E-3	1.900673E-2	-4.030151E-1	5.569763E-1
3.175450E+10	-7.660217E-1	2.983704E-1	6.089687E-3	1.526785E-2	8.101463E-3	1.926708E-2	-3.972778E-1	5.593872E-1
3.197900E+10	-7.763062E-1	3.010864E-1	9.676933E-3	2.139950E-2	6.845474E-3	2.269173E-2	-3.891907E-1	5.625610E-1
3.220350E+10	-7.750854E-1	3.016968E-1	9.840965E-3	1.950264E-2	6.661415E-3	2.081299E-2	-3.893433E-1	5.630493E-1
3.242800E+10	-7.789612E-1	3.007507E-1	7.345200E-3	2.057457E-2	9.770393E-3	2.628422E-2	-3.820190E-1	5.650024E-1
3.265250E+10	-7.762756E-1	3.062134E-1	8.231163E-3	2.372360E-2	1.110363E-2	2.270794E-2	-3.766174E-1	5.592957E-1
3.287700E+10	-7.772522E-1	3.058167E-1	1.283360E-2	2.275372E-2	1.385307E-2	2.361774E-2	-3.727417E-1	5.638733E-1
3.310150E+10	-7.738953E-1	3.056335E-1	1.168728E-2	2.333450E-2	1.494122E-2	2.120399E-2	-3.724060E-1	5.650635E-1
3.332600E+10	-7.772217E-1	3.099670E-1	1.380825E-2	2.394867E-2	1.339817E-2	2.210426E-2	-3.718872E-1	5.624695E-1
3.355050E+10	-7.751770E-1	3.117065E-1	1.811886E-2	2.035618E-2	1.756001E-2	2.283192E-2	-3.661499E-1	5.644531E-1
3.377500E+10	-7.746582E-1	3.134460E-1	1.585674E-2	2.308655E-2	1.486492E-2	2.208519E-2	-3.587341E-1	5.632324E-1
3.399950E+10	-7.757263E-1	3.161926E-1	1.600170E-2	2.265072E-2	1.949501E-2	1.985931E-2	-3.601685E-1	5.681152E-1
3.422400E+10	-7.758789E-1	3.186035E-1	1.634693E-2	2.083206E-2	2.261925E-2	2.211952E-2	-3.513184E-1	5.757751E-1
3.444850E+10	-7.760010E-1	3.207703E-1	1.965523E-2	2.057743E-2	1.976204E-2	2.440834E-2	-3.451538E-1	5.677185E-1
3.467300E+10	-7.786865E-1	3.227539E-1	2.020836E-2	2.077293E-2	2.327824E-2	2.217007E-2	-3.471375E-1	5.727539E-1
3.489750E+10	-7.775879E-1	3.229370E-1	1.721382E-2	2.120876E-2	2.062035E-2	2.055836E-2	-3.438416E-1	5.754395E-1
3.512200E+10	-7.775879E-1	3.242798E-1	2.272606E-2	1.824093E-2	2.381516E-2	2.178001E-2	-3.335876E-1	5.708313E-1
3.534650E+10	-7.782593E-1	3.279114E-1	2.044964E-2	1.871395E-2	1.947021E-2	2.163410E-2	-3.309937E-1	5.774231E-1
3.557100E+10	-7.786865E-1	3.282166E-1	2.349567E-2	2.222252E-2	2.682304E-2	1.764774E-2	-3.206482E-1	5.788269E-1
3.579550E+10	-7.782288E-1	3.369141E-1	2.594280E-2	2.151775E-2	2.082157E-2	2.255344E-2	-3.186035E-1	5.772095E-1
3.602000E+10	-7.806091E-1	3.390503E-1	2.511692E-2	1.902199E-2	2.037334E-2	2.038097E-2	-3.155518E-1	5.813904E-1
3.624450E+10	-7.791748E-1	3.358765E-1	2.735424E-2	1.623249E-2	2.062225E-2	2.199650E-2	-3.114624E-1	5.735779E-1
3.646900E+10	-7.787781E-1	3.442078E-1	2.346802E-2	1.827049E-2	2.874565E-2	1.499653E-2	-3.067932E-1	5.748291E-1
3.669350E+10	-7.774963E-1	3.439026E-1	2.829266E-2	1.742840E-2	3.192520E-2	2.151680E-2	-2.998657E-1	5.745239E-1
3.691800E+10	-7.780151E-1	3.470154E-1	2.555752E-2	1.942444E-2	3.004169E-2	2.026176E-2	-2.969055E-1	5.785828E-1
3.714250E+10	-7.789001E-1	3.476562E-1	3.021908E-2	1.656532E-2	2.769852E-2	1.804829E-2	-2.959900E-1	5.795288E-1
3.736700E+10	-7.765198E-1	3.526306E-1	2.674484E-2	2.080441E-2	2.813530E-2	1.868534E-2	-2.880859E-1	5.857849E-1
3.759150E+10	-7.752991E-1	3.563232E-1	2.774525E-2	2.172089E-2	3.077888E-2	1.623631E-2	-2.901001E-1	5.824890E-1
3.781600E+10	-7.753601E-1	3.616028E-1	2.638721E-2	1.506519E-2	2.700996E-2	2.227879E-2	-2.801208E-1	5.788879E-1
3.804050E+10	-7.753906E-1	3.554687E-1	3.062153E-2	1.943874E-2	3.226471E-2	1.639557E-2	-2.745361E-1	5.843811E-1
3.826500E+10	-7.732544E-1	3.656311E-1	3.540802E-2	1.684189E-2	3.451347E-2	1.341248E-2	-2.674255E-1	5.821228E-1
3.848950E+10	-7.755127E-1	3.663940E-1	3.128052E-2	1.387024E-2	3.039360E-2	1.572990E-2	-2.664490E-1	5.843201E-1
3.871400E+10	-7.782288E-1	3.720093E-1	2.876186E-2	1.495266E-2	3.447151E-2	1.422310E-2	-2.582703E-1	5.799866E-1
3.893850E+10	-7.718506E-1	3.765869E-1	3.615189E-2	1.702881E-2	3.554535E-2	1.802826E-2	-2.501831E-1	5.815125E-1
3.916300E+10	-7.760010E-1	3.759460E-1	3.184891E-2	1.492119E-2	3.906822E-2	1.921272E-2	-2.479248E-1	5.782471E-1
3.938750E+10	-7.689209E-1	3.816833E-1	3.599167E-2	1.806068E-2	3.652000E-2	1.464844E-2	-2.484741E-1	5.806885E-1
