!Date: 10/28/2005, 12:34 PM

!Vgs = 0.000000E+0
!Vds = 2.000000E+0
!Ig = -1.336800E-6
!Id = 6.471900E-1

# HZ S RI R 50
1.000000E+8	9.708862E-1	-1.614075E-1	-2.081299E-1	5.973816E-3	7.913113E-4	3.708124E-3	-8.537598E-1	-1.649170E-1
3.245000E+8	8.548584E-1	-4.736023E-1	-1.789322E-1	5.458832E-2	2.604961E-3	1.140499E-2	-9.296570E-1	-4.864502E-2
5.490000E+8	6.618958E-1	-7.093811E-1	-1.500702E-1	8.875275E-2	8.343697E-3	1.695919E-2	-8.752747E-1	1.910400E-2
7.735000E+8	4.384766E-1	-8.582153E-1	-1.210556E-1	1.093025E-1	1.445293E-2	2.032375E-2	-8.837280E-1	2.038574E-2
9.980000E+8	2.233887E-1	-9.322205E-1	-9.407806E-2	1.181335E-1	2.007103E-2	2.192307E-2	-8.834534E-1	3.781128E-2
1.222500E+9	3.106689E-2	-9.543457E-1	-6.933975E-2	1.196327E-1	2.438164E-2	2.159309E-2	-8.703613E-1	3.787231E-2
1.447000E+9	-1.314697E-1	-9.425659E-1	-4.859161E-2	1.177902E-1	2.860641E-2	2.058315E-2	-8.713684E-1	4.663086E-2
1.671500E+9	-2.646179E-1	-9.121704E-1	-3.219223E-2	1.134987E-1	3.146744E-2	1.957130E-2	-8.688049E-1	5.126953E-2
1.896000E+9	-3.736877E-1	-8.713379E-1	-1.905060E-2	1.083374E-1	3.417778E-2	1.783180E-2	-8.687439E-1	5.847168E-2
2.120500E+9	-4.617920E-1	-8.271484E-1	-7.522583E-3	1.024628E-1	3.666878E-2	1.672363E-2	-8.692932E-1	6.399536E-2
2.345000E+9	-5.359497E-1	-7.796631E-1	1.457214E-3	9.694290E-2	3.835106E-2	1.473808E-2	-8.698425E-1	7.278442E-2
2.569500E+9	-5.926819E-1	-7.337036E-1	8.590698E-3	9.056854E-2	3.958511E-2	1.297951E-2	-8.646545E-1	7.913208E-2
2.794000E+9	-6.422119E-1	-6.920471E-1	1.447678E-2	8.473206E-2	4.099274E-2	1.176262E-2	-8.664246E-1	8.612061E-2
3.018500E+9	-6.821594E-1	-6.508179E-1	1.942062E-2	7.950592E-2	4.161072E-2	1.008797E-2	-8.633423E-1	9.359741E-2
3.243000E+9	-7.160645E-1	-6.122742E-1	2.342224E-2	7.465744E-2	4.254913E-2	8.531570E-3	-8.615417E-1	9.771729E-2
3.467500E+9	-7.453308E-1	-5.768738E-1	2.726364E-2	6.993866E-2	4.286766E-2	7.040024E-3	-8.614807E-1	1.067200E-1
3.692000E+9	-7.696228E-1	-5.433350E-1	2.996826E-2	6.536484E-2	4.329491E-2	6.006241E-3	-8.577271E-1	1.128845E-1
3.916500E+9	-7.902222E-1	-5.124207E-1	3.250313E-2	6.180954E-2	4.376602E-2	4.714966E-3	-8.585815E-1	1.172791E-1
4.141000E+9	-8.085632E-1	-4.829102E-1	3.428459E-2	5.845070E-2	4.417801E-2	3.553391E-3	-8.557434E-1	1.266479E-1
4.365500E+9	-8.224182E-1	-4.549866E-1	3.596878E-2	5.486107E-2	4.410744E-2	2.372742E-3	-8.538208E-1	1.306763E-1
4.590000E+9	-8.357544E-1	-4.310913E-1	3.748322E-2	5.131912E-2	4.386330E-2	1.060486E-3	-8.533020E-1	1.390381E-1
4.814500E+9	-8.471069E-1	-4.081726E-1	3.909111E-2	4.795456E-2	4.427719E-2	6.885529E-4	-8.501282E-1	1.446533E-1
5.039000E+9	-8.580322E-1	-3.856201E-1	4.000473E-2	4.541969E-2	4.433632E-2	-6.599426E-4	-8.492126E-1	1.501465E-1
5.263500E+9	-8.670654E-1	-3.627319E-1	4.049873E-2	4.238129E-2	4.436874E-2	-1.802444E-3	-8.470459E-1	1.576233E-1
5.488000E+9	-8.733215E-1	-3.441162E-1	4.179001E-2	3.965187E-2	4.418182E-2	-2.763748E-3	-8.445435E-1	1.641541E-1
5.712500E+9	-8.808289E-1	-3.254089E-1	4.251480E-2	3.754807E-2	4.396057E-2	-3.562927E-3	-8.426514E-1	1.706543E-1
5.937000E+9	-8.864441E-1	-3.069458E-1	4.286957E-2	3.512383E-2	4.379654E-2	-4.667282E-3	-8.398437E-1	1.762695E-1
6.161500E+9	-8.921814E-1	-2.915039E-1	4.299736E-2	3.295898E-2	4.375648E-2	-5.306244E-3	-8.378601E-1	1.851501E-1
6.386000E+9	-8.975220E-1	-2.745667E-1	4.359055E-2	3.037071E-2	4.333115E-2	-6.189346E-3	-8.333435E-1	1.902466E-1
6.610500E+9	-9.014587E-1	-2.594910E-1	4.378700E-2	2.870178E-2	4.347038E-2	-7.394791E-3	-8.324280E-1	1.944580E-1
6.835000E+9	-9.057922E-1	-2.456970E-1	4.363632E-2	2.671432E-2	4.321861E-2	-8.211136E-3	-8.273926E-1	2.050476E-1
7.059500E+9	-9.076233E-1	-2.325134E-1	4.410744E-2	2.503777E-2	4.269218E-2	-8.407593E-3	-8.213806E-1	2.060852E-1
7.284000E+9	-9.114685E-1	-2.185669E-1	4.363632E-2	2.301216E-2	4.250336E-2	-9.765625E-3	-8.243408E-1	2.118530E-1
7.508500E+9	-9.152222E-1	-2.051392E-1	4.364204E-2	2.077293E-2	4.200363E-2	-1.038933E-2	-8.159790E-1	2.152100E-1
7.733000E+9	-9.166870E-1	-1.934204E-1	4.332161E-2	2.034187E-2	4.162025E-2	-1.015854E-2	-8.168335E-1	2.194824E-1
7.957500E+9	-9.184265E-1	-1.808777E-1	4.423523E-2	1.810646E-2	4.182243E-2	-1.079559E-2	-8.134766E-1	2.294617E-1
8.182000E+9	-9.212341E-1	-1.685486E-1	4.355812E-2	1.762009E-2	4.047203E-2	-1.179314E-2	-8.135681E-1	2.330017E-1
8.406500E+9	-9.222412E-1	-1.599731E-1	4.299545E-2	1.539612E-2	4.045105E-2	-1.274872E-2	-8.081360E-1	2.414856E-1
8.631000E+9	-9.239197E-1	-1.479187E-1	4.290390E-2	1.403427E-2	4.007149E-2	-1.328850E-2	-8.044434E-1	2.448120E-1
8.855500E+9	-9.248352E-1	-1.380005E-1	4.268837E-2	1.275063E-2	3.992844E-2	-1.318550E-2	-8.010254E-1	2.524109E-1
9.080001E+9	-9.273682E-1	-1.292114E-1	4.245567E-2	1.183891E-2	3.967285E-2	-1.409340E-2	-7.963867E-1	2.588501E-1
9.304500E+9	-9.277039E-1	-1.164856E-1	4.231453E-2	1.070213E-2	3.857231E-2	-1.492310E-2	-7.938843E-1	2.621155E-1
9.529000E+9	-9.280701E-1	-1.097412E-1	4.203224E-2	1.019287E-2	3.856659E-2	-1.601028E-2	-7.913513E-1	2.686768E-1
9.753500E+9	-9.295654E-1	-1.006470E-1	4.176712E-2	8.506775E-3	3.745651E-2	-1.529121E-2	-7.861938E-1	2.743225E-1
9.978000E+9	-9.300842E-1	-9.136963E-2	4.144859E-2	7.726669E-3	3.707504E-2	-1.638031E-2	-7.830200E-1	2.770996E-1
1.020250E+10	-9.320374E-1	-8.316040E-2	4.070473E-2	7.133484E-3	3.654099E-2	-1.687241E-2	-7.803650E-1	2.835693E-1
1.042700E+10	-9.320068E-1	-7.363892E-2	4.025459E-2	6.080627E-3	3.612709E-2	-1.655769E-2	-7.739258E-1	2.890015E-1
1.065150E+10	-9.320068E-1	-6.616211E-2	3.916359E-2	5.363464E-3	3.554726E-2	-1.713562E-2	-7.706604E-1	2.923584E-1
1.087600E+10	-9.323730E-1	-5.776978E-2	3.954697E-2	4.943848E-3	3.533363E-2	-1.774979E-2	-7.683105E-1	2.986450E-1
1.110050E+10	-9.324341E-1	-4.943848E-2	3.902626E-2	3.566742E-3	3.474236E-2	-1.739311E-2	-7.629700E-1	3.041077E-1
1.132500E+10	-9.320984E-1	-4.174805E-2	3.884888E-2	3.417969E-3	3.403473E-2	-1.814270E-2	-7.590942E-1	3.067322E-1
1.154950E+10	-9.328918E-1	-3.375244E-2	3.801346E-2	2.388000E-3	3.394699E-2	-1.747704E-2	-7.565613E-1	3.123779E-1
1.177400E+10	-9.316101E-1	-2.590942E-2	3.779984E-2	1.686096E-3	3.290558E-2	-1.886749E-2	-7.515259E-1	3.184204E-1
1.199850E+10	-9.319763E-1	-1.953125E-2	3.757286E-2	1.750946E-3	3.272820E-2	-1.919937E-2	-7.482605E-1	3.207092E-1
1.222300E+10	-9.317627E-1	-1.156616E-2	3.617096E-2	6.294250E-4	3.285408E-2	-1.843452E-2	-7.438965E-1	3.250122E-1
1.244750E+10	-9.313660E-1	-5.493164E-3	3.684425E-2	4.005432E-4	3.170776E-2	-1.818085E-2	-7.410889E-1	3.302917E-1
1.267200E+10	-9.321289E-1	1.068115E-3	3.634834E-2	-7.324219E-4	3.081131E-2	-1.938820E-2	-7.347412E-1	3.328552E-1
1.289650E+10	-9.302368E-1	8.178711E-3	3.595924E-2	-7.057190E-4	3.079224E-2	-1.938629E-2	-7.336426E-1	3.362732E-1
1.312100E+10	-9.309387E-1	1.422119E-2	3.518295E-2	-2.174377E-4	3.046227E-2	-1.946545E-2	-7.287598E-1	3.425598E-1
1.334550E+10	-9.307861E-1	2.157593E-2	3.473473E-2	-1.186371E-3	3.039074E-2	-2.007294E-2	-7.245178E-1	3.449707E-1
1.357000E+10	-9.291992E-1	2.832031E-2	3.609657E-2	-1.514435E-3	2.986622E-2	-1.917362E-2	-7.206421E-1	3.463135E-1
1.379450E+10	-9.292297E-1	3.424072E-2	3.412437E-2	-1.426697E-3	2.986526E-2	-2.027225E-2	-7.172241E-1	3.534851E-1
1.401900E+10	-9.289551E-1	4.022217E-2	3.494453E-2	-2.725601E-3	2.871418E-2	-1.996231E-2	-7.125549E-1	3.559265E-1
1.424350E+10	-9.270325E-1	4.602051E-2	3.306007E-2	-2.891541E-3	2.866554E-2	-2.030659E-2	-7.097778E-1	3.587036E-1
1.446800E+10	-9.278564E-1	5.319214E-2	3.298759E-2	-3.793716E-3	2.849579E-2	-2.133274E-2	-7.049561E-1	3.652649E-1
1.469250E+10	-9.263611E-1	5.938721E-2	3.207016E-2	-3.864288E-3	2.663803E-2	-1.980972E-2	-6.985168E-1	3.698425E-1
1.491700E+10	-9.242249E-1	6.524658E-2	3.199768E-2	-3.278732E-3	2.739239E-2	-2.001667E-2	-6.964417E-1	3.693237E-1
1.514150E+10	-9.238586E-1	7.080078E-2	3.145027E-2	-4.049301E-3	2.648735E-2	-2.105618E-2	-6.933289E-1	3.757629E-1
1.536600E+10	-9.218445E-1	7.763672E-2	3.029156E-2	-3.785133E-3	2.583599E-2	-1.967907E-2	-6.861267E-1	3.800354E-1
1.559050E+10	-9.210205E-1	8.276367E-2	3.137398E-2	-4.409790E-3	2.579403E-2	-1.979446E-2	-6.838684E-1	3.788757E-1
1.581500E+10	-9.202576E-1	8.840942E-2	3.073788E-2	-4.589081E-3	2.450752E-2	-2.168369E-2	-6.818237E-1	3.843689E-1
1.603950E+10	-9.202881E-1	9.405518E-2	3.053951E-2	-4.822731E-3	2.454376E-2	-2.083015E-2	-6.746521E-1	3.892212E-1
1.626400E+10	-9.183044E-1	9.957886E-2	2.991962E-2	-4.872322E-3	2.455902E-2	-2.072334E-2	-6.730652E-1	3.889160E-1
1.648850E+10	-9.170837E-1	1.047974E-1	3.024006E-2	-5.860329E-3	2.409458E-2	-1.970863E-2	-6.693420E-1	3.955994E-1
1.671300E+10	-9.166565E-1	1.106262E-1	2.985477E-2	-6.530762E-3	2.400398E-2	-2.153683E-2	-6.634216E-1	3.969727E-1
1.693750E+10	-9.152527E-1	1.156921E-1	2.992153E-2	-5.704880E-3	2.335167E-2	-2.169418E-2	-6.593933E-1	3.998413E-1
1.716200E+10	-9.128113E-1	1.215820E-1	2.892590E-2	-6.594658E-3	2.233505E-2	-2.174282E-2	-6.576843E-1	4.044495E-1
1.738650E+10	-9.117126E-1	1.284790E-1	2.796936E-2	-5.690575E-3	2.140808E-2	-2.154636E-2	-6.505737E-1	4.059753E-1
1.761100E+10	-9.102478E-1	1.340027E-1	2.824688E-2	-5.723000E-3	2.155495E-2	-2.144241E-2	-6.485901E-1	4.089966E-1
1.783550E+10	-9.072876E-1	1.393433E-1	2.737617E-2	-6.917000E-3	2.171993E-2	-2.099323E-2	-6.469116E-1	4.137573E-1
1.806000E+10	-9.068909E-1	1.435242E-1	2.935886E-2	-7.056236E-3	2.066898E-2	-2.089405E-2	-6.411133E-1	4.189453E-1
1.828450E+10	-9.047241E-1	1.501770E-1	2.690792E-2	-5.977631E-3	2.096081E-2	-2.180958E-2	-6.362305E-1	4.186096E-1
1.850900E+10	-9.027710E-1	1.531372E-1	2.666283E-2	-6.514549E-3	2.122974E-2	-2.007675E-2	-6.343384E-1	4.227295E-1
1.873350E+10	-9.023437E-1	1.592712E-1	2.697086E-2	-7.741928E-3	1.994705E-2	-2.164936E-2	-6.269531E-1	4.282532E-1
1.895800E+10	-8.986206E-1	1.629028E-1	2.739525E-2	-7.054329E-3	1.935387E-2	-2.118206E-2	-6.235962E-1	4.274902E-1
1.918250E+10	-8.984680E-1	1.680603E-1	2.741623E-2	-7.367134E-3	1.912689E-2	-2.182579E-2	-6.213684E-1	4.304810E-1
1.940700E+10	-8.951416E-1	1.734314E-1	2.685928E-2	-6.859779E-3	1.774406E-2	-2.054119E-2	-6.154175E-1	4.385071E-1
1.963150E+10	-8.921204E-1	1.761780E-1	2.482891E-2	-7.173538E-3	1.839447E-2	-2.073765E-2	-6.115112E-1	4.371948E-1
1.985600E+10	-8.923645E-1	1.826782E-1	2.485371E-2	-7.457733E-3	1.863098E-2	-2.013397E-2	-6.104431E-1	4.387512E-1
2.008050E+10	-8.897705E-1	1.854248E-1	2.281570E-2	-7.249832E-3	1.649666E-2	-1.968861E-2	-6.046143E-1	4.448853E-1
2.030500E+10	-8.864746E-1	1.899719E-1	2.494144E-2	-7.586479E-3	1.794147E-2	-1.993942E-2	-5.981445E-1	4.450073E-1
2.052950E+10	-8.841858E-1	1.938171E-1	2.393913E-2	-9.158134E-3	1.584721E-2	-2.128029E-2	-5.968628E-1	4.466248E-1
2.075400E+10	-8.832703E-1	1.996460E-1	2.484131E-2	-5.902290E-3	1.525974E-2	-2.072620E-2	-5.934143E-1	4.519043E-1
2.097850E+10	-8.808289E-1	2.041321E-1	2.342892E-2	-8.540154E-3	1.518631E-2	-2.104282E-2	-5.838318E-1	4.544678E-1
2.120300E+10	-8.793335E-1	2.078247E-1	2.333164E-2	-7.847786E-3	1.582623E-2	-2.071190E-2	-5.855408E-1	4.514465E-1
2.142750E+10	-8.758240E-1	2.130127E-1	2.245712E-2	-9.449005E-3	1.347351E-2	-2.112865E-2	-5.816956E-1	4.606018E-1
2.165200E+10	-8.739014E-1	2.175598E-1	2.226257E-2	-6.878853E-3	1.480770E-2	-2.006626E-2	-5.750732E-1	4.605103E-1
2.187650E+10	-8.693237E-1	2.217407E-1	2.195072E-2	-8.048058E-3	1.359463E-2	-1.959324E-2	-5.748596E-1	4.622192E-1
2.210100E+10	-8.673706E-1	2.251587E-1	2.223110E-2	-6.561279E-3	1.255894E-2	-1.964188E-2	-5.686646E-1	4.689941E-1
2.232550E+10	-8.645935E-1	2.287598E-1	2.121735E-2	-8.218765E-3	1.125908E-2	-2.119732E-2	-5.623779E-1	4.711609E-1
2.255000E+10	-8.628540E-1	2.318420E-1	2.130508E-2	-9.029388E-3	1.114750E-2	-2.086258E-2	-5.600281E-1	4.718628E-1
2.277450E+10	-8.591003E-1	2.366028E-1	2.057076E-2	-5.865097E-3	1.027203E-2	-1.923180E-2	-5.543518E-1	4.769287E-1
2.299900E+10	-8.571167E-1	2.388611E-1	1.913548E-2	-7.802963E-3	8.986473E-3	-1.887131E-2	-5.487061E-1	4.778442E-1
2.322350E+10	-8.536377E-1	2.423096E-1	1.839828E-2	-8.278847E-3	9.271622E-3	-1.925278E-2	-5.445557E-1	4.780884E-1
2.344800E+10	-8.497009E-1	2.439575E-1	1.928234E-2	-6.981850E-3	7.970810E-3	-1.765728E-2	-5.443420E-1	4.831238E-1
2.367250E+10	-8.479614E-1	2.503052E-1	2.060032E-2	-6.224632E-3	7.676125E-3	-1.730919E-2	-5.357056E-1	4.853821E-1
2.389700E+10	-8.436279E-1	2.527771E-1	1.867390E-2	-7.264137E-3	7.274628E-3	-1.754093E-2	-5.331116E-1	4.841919E-1
2.412150E+10	-8.421021E-1	2.557678E-1	1.735687E-2	-7.285118E-3	6.747246E-3	-1.690006E-2	-5.256958E-1	4.916992E-1
2.434600E+10	-8.389587E-1	2.593384E-1	1.707840E-2	-6.519318E-3	6.264210E-3	-1.536512E-2	-5.213623E-1	4.931030E-1
2.457050E+10	-8.342285E-1	2.606506E-1	1.622772E-2	-4.124641E-3	3.973961E-3	-1.559639E-2	-5.187988E-1	4.909668E-1
2.479500E+10	-8.322754E-1	2.641907E-1	1.465702E-2	-5.746365E-3	4.455566E-3	-1.466560E-2	-5.135193E-1	4.971008E-1
2.501950E+10	-8.302612E-1	2.661133E-1	1.501274E-2	-3.672123E-3	2.685070E-3	-1.368713E-2	-5.021362E-1	4.972229E-1
2.524400E+10	-8.253784E-1	2.691345E-1	1.784801E-2	-3.739357E-3	4.048824E-3	-1.323366E-2	-5.021973E-1	4.963684E-1
2.546850E+10	-8.230896E-1	2.720947E-1	1.609993E-2	-4.846573E-3	4.028797E-3	-1.128387E-2	-4.969482E-1	5.007019E-1
2.569300E+10	-8.189087E-1	2.725525E-1	1.491261E-2	-2.219200E-3	4.285336E-3	-1.202869E-2	-4.902496E-1	4.989929E-1
2.591750E+10	-8.175354E-1	2.768250E-1	1.617432E-2	-4.042625E-3	3.321171E-3	-1.116037E-2	-4.888153E-1	4.988556E-1
2.614200E+10	-8.125305E-1	2.770081E-1	1.540232E-2	-2.152443E-3	4.955769E-3	-9.860516E-3	-4.875793E-1	5.051270E-1
2.636650E+10	-8.104248E-1	2.775269E-1	1.622009E-2	-1.941681E-3	2.353191E-3	-8.537769E-3	-4.810486E-1	5.067444E-1
2.659100E+10	-8.076172E-1	2.791138E-1	1.647854E-2	-1.228333E-3	3.262997E-3	-1.075172E-2	-4.739685E-1	5.086670E-1
2.681550E+10	-8.046875E-1	2.802429E-1	1.451635E-2	-9.670258E-4	3.666878E-3	-9.178162E-3	-4.730225E-1	5.076599E-1
2.704000E+10	-8.026428E-1	2.825012E-1	1.407528E-2	3.700256E-4	2.297640E-3	-7.488251E-3	-4.683228E-1	5.152588E-1
2.726450E+10	-7.995911E-1	2.819824E-1	1.347065E-2	-8.902550E-4	2.078533E-3	-4.714489E-3	-4.565430E-1	5.124207E-1
2.748900E+10	-7.985229E-1	2.869873E-1	1.458263E-2	-3.461838E-4	2.789497E-3	-4.039764E-3	-4.538879E-1	5.094299E-1
2.771350E+10	-7.953796E-1	2.879333E-1	1.458645E-2	7.138252E-4	-2.777576E-5	-2.565503E-3	-4.466858E-1	5.149231E-1
2.793800E+10	-7.920837E-1	2.871704E-1	1.480198E-2	8.234978E-4	2.552748E-3	-3.831744E-3	-4.474792E-1	5.140076E-1
2.816250E+10	-7.914429E-1	2.867737E-1	1.786423E-2	3.084183E-3	2.121449E-3	-4.224539E-3	-4.462280E-1	5.165100E-1
2.838700E+10	-7.892761E-1	2.886963E-1	1.504230E-2	3.533840E-3	5.017519E-3	-3.578663E-3	-4.369507E-1	5.178833E-1
2.861150E+10	-7.904663E-1	2.905884E-1	1.527929E-2	1.561642E-3	1.086891E-3	-6.820560E-4	-4.298096E-1	5.169067E-1
2.883600E+10	-7.882080E-1	2.926941E-1	1.331997E-2	2.356529E-3	2.431154E-3	3.743172E-5	-4.315491E-1	5.168457E-1
2.906050E+10	-7.856445E-1	2.929382E-1	1.762676E-2	1.823425E-3	1.740396E-3	7.003546E-4	-4.252014E-1	5.204773E-1
2.928500E+10	-7.847290E-1	2.957153E-1	1.746941E-2	5.683899E-3	3.015876E-3	1.374245E-3	-4.223022E-1	5.170288E-1
2.950950E+10	-7.823486E-1	2.957458E-1	1.655006E-2	6.494522E-3	4.390240E-3	2.831697E-3	-4.228210E-1	5.195007E-1
2.973400E+10	-7.829285E-1	2.917786E-1	1.713943E-2	5.448341E-3	5.386114E-3	1.437664E-3	-4.135437E-1	5.284424E-1
2.995850E+10	-7.801514E-1	2.953491E-1	1.745796E-2	1.054478E-2	4.698753E-3	2.373457E-3	-4.123840E-1	5.224609E-1
3.018300E+10	-7.787781E-1	2.949219E-1	2.159405E-2	6.673813E-3	6.202698E-3	3.293514E-3	-4.087524E-1	5.342407E-1
3.040750E+10	-7.781677E-1	2.981262E-1	1.776314E-2	6.371498E-3	7.348061E-3	2.570868E-3	-4.008789E-1	5.280151E-1
3.063200E+10	-7.763062E-1	2.986755E-1	1.820660E-2	4.549980E-3	4.993439E-3	3.473043E-3	-3.953857E-1	5.307312E-1
3.085650E+10	-7.778015E-1	3.030701E-1	1.989555E-2	4.875183E-3	6.191730E-3	6.594896E-3	-3.952332E-1	5.325623E-1
3.108100E+10	-7.768555E-1	3.050537E-1	1.953888E-2	6.217957E-3	7.142782E-3	3.365755E-3	-3.889771E-1	5.342102E-1
3.130550E+10	-7.735596E-1	3.001709E-1	1.792336E-2	5.398750E-3	7.474899E-3	5.633354E-3	-3.813782E-1	5.317078E-1
3.153000E+10	-7.767334E-1	3.029480E-1	2.292347E-2	8.868217E-3	9.679317E-3	8.998394E-3	-3.765259E-1	5.300293E-1
3.175450E+10	-7.720947E-1	3.050842E-1	1.915264E-2	7.924080E-3	1.058292E-2	9.437561E-3	-3.749390E-1	5.375671E-1
3.197900E+10	-7.738037E-1	3.054199E-1	2.161503E-2	7.648468E-3	9.096146E-3	7.128239E-3	-3.688965E-1	5.335388E-1
3.220350E+10	-7.748108E-1	3.074036E-1	2.148342E-2	7.406235E-3	1.340914E-2	8.040905E-3	-3.593445E-1	5.368347E-1
3.242800E+10	-7.755432E-1	3.092957E-1	2.087688E-2	6.236076E-3	1.241779E-2	4.549026E-3	-3.593445E-1	5.374756E-1
3.265250E+10	-7.787476E-1	3.112183E-1	2.440166E-2	9.263992E-3	1.131535E-2	1.230860E-2	-3.527832E-1	5.349426E-1
3.287700E+10	-7.721558E-1	3.119507E-1	2.313805E-2	7.337570E-3	1.335096E-2	9.665489E-3	-3.520203E-1	5.354309E-1
3.310150E+10	-7.731323E-1	3.175049E-1	2.497196E-2	1.029110E-2	1.599693E-2	8.718491E-3	-3.441162E-1	5.375977E-1
3.332600E+10	-7.714844E-1	3.189392E-1	2.449322E-2	5.383492E-3	1.333714E-2	9.466648E-3	-3.420105E-1	5.324707E-1
3.355050E+10	-7.705078E-1	3.177795E-1	2.713680E-2	9.436607E-3	1.525164E-2	1.048040E-2	-3.391418E-1	5.394592E-1
3.377500E+10	-7.705383E-1	3.219299E-1	2.519417E-2	7.592201E-3	1.853657E-2	9.656906E-3	-3.316040E-1	5.361633E-1
3.399950E+10	-7.713318E-1	3.250427E-1	2.526855E-2	5.694389E-3	1.836109E-2	9.839058E-3	-3.359680E-1	5.350647E-1
3.422400E+10	-7.742310E-1	3.266602E-1	3.054237E-2	5.693436E-3	1.677895E-2	9.435654E-3	-3.300781E-1	5.471802E-1
3.444850E+10	-7.729492E-1	3.283386E-1	2.796936E-2	9.731293E-3	1.746750E-2	1.091194E-2	-3.217468E-1	5.399170E-1
3.467300E+10	-7.714233E-1	3.312378E-1	3.030300E-2	5.145073E-3	1.924610E-2	8.476257E-3	-3.233643E-1	5.391541E-1
3.489750E+10	-7.709656E-1	3.312378E-1	2.875996E-2	5.191803E-3	2.386761E-2	9.927750E-3	-3.153992E-1	5.432434E-1
3.512200E+10	-7.701721E-1	3.333740E-1	3.188896E-2	3.940582E-3	2.452469E-2	6.448746E-3	-3.061523E-1	5.412903E-1
3.534650E+10	-7.699890E-1	3.368530E-1	2.702713E-2	7.262230E-3	2.035046E-2	8.463860E-3	-3.049927E-1	5.471191E-1
3.557100E+10	-7.683411E-1	3.385010E-1	2.802372E-2	2.275467E-3	2.477074E-2	7.445335E-3	-2.955933E-1	5.488586E-1
3.579550E+10	-7.727051E-1	3.447266E-1	2.677441E-2	4.047394E-3	2.264023E-2	5.165100E-3	-2.960815E-1	5.401917E-1
3.602000E+10	-7.684021E-1	3.442383E-1	3.063107E-2	2.129555E-3	2.298069E-2	9.625435E-3	-2.926941E-1	5.437927E-1
3.624450E+10	-7.664795E-1	3.466187E-1	3.175545E-2	1.074791E-2	2.515125E-2	8.967400E-3	-2.843628E-1	5.398254E-1
3.646900E+10	-7.668152E-1	3.518066E-1	2.977371E-2	7.194519E-3	2.598095E-2	9.345055E-3	-2.863770E-1	5.453186E-1
3.669350E+10	-7.664795E-1	3.491516E-1	3.024006E-2	9.660721E-4	2.355099E-2	7.822037E-3	-2.802429E-1	5.421448E-1
3.691800E+10	-7.653809E-1	3.540344E-1	3.029156E-2	7.330894E-3	2.392960E-2	6.215096E-3	-2.743835E-1	5.392151E-1
3.714250E+10	-7.668152E-1	3.536072E-1	3.048134E-2	5.084991E-3	2.910614E-2	7.013321E-3	-2.710876E-1	5.471802E-1
3.736700E+10	-7.634888E-1	3.590088E-1	3.083706E-2	1.296043E-3	2.879810E-2	4.695892E-3	-2.635193E-1	5.403137E-1
3.759150E+10	-7.673035E-1	3.613281E-1	3.314781E-2	4.127502E-3	2.682304E-2	6.708145E-3	-2.659912E-1	5.457764E-1
3.781600E+10	-7.608948E-1	3.666687E-1	3.689003E-2	6.774902E-3	2.937317E-2	1.354504E-2	-2.577209E-1	5.472717E-1
3.804050E+10	-7.612305E-1	3.665466E-1	3.342056E-2	3.408432E-3	3.555298E-2	3.862381E-3	-2.496033E-1	5.405273E-1
3.826500E+10	-7.633972E-1	3.705139E-1	2.864933E-2	8.219719E-3	2.826309E-2	9.580612E-3	-2.475586E-1	5.445251E-1
3.848950E+10	-7.549438E-1	3.776245E-1	3.138161E-2	3.156662E-3	2.828312E-2	2.040863E-3	-2.394409E-1	5.491943E-1
3.871400E+10	-7.588196E-1	3.765564E-1	2.941608E-2	4.832268E-3	2.580261E-2	7.389069E-3	-2.385864E-1	5.474548E-1
3.893850E+10	-7.598877E-1	3.835144E-1	3.487396E-2	8.487701E-3	2.238083E-2	3.561020E-3	-2.323303E-1	5.453491E-1
3.916300E+10	-7.619019E-1	3.827515E-1	3.713226E-2	1.047134E-3	2.632809E-2	4.194260E-3	-2.334595E-1	5.397644E-1
3.938750E+10	-7.536011E-1	3.837280E-1	3.932953E-2	4.117966E-3	3.561211E-2	2.817154E-3	-2.303772E-1	5.468445E-1
3.961200E+10	-7.562866E-1	3.817139E-1	3.624535E-2	-1.251221E-3	2.871227E-2	6.376266E-3	-2.188110E-1	5.466919E-1
