!Date: 10/28/2005, 12:34 PM

!Vgs = -6.000000E+0
!Vds = 2.000000E+0
!Ig = -4.428800E-5
!Id = 1.951900E-3

# HZ S RI R 50
1.000000E+8	9.894714E-1	-4.327393E-2	-4.767227E-2	1.386070E-2	8.778572E-4	1.414442E-2	9.725342E-1	-1.174927E-2
3.245000E+8	9.764099E-1	-1.216431E-1	-4.132843E-2	4.927063E-2	7.497787E-3	4.370499E-2	9.505920E-1	-9.744263E-2
5.490000E+8	9.575500E-1	-1.971436E-1	-3.043747E-2	7.981873E-2	1.651382E-2	7.083130E-2	9.421387E-1	-1.592102E-1
7.735000E+8	9.335022E-1	-2.706299E-1	-1.540375E-2	1.081810E-1	2.958679E-2	9.523010E-2	9.218445E-1	-2.197266E-1
9.980000E+8	9.056396E-1	-3.382874E-1	2.990723E-3	1.330872E-1	4.489899E-2	1.177521E-1	8.998413E-1	-2.734985E-1
1.222500E+9	8.724365E-1	-4.031982E-1	2.319336E-2	1.548004E-1	6.266785E-2	1.372299E-1	8.762207E-1	-3.281250E-1
1.447000E+9	8.346863E-1	-4.635010E-1	4.431152E-2	1.740189E-1	8.164978E-2	1.540680E-1	8.476257E-1	-3.782349E-1
1.671500E+9	7.941589E-1	-5.188293E-1	6.737518E-2	1.909103E-1	1.022339E-1	1.693878E-1	8.164978E-1	-4.236755E-1
1.896000E+9	7.512207E-1	-5.681458E-1	9.319305E-2	2.045822E-1	1.256256E-1	1.819916E-1	7.876587E-1	-4.656982E-1
2.120500E+9	7.069092E-1	-6.145630E-1	1.213531E-1	2.143631E-1	1.494370E-1	1.905670E-1	7.564392E-1	-5.076904E-1
2.345000E+9	6.584167E-1	-6.564636E-1	1.486816E-1	2.199020E-1	1.745987E-1	1.951675E-1	7.214661E-1	-5.459900E-1
2.569500E+9	6.120911E-1	-6.911926E-1	1.747513E-1	2.221069E-1	1.980286E-1	1.970978E-1	6.870117E-1	-5.803528E-1
2.794000E+9	5.639343E-1	-7.236938E-1	1.997833E-1	2.215881E-1	2.210770E-1	1.969681E-1	6.512756E-1	-6.119385E-1
3.018500E+9	5.160828E-1	-7.507629E-1	2.237701E-1	2.193069E-1	2.429886E-1	1.937408E-1	6.138000E-1	-6.438293E-1
3.243000E+9	4.691162E-1	-7.745972E-1	2.473526E-1	2.141495E-1	2.644043E-1	1.888580E-1	5.755615E-1	-6.691895E-1
3.467500E+9	4.226685E-1	-7.954712E-1	2.694855E-1	2.074738E-1	2.839508E-1	1.825562E-1	5.393982E-1	-6.916199E-1
3.692000E+9	3.764343E-1	-8.132935E-1	2.900848E-1	1.988373E-1	3.029175E-1	1.743927E-1	5.004272E-1	-7.151184E-1
3.916500E+9	3.305664E-1	-8.266602E-1	3.091431E-1	1.882782E-1	3.206329E-1	1.643677E-1	4.632568E-1	-7.323303E-1
4.141000E+9	2.879639E-1	-8.385620E-1	3.274689E-1	1.780548E-1	3.366241E-1	1.540375E-1	4.285278E-1	-7.488098E-1
4.365500E+9	2.466125E-1	-8.480225E-1	3.437347E-1	1.652985E-1	3.517456E-1	1.422577E-1	3.929749E-1	-7.641907E-1
4.590000E+9	2.042542E-1	-8.558655E-1	3.588257E-1	1.517487E-1	3.655548E-1	1.285553E-1	3.562012E-1	-7.776184E-1
4.814500E+9	1.649475E-1	-8.601074E-1	3.729095E-1	1.378784E-1	3.779449E-1	1.149597E-1	3.218079E-1	-7.891235E-1
5.039000E+9	1.260986E-1	-8.641663E-1	3.848419E-1	1.226959E-1	3.891754E-1	1.006622E-1	2.882996E-1	-8.002014E-1
5.263500E+9	8.874512E-2	-8.645630E-1	3.955688E-1	1.070404E-1	3.992767E-1	8.587646E-2	2.524719E-1	-8.082581E-1
5.488000E+9	5.468750E-2	-8.657227E-1	4.048920E-1	9.155273E-2	4.067993E-1	7.086182E-2	2.203674E-1	-8.151245E-1
5.712500E+9	1.901245E-2	-8.651733E-1	4.126282E-1	7.548523E-2	4.143372E-1	5.532837E-2	1.877747E-1	-8.211975E-1
5.937000E+9	-1.318359E-2	-8.619080E-1	4.198456E-1	5.882263E-2	4.193878E-1	4.020691E-2	1.549072E-1	-8.279419E-1
6.161500E+9	-4.418945E-2	-8.604126E-1	4.248047E-1	4.313660E-2	4.247589E-1	2.473450E-2	1.236267E-1	-8.312378E-1
6.386000E+9	-7.595825E-2	-8.566895E-1	4.288635E-1	2.720642E-2	4.280853E-1	9.475708E-3	9.271240E-2	-8.343201E-1
6.610500E+9	-1.039124E-1	-8.529358E-1	4.320526E-1	1.084900E-2	4.306183E-1	-5.599976E-3	6.076050E-2	-8.362122E-1
6.835000E+9	-1.332092E-1	-8.479919E-1	4.344635E-1	-3.784180E-3	4.325409E-1	-2.047729E-2	3.079224E-2	-8.358459E-1
7.059500E+9	-1.578064E-1	-8.414001E-1	4.351959E-1	-1.835632E-2	4.334564E-1	-3.330994E-2	5.187988E-3	-8.352966E-1
7.284000E+9	-1.853943E-1	-8.356628E-1	4.358673E-1	-3.381348E-2	4.332275E-1	-4.899597E-2	-2.603149E-2	-8.348389E-1
7.508500E+9	-2.119141E-1	-8.301392E-1	4.354553E-1	-4.823303E-2	4.321289E-1	-6.278992E-2	-5.410767E-2	-8.305359E-1
7.733000E+9	-2.344055E-1	-8.211670E-1	4.341736E-1	-6.254578E-2	4.305115E-1	-7.534790E-2	-7.919312E-2	-8.295898E-1
7.957500E+9	-2.583923E-1	-8.146057E-1	4.324341E-1	-7.609558E-2	4.291840E-1	-8.880615E-2	-1.085815E-1	-8.271179E-1
8.182000E+9	-2.801514E-1	-8.064270E-1	4.294128E-1	-8.973694E-2	4.264832E-1	-1.016541E-1	-1.332703E-1	-8.225098E-1
8.406500E+9	-3.011475E-1	-7.997437E-1	4.267273E-1	-1.019592E-1	4.221344E-1	-1.136627E-1	-1.591187E-1	-8.166504E-1
8.631000E+9	-3.231201E-1	-7.905273E-1	4.226532E-1	-1.148529E-1	4.191742E-1	-1.268463E-1	-1.855774E-1	-8.119507E-1
8.855500E+9	-3.419495E-1	-7.826843E-1	4.198151E-1	-1.261749E-1	4.149933E-1	-1.373596E-1	-2.095947E-1	-8.058167E-1
9.080001E+9	-3.608704E-1	-7.755432E-1	4.155273E-1	-1.381683E-1	4.104156E-1	-1.479950E-1	-2.313843E-1	-7.988892E-1
9.304500E+9	-3.808594E-1	-7.657166E-1	4.097137E-1	-1.486664E-1	4.055634E-1	-1.592865E-1	-2.553406E-1	-7.919006E-1
9.529000E+9	-3.976440E-1	-7.581482E-1	4.052277E-1	-1.594696E-1	4.002838E-1	-1.689148E-1	-2.780457E-1	-7.836304E-1
9.753500E+9	-4.151306E-1	-7.486877E-1	4.001770E-1	-1.696472E-1	3.952637E-1	-1.792145E-1	-2.979431E-1	-7.756653E-1
9.978000E+9	-4.317932E-1	-7.396851E-1	3.940430E-1	-1.791840E-1	3.888245E-1	-1.878204E-1	-3.192139E-1	-7.669678E-1
1.020250E+10	-4.477844E-1	-7.326355E-1	3.885498E-1	-1.887512E-1	3.835144E-1	-1.970825E-1	-3.405457E-1	-7.589111E-1
1.042700E+10	-4.637451E-1	-7.224426E-1	3.822327E-1	-1.978912E-1	3.763733E-1	-2.056427E-1	-3.600464E-1	-7.487793E-1
1.065150E+10	-4.788818E-1	-7.135620E-1	3.751068E-1	-2.060242E-1	3.710175E-1	-2.138977E-1	-3.785095E-1	-7.403259E-1
1.087600E+10	-4.933777E-1	-7.035828E-1	3.691406E-1	-2.143707E-1	3.645477E-1	-2.211609E-1	-3.977661E-1	-7.316284E-1
1.110050E+10	-5.075073E-1	-6.944275E-1	3.619232E-1	-2.223816E-1	3.572998E-1	-2.300262E-1	-4.162292E-1	-7.221985E-1
1.132500E+10	-5.212402E-1	-6.860962E-1	3.563538E-1	-2.291565E-1	3.503723E-1	-2.352753E-1	-4.327087E-1	-7.127991E-1
1.154950E+10	-5.345764E-1	-6.769409E-1	3.493958E-1	-2.360077E-1	3.433838E-1	-2.419891E-1	-4.535217E-1	-7.002258E-1
1.177400E+10	-5.469360E-1	-6.674500E-1	3.424072E-1	-2.430267E-1	3.370209E-1	-2.484436E-1	-4.682312E-1	-6.886902E-1
1.199850E+10	-5.608521E-1	-6.583862E-1	3.356476E-1	-2.494507E-1	3.304596E-1	-2.549744E-1	-4.840393E-1	-6.818237E-1
1.222300E+10	-5.717468E-1	-6.488342E-1	3.280640E-1	-2.550049E-1	3.232269E-1	-2.600098E-1	-5.013733E-1	-6.691895E-1
1.244750E+10	-5.838623E-1	-6.395569E-1	3.201599E-1	-2.605438E-1	3.163300E-1	-2.662964E-1	-5.162354E-1	-6.546936E-1
1.267200E+10	-5.953674E-1	-6.309814E-1	3.146057E-1	-2.660065E-1	3.090363E-1	-2.716980E-1	-5.307312E-1	-6.468811E-1
1.289650E+10	-6.044006E-1	-6.212463E-1	3.076019E-1	-2.704163E-1	3.020935E-1	-2.751160E-1	-5.457458E-1	-6.351624E-1
1.312100E+10	-6.168213E-1	-6.134949E-1	2.990417E-1	-2.759247E-1	2.945862E-1	-2.807312E-1	-5.602417E-1	-6.208191E-1
1.334550E+10	-6.264648E-1	-6.034241E-1	2.932129E-1	-2.805786E-1	2.877350E-1	-2.844696E-1	-5.720520E-1	-6.113892E-1
1.357000E+10	-6.381531E-1	-5.934448E-1	2.857056E-1	-2.846527E-1	2.793121E-1	-2.895355E-1	-5.856934E-1	-6.016541E-1
1.379450E+10	-6.462402E-1	-5.859680E-1	2.798462E-1	-2.891846E-1	2.743378E-1	-2.923584E-1	-5.993958E-1	-5.852661E-1
1.401900E+10	-6.544189E-1	-5.775146E-1	2.723694E-1	-2.924500E-1	2.682648E-1	-2.955322E-1	-6.082764E-1	-5.753479E-1
1.424350E+10	-6.649475E-1	-5.683289E-1	2.646484E-1	-2.962189E-1	2.608337E-1	-2.999573E-1	-6.238708E-1	-5.639648E-1
1.446800E+10	-6.727295E-1	-5.599670E-1	2.574768E-1	-2.989349E-1	2.532196E-1	-3.021851E-1	-6.354370E-1	-5.467529E-1
1.469250E+10	-6.800232E-1	-5.500183E-1	2.506409E-1	-3.022156E-1	2.470703E-1	-3.049927E-1	-6.436768E-1	-5.386963E-1
1.491700E+10	-6.894226E-1	-5.414124E-1	2.435150E-1	-3.051605E-1	2.394867E-1	-3.088226E-1	-6.568909E-1	-5.264587E-1
1.514150E+10	-6.985168E-1	-5.328674E-1	2.365875E-1	-3.083801E-1	2.317352E-1	-3.099060E-1	-6.674805E-1	-5.107117E-1
1.536600E+10	-7.052002E-1	-5.226746E-1	2.290497E-1	-3.106995E-1	2.251740E-1	-3.131561E-1	-6.759338E-1	-4.992981E-1
1.559050E+10	-7.130127E-1	-5.154419E-1	2.225647E-1	-3.117218E-1	2.179260E-1	-3.141632E-1	-6.861877E-1	-4.887085E-1
1.581500E+10	-7.209167E-1	-5.051575E-1	2.147827E-1	-3.150940E-1	2.116394E-1	-3.164368E-1	-6.968384E-1	-4.739075E-1
1.603950E+10	-7.281494E-1	-4.976501E-1	2.086639E-1	-3.172302E-1	2.052002E-1	-3.186188E-1	-7.035828E-1	-4.622192E-1
1.626400E+10	-7.355957E-1	-4.895630E-1	2.014771E-1	-3.179932E-1	1.982422E-1	-3.188934E-1	-7.135620E-1	-4.493408E-1
1.648850E+10	-7.422485E-1	-4.803162E-1	1.961365E-1	-3.197327E-1	1.917267E-1	-3.212738E-1	-7.216797E-1	-4.326477E-1
1.671300E+10	-7.488708E-1	-4.702759E-1	1.892548E-1	-3.221283E-1	1.859589E-1	-3.235321E-1	-7.284241E-1	-4.224854E-1
1.693750E+10	-7.547607E-1	-4.641724E-1	1.837311E-1	-3.219910E-1	1.794434E-1	-3.234863E-1	-7.382507E-1	-4.103699E-1
1.716200E+10	-7.601013E-1	-4.529419E-1	1.759033E-1	-3.232727E-1	1.728210E-1	-3.245850E-1	-7.441711E-1	-3.944092E-1
1.738650E+10	-7.669373E-1	-4.466248E-1	1.697388E-1	-3.238983E-1	1.669006E-1	-3.258057E-1	-7.502136E-1	-3.818970E-1
1.761100E+10	-7.731934E-1	-4.377747E-1	1.640930E-1	-3.253937E-1	1.607666E-1	-3.253174E-1	-7.579956E-1	-3.719788E-1
1.783550E+10	-7.796936E-1	-4.293518E-1	1.571350E-1	-3.239594E-1	1.544495E-1	-3.251190E-1	-7.665100E-1	-3.566589E-1
1.806000E+10	-7.841492E-1	-4.222107E-1	1.519012E-1	-3.263702E-1	1.483765E-1	-3.276062E-1	-7.694092E-1	-3.426819E-1
1.828450E+10	-7.895813E-1	-4.118958E-1	1.481323E-1	-3.274231E-1	1.427002E-1	-3.261414E-1	-7.757568E-1	-3.338013E-1
1.850900E+10	-7.952576E-1	-4.046936E-1	1.417389E-1	-3.276978E-1	1.371765E-1	-3.276215E-1	-7.840271E-1	-3.179016E-1
1.873350E+10	-8.008118E-1	-3.959656E-1	1.356201E-1	-3.275299E-1	1.319580E-1	-3.281555E-1	-7.867126E-1	-3.030090E-1
1.895800E+10	-8.059692E-1	-3.875427E-1	1.275330E-1	-3.288269E-1	1.264496E-1	-3.291321E-1	-7.911377E-1	-2.942810E-1
1.918250E+10	-8.108215E-1	-3.793030E-1	1.237030E-1	-3.273621E-1	1.202240E-1	-3.280334E-1	-7.975159E-1	-2.802734E-1
1.940700E+10	-8.161316E-1	-3.707275E-1	1.165009E-1	-3.263702E-1	1.136169E-1	-3.282471E-1	-8.009644E-1	-2.626343E-1
1.963150E+10	-8.194580E-1	-3.628845E-1	1.129150E-1	-3.288269E-1	1.091309E-1	-3.282776E-1	-8.039856E-1	-2.549744E-1
1.985600E+10	-8.240051E-1	-3.552246E-1	1.080933E-1	-3.265228E-1	1.035919E-1	-3.278046E-1	-8.094482E-1	-2.413025E-1
2.008050E+10	-8.281860E-1	-3.481750E-1	1.025238E-1	-3.278198E-1	9.727478E-2	-3.271942E-1	-8.124390E-1	-2.242737E-1
2.030500E+10	-8.328247E-1	-3.400574E-1	9.580994E-2	-3.250427E-1	9.393311E-2	-3.255310E-1	-8.136597E-1	-2.165222E-1
2.052950E+10	-8.372803E-1	-3.320312E-1	9.042358E-2	-3.256378E-1	8.789062E-2	-3.262482E-1	-8.186035E-1	-2.022400E-1
2.075400E+10	-8.406677E-1	-3.247375E-1	8.705139E-2	-3.253632E-1	8.302307E-2	-3.247223E-1	-8.228149E-1	-1.878967E-1
2.097850E+10	-8.440552E-1	-3.159485E-1	8.201599E-2	-3.238373E-1	7.887268E-2	-3.258972E-1	-8.217163E-1	-1.773071E-1
2.120300E+10	-8.482361E-1	-3.080139E-1	7.644653E-2	-3.211212E-1	7.281494E-2	-3.229370E-1	-8.278198E-1	-1.669922E-1
2.142750E+10	-8.533630E-1	-2.993469E-1	7.028198E-2	-3.223724E-1	6.863403E-2	-3.227692E-1	-8.312988E-1	-1.530762E-1
2.165200E+10	-8.542175E-1	-2.902222E-1	6.636047E-2	-3.209839E-1	6.365967E-2	-3.223724E-1	-8.326721E-1	-1.399841E-1
2.187650E+10	-8.574829E-1	-2.824707E-1	6.225586E-2	-3.186188E-1	5.975342E-2	-3.199463E-1	-8.337402E-1	-1.256104E-1
2.210100E+10	-8.632812E-1	-2.737732E-1	5.603027E-2	-3.197021E-1	5.451965E-2	-3.199615E-1	-8.398132E-1	-1.117859E-1
2.232550E+10	-8.657837E-1	-2.652588E-1	5.313110E-2	-3.184052E-1	5.149841E-2	-3.198242E-1	-8.374939E-1	-9.802246E-2
2.255000E+10	-8.696899E-1	-2.601624E-1	4.699707E-2	-3.166199E-1	4.730225E-2	-3.172760E-1	-8.398437E-1	-9.014893E-2
2.277450E+10	-8.693237E-1	-2.481689E-1	4.508972E-2	-3.158264E-1	3.939819E-2	-3.155212E-1	-8.435974E-1	-7.391357E-2
2.299900E+10	-8.724670E-1	-2.443542E-1	3.958130E-2	-3.169250E-1	3.778076E-2	-3.162994E-1	-8.411255E-1	-6.146240E-2
2.322350E+10	-8.761902E-1	-2.363586E-1	3.642273E-2	-3.145294E-1	3.352356E-2	-3.146362E-1	-8.440857E-1	-5.029297E-2
2.344800E+10	-8.768921E-1	-2.322083E-1	3.216553E-2	-3.132019E-1	2.937317E-2	-3.138733E-1	-8.447266E-1	-3.454590E-2
2.367250E+10	-8.809204E-1	-2.229919E-1	2.613831E-2	-3.117065E-1	2.679443E-2	-3.119812E-1	-8.413086E-1	-1.919556E-2
2.389700E+10	-8.821106E-1	-2.153931E-1	2.221680E-2	-3.121490E-1	2.119446E-2	-3.126373E-1	-8.453674E-1	-1.007080E-2
2.412150E+10	-8.852539E-1	-2.088013E-1	1.853943E-2	-3.098602E-1	1.516724E-2	-3.110657E-1	-8.403015E-1	5.828857E-3
2.434600E+10	-8.862000E-1	-1.994934E-1	1.506042E-2	-3.088531E-1	1.246643E-2	-3.110657E-1	-8.386536E-1	1.608276E-2
2.457050E+10	-8.900452E-1	-1.937866E-1	1.150513E-2	-3.084564E-1	8.026123E-3	-3.088837E-1	-8.393555E-1	2.871704E-2
2.479500E+10	-8.936768E-1	-1.869202E-1	5.996704E-3	-3.078308E-1	4.272461E-3	-3.085327E-1	-8.373108E-1	4.348755E-2
2.501950E+10	-8.942871E-1	-1.808777E-1	1.724243E-3	-3.062286E-1	-8.239746E-4	-3.056335E-1	-8.302307E-1	5.383301E-2
2.524400E+10	-8.958740E-1	-1.727905E-1	-3.433228E-3	-3.044434E-1	-4.074097E-3	-3.035889E-1	-8.307190E-1	6.350708E-2
2.546850E+10	-8.979797E-1	-1.635742E-1	-5.035400E-3	-3.036194E-1	-8.026123E-3	-3.022003E-1	-8.274841E-1	7.638550E-2
2.569300E+10	-9.003296E-1	-1.596985E-1	-9.445190E-3	-3.000793E-1	-1.042175E-2	-2.987976E-1	-8.270264E-1	8.605957E-2
2.591750E+10	-9.046021E-1	-1.492004E-1	-1.423645E-2	-2.998047E-1	-1.506042E-2	-2.989960E-1	-8.280334E-1	9.530640E-2
2.614200E+10	-9.042053E-1	-1.419067E-1	-1.577759E-2	-2.946320E-1	-1.799011E-2	-2.949371E-1	-8.271790E-1	1.112061E-1
2.636650E+10	-9.045105E-1	-1.374817E-1	-2.046204E-2	-2.946930E-1	-2.056885E-2	-2.955475E-1	-8.226929E-1	1.242371E-1
2.659100E+10	-9.049683E-1	-1.292114E-1	-2.336121E-2	-2.942963E-1	-2.464294E-2	-2.943878E-1	-8.178101E-1	1.362000E-1
2.681550E+10	-9.067078E-1	-1.234436E-1	-2.659607E-2	-2.928314E-1	-2.742004E-2	-2.928467E-1	-8.177795E-1	1.440430E-1
2.704000E+10	-9.104919E-1	-1.142883E-1	-2.934265E-2	-2.910461E-1	-3.135681E-2	-2.916260E-1	-8.157959E-1	1.626587E-1
2.726450E+10	-9.075012E-1	-1.075439E-1	-3.324890E-2	-2.928162E-1	-3.561401E-2	-2.890015E-1	-8.057861E-1	1.704102E-1
2.748900E+10	-9.109497E-1	-1.026917E-1	-3.945923E-2	-2.880859E-1	-3.924561E-2	-2.855988E-1	-8.068237E-1	1.806335E-1
2.771350E+10	-9.119873E-1	-9.213257E-2	-4.052734E-2	-2.880707E-1	-3.987122E-2	-2.863159E-1	-7.980347E-1	1.940308E-1
2.793800E+10	-9.166870E-1	-8.837891E-2	-4.431152E-2	-2.854309E-1	-4.544067E-2	-2.846222E-1	-7.976990E-1	2.019958E-1
2.816250E+10	-9.167786E-1	-8.123779E-2	-4.829407E-2	-2.835693E-1	-4.870605E-2	-2.818756E-1	-7.935791E-1	2.150269E-1
2.838700E+10	-9.146118E-1	-7.342529E-2	-5.070496E-2	-2.811127E-1	-5.113220E-2	-2.797546E-1	-7.888794E-1	2.258606E-1
2.861150E+10	-9.161072E-1	-6.622314E-2	-5.439758E-2	-2.826080E-1	-5.645752E-2	-2.781982E-1	-7.810974E-1	2.390442E-1
2.883600E+10	-9.180298E-1	-5.667114E-2	-5.834961E-2	-2.757568E-1	-5.990601E-2	-2.762909E-1	-7.784119E-1	2.442627E-1
2.906050E+10	-9.190063E-1	-5.310059E-2	-6.140137E-2	-2.731934E-1	-6.175232E-2	-2.739868E-1	-7.720337E-1	2.563782E-1
2.928500E+10	-9.180603E-1	-4.473877E-2	-6.555176E-2	-2.728729E-1	-6.651306E-2	-2.701874E-1	-7.700500E-1	2.637329E-1
2.950950E+10	-9.177246E-1	-3.781128E-2	-6.701660E-2	-2.691956E-1	-6.634521E-2	-2.706451E-1	-7.683411E-1	2.730713E-1
2.973400E+10	-9.198303E-1	-3.231812E-2	-6.977844E-2	-2.685089E-1	-6.880188E-2	-2.686310E-1	-7.593079E-1	2.881470E-1
2.995850E+10	-9.198303E-1	-2.465820E-2	-7.139587E-2	-2.695770E-1	-7.246399E-2	-2.686462E-1	-7.588501E-1	2.972107E-1
3.018300E+10	-9.203796E-1	-1.654053E-2	-7.209778E-2	-2.661743E-1	-7.623291E-2	-2.651825E-1	-7.547913E-1	3.117981E-1
3.040750E+10	-9.207153E-1	-1.531982E-2	-7.673645E-2	-2.669373E-1	-7.638550E-2	-2.616730E-1	-7.441101E-1	3.217773E-1
3.063200E+10	-9.196777E-1	-5.554199E-3	-7.746887E-2	-2.625580E-1	-8.003235E-2	-2.586365E-1	-7.425232E-1	3.331604E-1
3.085650E+10	-9.197083E-1	2.319336E-3	-8.163452E-2	-2.619476E-1	-8.386230E-2	-2.652588E-1	-7.327271E-1	3.446655E-1
3.108100E+10	-9.219666E-1	1.019287E-2	-8.856201E-2	-2.584991E-1	-8.935547E-2	-2.568665E-1	-7.213440E-1	3.506775E-1
3.130550E+10	-9.201965E-1	1.522827E-2	-9.173584E-2	-2.574310E-1	-8.691406E-2	-2.560730E-1	-7.128906E-1	3.603516E-1
3.153000E+10	-9.244995E-1	2.001953E-2	-9.403992E-2	-2.543640E-1	-9.350586E-2	-2.547607E-1	-7.098083E-1	3.709717E-1
3.175450E+10	-9.183350E-1	2.755737E-2	-9.748840E-2	-2.474976E-1	-9.608459E-2	-2.531281E-1	-7.042542E-1	3.860779E-1
3.197900E+10	-9.228821E-1	3.479004E-2	-9.815979E-2	-2.521210E-1	-9.870911E-2	-2.509308E-1	-6.932678E-1	3.969116E-1
3.220350E+10	-9.252014E-1	3.955078E-2	-9.950256E-2	-2.539062E-1	-1.031799E-1	-2.499161E-1	-6.827698E-1	4.055786E-1
3.242800E+10	-9.218445E-1	4.998779E-2	-1.069870E-1	-2.487717E-1	-1.040573E-1	-2.462082E-1	-6.760559E-1	4.155273E-1
3.265250E+10	-9.241028E-1	5.364990E-2	-1.031342E-1	-2.462234E-1	-1.075821E-1	-2.435989E-1	-6.677856E-1	4.211426E-1
3.287700E+10	-9.222107E-1	5.950928E-2	-1.064529E-1	-2.415543E-1	-1.061630E-1	-2.461548E-1	-6.610413E-1	4.307556E-1
3.310150E+10	-9.241943E-1	7.000732E-2	-1.121216E-1	-2.392502E-1	-1.135330E-1	-2.396851E-1	-6.496277E-1	4.341431E-1
3.332600E+10	-9.241943E-1	7.562256E-2	-1.143951E-1	-2.388763E-1	-1.108246E-1	-2.406845E-1	-6.424866E-1	4.400330E-1
3.355050E+10	-9.196167E-1	8.111572E-2	-1.133041E-1	-2.386856E-1	-1.141281E-1	-2.364349E-1	-6.313477E-1	4.505310E-1
3.377500E+10	-9.206848E-1	8.724976E-2	-1.163864E-1	-2.302704E-1	-1.106415E-1	-2.310410E-1	-6.251221E-1	4.552917E-1
3.399950E+10	-9.176941E-1	9.710693E-2	-1.170502E-1	-2.316513E-1	-1.182404E-1	-2.330017E-1	-6.216736E-1	4.657288E-1
3.422400E+10	-9.194946E-1	1.036377E-1	-1.173401E-1	-2.316055E-1	-1.226273E-1	-2.336273E-1	-6.154175E-1	4.816895E-1
3.444850E+10	-9.193115E-1	1.094360E-1	-1.220016E-1	-2.303238E-1	-1.205750E-1	-2.317276E-1	-6.000977E-1	4.871826E-1
3.467300E+10	-9.163818E-1	1.127319E-1	-1.223755E-1	-2.315750E-1	-1.265182E-1	-2.258911E-1	-5.950928E-1	4.892578E-1
3.489750E+10	-9.182129E-1	1.186218E-1	-1.221619E-1	-2.267303E-1	-1.298370E-1	-2.234039E-1	-5.797119E-1	5.065002E-1
3.512200E+10	-9.127808E-1	1.288757E-1	-1.310883E-1	-2.277756E-1	-1.296005E-1	-2.225647E-1	-5.702820E-1	5.087280E-1
3.534650E+10	-9.166870E-1	1.299133E-1	-1.295471E-1	-2.245560E-1	-1.309509E-1	-2.213821E-1	-5.643921E-1	5.168457E-1
3.557100E+10	-9.107361E-1	1.372070E-1	-1.325531E-1	-2.228775E-1	-1.337357E-1	-2.203369E-1	-5.482178E-1	5.339661E-1
3.579550E+10	-9.162598E-1	1.423950E-1	-1.411591E-1	-2.196045E-1	-1.367950E-1	-2.197113E-1	-5.357666E-1	5.340576E-1
3.602000E+10	-9.160461E-1	1.552429E-1	-1.395798E-1	-2.170715E-1	-1.378479E-1	-2.185364E-1	-5.256653E-1	5.361633E-1
3.624450E+10	-9.099731E-1	1.554565E-1	-1.388092E-1	-2.135620E-1	-1.443329E-1	-2.141266E-1	-5.187073E-1	5.446472E-1
3.646900E+10	-9.101257E-1	1.649170E-1	-1.469345E-1	-2.138290E-1	-1.437225E-1	-2.094498E-1	-5.074768E-1	5.551453E-1
3.669350E+10	-9.085388E-1	1.681519E-1	-1.505737E-1	-2.137375E-1	-1.490402E-1	-2.067947E-1	-4.919128E-1	5.598755E-1
3.691800E+10	-9.045715E-1	1.737671E-1	-1.515045E-1	-2.063065E-1	-1.514511E-1	-2.060013E-1	-4.795837E-1	5.661316E-1
3.714250E+10	-9.073181E-1	1.789856E-1	-1.486359E-1	-2.030182E-1	-1.543655E-1	-2.030640E-1	-4.664001E-1	5.743103E-1
3.736700E+10	-9.033203E-1	1.885986E-1	-1.555939E-1	-2.021561E-1	-1.525116E-1	-2.001801E-1	-4.544373E-1	5.733948E-1
3.759150E+10	-9.010620E-1	1.943665E-1	-1.558151E-1	-2.039795E-1	-1.555481E-1	-2.023468E-1	-4.421692E-1	5.854187E-1
3.781600E+10	-8.993225E-1	2.022705E-1	-1.567688E-1	-1.987457E-1	-1.595688E-1	-2.022552E-1	-4.349060E-1	5.874023E-1
3.804050E+10	-9.022217E-1	2.057495E-1	-1.618118E-1	-1.976624E-1	-1.586990E-1	-1.943970E-1	-4.166260E-1	5.968323E-1
3.826500E+10	-8.965759E-1	2.124634E-1	-1.642838E-1	-1.935501E-1	-1.639557E-1	-1.927414E-1	-4.065247E-1	5.995789E-1
3.848950E+10	-8.992004E-1	2.150574E-1	-1.667099E-1	-1.877365E-1	-1.692963E-1	-1.918030E-1	-3.897400E-1	6.061401E-1
3.871400E+10	-8.949585E-1	2.179565E-1	-1.670303E-1	-1.890488E-1	-1.662903E-1	-1.867142E-1	-3.718567E-1	6.030884E-1
3.893850E+10	-8.927612E-1	2.286072E-1	-1.675110E-1	-1.838455E-1	-1.696091E-1	-1.855927E-1	-3.585815E-1	6.058655E-1
