!Date: 10/28/2005, 12:34 PM

!Vgs = -2.000000E+0
!Vds = 4.000000E+0
!Ig = -1.372900E-5
!Id = 5.701400E-1

# HZ S RI R 50
1.000000E+8	9.555359E-1	-2.313232E-1	-1.101221E+1	7.299805E-1	2.500057E-3	1.078224E-2	1.019096E-1	-9.143066E-2
3.245000E+8	7.138977E-1	-6.275940E-1	-9.321777E+0	3.861328E+0	1.241970E-2	2.919102E-2	-1.004562E-1	-2.033157E-1
5.490000E+8	3.932495E-1	-8.491516E-1	-7.277344E+0	5.284424E+0	2.759361E-2	3.666306E-2	-1.667404E-1	-2.361526E-1
7.735000E+8	1.041260E-1	-9.159851E-1	-5.467285E+0	5.693115E+0	4.129601E-2	3.811836E-2	-2.586670E-1	-2.647705E-1
9.980000E+8	-1.226196E-1	-9.014282E-1	-4.051758E+0	5.573730E+0	5.170059E-2	3.663445E-2	-3.236542E-1	-2.439423E-1
1.222500E+9	-2.964783E-1	-8.535156E-1	-2.997559E+0	5.272705E+0	5.860138E-2	3.326416E-2	-3.634491E-1	-2.318726E-1
1.447000E+9	-4.245605E-1	-7.944336E-1	-2.218994E+0	4.900879E+0	6.412125E-2	2.943039E-2	-4.012604E-1	-2.120514E-1
1.671500E+9	-5.202637E-1	-7.333984E-1	-1.647705E+0	4.526367E+0	6.818771E-2	2.577972E-2	-4.254761E-1	-1.949005E-1
1.896000E+9	-5.935669E-1	-6.737976E-1	-1.227539E+0	4.175781E+0	7.157516E-2	2.248383E-2	-4.451752E-1	-1.768188E-1
2.120500E+9	-6.476440E-1	-6.204224E-1	-9.057617E-1	3.864868E+0	7.381821E-2	1.907349E-2	-4.599152E-1	-1.625366E-1
2.345000E+9	-6.903076E-1	-5.683594E-1	-6.495361E-1	3.575317E+0	7.566833E-2	1.581192E-2	-4.724426E-1	-1.453094E-1
2.569500E+9	-7.212524E-1	-5.242004E-1	-4.509277E-1	3.315918E+0	7.688904E-2	1.247025E-2	-4.796600E-1	-1.325226E-1
2.794000E+9	-7.484741E-1	-4.865417E-1	-2.973633E-1	3.093018E+0	7.803345E-2	1.010895E-2	-4.875488E-1	-1.215363E-1
3.018500E+9	-7.686768E-1	-4.508057E-1	-1.707764E-1	2.883911E+0	7.859802E-2	7.587433E-3	-4.923248E-1	-1.084290E-1
3.243000E+9	-7.868042E-1	-4.177551E-1	-6.567383E-2	2.704102E+0	7.905197E-2	5.409241E-3	-4.959412E-1	-1.009674E-1
3.467500E+9	-8.019409E-1	-3.896790E-1	2.001953E-2	2.542603E+0	7.924652E-2	3.456116E-3	-5.015564E-1	-9.112549E-2
3.692000E+9	-8.137207E-1	-3.635254E-1	9.594727E-2	2.394165E+0	7.989120E-2	1.354218E-3	-5.029297E-1	-8.425903E-2
3.916500E+9	-8.245850E-1	-3.380127E-1	1.555176E-1	2.257202E+0	7.955551E-2	-1.045227E-3	-5.080872E-1	-7.757568E-2
4.141000E+9	-8.330688E-1	-3.151855E-1	2.067871E-1	2.134888E+0	7.987213E-2	-3.154755E-3	-5.096741E-1	-6.881714E-2
4.365500E+9	-8.391724E-1	-2.950134E-1	2.506104E-1	2.022461E+0	7.986069E-2	-4.508972E-3	-5.109253E-1	-6.372070E-2
4.590000E+9	-8.459473E-1	-2.767639E-1	2.884521E-1	1.917297E+0	8.003998E-2	-5.542755E-3	-5.144043E-1	-5.645752E-2
4.814500E+9	-8.522644E-1	-2.593384E-1	3.187256E-1	1.821777E+0	7.964706E-2	-7.671356E-3	-5.155029E-1	-5.117798E-2
5.039000E+9	-8.563843E-1	-2.418213E-1	3.457642E-1	1.734863E+0	7.983017E-2	-8.956909E-3	-5.173645E-1	-4.614258E-2
5.263500E+9	-8.605042E-1	-2.254639E-1	3.703003E-1	1.653748E+0	7.960892E-2	-1.093292E-2	-5.189209E-1	-3.961182E-2
5.488000E+9	-8.629761E-1	-2.120972E-1	3.916626E-1	1.579712E+0	7.931137E-2	-1.253891E-2	-5.203247E-1	-3.445435E-2
5.712500E+9	-8.671265E-1	-1.984253E-1	4.107666E-1	1.506226E+0	7.903671E-2	-1.355743E-2	-5.214539E-1	-3.002930E-2
5.937000E+9	-8.696899E-1	-1.845093E-1	4.254761E-1	1.440063E+0	7.916260E-2	-1.509857E-2	-5.221863E-1	-2.575684E-2
6.161500E+9	-8.718262E-1	-1.729126E-1	4.405518E-1	1.381531E+0	7.833481E-2	-1.669312E-2	-5.235901E-1	-1.925659E-2
6.386000E+9	-8.748779E-1	-1.607361E-1	4.526978E-1	1.322327E+0	7.788849E-2	-1.810837E-2	-5.220947E-1	-1.556396E-2
6.610500E+9	-8.759460E-1	-1.498108E-1	4.640503E-1	1.267761E+0	7.767868E-2	-1.942444E-2	-5.249939E-1	-1.379395E-2
6.835000E+9	-8.784790E-1	-1.393433E-1	4.735718E-1	1.213440E+0	7.723999E-2	-2.084351E-2	-5.252380E-1	-5.126953E-3
7.059500E+9	-8.791199E-1	-1.295471E-1	4.794312E-1	1.164795E+0	7.725525E-2	-2.231979E-2	-5.216980E-1	-5.310059E-3
7.284000E+9	-8.799133E-1	-1.197510E-1	4.857178E-1	1.120117E+0	7.657242E-2	-2.373886E-2	-5.268860E-1	-1.037598E-3
7.508500E+9	-8.818054E-1	-1.098328E-1	4.902344E-1	1.075928E+0	7.620239E-2	-2.499008E-2	-5.219421E-1	2.960205E-3
7.733000E+9	-8.815613E-1	-1.004639E-1	4.957886E-1	1.035339E+0	7.549667E-2	-2.553940E-2	-5.255737E-1	3.906250E-3
7.957500E+9	-8.829956E-1	-9.152222E-2	5.018005E-1	9.970398E-1	7.514572E-2	-2.645874E-2	-5.262451E-1	9.735107E-3
8.182000E+9	-8.830872E-1	-8.306885E-2	5.064697E-1	9.597168E-1	7.472229E-2	-2.844238E-2	-5.289001E-1	1.141357E-2
8.406500E+9	-8.831482E-1	-7.595825E-2	5.080566E-1	9.231567E-1	7.371902E-2	-2.984238E-2	-5.263367E-1	1.821899E-2
8.631000E+9	-8.848267E-1	-6.747437E-2	5.128479E-1	8.881836E-1	7.322693E-2	-3.059769E-2	-5.272217E-1	1.885986E-2
8.855500E+9	-8.848877E-1	-6.088257E-2	5.142212E-1	8.544006E-1	7.204819E-2	-3.135681E-2	-5.279236E-1	2.444458E-2
9.080001E+9	-8.841858E-1	-5.349731E-2	5.148010E-1	8.239441E-1	7.124710E-2	-3.276062E-2	-5.271606E-1	2.859497E-2
9.304500E+9	-8.844299E-1	-4.403687E-2	5.149231E-1	7.946167E-1	7.098389E-2	-3.422928E-2	-5.269165E-1	2.960205E-2
9.529000E+9	-8.847656E-1	-3.906250E-2	5.162659E-1	7.648621E-1	6.972504E-2	-3.516769E-2	-5.290222E-1	3.491211E-2
9.753500E+9	-8.854980E-1	-3.125000E-2	5.161743E-1	7.367554E-1	6.950760E-2	-3.571320E-2	-5.269165E-1	3.796387E-2
9.978000E+9	-8.843994E-1	-2.545166E-2	5.164185E-1	7.112427E-1	6.847763E-2	-3.703308E-2	-5.275574E-1	3.991699E-2
1.020250E+10	-8.861694E-1	-1.889038E-2	5.166016E-1	6.848755E-1	6.768036E-2	-3.775787E-2	-5.274048E-1	4.425049E-2
1.042700E+10	-8.860168E-1	-1.202393E-2	5.160828E-1	6.612549E-1	6.711960E-2	-3.875732E-2	-5.266113E-1	4.733276E-2
1.065150E+10	-8.848877E-1	-5.798340E-3	5.144043E-1	6.376038E-1	6.620026E-2	-3.908539E-2	-5.266724E-1	4.940796E-2
1.087600E+10	-8.853149E-1	1.525879E-4	5.136414E-1	6.150208E-1	6.560135E-2	-4.071426E-2	-5.270996E-1	5.242920E-2
1.110050E+10	-8.853149E-1	6.866455E-3	5.123901E-1	5.926819E-1	6.448746E-2	-4.164505E-2	-5.262146E-1	5.618286E-2
1.132500E+10	-8.838806E-1	1.248169E-2	5.110168E-1	5.718384E-1	6.299973E-2	-4.242706E-2	-5.256958E-1	5.722046E-2
1.154950E+10	-8.838196E-1	1.821899E-2	5.101013E-1	5.513000E-1	6.268311E-2	-4.181290E-2	-5.287781E-1	6.152344E-2
1.177400E+10	-8.828735E-1	2.365112E-2	5.071411E-1	5.318298E-1	6.247902E-2	-4.421043E-2	-5.264587E-1	6.475830E-2
1.199850E+10	-8.821716E-1	2.908325E-2	5.057373E-1	5.132141E-1	6.115150E-2	-4.413223E-2	-5.263062E-1	6.735229E-2
1.222300E+10	-8.822937E-1	3.482056E-2	5.033875E-1	4.948425E-1	6.001472E-2	-4.461861E-2	-5.267639E-1	6.912231E-2
1.244750E+10	-8.815613E-1	3.900146E-2	5.006409E-1	4.761353E-1	5.894852E-2	-4.570389E-2	-5.259399E-1	7.333374E-2
1.267200E+10	-8.823242E-1	4.522705E-2	4.982758E-1	4.593353E-1	5.823898E-2	-4.592514E-2	-5.249634E-1	7.385254E-2
1.289650E+10	-8.802490E-1	4.946899E-2	4.944305E-1	4.434967E-1	5.741692E-2	-4.677010E-2	-5.279846E-1	7.662964E-2
1.312100E+10	-8.802185E-1	5.395508E-2	4.912262E-1	4.270020E-1	5.635071E-2	-4.746246E-2	-5.267944E-1	8.139038E-2
1.334550E+10	-8.794250E-1	5.993652E-2	4.890900E-1	4.111633E-1	5.565071E-2	-4.796410E-2	-5.249329E-1	8.319092E-2
1.357000E+10	-8.782959E-1	6.353760E-2	4.865417E-1	3.959351E-1	5.501366E-2	-4.850006E-2	-5.252075E-1	8.258057E-2
1.379450E+10	-8.782349E-1	6.967163E-2	4.809723E-1	3.837280E-1	5.362892E-2	-4.971695E-2	-5.278931E-1	8.923340E-2
1.401900E+10	-8.774414E-1	7.357788E-2	4.795380E-1	3.699951E-1	5.347633E-2	-4.971313E-2	-5.241394E-1	9.063721E-2
1.424350E+10	-8.763428E-1	7.855225E-2	4.755402E-1	3.556671E-1	5.188370E-2	-4.971695E-2	-5.273132E-1	9.396362E-2
1.446800E+10	-8.757629E-1	8.340454E-2	4.743958E-1	3.429718E-1	5.104256E-2	-5.095100E-2	-5.254822E-1	1.002197E-1
1.469250E+10	-8.749695E-1	8.880615E-2	4.703064E-1	3.299255E-1	4.990768E-2	-5.206871E-2	-5.217896E-1	1.011047E-1
1.491700E+10	-8.733215E-1	9.240723E-2	4.665222E-1	3.168030E-1	4.855156E-2	-5.180359E-2	-5.245056E-1	1.003723E-1
1.514150E+10	-8.725891E-1	9.790039E-2	4.624939E-1	3.045959E-1	4.801941E-2	-5.159378E-2	-5.253906E-1	1.066589E-1
1.536600E+10	-8.714905E-1	1.026917E-1	4.590302E-1	2.929993E-1	4.743195E-2	-5.361938E-2	-5.214233E-1	1.084900E-1
1.559050E+10	-8.710022E-1	1.059265E-1	4.555054E-1	2.815552E-1	4.679489E-2	-5.313683E-2	-5.219116E-1	1.078796E-1
1.581500E+10	-8.698730E-1	1.109009E-1	4.503937E-1	2.709503E-1	4.572105E-2	-5.278778E-2	-5.232849E-1	1.131897E-1
1.603950E+10	-8.675842E-1	1.150818E-1	4.489899E-1	2.601776E-1	4.391098E-2	-5.360985E-2	-5.212402E-1	1.155701E-1
1.626400E+10	-8.677368E-1	1.189880E-1	4.439850E-1	2.493591E-1	4.340553E-2	-5.443382E-2	-5.234375E-1	1.161194E-1
1.648850E+10	-8.664551E-1	1.230774E-1	4.395447E-1	2.399597E-1	4.146194E-2	-5.531883E-2	-5.238342E-1	1.221619E-1
1.671300E+10	-8.662720E-1	1.283264E-1	4.367065E-1	2.302856E-1	4.119110E-2	-5.502892E-2	-5.215454E-1	1.237183E-1
1.693750E+10	-8.647766E-1	1.309509E-1	4.334717E-1	2.215271E-1	3.977585E-2	-5.588531E-2	-5.218506E-1	1.237488E-1
1.716200E+10	-8.632812E-1	1.362305E-1	4.296417E-1	2.125702E-1	3.888321E-2	-5.542183E-2	-5.232849E-1	1.302490E-1
1.738650E+10	-8.623047E-1	1.412354E-1	4.248810E-1	2.037811E-1	3.784370E-2	-5.573463E-2	-5.204773E-1	1.330261E-1
1.761100E+10	-8.622742E-1	1.445618E-1	4.225159E-1	1.954193E-1	3.718948E-2	-5.629158E-2	-5.233765E-1	1.338806E-1
1.783550E+10	-8.598022E-1	1.489868E-1	4.169006E-1	1.865997E-1	3.612900E-2	-5.527115E-2	-5.234680E-1	1.392517E-1
1.806000E+10	-8.597412E-1	1.527405E-1	4.139862E-1	1.791687E-1	3.526115E-2	-5.671883E-2	-5.211182E-1	1.427307E-1
1.828450E+10	-8.583679E-1	1.561584E-1	4.100494E-1	1.714020E-1	3.377342E-2	-5.681610E-2	-5.205383E-1	1.415405E-1
1.850900E+10	-8.568115E-1	1.605225E-1	4.080505E-1	1.646118E-1	3.177261E-2	-5.765343E-2	-5.218811E-1	1.468811E-1
1.873350E+10	-8.551941E-1	1.644287E-1	4.030151E-1	1.566315E-1	3.195572E-2	-5.659676E-2	-5.180969E-1	1.521912E-1
1.895800E+10	-8.541565E-1	1.657104E-1	3.983917E-1	1.501923E-1	3.113747E-2	-5.723572E-2	-5.184021E-1	1.503601E-1
1.918250E+10	-8.524170E-1	1.711426E-1	3.966980E-1	1.411133E-1	2.963257E-2	-5.672836E-2	-5.193176E-1	1.532898E-1
1.940700E+10	-8.526306E-1	1.741028E-1	3.912659E-1	1.360779E-1	2.818108E-2	-5.754471E-2	-5.156250E-1	1.621399E-1
1.963150E+10	-8.507080E-1	1.766052E-1	3.869934E-1	1.283264E-1	2.699089E-2	-5.807495E-2	-5.144958E-1	1.594849E-1
1.985600E+10	-8.491516E-1	1.816101E-1	3.838043E-1	1.232300E-1	2.664566E-2	-5.777740E-2	-5.183716E-1	1.630554E-1
2.008050E+10	-8.462219E-1	1.850281E-1	3.799744E-1	1.169281E-1	2.560234E-2	-5.819130E-2	-5.169983E-1	1.683960E-1
2.030500E+10	-8.478394E-1	1.882935E-1	3.771973E-1	1.109924E-1	2.447128E-2	-5.702019E-2	-5.137024E-1	1.681213E-1
2.052950E+10	-8.449097E-1	1.916504E-1	3.719330E-1	1.063385E-1	2.193642E-2	-5.776787E-2	-5.157776E-1	1.719360E-1
2.075400E+10	-8.429871E-1	1.949463E-1	3.693390E-1	1.000824E-1	2.233124E-2	-5.666924E-2	-5.155334E-1	1.778870E-1
2.097850E+10	-8.425293E-1	1.984863E-1	3.658905E-1	9.648132E-2	2.064896E-2	-5.653954E-2	-5.114746E-1	1.801453E-1
2.120300E+10	-8.383484E-1	2.001038E-1	3.605042E-1	9.060669E-2	1.878166E-2	-5.617905E-2	-5.137634E-1	1.773071E-1
2.142750E+10	-8.391418E-1	2.054443E-1	3.581238E-1	8.419800E-2	1.807785E-2	-5.839920E-2	-5.162659E-1	1.848145E-1
2.165200E+10	-8.359680E-1	2.094116E-1	3.590546E-1	8.021545E-2	1.721001E-2	-5.724716E-2	-5.124207E-1	1.879272E-1
2.187650E+10	-8.355408E-1	2.135315E-1	3.510437E-1	7.325745E-2	1.682281E-2	-5.576134E-2	-5.141602E-1	1.906433E-1
2.210100E+10	-8.346863E-1	2.176819E-1	3.497925E-1	7.275391E-2	1.553345E-2	-5.617332E-2	-5.155640E-1	1.963196E-1
2.232550E+10	-8.312683E-1	2.193604E-1	3.467865E-1	6.788635E-2	1.318359E-2	-5.627060E-2	-5.103149E-1	1.996155E-1
2.255000E+10	-8.327637E-1	2.211304E-1	3.403015E-1	6.439209E-2	1.292610E-2	-5.580711E-2	-5.092773E-1	2.022095E-1
2.277450E+10	-8.297424E-1	2.269592E-1	3.394775E-1	5.941772E-2	1.179504E-2	-5.550003E-2	-5.071411E-1	2.052307E-1
2.299900E+10	-8.278503E-1	2.299805E-1	3.354645E-1	5.673218E-2	1.098061E-2	-5.697823E-2	-5.064392E-1	2.070312E-1
2.322350E+10	-8.276062E-1	2.327576E-1	3.329620E-1	4.988098E-2	1.057816E-2	-5.647659E-2	-5.058899E-1	2.100525E-1
2.344800E+10	-8.250427E-1	2.341003E-1	3.296509E-1	4.925537E-2	7.780075E-3	-5.444717E-2	-5.086060E-1	2.154846E-1
2.367250E+10	-8.237000E-1	2.387695E-1	3.263245E-1	4.473877E-2	7.225037E-3	-5.466652E-2	-5.017090E-1	2.192383E-1
2.389700E+10	-8.208923E-1	2.396240E-1	3.222656E-1	3.945923E-2	8.089066E-3	-5.355453E-2	-5.030212E-1	2.191467E-1
2.412150E+10	-8.201294E-1	2.433167E-1	3.195343E-1	3.767395E-2	4.013062E-3	-5.333519E-2	-5.017090E-1	2.281494E-1
2.434600E+10	-8.180542E-1	2.492371E-1	3.167877E-1	3.359985E-2	3.810883E-3	-5.448532E-2	-4.982910E-1	2.274170E-1
2.457050E+10	-8.157349E-1	2.496948E-1	3.147430E-1	2.819824E-2	3.293991E-3	-5.050850E-2	-4.994202E-1	2.292480E-1
2.479500E+10	-8.139954E-1	2.541504E-1	3.131714E-1	2.738953E-2	1.796722E-3	-5.337715E-2	-4.952393E-1	2.367859E-1
2.501950E+10	-8.114014E-1	2.571106E-1	3.091583E-1	2.314758E-2	1.445770E-3	-5.048752E-2	-4.910736E-1	2.377167E-1
2.524400E+10	-8.111267E-1	2.591553E-1	3.070221E-1	2.171326E-2	-1.810074E-3	-4.984093E-2	-4.910889E-1	2.362518E-1
2.546850E+10	-8.100891E-1	2.640381E-1	3.041534E-1	2.163696E-2	-3.379822E-3	-4.949188E-2	-4.906006E-1	2.450867E-1
2.569300E+10	-8.059082E-1	2.639160E-1	3.023224E-1	1.753235E-2	-3.599167E-3	-4.724503E-2	-4.887543E-1	2.427368E-1
2.591750E+10	-8.044434E-1	2.702332E-1	3.009338E-1	1.551819E-2	-4.104614E-3	-4.854584E-2	-4.874420E-1	2.454987E-1
2.614200E+10	-8.011475E-1	2.715454E-1	2.967682E-1	1.489258E-2	-5.008698E-3	-4.790306E-2	-4.905548E-1	2.532654E-1
2.636650E+10	-8.021545E-1	2.732239E-1	2.972565E-1	1.089478E-2	-4.566193E-3	-4.610252E-2	-4.880219E-1	2.572174E-1
2.659100E+10	-7.986450E-1	2.774658E-1	2.950745E-1	8.666992E-3	-6.595612E-3	-4.654312E-2	-4.841461E-1	2.601776E-1
2.681550E+10	-7.973938E-1	2.784119E-1	2.929077E-1	6.576538E-3	-6.086349E-3	-4.489899E-2	-4.859772E-1	2.601013E-1
2.704000E+10	-7.970581E-1	2.827148E-1	2.895355E-1	4.272461E-3	-7.898331E-3	-4.341888E-2	-4.826508E-1	2.701416E-1
2.726450E+10	-7.922058E-1	2.835388E-1	2.896576E-1	1.281738E-3	-9.176254E-3	-4.294205E-2	-4.747772E-1	2.724609E-1
2.748900E+10	-7.908325E-1	2.850952E-1	2.855377E-1	-1.205444E-3	-9.906769E-3	-4.220581E-2	-4.805298E-1	2.713776E-1
2.771350E+10	-7.884827E-1	2.868652E-1	2.855682E-1	-1.296997E-3	-8.581161E-3	-4.290771E-2	-4.758301E-1	2.756805E-1
2.793800E+10	-7.858887E-1	2.926636E-1	2.862396E-1	-6.637573E-3	-1.163673E-2	-3.780556E-2	-4.756927E-1	2.764740E-1
2.816250E+10	-7.876282E-1	2.917480E-1	2.805481E-1	-9.735107E-3	-1.244164E-2	-4.072762E-2	-4.724731E-1	2.794647E-1
2.838700E+10	-7.819824E-1	2.946167E-1	2.803497E-1	-9.994507E-3	-1.327133E-2	-3.729439E-2	-4.726715E-1	2.864685E-1
2.861150E+10	-7.819824E-1	3.005371E-1	2.787018E-1	-1.237488E-2	-1.527977E-2	-3.570747E-2	-4.672852E-1	2.836914E-1
2.883600E+10	-7.796326E-1	2.982178E-1	2.765808E-1	-1.506042E-2	-1.331711E-2	-3.492355E-2	-4.662018E-1	2.873688E-1
2.906050E+10	-7.780762E-1	3.013611E-1	2.744141E-1	-1.487732E-2	-1.488876E-2	-3.475189E-2	-4.629974E-1	2.928467E-1
2.928500E+10	-7.789917E-1	3.053589E-1	2.755585E-1	-1.795959E-2	-1.575851E-2	-3.253365E-2	-4.637299E-1	2.980652E-1
2.950950E+10	-7.750549E-1	3.083191E-1	2.767334E-1	-2.293396E-2	-1.886559E-2	-2.972126E-2	-4.631500E-1	3.002014E-1
2.973400E+10	-7.733765E-1	3.084717E-1	2.752228E-1	-2.388000E-2	-1.718712E-2	-2.974319E-2	-4.609375E-1	3.041229E-1
2.995850E+10	-7.689209E-1	3.123779E-1	2.759399E-1	-2.481079E-2	-1.660156E-2	-3.011799E-2	-4.592590E-1	3.075867E-1
3.018300E+10	-7.687073E-1	3.131409E-1	2.705994E-1	-2.857971E-2	-1.525116E-2	-2.879143E-2	-4.553528E-1	3.201294E-1
3.040750E+10	-7.652893E-1	3.154602E-1	2.716827E-1	-2.798462E-2	-1.701832E-2	-2.601242E-2	-4.548035E-1	3.172455E-1
3.063200E+10	-7.664185E-1	3.137207E-1	2.682953E-1	-3.190613E-2	-1.634693E-2	-2.901459E-2	-4.538269E-1	3.240204E-1
3.085650E+10	-7.612000E-1	3.202515E-1	2.709656E-1	-3.433228E-2	-1.814938E-2	-2.836704E-2	-4.491577E-1	3.261871E-1
3.108100E+10	-7.622986E-1	3.199158E-1	2.700806E-1	-3.720093E-2	-1.923561E-2	-2.616215E-2	-4.450226E-1	3.335114E-1
3.130550E+10	-7.593994E-1	3.225098E-1	2.656860E-1	-4.096985E-2	-1.431084E-2	-1.793003E-2	-4.409943E-1	3.323669E-1
3.153000E+10	-7.589722E-1	3.266296E-1	2.677155E-1	-4.214478E-2	-1.771355E-2	-2.180862E-2	-4.422302E-1	3.359680E-1
3.175450E+10	-7.534790E-1	3.262939E-1	2.651825E-1	-3.782654E-2	-1.718712E-2	-2.355766E-2	-4.384003E-1	3.408813E-1
3.197900E+10	-7.526550E-1	3.293457E-1	2.637329E-1	-4.830933E-2	-1.934433E-2	-2.239513E-2	-4.297180E-1	3.470306E-1
3.220350E+10	-7.471924E-1	3.311768E-1	2.666473E-1	-5.242920E-2	-1.879883E-2	-1.833057E-2	-4.260712E-1	3.528290E-1
3.242800E+10	-7.548218E-1	3.358459E-1	2.651978E-1	-5.360413E-2	-1.624775E-2	-1.517582E-2	-4.235229E-1	3.532867E-1
3.265250E+10	-7.499390E-1	3.359985E-1	2.655029E-1	-5.328369E-2	-1.899052E-2	-1.372528E-2	-4.209442E-1	3.563080E-1
3.287700E+10	-7.434998E-1	3.348999E-1	2.659149E-1	-5.342102E-2	-1.993847E-2	-1.381207E-2	-4.179077E-1	3.584137E-1
3.310150E+10	-7.454834E-1	3.382263E-1	2.618561E-1	-6.330872E-2	-2.293205E-2	-1.185131E-2	-4.107666E-1	3.631897E-1
3.332600E+10	-7.410583E-1	3.382568E-1	2.604370E-1	-6.338501E-2	-1.911354E-2	-1.029491E-2	-4.092407E-1	3.657379E-1
3.355050E+10	-7.414246E-1	3.430786E-1	2.630005E-1	-6.831360E-2	-2.005672E-2	-1.175690E-2	-4.115906E-1	3.686676E-1
3.377500E+10	-7.371216E-1	3.447266E-1	2.624054E-1	-6.781006E-2	-1.392365E-2	-7.596970E-3	-4.035950E-1	3.744202E-1
3.399950E+10	-7.378540E-1	3.438416E-1	2.642059E-1	-7.241821E-2	-1.686764E-2	-5.925179E-3	-4.088745E-1	3.734589E-1
3.422400E+10	-7.369995E-1	3.493042E-1	2.624664E-1	-7.600403E-2	-1.673317E-2	-5.247116E-3	-4.009705E-1	3.858185E-1
3.444850E+10	-7.350159E-1	3.492432E-1	2.614288E-1	-8.116150E-2	-1.731968E-2	-2.253532E-3	-3.891907E-1	3.844452E-1
3.467300E+10	-7.339783E-1	3.491211E-1	2.669830E-1	-7.800293E-2	-1.066923E-2	-5.463600E-3	-3.910980E-1	3.876343E-1
3.489750E+10	-7.337341E-1	3.508606E-1	2.606354E-1	-8.283997E-2	-1.595211E-2	-1.878738E-3	-3.888397E-1	3.945618E-1
3.512200E+10	-7.322083E-1	3.529663E-1	2.604370E-1	-9.178162E-2	-1.289225E-2	-4.590988E-3	-3.791504E-1	3.914948E-1
3.534650E+10	-7.305298E-1	3.548889E-1	2.567902E-1	-9.318542E-2	-1.668358E-2	1.599312E-3	-3.754883E-1	4.035034E-1
3.557100E+10	-7.277222E-1	3.540344E-1	2.579651E-1	-9.709167E-2	-1.373577E-2	-1.379490E-3	-3.654175E-1	4.049377E-1
3.579550E+10	-7.236023E-1	3.577881E-1	2.593536E-1	-1.025696E-1	-9.016514E-3	2.128124E-3	-3.621368E-1	4.110413E-1
3.602000E+10	-7.238464E-1	3.596191E-1	2.527161E-1	-1.040344E-1	-1.320982E-2	6.044388E-3	-3.584747E-1	4.115906E-1
3.624450E+10	-7.232056E-1	3.598328E-1	2.572784E-1	-1.068420E-1	-1.259232E-2	1.409054E-3	-3.540497E-1	4.128418E-1
3.646900E+10	-7.200317E-1	3.633423E-1	2.477264E-1	-1.112900E-1	-8.664608E-3	2.080917E-3	-3.528900E-1	4.212494E-1
3.669350E+10	-7.207336E-1	3.657837E-1	2.503052E-1	-1.166077E-1	-9.427547E-3	7.345200E-3	-3.369141E-1	4.181519E-1
3.691800E+10	-7.204895E-1	3.681335E-1	2.518311E-1	-1.185150E-1	-7.576227E-3	7.290602E-3	-3.327484E-1	4.263153E-1
3.714250E+10	-7.184143E-1	3.647766E-1	2.455292E-1	-1.205978E-1	-7.515430E-3	7.942200E-3	-3.330841E-1	4.312897E-1
3.736700E+10	-7.143555E-1	3.689270E-1	2.423859E-1	-1.300354E-1	-1.015377E-2	8.032322E-3	-3.258514E-1	4.285583E-1
3.759150E+10	-7.168274E-1	3.708801E-1	2.462769E-1	-1.283798E-1	-6.352663E-3	7.023811E-3	-3.205719E-1	4.322968E-1
3.781600E+10	-7.112427E-1	3.722534E-1	2.384109E-1	-1.373138E-1	-5.660057E-3	9.074688E-3	-3.161163E-1	4.349365E-1
3.804050E+10	-7.167053E-1	3.723145E-1	2.424011E-1	-1.384048E-1	-7.113457E-3	9.153366E-3	-3.023682E-1	4.356537E-1
3.826500E+10	-7.077332E-1	3.743591E-1	2.377777E-1	-1.426468E-1	-3.825188E-3	1.130104E-2	-2.927399E-1	4.384308E-1
3.848950E+10	-7.033691E-1	3.786316E-1	2.396545E-1	-1.504135E-1	-3.000259E-3	1.158571E-2	-2.826843E-1	4.414062E-1
3.871400E+10	-7.045593E-1	3.770447E-1	2.374954E-1	-1.491547E-1	-6.685257E-4	1.845074E-2	-2.805481E-1	4.387970E-1
3.893850E+10	-7.068176E-1	3.756409E-1	2.356415E-1	-1.567154E-1	2.031326E-4	1.166821E-2	-2.697906E-1	4.448853E-1
3.916300E+10	-7.057190E-1	3.829041E-1	2.341843E-1	-1.573715E-1	3.581047E-4	1.367664E-2	-2.684937E-1	4.402924E-1
3.938750E+10	-7.065125E-1	3.801270E-1	2.280350E-1	-1.607895E-1	2.119064E-3	9.581566E-3	-2.669067E-1	4.398193E-1
