!Date: 10/28/2005, 12:34 PM

!Vgs = -8.000000E+0
!Vds = 2.000000E+0
!Ig = -7.076600E-5
!Id = 9.782500E-4

# HZ S RI R 50
1.000000E+8	9.902649E-1	-3.912354E-2	-2.667904E-3	1.435709E-2	1.580238E-3	1.373959E-2	9.788818E-1	-1.049805E-2
3.245000E+8	9.781494E-1	-1.078796E-1	1.974106E-3	4.107094E-2	6.721497E-3	4.080391E-2	9.608154E-1	-9.390259E-2
5.490000E+8	9.625244E-1	-1.745300E-1	1.016998E-2	6.716919E-2	1.530838E-2	6.658936E-2	9.536743E-1	-1.535034E-1
7.735000E+8	9.433289E-1	-2.405090E-1	2.205658E-2	9.103775E-2	2.634048E-2	8.986282E-2	9.342041E-1	-2.126770E-1
9.980000E+8	9.211731E-1	-3.012085E-1	3.601456E-2	1.130943E-1	3.997421E-2	1.113815E-1	9.140930E-1	-2.652283E-1
1.222500E+9	8.937683E-1	-3.600159E-1	5.141449E-2	1.323242E-1	5.576324E-2	1.304169E-1	8.907471E-1	-3.186646E-1
1.447000E+9	8.635559E-1	-4.161377E-1	6.845093E-2	1.491776E-1	7.246399E-2	1.473160E-1	8.648682E-1	-3.681641E-1
1.671500E+9	8.298645E-1	-4.683228E-1	8.719635E-2	1.656189E-1	9.080505E-2	1.631241E-1	8.349915E-1	-4.137573E-1
1.896000E+9	7.942810E-1	-5.154419E-1	1.086426E-1	1.794739E-1	1.122665E-1	1.771317E-1	8.081665E-1	-4.549561E-1
2.120500E+9	7.573242E-1	-5.602417E-1	1.316223E-1	1.894989E-1	1.343613E-1	1.870193E-1	7.787170E-1	-4.971619E-1
2.345000E+9	7.163086E-1	-6.025085E-1	1.548691E-1	1.962891E-1	1.576157E-1	1.937714E-1	7.451172E-1	-5.362549E-1
2.569500E+9	6.765137E-1	-6.372375E-1	1.771774E-1	2.001114E-1	1.800079E-1	1.978531E-1	7.118835E-1	-5.706787E-1
2.794000E+9	6.353760E-1	-6.717834E-1	1.993179E-1	2.023392E-1	2.014465E-1	1.998444E-1	6.776428E-1	-6.040344E-1
3.018500E+9	5.932922E-1	-7.015686E-1	2.213058E-1	2.019653E-1	2.230072E-1	1.989975E-1	6.422729E-1	-6.351929E-1
3.243000E+9	5.512390E-1	-7.277832E-1	2.424927E-1	1.992416E-1	2.444000E-1	1.964493E-1	6.044006E-1	-6.628113E-1
3.467500E+9	5.099792E-1	-7.525330E-1	2.620239E-1	1.953278E-1	2.639313E-1	1.921844E-1	5.690002E-1	-6.865234E-1
3.692000E+9	4.680176E-1	-7.730713E-1	2.820282E-1	1.895294E-1	2.830048E-1	1.868439E-1	5.315552E-1	-7.103271E-1
3.916500E+9	4.266663E-1	-7.912292E-1	3.008575E-1	1.817780E-1	3.011627E-1	1.787872E-1	4.932556E-1	-7.284851E-1
4.141000E+9	3.869934E-1	-8.059692E-1	3.179932E-1	1.745300E-1	3.190918E-1	1.714935E-1	4.589233E-1	-7.467957E-1
4.365500E+9	3.483887E-1	-8.197327E-1	3.345947E-1	1.640778E-1	3.348999E-1	1.614990E-1	4.240723E-1	-7.626038E-1
4.590000E+9	3.081055E-1	-8.322144E-1	3.498383E-1	1.531982E-1	3.498077E-1	1.503754E-1	3.863525E-1	-7.770081E-1
4.814500E+9	2.709045E-1	-8.408508E-1	3.639526E-1	1.414490E-1	3.641968E-1	1.387329E-1	3.531799E-1	-7.892456E-1
5.039000E+9	2.333984E-1	-8.484497E-1	3.769836E-1	1.281586E-1	3.773346E-1	1.256409E-1	3.185425E-1	-8.012695E-1
5.263500E+9	1.971741E-1	-8.533325E-1	3.884430E-1	1.150970E-1	3.884125E-1	1.125641E-1	2.831726E-1	-8.097839E-1
5.488000E+9	1.637878E-1	-8.580627E-1	3.989258E-1	1.013184E-1	3.984375E-1	9.883118E-2	2.518921E-1	-8.175659E-1
5.712500E+9	1.280823E-1	-8.618164E-1	4.079742E-1	8.656311E-2	4.079285E-1	8.447266E-2	2.197571E-1	-8.253174E-1
5.937000E+9	9.631348E-2	-8.624268E-1	4.158325E-1	7.186890E-2	4.155731E-1	6.927490E-2	1.862488E-1	-8.312988E-1
6.161500E+9	6.619263E-2	-8.639832E-1	4.233093E-1	5.683899E-2	4.221649E-1	5.503845E-2	1.548157E-1	-8.356628E-1
6.386000E+9	3.375244E-2	-8.640442E-1	4.284210E-1	4.156494E-2	4.275208E-1	3.997803E-2	1.239319E-1	-8.390198E-1
6.610500E+9	5.676270E-3	-8.633118E-1	4.329376E-1	2.725220E-2	4.321899E-1	2.505493E-2	9.133911E-2	-8.415833E-1
6.835000E+9	-2.478027E-2	-8.618164E-1	4.367218E-1	1.298523E-2	4.358368E-1	1.071167E-2	6.164551E-2	-8.421326E-1
7.059500E+9	-5.139160E-2	-8.581848E-1	4.392090E-1	-3.967285E-4	4.385986E-1	-2.044678E-3	3.555298E-2	-8.414917E-1
7.284000E+9	-7.836914E-2	-8.556213E-1	4.411011E-1	-1.545715E-2	4.398804E-1	-1.757812E-2	4.699707E-3	-8.412781E-1
7.508500E+9	-1.043396E-1	-8.518066E-1	4.416351E-1	-3.063965E-2	4.414215E-1	-3.152466E-2	-2.352905E-2	-8.378296E-1
7.733000E+9	-1.294556E-1	-8.458862E-1	4.418945E-1	-4.402161E-2	4.415131E-1	-4.533386E-2	-4.794312E-2	-8.360291E-1
7.957500E+9	-1.538086E-1	-8.416443E-1	4.418793E-1	-5.720520E-2	4.408112E-1	-5.906677E-2	-7.757568E-2	-8.348389E-1
8.182000E+9	-1.762390E-1	-8.365173E-1	4.412384E-1	-7.054138E-2	4.403992E-1	-7.162476E-2	-1.029053E-1	-8.320007E-1
8.406500E+9	-1.991577E-1	-8.312683E-1	4.394836E-1	-8.380127E-2	4.382782E-1	-8.499146E-2	-1.285706E-1	-8.260193E-1
8.631000E+9	-2.225342E-1	-8.251038E-1	4.373932E-1	-9.658813E-2	4.359283E-1	-9.851074E-2	-1.545105E-1	-8.221741E-1
8.855500E+9	-2.427673E-1	-8.190918E-1	4.342651E-1	-1.085663E-1	4.333344E-1	-1.098938E-1	-1.789856E-1	-8.160400E-1
9.080001E+9	-2.631226E-1	-8.136292E-1	4.315338E-1	-1.201019E-1	4.309692E-1	-1.214142E-1	-2.018738E-1	-8.098755E-1
9.304500E+9	-2.844238E-1	-8.052673E-1	4.279480E-1	-1.316681E-1	4.257507E-1	-1.322021E-1	-2.247314E-1	-8.041687E-1
9.529000E+9	-3.024902E-1	-7.994080E-1	4.243164E-1	-1.427307E-1	4.224396E-1	-1.435394E-1	-2.479858E-1	-7.954407E-1
9.753500E+9	-3.218994E-1	-7.919312E-1	4.195862E-1	-1.538086E-1	4.187775E-1	-1.539154E-1	-2.674866E-1	-7.871094E-1
9.978000E+9	-3.386841E-1	-7.844543E-1	4.147797E-1	-1.645050E-1	4.133606E-1	-1.642151E-1	-2.896423E-1	-7.820129E-1
1.020250E+10	-3.572998E-1	-7.777405E-1	4.102325E-1	-1.736755E-1	4.090729E-1	-1.753235E-1	-3.110352E-1	-7.715759E-1
1.042700E+10	-3.742065E-1	-7.689819E-1	4.051361E-1	-1.843872E-1	4.033966E-1	-1.842957E-1	-3.286438E-1	-7.628479E-1
1.065150E+10	-3.896179E-1	-7.615967E-1	3.986206E-1	-1.926270E-1	3.976746E-1	-1.931000E-1	-3.482361E-1	-7.551880E-1
1.087600E+10	-4.057617E-1	-7.535400E-1	3.925934E-1	-2.016144E-1	3.919525E-1	-2.017059E-1	-3.677368E-1	-7.462158E-1
1.110050E+10	-4.219971E-1	-7.456665E-1	3.872070E-1	-2.102966E-1	3.865967E-1	-2.110596E-1	-3.864746E-1	-7.367554E-1
1.132500E+10	-4.369202E-1	-7.383118E-1	3.814545E-1	-2.185364E-1	3.800964E-1	-2.194977E-1	-4.031677E-1	-7.284851E-1
1.154950E+10	-4.513855E-1	-7.293091E-1	3.753662E-1	-2.257385E-1	3.736877E-1	-2.258148E-1	-4.240112E-1	-7.171021E-1
1.177400E+10	-4.650269E-1	-7.217407E-1	3.690338E-1	-2.339020E-1	3.679504E-1	-2.329865E-1	-4.396973E-1	-7.058105E-1
1.199850E+10	-4.796143E-1	-7.138672E-1	3.629303E-1	-2.405548E-1	3.609314E-1	-2.410736E-1	-4.543762E-1	-6.979065E-1
1.222300E+10	-4.919739E-1	-7.044983E-1	3.558044E-1	-2.471619E-1	3.547363E-1	-2.480011E-1	-4.724731E-1	-6.874390E-1
1.244750E+10	-5.057373E-1	-6.967773E-1	3.488617E-1	-2.539368E-1	3.476715E-1	-2.548523E-1	-4.883728E-1	-6.739197E-1
1.267200E+10	-5.186768E-1	-6.881409E-1	3.430328E-1	-2.599640E-1	3.410492E-1	-2.599487E-1	-5.018616E-1	-6.660767E-1
1.289650E+10	-5.299988E-1	-6.806335E-1	3.351440E-1	-2.657928E-1	3.343658E-1	-2.652588E-1	-5.187073E-1	-6.543884E-1
1.312100E+10	-5.421448E-1	-6.723938E-1	3.283997E-1	-2.713165E-1	3.270569E-1	-2.713623E-1	-5.323486E-1	-6.405640E-1
1.334550E+10	-5.541687E-1	-6.636047E-1	3.220215E-1	-2.769775E-1	3.208618E-1	-2.773743E-1	-5.443420E-1	-6.326599E-1
1.357000E+10	-5.671387E-1	-6.540527E-1	3.152466E-1	-2.822571E-1	3.128967E-1	-2.830048E-1	-5.599365E-1	-6.223145E-1
1.379450E+10	-5.749817E-1	-6.476135E-1	3.084259E-1	-2.868805E-1	3.073273E-1	-2.869568E-1	-5.737610E-1	-6.081543E-1
1.401900E+10	-5.861511E-1	-6.390076E-1	3.016968E-1	-2.903595E-1	3.007812E-1	-2.910004E-1	-5.818176E-1	-5.972595E-1
1.424350E+10	-5.956421E-1	-6.311951E-1	2.937622E-1	-2.954559E-1	2.936401E-1	-2.955475E-1	-5.969238E-1	-5.860596E-1
1.446800E+10	-6.057434E-1	-6.223145E-1	2.859802E-1	-2.994995E-1	2.857513E-1	-2.994995E-1	-6.099854E-1	-5.711060E-1
1.469250E+10	-6.162415E-1	-6.139832E-1	2.796783E-1	-3.034363E-1	2.801056E-1	-3.031769E-1	-6.174622E-1	-5.615234E-1
1.491700E+10	-6.254883E-1	-6.057434E-1	2.739105E-1	-3.079834E-1	2.733765E-1	-3.072662E-1	-6.307983E-1	-5.507202E-1
1.514150E+10	-6.345520E-1	-5.968933E-1	2.659607E-1	-3.101501E-1	2.655487E-1	-3.097229E-1	-6.421204E-1	-5.346069E-1
1.536600E+10	-6.451721E-1	-5.872803E-1	2.595673E-1	-3.140869E-1	2.581940E-1	-3.127594E-1	-6.519775E-1	-5.239868E-1
1.559050E+10	-6.539001E-1	-5.806580E-1	2.522278E-1	-3.185425E-1	2.506866E-1	-3.168640E-1	-6.612854E-1	-5.140381E-1
1.581500E+10	-6.614685E-1	-5.708008E-1	2.454071E-1	-3.193054E-1	2.435608E-1	-3.189697E-1	-6.738892E-1	-4.980164E-1
1.603950E+10	-6.697693E-1	-5.632629E-1	2.387238E-1	-3.226166E-1	2.368927E-1	-3.230896E-1	-6.812439E-1	-4.866638E-1
1.626400E+10	-6.796265E-1	-5.555725E-1	2.317963E-1	-3.242035E-1	2.303772E-1	-3.243561E-1	-6.904297E-1	-4.754639E-1
1.648850E+10	-6.864624E-1	-5.476074E-1	2.243805E-1	-3.258820E-1	2.249756E-1	-3.258514E-1	-7.006226E-1	-4.609985E-1
1.671300E+10	-6.940613E-1	-5.372925E-1	2.188721E-1	-3.282166E-1	2.172699E-1	-3.277283E-1	-7.082214E-1	-4.498291E-1
1.693750E+10	-7.008972E-1	-5.304871E-1	2.111053E-1	-3.304291E-1	2.117615E-1	-3.298492E-1	-7.164307E-1	-4.378357E-1
1.716200E+10	-7.088928E-1	-5.225525E-1	2.054291E-1	-3.319702E-1	2.053375E-1	-3.317719E-1	-7.247925E-1	-4.222717E-1
1.738650E+10	-7.158508E-1	-5.146790E-1	1.990509E-1	-3.342438E-1	1.970215E-1	-3.327179E-1	-7.296753E-1	-4.091187E-1
1.761100E+10	-7.227478E-1	-5.058594E-1	1.927185E-1	-3.352509E-1	1.914978E-1	-3.350067E-1	-7.384338E-1	-4.019775E-1
1.783550E+10	-7.322388E-1	-4.975891E-1	1.853333E-1	-3.363647E-1	1.851501E-1	-3.347321E-1	-7.464600E-1	-3.846741E-1
1.806000E+10	-7.374268E-1	-4.900513E-1	1.802979E-1	-3.380585E-1	1.797180E-1	-3.373871E-1	-7.514954E-1	-3.705750E-1
1.828450E+10	-7.428589E-1	-4.801636E-1	1.749268E-1	-3.372498E-1	1.733246E-1	-3.369598E-1	-7.564697E-1	-3.635559E-1
1.850900E+10	-7.498169E-1	-4.735107E-1	1.671906E-1	-3.390198E-1	1.679382E-1	-3.385010E-1	-7.660217E-1	-3.474731E-1
1.873350E+10	-7.572632E-1	-4.654541E-1	1.607666E-1	-3.405914E-1	1.599731E-1	-3.404236E-1	-7.690735E-1	-3.339539E-1
1.895800E+10	-7.628479E-1	-4.566040E-1	1.544495E-1	-3.404694E-1	1.540833E-1	-3.401947E-1	-7.744141E-1	-3.249512E-1
1.918250E+10	-7.674255E-1	-4.494324E-1	1.505280E-1	-3.422089E-1	1.503143E-1	-3.400269E-1	-7.814331E-1	-3.124390E-1
1.940700E+10	-7.741394E-1	-4.401245E-1	1.421814E-1	-3.413696E-1	1.417236E-1	-3.417358E-1	-7.853699E-1	-2.923279E-1
1.963150E+10	-7.795410E-1	-4.336548E-1	1.386108E-1	-3.412628E-1	1.386261E-1	-3.401489E-1	-7.880249E-1	-2.848206E-1
1.985600E+10	-7.844543E-1	-4.240112E-1	1.317596E-1	-3.427277E-1	1.324768E-1	-3.406372E-1	-7.955017E-1	-2.728577E-1
2.008050E+10	-7.893372E-1	-4.189148E-1	1.258087E-1	-3.429871E-1	1.242371E-1	-3.419647E-1	-7.982483E-1	-2.555847E-1
2.030500E+10	-7.937012E-1	-4.092102E-1	1.203766E-1	-3.418121E-1	1.219482E-1	-3.407593E-1	-7.985535E-1	-2.459717E-1
2.052950E+10	-7.997131E-1	-4.021301E-1	1.159363E-1	-3.415070E-1	1.156921E-1	-3.418427E-1	-8.068542E-1	-2.331543E-1
2.075400E+10	-8.049011E-1	-3.943787E-1	1.106720E-1	-3.429108E-1	1.083984E-1	-3.410187E-1	-8.106384E-1	-2.212524E-1
2.097850E+10	-8.104248E-1	-3.871155E-1	1.058655E-1	-3.417206E-1	1.028595E-1	-3.411560E-1	-8.108215E-1	-2.073364E-1
2.120300E+10	-8.128357E-1	-3.775635E-1	9.887695E-2	-3.403625E-1	9.895325E-2	-3.400726E-1	-8.153381E-1	-2.019653E-1
2.142750E+10	-8.203125E-1	-3.703918E-1	9.457397E-2	-3.410339E-1	9.332275E-2	-3.388824E-1	-8.204956E-1	-1.841431E-1
2.165200E+10	-8.230591E-1	-3.622131E-1	8.628845E-2	-3.387909E-1	8.773804E-2	-3.388214E-1	-8.210754E-1	-1.723938E-1
2.187650E+10	-8.282471E-1	-3.528442E-1	8.528137E-2	-3.405151E-1	8.457947E-2	-3.385162E-1	-8.248291E-1	-1.618958E-1
2.210100E+10	-8.329163E-1	-3.420105E-1	7.864380E-2	-3.381042E-1	7.878113E-2	-3.386078E-1	-8.276367E-1	-1.456604E-1
2.232550E+10	-8.346558E-1	-3.353882E-1	7.325745E-2	-3.372955E-1	7.405090E-2	-3.366547E-1	-8.273315E-1	-1.325989E-1
2.255000E+10	-8.416138E-1	-3.286743E-1	6.901550E-2	-3.383179E-1	6.913757E-2	-3.379211E-1	-8.331604E-1	-1.211548E-1
2.277450E+10	-8.426514E-1	-3.193359E-1	6.517029E-2	-3.378448E-1	6.394958E-2	-3.388214E-1	-8.334961E-1	-1.078491E-1
2.299900E+10	-8.481445E-1	-3.132935E-1	6.080627E-2	-3.370819E-1	6.156921E-2	-3.361359E-1	-8.321228E-1	-9.524536E-2
2.322350E+10	-8.493347E-1	-3.028870E-1	5.390930E-2	-3.363495E-1	5.308533E-2	-3.360138E-1	-8.359070E-1	-8.569336E-2
2.344800E+10	-8.524475E-1	-2.975769E-1	4.924011E-2	-3.346863E-1	5.052185E-2	-3.347015E-1	-8.373108E-1	-7.003784E-2
2.367250E+10	-8.568420E-1	-2.873230E-1	4.486084E-2	-3.334503E-1	4.516602E-2	-3.343811E-1	-8.352051E-1	-5.441284E-2
2.389700E+10	-8.560791E-1	-2.803955E-1	3.916931E-2	-3.354492E-1	3.710937E-2	-3.322144E-1	-8.397217E-1	-4.602051E-2
2.412150E+10	-8.593445E-1	-2.760315E-1	3.500366E-2	-3.329315E-1	3.514099E-2	-3.314972E-1	-8.374329E-1	-2.828979E-2
2.434600E+10	-8.620300E-1	-2.690430E-1	3.009033E-2	-3.314056E-1	2.891541E-2	-3.287659E-1	-8.357544E-1	-1.797485E-2
2.457050E+10	-8.648682E-1	-2.605286E-1	2.459717E-2	-3.298645E-1	2.684021E-2	-3.295746E-1	-8.367615E-1	-9.338379E-3
2.479500E+10	-8.696289E-1	-2.556763E-1	2.212524E-2	-3.270264E-1	2.079773E-2	-3.284760E-1	-8.349609E-1	8.514404E-3
2.501950E+10	-8.714905E-1	-2.482605E-1	1.759338E-2	-3.270416E-1	1.596069E-2	-3.276825E-1	-8.300781E-1	1.791382E-2
2.524400E+10	-8.753967E-1	-2.403870E-1	1.206970E-2	-3.245087E-1	1.132202E-2	-3.249817E-1	-8.326111E-1	2.877808E-2
2.546850E+10	-8.770752E-1	-2.319641E-1	1.034546E-2	-3.234863E-1	8.346558E-3	-3.230438E-1	-8.300476E-1	4.400635E-2
2.569300E+10	-8.803711E-1	-2.265625E-1	4.760742E-3	-3.219452E-1	6.591797E-3	-3.206482E-1	-8.272400E-1	5.029297E-2
2.591750E+10	-8.861694E-1	-2.190247E-1	2.197266E-3	-3.213806E-1	6.713867E-4	-3.204498E-1	-8.286438E-1	6.445312E-2
2.614200E+10	-8.863525E-1	-2.087402E-1	-1.327515E-3	-3.171844E-1	-1.419067E-3	-3.186035E-1	-8.276062E-1	7.675171E-2
2.636650E+10	-8.882751E-1	-2.033997E-1	-6.134033E-3	-3.186035E-1	-5.905151E-3	-3.175964E-1	-8.237000E-1	9.161377E-2
2.659100E+10	-8.907776E-1	-1.964111E-1	-9.979248E-3	-3.168793E-1	-9.582520E-3	-3.161316E-1	-8.193054E-1	1.026917E-1
2.681550E+10	-8.906250E-1	-1.909485E-1	-1.432800E-2	-3.142090E-1	-1.293945E-2	-3.149109E-1	-8.216858E-1	1.094971E-1
2.704000E+10	-8.926086E-1	-1.804504E-1	-1.818848E-2	-3.147125E-1	-1.779175E-2	-3.131561E-1	-8.203735E-1	1.277466E-1
2.726450E+10	-8.946228E-1	-1.743164E-1	-2.101135E-2	-3.136597E-1	-1.972961E-2	-3.127289E-1	-8.095398E-1	1.381226E-1
2.748900E+10	-8.960876E-1	-1.697998E-1	-2.482605E-2	-3.099670E-1	-2.435303E-2	-3.114624E-1	-8.107300E-1	1.477051E-1
2.771350E+10	-9.002075E-1	-1.628418E-1	-2.992249E-2	-3.115540E-1	-2.809143E-2	-3.075562E-1	-8.041382E-1	1.603699E-1
2.793800E+10	-9.034424E-1	-1.564026E-1	-3.485107E-2	-3.077240E-1	-3.167725E-2	-3.117523E-1	-8.025208E-1	1.653748E-1
2.816250E+10	-9.034424E-1	-1.458130E-1	-3.955078E-2	-3.056030E-1	-3.700256E-2	-3.052979E-1	-8.004150E-1	1.796265E-1
2.838700E+10	-9.046631E-1	-1.400146E-1	-4.014587E-2	-3.036957E-1	-4.045105E-2	-3.015289E-1	-7.952881E-1	1.924438E-1
2.861150E+10	-9.094238E-1	-1.309509E-1	-4.475403E-2	-3.040161E-1	-4.507446E-2	-3.041382E-1	-7.876892E-1	2.034912E-1
2.883600E+10	-9.077759E-1	-1.248474E-1	-4.731750E-2	-3.002319E-1	-4.728699E-2	-3.016052E-1	-7.869873E-1	2.083435E-1
2.906050E+10	-9.105835E-1	-1.185608E-1	-5.017090E-2	-3.003540E-1	-4.972839E-2	-2.997131E-1	-7.783813E-1	2.229919E-1
2.928500E+10	-9.117126E-1	-1.102600E-1	-5.416870E-2	-2.957306E-1	-5.345154E-2	-2.937775E-1	-7.782593E-1	2.331238E-1
2.950950E+10	-9.159241E-1	-1.028137E-1	-5.471802E-2	-2.948456E-1	-5.773926E-2	-2.932129E-1	-7.766724E-1	2.436829E-1
2.973400E+10	-9.157104E-1	-9.817505E-2	-6.053162E-2	-2.945709E-1	-6.057739E-2	-2.909546E-1	-7.727356E-1	2.552795E-1
2.995850E+10	-9.114990E-1	-8.981323E-2	-6.167603E-2	-2.920532E-1	-6.466675E-2	-2.904510E-1	-7.687683E-1	2.605896E-1
3.018300E+10	-9.138184E-1	-8.178711E-2	-6.558228E-2	-2.865448E-1	-6.518555E-2	-2.881927E-1	-7.647095E-1	2.803955E-1
3.040750E+10	-9.167480E-1	-7.681274E-2	-6.713867E-2	-2.901154E-1	-6.832886E-2	-2.885284E-1	-7.572937E-1	2.897644E-1
3.063200E+10	-9.162598E-1	-6.954956E-2	-7.196045E-2	-2.846985E-1	-7.186890E-2	-2.867126E-1	-7.569885E-1	3.001404E-1
3.085650E+10	-9.173584E-1	-6.439209E-2	-7.527161E-2	-2.818146E-1	-7.604980E-2	-2.862854E-1	-7.443237E-1	3.134766E-1
3.108100E+10	-9.188538E-1	-5.642700E-2	-7.629395E-2	-2.840881E-1	-7.948303E-2	-2.841339E-1	-7.370300E-1	3.216858E-1
3.130550E+10	-9.183655E-1	-5.285645E-2	-8.139038E-2	-2.809906E-1	-8.381653E-2	-2.801819E-1	-7.294006E-1	3.306274E-1
3.153000E+10	-9.193115E-1	-4.406738E-2	-8.547974E-2	-2.805023E-1	-8.840942E-2	-2.777252E-1	-7.232056E-1	3.420105E-1
3.175450E+10	-9.202271E-1	-3.567505E-2	-8.914185E-2	-2.700195E-1	-9.005737E-2	-2.747955E-1	-7.189941E-1	3.527527E-1
3.197900E+10	-9.223022E-1	-2.801514E-2	-9.159851E-2	-2.747345E-1	-9.185791E-2	-2.719727E-1	-7.078552E-1	3.609619E-1
3.220350E+10	-9.208679E-1	-2.401733E-2	-9.474182E-2	-2.729950E-1	-9.918213E-2	-2.716370E-1	-7.007141E-1	3.692322E-1
3.242800E+10	-9.222412E-1	-2.044678E-2	-9.915161E-2	-2.720337E-1	-9.786987E-2	-2.737122E-1	-6.907959E-1	3.843994E-1
3.265250E+10	-9.283142E-1	-9.277344E-3	-1.049652E-1	-2.712555E-1	-1.009827E-1	-2.705536E-1	-6.819763E-1	3.918152E-1
3.287700E+10	-9.220581E-1	-1.159668E-3	-1.016998E-1	-2.657928E-1	-1.019287E-1	-2.641449E-1	-6.802673E-1	4.005127E-1
3.310150E+10	-9.250793E-1	3.845215E-3	-1.076965E-1	-2.673340E-1	-1.067047E-1	-2.651978E-1	-6.691284E-1	4.084167E-1
3.332600E+10	-9.224243E-1	1.605225E-2	-1.078491E-1	-2.621002E-1	-1.094513E-1	-2.628174E-1	-6.650696E-1	4.119263E-1
3.355050E+10	-9.229126E-1	1.678467E-2	-1.103516E-1	-2.577057E-1	-1.108704E-1	-2.587738E-1	-6.558838E-1	4.213257E-1
3.377500E+10	-9.246216E-1	2.627563E-2	-1.121368E-1	-2.550964E-1	-1.119232E-1	-2.563019E-1	-6.435852E-1	4.274292E-1
3.399950E+10	-9.249878E-1	3.082275E-2	-1.144257E-1	-2.566376E-1	-1.097717E-1	-2.533875E-1	-6.419067E-1	4.355469E-1
3.422400E+10	-9.253235E-1	4.058838E-2	-1.173248E-1	-2.535248E-1	-1.173248E-1	-2.505493E-1	-6.324158E-1	4.502563E-1
3.444850E+10	-9.251404E-1	4.586792E-2	-1.220703E-1	-2.552795E-1	-1.197357E-1	-2.512665E-1	-6.232910E-1	4.600220E-1
3.467300E+10	-9.232788E-1	5.377197E-2	-1.172791E-1	-2.478409E-1	-1.181564E-1	-2.484283E-1	-6.228027E-1	4.691772E-1
3.489750E+10	-9.260864E-1	5.929565E-2	-1.218948E-1	-2.470245E-1	-1.223297E-1	-2.501221E-1	-6.063843E-1	4.783020E-1
3.512200E+10	-9.247131E-1	6.521606E-2	-1.262512E-1	-2.442932E-1	-1.281281E-1	-2.482986E-1	-5.933533E-1	4.817200E-1
3.534650E+10	-9.211121E-1	6.854248E-2	-1.283112E-1	-2.454758E-1	-1.269226E-1	-2.457962E-1	-5.889282E-1	4.931641E-1
3.557100E+10	-9.194641E-1	7.614136E-2	-1.302719E-1	-2.431870E-1	-1.298904E-1	-2.444153E-1	-5.785828E-1	5.080872E-1
3.579550E+10	-9.247437E-1	8.523560E-2	-1.320419E-1	-2.440338E-1	-1.334839E-1	-2.425995E-1	-5.657959E-1	5.120544E-1
3.602000E+10	-9.210815E-1	9.030151E-2	-1.350632E-1	-2.413406E-1	-1.355896E-1	-2.420349E-1	-5.572510E-1	5.158386E-1
3.624450E+10	-9.205322E-1	9.732056E-2	-1.422958E-1	-2.356567E-1	-1.405029E-1	-2.404022E-1	-5.416260E-1	5.211487E-1
3.646900E+10	-9.181519E-1	1.098328E-1	-1.420288E-1	-2.375259E-1	-1.424713E-1	-2.350616E-1	-5.340271E-1	5.310974E-1
3.669350E+10	-9.188232E-1	1.083374E-1	-1.459961E-1	-2.324753E-1	-1.450119E-1	-2.347183E-1	-5.225525E-1	5.364685E-1
3.691800E+10	-9.170532E-1	1.173401E-1	-1.492157E-1	-2.306366E-1	-1.493683E-1	-2.314606E-1	-5.083313E-1	5.444336E-1
3.714250E+10	-9.158020E-1	1.234436E-1	-1.501846E-1	-2.293320E-1	-1.482315E-1	-2.278366E-1	-5.008545E-1	5.488892E-1
3.736700E+10	-9.133606E-1	1.258240E-1	-1.517105E-1	-2.266159E-1	-1.542511E-1	-2.255096E-1	-4.866638E-1	5.587158E-1
3.759150E+10	-9.105835E-1	1.311340E-1	-1.522751E-1	-2.254944E-1	-1.510696E-1	-2.257156E-1	-4.796448E-1	5.602722E-1
3.781600E+10	-9.088745E-1	1.426086E-1	-1.591263E-1	-2.202911E-1	-1.604691E-1	-2.183990E-1	-4.685669E-1	5.682983E-1
3.804050E+10	-9.168701E-1	1.439209E-1	-1.615143E-1	-2.161179E-1	-1.621475E-1	-2.160416E-1	-4.513855E-1	5.743103E-1
3.826500E+10	-9.097900E-1	1.565247E-1	-1.626129E-1	-2.123642E-1	-1.564178E-1	-2.139740E-1	-4.344482E-1	5.822144E-1
3.848950E+10	-9.091797E-1	1.593018E-1	-1.687698E-1	-2.136307E-1	-1.685104E-1	-2.126007E-1	-4.226990E-1	5.852966E-1
3.871400E+10	-9.069824E-1	1.686707E-1	-1.680603E-1	-2.098846E-1	-1.676483E-1	-2.105484E-1	-4.103699E-1	5.853577E-1
3.893850E+10	-9.071655E-1	1.731262E-1	-1.673889E-1	-2.075272E-1	-1.711884E-1	-2.047577E-1	-3.929138E-1	5.898437E-1
