!Date: 10/28/2005, 12:34 PM

!Vgs = -2.000000E+0
!Vds = 3.000000E+0
!Ig = -1.307900E-5
!Id = 5.613300E-1

# HZ S RI R 50
1.000000E+8	9.558105E-1	-2.247314E-1	-8.069824E+0	5.297852E-1	2.851486E-4	8.775234E-3	-1.434708E-1	-1.022491E-1
3.245000E+8	7.214355E-1	-6.306763E-1	-6.749756E+0	2.716553E+0	1.218796E-2	2.770138E-2	-3.165131E-1	-1.530457E-1
5.490000E+8	4.014282E-1	-8.522034E-1	-5.301758E+0	3.808350E+0	2.673149E-2	3.637695E-2	-3.529816E-1	-1.631775E-1
7.735000E+8	1.086121E-1	-9.234619E-1	-4.009521E+0	4.140381E+0	4.038048E-2	3.830719E-2	-4.205322E-1	-1.840668E-1
9.980000E+8	-1.221619E-1	-9.104919E-1	-2.979492E+0	4.061768E+0	5.048561E-2	3.642654E-2	-4.664307E-1	-1.654358E-1
1.222500E+9	-2.979126E-1	-8.623962E-1	-2.206543E+0	3.849243E+0	5.795288E-2	3.332138E-2	-4.928284E-1	-1.559906E-1
1.447000E+9	-4.283752E-1	-8.023987E-1	-1.638550E+0	3.580933E+0	6.364441E-2	2.953339E-2	-5.205994E-1	-1.397705E-1
1.671500E+9	-5.249023E-1	-7.408142E-1	-1.222290E+0	3.312012E+0	6.769562E-2	2.606201E-2	-5.371399E-1	-1.258240E-1
1.896000E+9	-5.986938E-1	-6.806946E-1	-9.100342E-1	3.057129E+0	7.065964E-2	2.291489E-2	-5.514832E-1	-1.105652E-1
2.120500E+9	-6.531677E-1	-6.262817E-1	-6.744385E-1	2.832153E+0	7.284164E-2	1.938248E-2	-5.618591E-1	-9.863281E-2
2.345000E+9	-6.972046E-1	-5.740356E-1	-4.863281E-1	2.622070E+0	7.479477E-2	1.597214E-2	-5.708923E-1	-8.447266E-2
2.569500E+9	-7.285767E-1	-5.294800E-1	-3.405762E-1	2.431519E+0	7.606888E-2	1.337814E-2	-5.747681E-1	-7.278442E-2
2.794000E+9	-7.556458E-1	-4.913940E-1	-2.271729E-1	2.268433E+0	7.711411E-2	1.081467E-2	-5.814514E-1	-6.301880E-2
3.018500E+9	-7.767639E-1	-4.544983E-1	-1.345215E-1	2.116333E+0	7.796860E-2	8.304596E-3	-5.839539E-1	-5.203247E-2
3.243000E+9	-7.944946E-1	-4.216309E-1	-5.786133E-2	1.981934E+0	7.826996E-2	6.031036E-3	-5.861816E-1	-4.467773E-2
3.467500E+9	-8.095703E-1	-3.927307E-1	6.164551E-3	1.864929E+0	7.843018E-2	3.536224E-3	-5.898437E-1	-3.543091E-2
3.692000E+9	-8.218994E-1	-3.662109E-1	6.042480E-2	1.756714E+0	7.870865E-2	2.166748E-3	-5.899963E-1	-2.883911E-2
3.916500E+9	-8.325195E-1	-3.403931E-1	1.035156E-1	1.658508E+0	7.911301E-2	-2.441406E-4	-5.942993E-1	-2.230835E-2
4.141000E+9	-8.416748E-1	-3.173523E-1	1.411133E-1	1.568665E+0	7.925415E-2	-1.960754E-3	-5.940247E-1	-1.379395E-2
4.365500E+9	-8.470154E-1	-2.964172E-1	1.741333E-1	1.487305E+0	7.929611E-2	-3.604889E-3	-5.948792E-1	-8.758545E-3
4.590000E+9	-8.541565E-1	-2.782593E-1	2.010498E-1	1.408630E+0	7.921600E-2	-5.180359E-3	-5.965271E-1	-1.617432E-3
4.814500E+9	-8.599548E-1	-2.605286E-1	2.235107E-1	1.339966E+0	7.939529E-2	-6.740570E-3	-5.967712E-1	4.638672E-3
5.039000E+9	-8.645325E-1	-2.430115E-1	2.442627E-1	1.276794E+0	7.897186E-2	-8.785248E-3	-5.975647E-1	9.796143E-3
5.263500E+9	-8.686829E-1	-2.262268E-1	2.619019E-1	1.217896E+0	7.897568E-2	-1.016617E-2	-5.981445E-1	1.577759E-2
5.488000E+9	-8.710327E-1	-2.126465E-1	2.776489E-1	1.163818E+0	7.874680E-2	-1.145172E-2	-5.986938E-1	2.206421E-2
5.712500E+9	-8.748169E-1	-1.989746E-1	2.918701E-1	1.110901E+0	7.862473E-2	-1.295853E-2	-5.981750E-1	2.661133E-2
5.937000E+9	-8.777161E-1	-1.846619E-1	3.029785E-1	1.062134E+0	7.865524E-2	-1.430893E-2	-5.979004E-1	3.125000E-2
6.161500E+9	-8.798218E-1	-1.731567E-1	3.136597E-1	1.018738E+0	7.803345E-2	-1.600647E-2	-5.988159E-1	3.909302E-2
6.386000E+9	-8.822632E-1	-1.607056E-1	3.227844E-1	9.768066E-1	7.785416E-2	-1.715088E-2	-5.965271E-1	4.345703E-2
6.610500E+9	-8.833923E-1	-1.495667E-1	3.319092E-1	9.374695E-1	7.753754E-2	-1.865768E-2	-5.981750E-1	4.586792E-2
6.835000E+9	-8.855286E-1	-1.392517E-1	3.386536E-1	8.972778E-1	7.677460E-2	-1.992798E-2	-5.969543E-1	5.462646E-2
7.059500E+9	-8.872375E-1	-1.297302E-1	3.440857E-1	8.638000E-1	7.612991E-2	-2.106476E-2	-5.925293E-1	5.517578E-2
7.284000E+9	-8.876953E-1	-1.189880E-1	3.483276E-1	8.291626E-1	7.603455E-2	-2.266693E-2	-5.962830E-1	5.892944E-2
7.508500E+9	-8.902588E-1	-1.093140E-1	3.513794E-1	7.969971E-1	7.586288E-2	-2.308655E-2	-5.913696E-1	6.414795E-2
7.733000E+9	-8.891602E-1	-1.001282E-1	3.552246E-1	7.680969E-1	7.527161E-2	-2.461243E-2	-5.932617E-1	6.539917E-2
7.957500E+9	-8.899841E-1	-9.066772E-2	3.606567E-1	7.408752E-1	7.423782E-2	-2.529907E-2	-5.928345E-1	7.263184E-2
8.182000E+9	-8.912048E-1	-8.178711E-2	3.647156E-1	7.141724E-1	7.390976E-2	-2.674484E-2	-5.938721E-1	7.550049E-2
8.406500E+9	-8.916016E-1	-7.531738E-2	3.657837E-1	6.872864E-1	7.284546E-2	-2.766800E-2	-5.921021E-1	8.200073E-2
8.631000E+9	-8.926392E-1	-6.628418E-2	3.687134E-1	6.617737E-1	7.273865E-2	-2.901459E-2	-5.909119E-1	8.432007E-2
8.855500E+9	-8.922119E-1	-5.902100E-2	3.702698E-1	6.369934E-1	7.258224E-2	-2.986908E-2	-5.912781E-1	8.932495E-2
9.080001E+9	-8.925781E-1	-5.227661E-2	3.710632E-1	6.147766E-1	7.119370E-2	-3.131866E-2	-5.884399E-1	9.436035E-2
9.304500E+9	-8.923645E-1	-4.275513E-2	3.719482E-1	5.936584E-1	7.064819E-2	-3.273010E-2	-5.881042E-1	9.637451E-2
9.529000E+9	-8.927002E-1	-3.723145E-2	3.730469E-1	5.723877E-1	6.984711E-2	-3.350067E-2	-5.877075E-1	1.012268E-1
9.753500E+9	-8.925476E-1	-3.057861E-2	3.733215E-1	5.516663E-1	6.903839E-2	-3.423691E-2	-5.849609E-1	1.058044E-1
9.978000E+9	-8.919983E-1	-2.343750E-2	3.722839E-1	5.337524E-1	6.826782E-2	-3.451538E-2	-5.834045E-1	1.084290E-1
1.020250E+10	-8.925781E-1	-1.702881E-2	3.728027E-1	5.147400E-1	6.715012E-2	-3.607559E-2	-5.845642E-1	1.127319E-1
1.042700E+10	-8.932495E-1	-9.918213E-3	3.727722E-1	4.971619E-1	6.673431E-2	-3.695297E-2	-5.805664E-1	1.160889E-1
1.065150E+10	-8.923645E-1	-3.509521E-3	3.727875E-1	4.809723E-1	6.557083E-2	-3.762817E-2	-5.803833E-1	1.185303E-1
1.087600E+10	-8.926697E-1	1.861572E-3	3.717041E-1	4.647064E-1	6.589890E-2	-3.898239E-2	-5.791321E-1	1.223145E-1
1.110050E+10	-8.919373E-1	9.246826E-3	3.712921E-1	4.472351E-1	6.467819E-2	-3.964615E-2	-5.770569E-1	1.264648E-1
1.132500E+10	-8.909607E-1	1.428223E-2	3.703308E-1	4.329987E-1	6.342316E-2	-4.023361E-2	-5.752869E-1	1.289062E-1
1.154950E+10	-8.913269E-1	2.075195E-2	3.699188E-1	4.177246E-1	6.286621E-2	-4.140091E-2	-5.759277E-1	1.316833E-1
1.177400E+10	-8.896790E-1	2.655029E-2	3.684692E-1	4.041748E-1	6.153107E-2	-4.117203E-2	-5.739136E-1	1.374512E-1
1.199850E+10	-8.897400E-1	3.210449E-2	3.686981E-1	3.908997E-1	6.024551E-2	-4.230690E-2	-5.727844E-1	1.387939E-1
1.222300E+10	-8.894958E-1	3.674316E-2	3.664703E-1	3.775635E-1	6.023216E-2	-4.285812E-2	-5.710449E-1	1.412964E-1
1.244750E+10	-8.884888E-1	4.205322E-2	3.636322E-1	3.634796E-1	5.942726E-2	-4.386520E-2	-5.695190E-1	1.465759E-1
1.267200E+10	-8.889465E-1	4.812622E-2	3.635406E-1	3.518372E-1	5.914688E-2	-4.361534E-2	-5.675049E-1	1.474609E-1
1.289650E+10	-8.868713E-1	5.261230E-2	3.607635E-1	3.393860E-1	5.832100E-2	-4.453468E-2	-5.684509E-1	1.506348E-1
1.312100E+10	-8.880005E-1	5.746460E-2	3.595886E-1	3.291168E-1	5.728531E-2	-4.478264E-2	-5.667114E-1	1.542969E-1
1.334550E+10	-8.870850E-1	6.350708E-2	3.577118E-1	3.169403E-1	5.647087E-2	-4.623795E-2	-5.635986E-1	1.571350E-1
1.357000E+10	-8.846436E-1	6.713867E-2	3.546295E-1	3.061371E-1	5.477142E-2	-4.662323E-2	-5.634155E-1	1.579590E-1
1.379450E+10	-8.856506E-1	7.226562E-2	3.536377E-1	2.956848E-1	5.462074E-2	-4.773712E-2	-5.634155E-1	1.627808E-1
1.401900E+10	-8.841248E-1	7.696533E-2	3.516846E-1	2.870026E-1	5.313873E-2	-4.880333E-2	-5.599976E-1	1.649170E-1
1.424350E+10	-8.831177E-1	8.163452E-2	3.481903E-1	2.767792E-1	5.270386E-2	-4.835320E-2	-5.607300E-1	1.682129E-1
1.446800E+10	-8.830261E-1	8.691406E-2	3.467712E-1	2.662811E-1	5.127335E-2	-4.838181E-2	-5.585327E-1	1.739502E-1
1.469250E+10	-8.806152E-1	9.259033E-2	3.450775E-1	2.581024E-1	5.122375E-2	-4.838753E-2	-5.537720E-1	1.755066E-1
1.491700E+10	-8.808899E-1	9.646606E-2	3.423920E-1	2.492065E-1	4.992676E-2	-4.888916E-2	-5.551758E-1	1.759033E-1
1.514150E+10	-8.797607E-1	1.013794E-1	3.403168E-1	2.396393E-1	4.810524E-2	-4.955482E-2	-5.542297E-1	1.816406E-1
1.536600E+10	-8.777466E-1	1.063538E-1	3.386688E-1	2.313690E-1	4.843521E-2	-5.057526E-2	-5.491333E-1	1.842651E-1
1.559050E+10	-8.765564E-1	1.105042E-1	3.359985E-1	2.237854E-1	4.671288E-2	-5.006027E-2	-5.501709E-1	1.834412E-1
1.581500E+10	-8.752136E-1	1.139832E-1	3.343811E-1	2.152557E-1	4.601479E-2	-5.048752E-2	-5.488281E-1	1.882935E-1
1.603950E+10	-8.754578E-1	1.192017E-1	3.323364E-1	2.078705E-1	4.528999E-2	-5.074120E-2	-5.463867E-1	1.921387E-1
1.626400E+10	-8.740234E-1	1.228943E-1	3.289032E-1	2.011261E-1	4.438210E-2	-5.189514E-2	-5.463867E-1	1.918335E-1
1.648850E+10	-8.736877E-1	1.280212E-1	3.263702E-1	1.921234E-1	4.323769E-2	-5.205536E-2	-5.448608E-1	1.973572E-1
1.671300E+10	-8.717041E-1	1.329956E-1	3.247681E-1	1.842957E-1	4.162788E-2	-5.205345E-2	-5.424194E-1	1.990051E-1
1.693750E+10	-8.716736E-1	1.360779E-1	3.205719E-1	1.796570E-1	4.147339E-2	-5.319023E-2	-5.418396E-1	2.000732E-1
1.716200E+10	-8.692627E-1	1.412354E-1	3.184204E-1	1.730499E-1	4.034042E-2	-5.275726E-2	-5.413513E-1	2.047424E-1
1.738650E+10	-8.682556E-1	1.447449E-1	3.172150E-1	1.669617E-1	4.028320E-2	-5.291367E-2	-5.372620E-1	2.069397E-1
1.761100E+10	-8.676758E-1	1.495361E-1	3.141327E-1	1.615295E-1	3.782463E-2	-5.446815E-2	-5.383301E-1	2.070618E-1
1.783550E+10	-8.656006E-1	1.530762E-1	3.133392E-1	1.548615E-1	3.512383E-2	-5.450249E-2	-5.381470E-1	2.147217E-1
1.806000E+10	-8.663635E-1	1.580811E-1	3.099823E-1	1.480103E-1	3.592682E-2	-5.416870E-2	-5.344849E-1	2.175598E-1
1.828450E+10	-8.626099E-1	1.616516E-1	3.074493E-1	1.440887E-1	3.542328E-2	-5.417633E-2	-5.325317E-1	2.175598E-1
1.850900E+10	-8.616028E-1	1.646423E-1	3.047791E-1	1.374817E-1	3.520393E-2	-5.333328E-2	-5.326843E-1	2.207336E-1
1.873350E+10	-8.606873E-1	1.681824E-1	3.024902E-1	1.318207E-1	3.369141E-2	-5.343437E-2	-5.295715E-1	2.254028E-1
1.895800E+10	-8.583679E-1	1.746216E-1	2.998199E-1	1.273499E-1	3.298950E-2	-5.569267E-2	-5.271606E-1	2.251892E-1
1.918250E+10	-8.565063E-1	1.765137E-1	2.974854E-1	1.228790E-1	3.038406E-2	-5.577660E-2	-5.289001E-1	2.263184E-1
1.940700E+10	-8.554687E-1	1.799316E-1	2.942657E-1	1.157990E-1	2.877235E-2	-5.565071E-2	-5.237427E-1	2.340698E-1
1.963150E+10	-8.538818E-1	1.840820E-1	2.917786E-1	1.125793E-1	2.879906E-2	-5.552673E-2	-5.237427E-1	2.343445E-1
1.985600E+10	-8.530884E-1	1.872559E-1	2.892609E-1	1.078644E-1	2.822685E-2	-5.578995E-2	-5.237427E-1	2.380676E-1
2.008050E+10	-8.511658E-1	1.903992E-1	2.874298E-1	1.048737E-1	2.759743E-2	-5.528069E-2	-5.214844E-1	2.415771E-1
2.030500E+10	-8.505859E-1	1.937256E-1	2.843933E-1	1.006775E-1	2.609825E-2	-5.568504E-2	-5.172424E-1	2.424011E-1
2.052950E+10	-8.488770E-1	1.983643E-1	2.819824E-1	9.606934E-2	2.431870E-2	-5.603218E-2	-5.186157E-1	2.427368E-1
2.075400E+10	-8.470459E-1	2.006226E-1	2.806244E-1	9.294128E-2	2.382851E-2	-5.632591E-2	-5.176086E-1	2.498474E-1
2.097850E+10	-8.462219E-1	2.053833E-1	2.781830E-1	8.857727E-2	2.210426E-2	-5.519104E-2	-5.125427E-1	2.513733E-1
2.120300E+10	-8.445129E-1	2.073975E-1	2.774353E-1	8.633423E-2	2.232742E-2	-5.433083E-2	-5.130615E-1	2.504272E-1
2.142750E+10	-8.429260E-1	2.110901E-1	2.751923E-1	8.287048E-2	2.032471E-2	-5.461121E-2	-5.132446E-1	2.568665E-1
2.165200E+10	-8.419495E-1	2.159424E-1	2.728271E-1	7.884216E-2	2.028084E-2	-5.372810E-2	-5.090942E-1	2.578735E-1
2.187650E+10	-8.384094E-1	2.194519E-1	2.698364E-1	7.366943E-2	1.907730E-2	-5.576897E-2	-5.090332E-1	2.597046E-1
2.210100E+10	-8.381653E-1	2.241516E-1	2.684631E-1	7.041931E-2	1.717758E-2	-5.392075E-2	-5.086060E-1	2.654419E-1
2.232550E+10	-8.340759E-1	2.249756E-1	2.663116E-1	6.771851E-2	1.618004E-2	-5.314636E-2	-5.036011E-1	2.689209E-1
2.255000E+10	-8.339233E-1	2.307129E-1	2.643433E-1	6.513977E-2	1.529312E-2	-5.328751E-2	-5.042419E-1	2.707825E-1
2.277450E+10	-8.322449E-1	2.324219E-1	2.626495E-1	6.028748E-2	1.450920E-2	-5.478096E-2	-5.025635E-1	2.757263E-1
2.299900E+10	-8.303528E-1	2.347717E-1	2.600250E-1	5.923462E-2	1.471138E-2	-5.395317E-2	-4.979553E-1	2.759705E-1
2.322350E+10	-8.288879E-1	2.388306E-1	2.596588E-1	5.471802E-2	1.387596E-2	-5.255318E-2	-4.987183E-1	2.788849E-1
2.344800E+10	-8.267822E-1	2.415771E-1	2.558899E-1	5.456543E-2	1.052856E-2	-5.096436E-2	-4.967194E-1	2.842865E-1
2.367250E+10	-8.263245E-1	2.460937E-1	2.544250E-1	5.038452E-2	1.026726E-2	-5.284882E-2	-4.917755E-1	2.861786E-1
2.389700E+10	-8.226624E-1	2.472229E-1	2.548981E-1	4.689026E-2	9.548187E-3	-5.279922E-2	-4.925995E-1	2.849579E-1
2.412150E+10	-8.235779E-1	2.514648E-1	2.513580E-1	4.643250E-2	8.213043E-3	-5.169868E-2	-4.873352E-1	2.927094E-1
2.434600E+10	-8.213806E-1	2.536621E-1	2.509003E-1	4.391479E-2	5.968094E-3	-5.089951E-2	-4.835052E-1	2.943878E-1
2.457050E+10	-8.159485E-1	2.570801E-1	2.505951E-1	4.060364E-2	5.561829E-3	-5.156326E-2	-4.841461E-1	2.950897E-1
2.479500E+10	-8.167725E-1	2.598572E-1	2.478790E-1	3.823090E-2	4.709244E-3	-5.010796E-2	-4.812164E-1	3.004761E-1
2.501950E+10	-8.127441E-1	2.651978E-1	2.450027E-1	3.786469E-2	1.060486E-3	-4.978371E-2	-4.737091E-1	3.012543E-1
2.524400E+10	-8.135071E-1	2.662354E-1	2.448502E-1	3.427887E-2	3.513336E-3	-4.732323E-2	-4.764709E-1	3.022919E-1
2.546850E+10	-8.096008E-1	2.691956E-1	2.444153E-1	3.279114E-2	1.901627E-3	-4.767799E-2	-4.734039E-1	3.074188E-1
2.569300E+10	-8.071289E-1	2.708435E-1	2.428055E-1	3.262329E-2	1.340866E-3	-4.618073E-2	-4.704285E-1	3.073883E-1
2.591750E+10	-8.068542E-1	2.757874E-1	2.419128E-1	2.706909E-2	-1.811981E-3	-4.510498E-2	-4.685211E-1	3.087006E-1
2.614200E+10	-8.036499E-1	2.764282E-1	2.406158E-1	2.678680E-2	-4.138947E-4	-4.455566E-2	-4.697723E-1	3.149719E-1
2.636650E+10	-8.024292E-1	2.800903E-1	2.384949E-1	2.265930E-2	-1.623154E-3	-4.483414E-2	-4.659119E-1	3.184814E-1
2.659100E+10	-7.989197E-1	2.819824E-1	2.393036E-1	2.467346E-2	-1.079559E-3	-4.302406E-2	-4.610291E-1	3.211212E-1
2.681550E+10	-7.966003E-1	2.830811E-1	2.391586E-1	2.146149E-2	-3.561020E-3	-4.259682E-2	-4.623871E-1	3.238525E-1
2.704000E+10	-7.940369E-1	2.866211E-1	2.380753E-1	1.860809E-2	-4.095078E-3	-4.293633E-2	-4.590759E-1	3.291779E-1
2.726450E+10	-7.907104E-1	2.904358E-1	2.397995E-1	1.664734E-2	-3.929138E-3	-4.306412E-2	-4.523926E-1	3.294525E-1
2.748900E+10	-7.919312E-1	2.908630E-1	2.351151E-1	1.399231E-2	-5.210876E-3	-4.052162E-2	-4.521332E-1	3.279266E-1
2.771350E+10	-7.871704E-1	2.927551E-1	2.366562E-1	1.377869E-2	-6.206512E-3	-3.705215E-2	-4.483795E-1	3.342590E-1
2.793800E+10	-7.851257E-1	2.930603E-1	2.359161E-1	1.078033E-2	-7.392883E-3	-3.793144E-2	-4.480133E-1	3.309631E-1
2.816250E+10	-7.843018E-1	2.968750E-1	2.344971E-1	9.529114E-3	-6.908417E-3	-3.887749E-2	-4.443512E-1	3.364563E-1
2.838700E+10	-7.817993E-1	2.986450E-1	2.350540E-1	5.706787E-3	-8.644104E-3	-3.500175E-2	-4.415741E-1	3.390656E-1
2.861150E+10	-7.801819E-1	3.007507E-1	2.342148E-1	4.699707E-3	-7.205963E-3	-3.435135E-2	-4.371185E-1	3.386536E-1
2.883600E+10	-7.791748E-1	3.049011E-1	2.323914E-1	2.113342E-3	-7.350922E-3	-3.267097E-2	-4.367981E-1	3.441010E-1
2.906050E+10	-7.757874E-1	3.063354E-1	2.340775E-1	1.235962E-3	-8.773804E-3	-3.532791E-2	-4.325867E-1	3.487549E-1
2.928500E+10	-7.754517E-1	3.103027E-1	2.324524E-1	-3.623962E-3	-1.029205E-2	-3.339195E-2	-4.331970E-1	3.497620E-1
2.950950E+10	-7.716980E-1	3.116455E-1	2.350159E-1	-5.645752E-3	-8.487701E-3	-2.877617E-2	-4.302216E-1	3.523254E-1
2.973400E+10	-7.684631E-1	3.127136E-1	2.342834E-1	-7.522583E-3	-1.014423E-2	-2.823734E-2	-4.244080E-1	3.602295E-1
2.995850E+10	-7.681885E-1	3.144531E-1	2.313232E-1	-7.377625E-3	-1.226807E-2	-3.079033E-2	-4.269562E-1	3.597107E-1
3.018300E+10	-7.627563E-1	3.153992E-1	2.368240E-1	-1.158142E-2	-8.734703E-3	-2.764702E-2	-4.257202E-1	3.682098E-1
3.040750E+10	-7.625122E-1	3.171692E-1	2.312393E-1	-1.493073E-2	-1.301670E-2	-2.606773E-2	-4.185028E-1	3.711395E-1
3.063200E+10	-7.612915E-1	3.175964E-1	2.329483E-1	-1.449585E-2	-9.140015E-3	-2.702045E-2	-4.146881E-1	3.737335E-1
3.085650E+10	-7.592468E-1	3.191223E-1	2.312775E-1	-1.785278E-2	-1.203156E-2	-2.300167E-2	-4.128723E-1	3.788147E-1
3.108100E+10	-7.588196E-1	3.246460E-1	2.349472E-1	-2.260590E-2	-1.224613E-2	-2.166176E-2	-4.114532E-1	3.795929E-1
3.130550E+10	-7.540283E-1	3.235168E-1	2.297058E-1	-2.215576E-2	-1.251793E-2	-1.939201E-2	-3.966675E-1	3.791809E-1
3.153000E+10	-7.540283E-1	3.250427E-1	2.376175E-1	-2.275848E-2	-1.159191E-2	-2.292442E-2	-3.987885E-1	3.844452E-1
3.175450E+10	-7.572632E-1	3.266907E-1	2.385178E-1	-3.025818E-2	-1.068020E-2	-1.777172E-2	-3.958435E-1	3.877869E-1
3.197900E+10	-7.488708E-1	3.298645E-1	2.337570E-1	-3.264618E-2	-8.772850E-3	-1.776505E-2	-3.904419E-1	3.871918E-1
3.220350E+10	-7.515259E-1	3.324280E-1	2.340088E-1	-3.814697E-2	-1.225615E-2	-1.500893E-2	-3.857117E-1	3.949738E-1
3.242800E+10	-7.519531E-1	3.306580E-1	2.343140E-1	-4.211426E-2	-9.363174E-3	-2.040672E-2	-3.774719E-1	3.947754E-1
3.265250E+10	-7.445374E-1	3.353577E-1	2.337646E-1	-4.227448E-2	-7.511139E-3	-1.239443E-2	-3.751068E-1	3.990936E-1
3.287700E+10	-7.456665E-1	3.358459E-1	2.332916E-1	-4.454803E-2	-8.652687E-3	-1.351309E-2	-3.758392E-1	3.983002E-1
3.310150E+10	-7.432251E-1	3.351440E-1	2.364502E-1	-5.158997E-2	-9.606838E-3	-1.315594E-2	-3.623962E-1	4.045715E-1
3.332600E+10	-7.409058E-1	3.380432E-1	2.293396E-1	-5.378723E-2	-1.139927E-2	-1.140499E-2	-3.632507E-1	4.016571E-1
3.355050E+10	-7.374268E-1	3.399353E-1	2.300949E-1	-5.903625E-2	-6.993294E-3	-1.041174E-2	-3.668060E-1	4.070892E-1
3.377500E+10	-7.391357E-1	3.409119E-1	2.304306E-1	-5.985260E-2	-5.960226E-3	-6.400585E-3	-3.553162E-1	4.096375E-1
3.399950E+10	-7.355347E-1	3.433533E-1	2.265244E-1	-6.265259E-2	-5.784273E-3	-7.065773E-3	-3.576508E-1	4.150391E-1
3.422400E+10	-7.348938E-1	3.478088E-1	2.314072E-1	-6.668854E-2	-4.560947E-3	-5.180120E-3	-3.461914E-1	4.232330E-1
3.444850E+10	-7.373352E-1	3.493347E-1	2.319870E-1	-7.187653E-2	-2.946854E-3	-6.073475E-3	-3.433838E-1	4.146271E-1
3.467300E+10	-7.316589E-1	3.463135E-1	2.325897E-1	-7.411957E-2	-2.788067E-3	-5.928755E-3	-3.433380E-1	4.241943E-1
3.489750E+10	-7.293396E-1	3.496399E-1	2.272186E-1	-7.754517E-2	-3.612518E-3	-5.132198E-3	-3.334808E-1	4.269562E-1
3.512200E+10	-7.304993E-1	3.489075E-1	2.248840E-1	-8.406830E-2	-2.642393E-3	-5.881548E-3	-3.264313E-1	4.234314E-1
3.534650E+10	-7.299500E-1	3.495178E-1	2.199860E-1	-9.273529E-2	6.439686E-4	-6.467342E-3	-3.275604E-1	4.284515E-1
3.557100E+10	-7.267456E-1	3.550110E-1	2.280884E-1	-9.389496E-2	-1.752377E-4	-6.635666E-3	-3.103027E-1	4.297943E-1
3.579550E+10	-7.290039E-1	3.566895E-1	2.224197E-1	-9.721375E-2	-5.457401E-4	-5.249023E-3	-3.107300E-1	4.267731E-1
3.602000E+10	-7.262878E-1	3.549194E-1	2.161713E-1	-1.003571E-1	-1.333952E-4	-2.242088E-3	-3.028412E-1	4.298706E-1
3.624450E+10	-7.243347E-1	3.575439E-1	2.184525E-1	-1.069717E-1	-3.449917E-4	-1.466453E-3	-2.986755E-1	4.294434E-1
3.646900E+10	-7.262573E-1	3.616638E-1	2.167587E-1	-1.122055E-1	4.198790E-3	2.108097E-3	-2.900696E-1	4.362640E-1
3.669350E+10	-7.226257E-1	3.581238E-1	2.149658E-1	-1.142197E-1	3.608465E-4	-2.712131E-3	-2.812805E-1	4.322357E-1
3.691800E+10	-7.185974E-1	3.623352E-1	2.127686E-1	-1.120682E-1	5.810738E-3	9.369850E-4	-2.822418E-1	4.402924E-1
3.714250E+10	-7.225647E-1	3.614502E-1	2.096329E-1	-1.166611E-1	6.089926E-3	2.979040E-3	-2.748260E-1	4.397888E-1
3.736700E+10	-7.196960E-1	3.653870E-1	2.049637E-1	-1.260834E-1	6.989241E-3	-6.535053E-4	-2.666931E-1	4.360199E-1
3.759150E+10	-7.154541E-1	3.626099E-1	2.053757E-1	-1.311569E-1	1.338899E-3	2.479553E-4	-2.665863E-1	4.410553E-1
3.781600E+10	-7.211304E-1	3.708191E-1	2.008438E-1	-1.278610E-1	1.179171E-2	1.485825E-3	-2.603760E-1	4.441528E-1
3.804050E+10	-7.118835E-1	3.629150E-1	1.973572E-1	-1.329117E-1	1.115561E-2	1.491547E-3	-2.491608E-1	4.334564E-1
3.826500E+10	-7.178955E-1	3.681030E-1	2.004852E-1	-1.420212E-1	5.726337E-3	6.310940E-4	-2.392426E-1	4.387512E-1
3.848950E+10	-7.115173E-1	3.746338E-1	1.929245E-1	-1.431732E-1	9.140968E-3	2.092838E-3	-2.317047E-1	4.392242E-1
3.871400E+10	-7.164917E-1	3.701172E-1	1.833038E-1	-1.437302E-1	1.088762E-2	6.731033E-3	-2.265625E-1	4.370270E-1
3.893850E+10	-7.101440E-1	3.761902E-1	1.875153E-1	-1.443405E-1	1.783848E-2	5.190849E-3	-2.181244E-1	4.365692E-1
3.916300E+10	-7.171631E-1	3.716431E-1	1.799316E-1	-1.522827E-1	1.774883E-2	4.171371E-3	-2.178955E-1	4.334717E-1
3.938750E+10	-7.138367E-1	3.773499E-1	1.761093E-1	-1.504898E-1	1.200533E-2	6.427765E-4	-2.179260E-1	4.257202E-1
