!Date: 10/28/2005, 12:34 PM

!Vgs = -5.000000E+0
!Vds = 2.000000E+0
!Ig = -3.431700E-5
!Id = 6.531000E-3

# HZ S RI R 50
1.000000E+8	9.843750E-1	-8.508301E-2	-1.694397E+0	9.857178E-2	2.548218E-3	1.205969E-2	8.817139E-1	-2.621460E-2
3.245000E+8	9.441833E-1	-2.496948E-1	-1.617615E+0	3.800659E-1	9.748459E-3	4.178810E-2	8.481750E-1	-1.249695E-1
5.490000E+8	8.769836E-1	-3.953247E-1	-1.506287E+0	5.959473E-1	2.259445E-2	6.576920E-2	8.267212E-1	-1.978455E-1
7.735000E+8	7.896118E-1	-5.216370E-1	-1.360229E+0	7.718506E-1	4.011917E-2	8.504868E-2	7.902527E-1	-2.640686E-1
9.980000E+8	6.926270E-1	-6.230774E-1	-1.190308E+0	9.072266E-1	5.907059E-2	9.989166E-2	7.519531E-1	-3.183899E-1
1.222500E+9	5.878296E-1	-7.019043E-1	-1.025208E+0	1.017090E+0	7.883835E-2	1.098518E-1	7.114258E-1	-3.681335E-1
1.447000E+9	4.826050E-1	-7.601929E-1	-8.596191E-1	1.083740E+0	9.877777E-2	1.161079E-1	6.695557E-1	-4.103699E-1
1.671500E+9	3.807373E-1	-7.994690E-1	-6.918945E-1	1.114197E+0	1.179466E-1	1.195908E-1	6.278992E-1	-4.462585E-1
1.896000E+9	2.834167E-1	-8.244629E-1	-5.400391E-1	1.127441E+0	1.372070E-1	1.199951E-1	5.883179E-1	-4.755859E-1
2.120500E+9	1.914673E-1	-8.381042E-1	-4.036865E-1	1.124084E+0	1.554108E-1	1.169662E-1	5.487366E-1	-5.025635E-1
2.345000E+9	1.068420E-1	-8.410645E-1	-2.781982E-1	1.101196E+0	1.713028E-1	1.116409E-1	5.119934E-1	-5.257568E-1
2.569500E+9	3.451538E-2	-8.346558E-1	-1.645508E-1	1.069092E+0	1.848526E-1	1.049881E-1	4.755859E-1	-5.452271E-1
2.794000E+9	-3.500366E-2	-8.258667E-1	-6.823730E-2	1.036255E+0	1.971588E-1	9.796906E-2	4.430237E-1	-5.627441E-1
3.018500E+9	-9.497070E-2	-8.128967E-1	1.699829E-2	9.949646E-1	2.070160E-1	8.912659E-2	4.081116E-1	-5.798035E-1
3.243000E+9	-1.488953E-1	-7.974854E-1	9.344482E-2	9.528198E-1	2.164841E-1	8.090210E-2	3.751221E-1	-5.932312E-1
3.467500E+9	-1.970215E-1	-7.812500E-1	1.591187E-1	9.053955E-1	2.240982E-1	7.228088E-2	3.451843E-1	-6.045837E-1
3.692000E+9	-2.416382E-1	-7.631226E-1	2.167053E-1	8.543701E-1	2.313690E-1	6.414795E-2	3.149414E-1	-6.187744E-1
3.916500E+9	-2.823486E-1	-7.439575E-1	2.658997E-1	8.034363E-1	2.371140E-1	5.430603E-2	2.858582E-1	-6.278076E-1
4.141000E+9	-3.199463E-1	-7.235413E-1	3.085327E-1	7.575684E-1	2.420731E-1	4.598236E-2	2.594604E-1	-6.383972E-1
4.365500E+9	-3.509521E-1	-7.052917E-1	3.446655E-1	7.111816E-1	2.454529E-1	3.610992E-2	2.312317E-1	-6.471863E-1
4.590000E+9	-3.802490E-1	-6.872559E-1	3.772888E-1	6.696777E-1	2.492676E-1	2.837372E-2	2.029114E-1	-6.549988E-1
4.814500E+9	-4.037781E-1	-6.703796E-1	4.040833E-1	6.219788E-1	2.526703E-1	1.991272E-2	1.769409E-1	-6.625061E-1
5.039000E+9	-4.304504E-1	-6.514282E-1	4.266357E-1	5.792236E-1	2.554626E-1	1.086426E-2	1.508484E-1	-6.701355E-1
5.263500E+9	-4.532166E-1	-6.334534E-1	4.456177E-1	5.357666E-1	2.561951E-1	2.319336E-3	1.239929E-1	-6.766052E-1
5.488000E+9	-4.734802E-1	-6.161804E-1	4.616089E-1	4.985352E-1	2.572174E-1	-6.011963E-3	9.930420E-2	-6.806030E-1
5.712500E+9	-4.925537E-1	-6.004028E-1	4.747162E-1	4.609680E-1	2.578735E-1	-1.332092E-2	7.421875E-2	-6.860046E-1
5.937000E+9	-5.090637E-1	-5.843201E-1	4.861755E-1	4.242706E-1	2.588959E-1	-2.143860E-2	4.885864E-2	-6.900330E-1
6.161500E+9	-5.237732E-1	-5.710144E-1	4.937286E-1	3.884583E-1	2.587891E-1	-2.882385E-2	2.505493E-2	-6.938477E-1
6.386000E+9	-5.406494E-1	-5.550537E-1	4.989624E-1	3.528290E-1	2.576752E-1	-3.645325E-2	4.882813E-4	-6.964417E-1
6.610500E+9	-5.539856E-1	-5.412292E-1	5.037537E-1	3.205261E-1	2.573700E-1	-4.345703E-2	-2.557373E-2	-7.006226E-1
6.835000E+9	-5.685730E-1	-5.275879E-1	5.073853E-1	2.922668E-1	2.561188E-1	-5.035400E-2	-4.940796E-2	-6.995544E-1
7.059500E+9	-5.780640E-1	-5.161133E-1	5.069885E-1	2.611694E-1	2.555084E-1	-5.691528E-2	-6.973267E-2	-7.003784E-1
7.284000E+9	-5.906067E-1	-5.021057E-1	5.072632E-1	2.340393E-1	2.534180E-1	-6.394958E-2	-9.442139E-2	-7.015686E-1
7.508500E+9	-6.019287E-1	-4.895020E-1	5.074463E-1	2.069092E-1	2.517242E-1	-6.991577E-2	-1.186829E-1	-7.001953E-1
7.733000E+9	-6.111755E-1	-4.773865E-1	5.041199E-1	1.828613E-1	2.479935E-1	-7.596588E-2	-1.382751E-1	-6.988831E-1
7.957500E+9	-6.194153E-1	-4.674072E-1	5.010376E-1	1.579285E-1	2.473679E-1	-8.105469E-2	-1.632080E-1	-6.979370E-1
8.182000E+9	-6.296387E-1	-4.546509E-1	4.976501E-1	1.343689E-1	2.450790E-1	-8.806610E-2	-1.850281E-1	-6.955261E-1
8.406500E+9	-6.377869E-1	-4.447937E-1	4.936066E-1	1.119080E-1	2.428818E-1	-9.280396E-2	-2.067871E-1	-6.919556E-1
8.631000E+9	-6.477051E-1	-4.326172E-1	4.890900E-1	9.156799E-2	2.394333E-1	-9.830475E-2	-2.284241E-1	-6.892090E-1
8.855500E+9	-6.540833E-1	-4.236145E-1	4.836578E-1	7.269287E-2	2.368088E-1	-1.036606E-1	-2.500610E-1	-6.851807E-1
9.080001E+9	-6.605530E-1	-4.158936E-1	4.780884E-1	5.316162E-2	2.340317E-1	-1.086197E-1	-2.680359E-1	-6.791077E-1
9.304500E+9	-6.683044E-1	-4.029846E-1	4.708862E-1	3.489685E-2	2.308960E-1	-1.134720E-1	-2.888184E-1	-6.750793E-1
9.529000E+9	-6.749573E-1	-3.954163E-1	4.634399E-1	1.710510E-2	2.287827E-1	-1.181870E-1	-3.100586E-1	-6.675415E-1
9.753500E+9	-6.825256E-1	-3.840942E-1	4.567108E-1	1.724243E-3	2.251205E-1	-1.225357E-1	-3.275452E-1	-6.612854E-1
9.978000E+9	-6.877136E-1	-3.759155E-1	4.496918E-1	-1.211548E-2	2.221909E-1	-1.264114E-1	-3.454590E-1	-6.575012E-1
1.020250E+10	-6.941223E-1	-3.691101E-1	4.427032E-1	-2.728271E-2	2.184448E-1	-1.304550E-1	-3.653259E-1	-6.477356E-1
1.042700E+10	-7.000122E-1	-3.597717E-1	4.345703E-1	-4.075623E-2	2.144012E-1	-1.346741E-1	-3.817444E-1	-6.410828E-1
1.065150E+10	-7.054749E-1	-3.504639E-1	4.253540E-1	-5.453491E-2	2.114792E-1	-1.390228E-1	-3.985901E-1	-6.344910E-1
1.087600E+10	-7.112732E-1	-3.422241E-1	4.177094E-1	-6.597900E-2	2.085114E-1	-1.419373E-1	-4.167786E-1	-6.263428E-1
1.110050E+10	-7.166138E-1	-3.328247E-1	4.097748E-1	-7.777405E-2	2.039566E-1	-1.457672E-1	-4.333191E-1	-6.192932E-1
1.132500E+10	-7.217407E-1	-3.249817E-1	4.030151E-1	-8.837891E-2	1.998062E-1	-1.484833E-1	-4.480591E-1	-6.113281E-1
1.154950E+10	-7.264099E-1	-3.182678E-1	3.930511E-1	-9.915161E-2	1.968384E-1	-1.522675E-1	-4.671021E-1	-6.009827E-1
1.177400E+10	-7.304382E-1	-3.102112E-1	3.859711E-1	-1.096039E-1	1.933441E-1	-1.551514E-1	-4.807739E-1	-5.908813E-1
1.199850E+10	-7.357178E-1	-3.028564E-1	3.773041E-1	-1.183624E-1	1.896896E-1	-1.582108E-1	-4.942627E-1	-5.831604E-1
1.222300E+10	-7.397156E-1	-2.934265E-1	3.690491E-1	-1.268005E-1	1.861420E-1	-1.609344E-1	-5.113220E-1	-5.740051E-1
1.244750E+10	-7.441711E-1	-2.878113E-1	3.598022E-1	-1.353455E-1	1.821060E-1	-1.638565E-1	-5.251465E-1	-5.628967E-1
1.267200E+10	-7.479858E-1	-2.810364E-1	3.530273E-1	-1.436768E-1	1.786423E-1	-1.664124E-1	-5.373840E-1	-5.549316E-1
1.289650E+10	-7.507935E-1	-2.747192E-1	3.437500E-1	-1.507111E-1	1.748352E-1	-1.676865E-1	-5.522461E-1	-5.441284E-1
1.312100E+10	-7.560425E-1	-2.662354E-1	3.344116E-1	-1.586456E-1	1.707764E-1	-1.706390E-1	-5.651550E-1	-5.300903E-1
1.334550E+10	-7.598267E-1	-2.595825E-1	3.265076E-1	-1.649933E-1	1.678162E-1	-1.735001E-1	-5.761108E-1	-5.234375E-1
1.357000E+10	-7.629700E-1	-2.524719E-1	3.197784E-1	-1.714783E-1	1.622314E-1	-1.753998E-1	-5.895996E-1	-5.142212E-1
1.379450E+10	-7.655640E-1	-2.460327E-1	3.112488E-1	-1.774902E-1	1.605453E-1	-1.773758E-1	-6.025696E-1	-4.990845E-1
1.401900E+10	-7.695312E-1	-2.391663E-1	3.034363E-1	-1.824188E-1	1.559067E-1	-1.787415E-1	-6.094666E-1	-4.907227E-1
1.424350E+10	-7.726746E-1	-2.316284E-1	2.953033E-1	-1.872711E-1	1.531372E-1	-1.814117E-1	-6.243286E-1	-4.785461E-1
1.446800E+10	-7.767639E-1	-2.274780E-1	2.883911E-1	-1.921234E-1	1.506500E-1	-1.835175E-1	-6.347656E-1	-4.654236E-1
1.469250E+10	-7.784119E-1	-2.199402E-1	2.805023E-1	-1.971588E-1	1.458359E-1	-1.849594E-1	-6.432495E-1	-4.552002E-1
1.491700E+10	-7.817383E-1	-2.143250E-1	2.726135E-1	-2.017975E-1	1.422043E-1	-1.859818E-1	-6.549072E-1	-4.449463E-1
1.514150E+10	-7.834167E-1	-2.065430E-1	2.643127E-1	-2.042999E-1	1.373978E-1	-1.855621E-1	-6.652222E-1	-4.302673E-1
1.536600E+10	-7.867126E-1	-2.003174E-1	2.566223E-1	-2.089539E-1	1.335526E-1	-1.880646E-1	-6.723328E-1	-4.193115E-1
1.559050E+10	-7.899170E-1	-1.941223E-1	2.495499E-1	-2.120285E-1	1.309204E-1	-1.887512E-1	-6.821899E-1	-4.098816E-1
1.581500E+10	-7.921448E-1	-1.873474E-1	2.418671E-1	-2.141495E-1	1.272888E-1	-1.916046E-1	-6.926270E-1	-3.950500E-1
1.603950E+10	-7.946472E-1	-1.820984E-1	2.351608E-1	-2.179642E-1	1.242294E-1	-1.921768E-1	-6.980286E-1	-3.838806E-1
1.626400E+10	-7.980957E-1	-1.759033E-1	2.279282E-1	-2.196655E-1	1.200409E-1	-1.932297E-1	-7.076111E-1	-3.730164E-1
1.648850E+10	-8.000183E-1	-1.695557E-1	2.204819E-1	-2.232285E-1	1.155624E-1	-1.930466E-1	-7.159729E-1	-3.585815E-1
1.671300E+10	-8.026428E-1	-1.614990E-1	2.139359E-1	-2.258301E-1	1.116714E-1	-1.944427E-1	-7.223511E-1	-3.469543E-1
1.693750E+10	-8.044434E-1	-1.574402E-1	2.072830E-1	-2.271881E-1	1.086960E-1	-1.959610E-1	-7.294922E-1	-3.376770E-1
1.716200E+10	-8.066101E-1	-1.514893E-1	2.009048E-1	-2.295303E-1	1.058807E-1	-1.972733E-1	-7.363892E-1	-3.204346E-1
1.738650E+10	-8.105164E-1	-1.455994E-1	1.930008E-1	-2.303543E-1	1.021118E-1	-1.972046E-1	-7.420959E-1	-3.097534E-1
1.761100E+10	-8.113403E-1	-1.392517E-1	1.878510E-1	-2.331390E-1	9.866333E-2	-1.963348E-1	-7.488708E-1	-3.005371E-1
1.783550E+10	-8.132935E-1	-1.317749E-1	1.804810E-1	-2.329712E-1	9.506989E-2	-1.972046E-1	-7.551270E-1	-2.847290E-1
1.806000E+10	-8.163452E-1	-1.272583E-1	1.755295E-1	-2.348022E-1	9.050751E-2	-1.981888E-1	-7.578125E-1	-2.723389E-1
1.828450E+10	-8.164062E-1	-1.213684E-1	1.698151E-1	-2.347794E-1	8.990479E-2	-2.004852E-1	-7.648010E-1	-2.622986E-1
1.850900E+10	-8.187256E-1	-1.173096E-1	1.640472E-1	-2.361145E-1	8.581543E-2	-1.986389E-1	-7.715454E-1	-2.487183E-1
1.873350E+10	-8.196716E-1	-1.100769E-1	1.568069E-1	-2.377396E-1	8.049774E-2	-1.994171E-1	-7.733154E-1	-2.330627E-1
1.895800E+10	-8.210144E-1	-1.035461E-1	1.511307E-1	-2.394791E-1	8.081818E-2	-1.991043E-1	-7.785034E-1	-2.255249E-1
1.918250E+10	-8.228455E-1	-9.790039E-2	1.463623E-1	-2.383423E-1	7.632446E-2	-2.001877E-1	-7.832336E-1	-2.116394E-1
1.940700E+10	-8.258057E-1	-9.182739E-2	1.388855E-1	-2.390060E-1	7.050323E-2	-1.997681E-1	-7.842712E-1	-1.940918E-1
1.963150E+10	-8.261108E-1	-8.691406E-2	1.340485E-1	-2.399292E-1	6.899261E-2	-2.003403E-1	-7.883301E-1	-1.879272E-1
1.985600E+10	-8.278198E-1	-8.233643E-2	1.302567E-1	-2.387848E-1	6.485748E-2	-1.997147E-1	-7.942200E-1	-1.741638E-1
2.008050E+10	-8.285522E-1	-7.705688E-2	1.237411E-1	-2.393875E-1	6.359100E-2	-2.011871E-1	-7.947693E-1	-1.584778E-1
2.030500E+10	-8.314514E-1	-7.238770E-2	1.208878E-1	-2.398758E-1	6.000519E-2	-1.996002E-1	-7.951660E-1	-1.502686E-1
2.052950E+10	-8.317566E-1	-6.652832E-2	1.135025E-1	-2.408676E-1	5.700684E-2	-2.007217E-1	-8.001404E-1	-1.379395E-1
2.075400E+10	-8.332520E-1	-6.039429E-2	1.096497E-1	-2.410889E-1	5.405426E-2	-2.004700E-1	-8.043213E-1	-1.238708E-1
2.097850E+10	-8.357239E-1	-5.493164E-2	1.042709E-1	-2.412872E-1	4.977417E-2	-2.009888E-1	-8.022461E-1	-1.129150E-1
2.120300E+10	-8.352966E-1	-5.041504E-2	9.980774E-2	-2.405548E-1	4.902649E-2	-1.983185E-1	-8.072205E-1	-1.031189E-1
2.142750E+10	-8.388367E-1	-4.257202E-2	9.484863E-2	-2.383041E-1	4.650879E-2	-1.987305E-1	-8.099060E-1	-8.859253E-2
2.165200E+10	-8.399048E-1	-3.942871E-2	8.958435E-2	-2.381363E-1	4.306793E-2	-1.999664E-1	-8.107605E-1	-7.617187E-2
2.187650E+10	-8.386230E-1	-3.228760E-2	8.634186E-2	-2.416000E-1	4.169464E-2	-1.990356E-1	-8.135376E-1	-6.549072E-2
2.210100E+10	-8.402405E-1	-2.557373E-2	8.138275E-2	-2.393570E-1	3.812408E-2	-2.001038E-1	-8.152771E-1	-4.919434E-2
2.232550E+10	-8.402100E-1	-2.072144E-2	7.550812E-2	-2.371292E-1	3.495026E-2	-1.988831E-1	-8.138428E-1	-3.781128E-2
2.255000E+10	-8.424683E-1	-1.489258E-2	7.115173E-2	-2.382355E-1	3.050995E-2	-1.971512E-1	-8.136902E-1	-2.777100E-2
2.277450E+10	-8.424988E-1	-1.052856E-2	6.800079E-2	-2.398529E-1	2.724457E-2	-1.984329E-1	-8.136292E-1	-1.354980E-2
2.299900E+10	-8.441772E-1	-3.631592E-3	6.301880E-2	-2.394180E-1	2.568817E-2	-1.973114E-1	-8.131409E-1	-1.342773E-3
2.322350E+10	-8.440247E-1	4.272461E-4	6.015015E-2	-2.373123E-1	2.291107E-2	-1.969376E-1	-8.157959E-1	1.007080E-2
2.344800E+10	-8.446960E-1	4.394531E-3	5.519104E-2	-2.381516E-1	2.020264E-2	-1.975098E-1	-8.173218E-1	2.285767E-2
2.367250E+10	-8.452454E-1	1.296997E-2	4.988098E-2	-2.349091E-1	1.674652E-2	-1.968231E-1	-8.127747E-1	3.768921E-2
2.389700E+10	-8.454590E-1	1.657104E-2	4.598236E-2	-2.362137E-1	1.277161E-2	-1.955872E-1	-8.148804E-1	4.681396E-2
2.412150E+10	-8.464355E-1	2.169800E-2	4.197693E-2	-2.358093E-1	1.151276E-2	-1.955414E-1	-8.089294E-1	6.185913E-2
2.434600E+10	-8.458862E-1	2.722168E-2	3.802490E-2	-2.318115E-1	7.972717E-3	-1.975861E-1	-8.068542E-1	7.113647E-2
2.457050E+10	-8.447571E-1	3.268433E-2	3.431702E-2	-2.321777E-1	4.096985E-3	-1.955185E-1	-8.089294E-1	8.334351E-2
2.479500E+10	-8.462219E-1	3.799438E-2	3.131104E-2	-2.326736E-1	3.509521E-3	-1.948395E-1	-8.052063E-1	9.942627E-2
2.501950E+10	-8.457947E-1	4.248047E-2	2.516174E-2	-2.308197E-1	-2.059937E-4	-1.940765E-1	-7.993774E-1	1.057739E-1
2.524400E+10	-8.484497E-1	4.733276E-2	2.188110E-2	-2.294769E-1	-2.960205E-3	-1.926956E-1	-7.988281E-1	1.164551E-1
2.546850E+10	-8.482056E-1	5.319214E-2	1.877594E-2	-2.271423E-1	-4.249573E-3	-1.902847E-1	-7.940369E-1	1.271362E-1
2.569300E+10	-8.467102E-1	5.764771E-2	1.367950E-2	-2.265549E-1	-8.232117E-3	-1.887360E-1	-7.890320E-1	1.364746E-1
2.591750E+10	-8.463745E-1	6.491089E-2	1.052094E-2	-2.261429E-1	-1.168823E-2	-1.906815E-1	-7.900391E-1	1.481934E-1
2.614200E+10	-8.460999E-1	6.979370E-2	8.277893E-3	-2.231140E-1	-1.308441E-2	-1.875534E-1	-7.893677E-1	1.610718E-1
2.636650E+10	-8.479309E-1	7.269287E-2	5.455017E-3	-2.216568E-1	-1.404572E-2	-1.873932E-1	-7.857361E-1	1.752930E-1
2.659100E+10	-8.473206E-1	7.797241E-2	2.510071E-3	-2.218704E-1	-1.628113E-2	-1.875687E-1	-7.783508E-1	1.831970E-1
2.681550E+10	-8.457336E-1	8.325195E-2	-2.250671E-3	-2.206726E-1	-1.866913E-2	-1.865997E-1	-7.791443E-1	1.900940E-1
2.704000E+10	-8.473816E-1	9.008789E-2	-4.867554E-3	-2.189560E-1	-2.359009E-2	-1.858521E-1	-7.746887E-1	2.108154E-1
2.726450E+10	-8.423462E-1	9.591675E-2	-7.293701E-3	-2.174683E-1	-2.545166E-2	-1.847458E-1	-7.626648E-1	2.165833E-1
2.748900E+10	-8.465271E-1	9.719849E-2	-1.227570E-2	-2.158203E-1	-2.693176E-2	-1.834488E-1	-7.626953E-1	2.247009E-1
2.771350E+10	-8.427429E-1	1.048279E-1	-1.720428E-2	-2.150269E-1	-2.825165E-2	-1.823425E-1	-7.594299E-1	2.390747E-1
2.793800E+10	-8.432617E-1	1.078491E-1	-1.990509E-2	-2.174530E-1	-3.147125E-2	-1.833725E-1	-7.538147E-1	2.456055E-1
2.816250E+10	-8.427429E-1	1.146851E-1	-2.279663E-2	-2.102203E-1	-3.172302E-2	-1.808472E-1	-7.475586E-1	2.556458E-1
2.838700E+10	-8.418884E-1	1.179810E-1	-2.761841E-2	-2.099686E-1	-3.813171E-2	-1.794281E-1	-7.419739E-1	2.676392E-1
2.861150E+10	-8.428650E-1	1.228638E-1	-2.881622E-2	-2.102127E-1	-4.219055E-2	-1.783981E-1	-7.346802E-1	2.768860E-1
2.883600E+10	-8.429565E-1	1.308289E-1	-3.190613E-2	-2.056046E-1	-4.193878E-2	-1.744614E-1	-7.321777E-1	2.823486E-1
2.906050E+10	-8.413086E-1	1.338806E-1	-3.437805E-2	-2.058792E-1	-4.560089E-2	-1.755676E-1	-7.254944E-1	2.962036E-1
2.928500E+10	-8.377075E-1	1.386719E-1	-3.623962E-2	-2.053223E-1	-4.679108E-2	-1.739197E-1	-7.178345E-1	3.029785E-1
2.950950E+10	-8.410950E-1	1.430054E-1	-3.989410E-2	-2.010880E-1	-5.158234E-2	-1.742020E-1	-7.185974E-1	3.155823E-1
2.973400E+10	-8.390503E-1	1.483765E-1	-3.971863E-2	-2.005997E-1	-5.285645E-2	-1.721039E-1	-7.112122E-1	3.222656E-1
2.995850E+10	-8.381348E-1	1.549988E-1	-4.377747E-2	-1.985703E-1	-5.288696E-2	-1.724167E-1	-7.091064E-1	3.332825E-1
3.018300E+10	-8.357849E-1	1.606750E-1	-4.756927E-2	-1.995163E-1	-5.344391E-2	-1.700439E-1	-7.018433E-1	3.477783E-1
3.040750E+10	-8.353271E-1	1.657410E-1	-4.872131E-2	-1.989975E-1	-5.728149E-2	-1.713028E-1	-6.900330E-1	3.533325E-1
3.063200E+10	-8.347168E-1	1.670227E-1	-5.091095E-2	-1.929398E-1	-5.666351E-2	-1.705627E-1	-6.891785E-1	3.645935E-1
3.085650E+10	-8.338928E-1	1.741943E-1	-5.435944E-2	-1.948776E-1	-6.353760E-2	-1.678543E-1	-6.792603E-1	3.749390E-1
3.108100E+10	-8.327332E-1	1.791382E-1	-5.952454E-2	-1.933212E-1	-6.053925E-2	-1.680069E-1	-6.693420E-1	3.870544E-1
3.130550E+10	-8.329773E-1	1.795654E-1	-5.972290E-2	-1.923065E-1	-7.099152E-2	-1.650848E-1	-6.584473E-1	3.918152E-1
3.153000E+10	-8.302917E-1	1.906433E-1	-6.314850E-2	-1.865311E-1	-6.964874E-2	-1.661911E-1	-6.521912E-1	3.993530E-1
3.175450E+10	-8.297729E-1	1.921692E-1	-6.516266E-2	-1.835861E-1	-7.411957E-2	-1.631927E-1	-6.439514E-1	4.128113E-1
3.197900E+10	-8.229370E-1	1.971130E-1	-6.908417E-2	-1.845551E-1	-7.440186E-2	-1.581726E-1	-6.305542E-1	4.201660E-1
3.220350E+10	-8.252258E-1	2.003784E-1	-7.470703E-2	-1.847610E-1	-7.398987E-2	-1.603317E-1	-6.187134E-1	4.272156E-1
3.242800E+10	-8.288879E-1	2.075195E-1	-7.401276E-2	-1.830978E-1	-8.065033E-2	-1.559601E-1	-6.131592E-1	4.344482E-1
3.265250E+10	-8.232117E-1	2.119141E-1	-7.666016E-2	-1.773758E-1	-8.191681E-2	-1.530304E-1	-6.050720E-1	4.387512E-1
3.287700E+10	-8.223267E-1	2.173157E-1	-7.883453E-2	-1.773987E-1	-8.482361E-2	-1.521301E-1	-5.965881E-1	4.501648E-1
3.310150E+10	-8.232117E-1	2.219238E-1	-8.245850E-2	-1.746902E-1	-8.575439E-2	-1.501923E-1	-5.864563E-1	4.552917E-1
3.332600E+10	-8.189392E-1	2.264404E-1	-8.608246E-2	-1.701126E-1	-8.544922E-2	-1.533508E-1	-5.824280E-1	4.558105E-1
3.355050E+10	-8.172607E-1	2.299805E-1	-8.786011E-2	-1.698151E-1	-8.841705E-2	-1.509552E-1	-5.709839E-1	4.661560E-1
3.377500E+10	-8.142395E-1	2.365417E-1	-9.152222E-2	-1.673355E-1	-8.720398E-2	-1.492081E-1	-5.624390E-1	4.666443E-1
3.399950E+10	-8.130798E-1	2.394104E-1	-9.026337E-2	-1.672745E-1	-9.658813E-2	-1.434402E-1	-5.584412E-1	4.787598E-1
3.422400E+10	-8.151855E-1	2.437439E-1	-9.449768E-2	-1.624374E-1	-9.226227E-2	-1.443787E-1	-5.470276E-1	4.924622E-1
3.444850E+10	-8.113708E-1	2.500610E-1	-9.303284E-2	-1.649475E-1	-9.877777E-2	-1.418457E-1	-5.350952E-1	4.985657E-1
3.467300E+10	-8.061523E-1	2.542725E-1	-9.561157E-2	-1.605606E-1	-9.761047E-2	-1.397934E-1	-5.285645E-1	5.036926E-1
3.489750E+10	-8.055725E-1	2.577209E-1	-9.734344E-2	-1.548004E-1	-1.016922E-1	-1.419220E-1	-5.158386E-1	5.119934E-1
3.512200E+10	-8.077393E-1	2.608337E-1	-1.048431E-1	-1.571808E-1	-1.015244E-1	-1.373596E-1	-5.080872E-1	5.129395E-1
3.534650E+10	-8.029785E-1	2.645874E-1	-1.036224E-1	-1.555786E-1	-1.057816E-1	-1.376495E-1	-5.013428E-1	5.182190E-1
3.557100E+10	-7.986145E-1	2.683105E-1	-1.062927E-1	-1.549454E-1	-1.056747E-1	-1.370010E-1	-4.795532E-1	5.258484E-1
3.579550E+10	-7.989807E-1	2.744141E-1	-1.090622E-1	-1.492996E-1	-1.167984E-1	-1.298523E-1	-4.700012E-1	5.330200E-1
3.602000E+10	-7.936707E-1	2.767639E-1	-1.114197E-1	-1.457901E-1	-1.136780E-1	-1.289444E-1	-4.565430E-1	5.380859E-1
3.624450E+10	-7.915344E-1	2.852783E-1	-1.116867E-1	-1.450043E-1	-1.136551E-1	-1.270981E-1	-4.500732E-1	5.343628E-1
3.646900E+10	-7.878723E-1	2.900085E-1	-1.186218E-1	-1.440659E-1	-1.185074E-1	-1.265717E-1	-4.343262E-1	5.438538E-1
3.669350E+10	-7.880249E-1	2.883606E-1	-1.144943E-1	-1.423569E-1	-1.201630E-1	-1.251831E-1	-4.225159E-1	5.456543E-1
3.691800E+10	-7.835693E-1	2.945251E-1	-1.233826E-1	-1.359024E-1	-1.225433E-1	-1.241188E-1	-4.114380E-1	5.475769E-1
3.714250E+10	-7.786865E-1	2.967529E-1	-1.223450E-1	-1.392822E-1	-1.257019E-1	-1.170959E-1	-3.999023E-1	5.539551E-1
3.736700E+10	-7.786865E-1	3.044739E-1	-1.229782E-1	-1.349106E-1	-1.263199E-1	-1.183777E-1	-3.894653E-1	5.577393E-1
3.759150E+10	-7.763977E-1	3.041077E-1	-1.261673E-1	-1.332550E-1	-1.300201E-1	-1.155548E-1	-3.752441E-1	5.546875E-1
3.781600E+10	-7.709656E-1	3.118896E-1	-1.271820E-1	-1.304932E-1	-1.315842E-1	-1.096649E-1	-3.659058E-1	5.648804E-1
3.804050E+10	-7.738647E-1	3.180542E-1	-1.309586E-1	-1.253586E-1	-1.329880E-1	-1.108017E-1	-3.479614E-1	5.653992E-1
3.826500E+10	-7.691650E-1	3.246765E-1	-1.392288E-1	-1.211700E-1	-1.339798E-1	-1.074753E-1	-3.321838E-1	5.702209E-1
3.848950E+10	-7.641907E-1	3.239746E-1	-1.410370E-1	-1.175232E-1	-1.380615E-1	-1.036453E-1	-3.191833E-1	5.724487E-1
3.871400E+10	-7.597656E-1	3.201294E-1	-1.366272E-1	-1.154709E-1	-1.402283E-1	-1.051559E-1	-3.100281E-1	5.677795E-1
3.893850E+10	-7.613831E-1	3.283081E-1	-1.408920E-1	-1.149063E-1	-1.403275E-1	-9.989929E-2	-2.934570E-1	5.686951E-1
