!Date: 10/28/2005, 12:34 PM

!Vgs = -8.000000E+0
!Vds = 5.000000E+0
!Ig = -8.522100E-5
!Id = 1.294900E-3

# HZ S RI R 50
1.000000E+8	9.913940E-1	-3.649902E-2	-6.795883E-3	1.308441E-2	6.356239E-4	1.047659E-2	9.886780E-1	-9.216309E-3
3.245000E+8	9.791565E-1	-1.044006E-1	-2.445221E-3	3.812408E-2	6.277084E-3	3.695297E-2	9.691772E-1	-8.996582E-2
5.490000E+8	9.639893E-1	-1.691284E-1	5.201340E-3	6.208229E-2	1.360321E-2	6.070900E-2	9.616699E-1	-1.477966E-1
7.735000E+8	9.464722E-1	-2.328186E-1	1.558685E-2	8.441925E-2	2.410507E-2	8.223724E-2	9.448547E-1	-2.051392E-1
9.980000E+8	9.256897E-1	-2.915955E-1	2.801514E-2	1.044312E-1	3.575897E-2	1.021194E-1	9.262085E-1	-2.562866E-1
1.222500E+9	9.004517E-1	-3.498230E-1	4.219055E-2	1.226196E-1	4.961014E-2	1.200371E-1	9.048462E-1	-3.082581E-1
1.447000E+9	8.719788E-1	-4.048462E-1	5.751801E-2	1.393585E-1	6.443787E-2	1.356735E-1	8.804932E-1	-3.567200E-1
1.671500E+9	8.405151E-1	-4.563599E-1	7.402802E-2	1.547623E-1	8.087158E-2	1.509247E-1	8.530579E-1	-4.016724E-1
1.896000E+9	8.067932E-1	-5.035095E-1	9.338379E-2	1.685104E-1	9.999847E-2	1.646576E-1	8.281250E-1	-4.422913E-1
2.120500E+9	7.720947E-1	-5.482788E-1	1.143875E-1	1.785049E-1	1.201248E-1	1.743088E-1	7.995300E-1	-4.844360E-1
2.345000E+9	7.328796E-1	-5.908508E-1	1.361542E-1	1.864166E-1	1.413879E-1	1.810379E-1	7.679138E-1	-5.238647E-1
2.569500E+9	6.948242E-1	-6.266785E-1	1.570740E-1	1.906967E-1	1.615601E-1	1.862717E-1	7.380066E-1	-5.595398E-1
2.794000E+9	6.552429E-1	-6.622314E-1	1.779175E-1	1.935043E-1	1.819077E-1	1.885300E-1	7.046204E-1	-5.926819E-1
3.018500E+9	6.143799E-1	-6.926270E-1	1.969528E-1	1.939926E-1	2.015915E-1	1.890259E-1	6.704712E-1	-6.232300E-1
3.243000E+9	5.738220E-1	-7.208862E-1	2.176590E-1	1.929016E-1	2.211304E-1	1.874084E-1	6.350098E-1	-6.542969E-1
3.467500E+9	5.329285E-1	-7.462463E-1	2.368393E-1	1.901779E-1	2.397461E-1	1.848602E-1	5.994568E-1	-6.782532E-1
3.692000E+9	4.929504E-1	-7.683411E-1	2.550507E-1	1.862793E-1	2.577362E-1	1.808014E-1	5.654297E-1	-7.044067E-1
3.916500E+9	4.511108E-1	-7.874756E-1	2.737579E-1	1.797028E-1	2.758789E-1	1.744537E-1	5.274963E-1	-7.250061E-1
4.141000E+9	4.122925E-1	-8.045654E-1	2.908936E-1	1.727600E-1	2.921143E-1	1.678162E-1	4.943237E-1	-7.440491E-1
4.365500E+9	3.741760E-1	-8.200684E-1	3.068237E-1	1.649017E-1	3.079224E-1	1.596985E-1	4.590454E-1	-7.629700E-1
4.590000E+9	3.343201E-1	-8.338318E-1	3.214874E-1	1.557465E-1	3.227997E-1	1.500092E-1	4.220581E-1	-7.779236E-1
4.814500E+9	2.968750E-1	-8.437500E-1	3.354340E-1	1.446991E-1	3.367920E-1	1.396484E-1	3.885193E-1	-7.912903E-1
5.039000E+9	2.590942E-1	-8.531494E-1	3.493042E-1	1.327667E-1	3.495483E-1	1.282349E-1	3.542175E-1	-8.054504E-1
5.263500E+9	2.229919E-1	-8.591003E-1	3.606262E-1	1.205444E-1	3.610382E-1	1.161652E-1	3.187561E-1	-8.150330E-1
5.488000E+9	1.885376E-1	-8.645630E-1	3.709564E-1	1.083221E-1	3.713684E-1	1.035004E-1	2.870178E-1	-8.240662E-1
5.712500E+9	1.529846E-1	-8.697815E-1	3.810425E-1	9.542847E-2	3.809814E-1	9.071350E-2	2.543335E-1	-8.328552E-1
5.937000E+9	1.200867E-1	-8.710022E-1	3.891754E-1	8.087158E-2	3.888855E-1	7.720947E-2	2.210999E-1	-8.396912E-1
6.161500E+9	8.908081E-2	-8.740845E-1	3.964233E-1	6.752014E-2	3.959503E-1	6.324768E-2	1.901855E-1	-8.461609E-1
6.386000E+9	5.654907E-2	-8.749084E-1	4.028625E-1	5.316162E-2	4.024200E-1	4.908752E-2	1.578369E-1	-8.507385E-1
6.610500E+9	2.758789E-2	-8.748779E-1	4.075623E-1	3.973389E-2	4.072723E-1	3.541565E-2	1.249390E-1	-8.545227E-1
6.835000E+9	-2.868652E-3	-8.735046E-1	4.115448E-1	2.619934E-2	4.109344E-1	2.249146E-2	9.582520E-2	-8.558960E-1
7.059500E+9	-2.932739E-2	-8.710632E-1	4.152679E-1	1.295471E-2	4.143524E-1	9.460449E-3	6.802368E-2	-8.570251E-1
7.284000E+9	-5.743408E-2	-8.692017E-1	4.181213E-1	-1.937866E-3	4.169464E-1	-4.837036E-3	3.637695E-2	-8.577271E-1
7.508500E+9	-8.505249E-2	-8.659058E-1	4.191437E-1	-1.531982E-2	4.183960E-1	-1.817322E-2	8.666992E-3	-8.547974E-1
7.733000E+9	-1.100769E-1	-8.606567E-1	4.207458E-1	-2.871704E-2	4.191589E-1	-3.094482E-2	-1.855469E-2	-8.550720E-1
7.957500E+9	-1.359863E-1	-8.568115E-1	4.214935E-1	-4.150391E-2	4.200897E-1	-4.457092E-2	-4.656982E-2	-8.533325E-1
8.182000E+9	-1.585388E-1	-8.519592E-1	4.207153E-1	-5.371094E-2	4.196930E-1	-5.635071E-2	-7.156372E-2	-8.508606E-1
8.406500E+9	-1.825562E-1	-8.469238E-1	4.195404E-1	-6.652832E-2	4.178772E-1	-6.892395E-2	-9.960937E-2	-8.463745E-1
8.631000E+9	-2.061462E-1	-8.411560E-1	4.184875E-1	-7.846069E-2	4.169159E-1	-8.093262E-2	-1.257629E-1	-8.432312E-1
8.855500E+9	-2.269287E-1	-8.355713E-1	4.165955E-1	-9.028625E-2	4.147186E-1	-9.387207E-2	-1.503296E-1	-8.380127E-1
9.080001E+9	-2.481384E-1	-8.297119E-1	4.135132E-1	-1.017914E-1	4.132690E-1	-1.042175E-1	-1.735535E-1	-8.321533E-1
9.304500E+9	-2.693176E-1	-8.207703E-1	4.103546E-1	-1.132202E-1	4.106598E-1	-1.139679E-1	-2.002563E-1	-8.156738E-1
9.529000E+9	-2.883911E-1	-8.163452E-1	4.076233E-1	-1.237183E-1	4.062653E-1	-1.266022E-1	-2.224121E-1	-8.183594E-1
9.753500E+9	-3.084412E-1	-8.089600E-1	4.043427E-1	-1.349335E-1	4.026947E-1	-1.368713E-1	-2.415161E-1	-8.109131E-1
9.978000E+9	-3.269348E-1	-8.016968E-1	4.001160E-1	-1.444550E-1	3.986969E-1	-1.461639E-1	-2.644043E-1	-8.053894E-1
1.020250E+10	-3.457031E-1	-7.948914E-1	3.962402E-1	-1.540070E-1	3.948517E-1	-1.566772E-1	-2.873535E-1	-7.955017E-1
1.042700E+10	-3.627625E-1	-7.864380E-1	3.911591E-1	-1.634827E-1	3.901367E-1	-1.659393E-1	-3.062134E-1	-7.881470E-1
1.065150E+10	-3.790894E-1	-7.786560E-1	3.869629E-1	-1.730499E-1	3.844910E-1	-1.749725E-1	-3.255920E-1	-7.802124E-1
1.087600E+10	-3.957520E-1	-7.711792E-1	3.810120E-1	-1.815338E-1	3.790436E-1	-1.835480E-1	-3.469238E-1	-7.711792E-1
1.110050E+10	-4.116821E-1	-7.626038E-1	3.754883E-1	-1.909180E-1	3.732300E-1	-1.927795E-1	-3.660583E-1	-7.630920E-1
1.132500E+10	-4.278564E-1	-7.546387E-1	3.707733E-1	-1.982422E-1	3.684540E-1	-2.001038E-1	-3.837891E-1	-7.545471E-1
1.154950E+10	-4.434204E-1	-7.465820E-1	3.640747E-1	-2.052765E-1	3.625488E-1	-2.070160E-1	-4.048767E-1	-7.434998E-1
1.177400E+10	-4.569702E-1	-7.378540E-1	3.595581E-1	-2.135773E-1	3.577118E-1	-2.147522E-1	-4.203796E-1	-7.318115E-1
1.199850E+10	-4.719543E-1	-7.303772E-1	3.532562E-1	-2.214966E-1	3.514709E-1	-2.225800E-1	-4.369507E-1	-7.247620E-1
1.222300E+10	-4.852295E-1	-7.221680E-1	3.470306E-1	-2.281036E-1	3.458405E-1	-2.291565E-1	-4.551086E-1	-7.141113E-1
1.244750E+10	-4.991150E-1	-7.131348E-1	3.407440E-1	-2.342834E-1	3.392181E-1	-2.349854E-1	-4.717712E-1	-7.014160E-1
1.267200E+10	-5.119629E-1	-7.048035E-1	3.352966E-1	-2.406921E-1	3.334198E-1	-2.416382E-1	-4.863892E-1	-6.930542E-1
1.289650E+10	-5.236206E-1	-6.964417E-1	3.280029E-1	-2.467346E-1	3.265381E-1	-2.471008E-1	-5.033264E-1	-6.811218E-1
1.312100E+10	-5.367432E-1	-6.879578E-1	3.219604E-1	-2.530365E-1	3.199158E-1	-2.535858E-1	-5.182800E-1	-6.682739E-1
1.334550E+10	-5.481567E-1	-6.800232E-1	3.156433E-1	-2.583160E-1	3.143158E-1	-2.581787E-1	-5.297852E-1	-6.601868E-1
1.357000E+10	-5.616760E-1	-6.698914E-1	3.081512E-1	-2.642822E-1	3.059387E-1	-2.648773E-1	-5.473328E-1	-6.497498E-1
1.379450E+10	-5.698853E-1	-6.630249E-1	3.035583E-1	-2.673492E-1	3.008118E-1	-2.678986E-1	-5.601807E-1	-6.331177E-1
1.401900E+10	-5.799255E-1	-6.543579E-1	2.974548E-1	-2.717285E-1	2.953644E-1	-2.726898E-1	-5.698242E-1	-6.244507E-1
1.424350E+10	-5.917969E-1	-6.446533E-1	2.895203E-1	-2.763977E-1	2.875671E-1	-2.776489E-1	-5.852966E-1	-6.126709E-1
1.446800E+10	-6.014099E-1	-6.374817E-1	2.825165E-1	-2.814026E-1	2.816467E-1	-2.820282E-1	-5.978699E-1	-5.979309E-1
1.469250E+10	-6.121521E-1	-6.286926E-1	2.759247E-1	-2.858429E-1	2.743835E-1	-2.855835E-1	-6.067505E-1	-5.893555E-1
1.491700E+10	-6.210327E-1	-6.206055E-1	2.699280E-1	-2.888031E-1	2.678986E-1	-2.897491E-1	-6.210937E-1	-5.784607E-1
1.514150E+10	-6.311035E-1	-6.111450E-1	2.627869E-1	-2.917023E-1	2.612915E-1	-2.924500E-1	-6.341553E-1	-5.612488E-1
1.536600E+10	-6.413269E-1	-6.021118E-1	2.565918E-1	-2.963409E-1	2.552948E-1	-2.956543E-1	-6.411743E-1	-5.505371E-1
1.559050E+10	-6.506042E-1	-5.948792E-1	2.491608E-1	-2.997589E-1	2.484894E-1	-2.987061E-1	-6.541748E-1	-5.405579E-1
1.581500E+10	-6.580811E-1	-5.848999E-1	2.418671E-1	-3.015747E-1	2.411652E-1	-3.019257E-1	-6.653748E-1	-5.256348E-1
1.603950E+10	-6.681824E-1	-5.766602E-1	2.377319E-1	-3.043365E-1	2.363129E-1	-3.064117E-1	-6.721802E-1	-5.138550E-1
1.626400E+10	-6.756897E-1	-5.690613E-1	2.292633E-1	-3.072357E-1	2.290802E-1	-3.071594E-1	-6.844788E-1	-5.032349E-1
1.648850E+10	-6.850891E-1	-5.609436E-1	2.233582E-1	-3.097534E-1	2.218475E-1	-3.093262E-1	-6.948547E-1	-4.876099E-1
1.671300E+10	-6.920166E-1	-5.518188E-1	2.180023E-1	-3.119812E-1	2.144165E-1	-3.122559E-1	-7.009583E-1	-4.765625E-1
1.693750E+10	-6.993103E-1	-5.449829E-1	2.105865E-1	-3.139801E-1	2.098846E-1	-3.140869E-1	-7.113647E-1	-4.642944E-1
1.716200E+10	-7.064209E-1	-5.355835E-1	2.042847E-1	-3.162079E-1	2.033844E-1	-3.161316E-1	-7.175598E-1	-4.486084E-1
1.738650E+10	-7.139893E-1	-5.275269E-1	1.985016E-1	-3.169250E-1	1.965942E-1	-3.180542E-1	-7.247620E-1	-4.374695E-1
1.761100E+10	-7.216797E-1	-5.197144E-1	1.920471E-1	-3.182678E-1	1.902771E-1	-3.191223E-1	-7.330322E-1	-4.259644E-1
1.783550E+10	-7.303467E-1	-5.097046E-1	1.855927E-1	-3.213348E-1	1.854553E-1	-3.202667E-1	-7.422791E-1	-4.110107E-1
1.806000E+10	-7.359619E-1	-5.024109E-1	1.809387E-1	-3.219147E-1	1.795044E-1	-3.218384E-1	-7.467346E-1	-3.986816E-1
1.828450E+10	-7.423096E-1	-4.942932E-1	1.746521E-1	-3.220062E-1	1.733398E-1	-3.230591E-1	-7.534180E-1	-3.893433E-1
1.850900E+10	-7.488403E-1	-4.859009E-1	1.695862E-1	-3.235626E-1	1.675720E-1	-3.238525E-1	-7.629395E-1	-3.737793E-1
1.873350E+10	-7.564392E-1	-4.761047E-1	1.621399E-1	-3.246918E-1	1.604156E-1	-3.255310E-1	-7.653198E-1	-3.593750E-1
1.895800E+10	-7.593689E-1	-4.686584E-1	1.573486E-1	-3.243256E-1	1.567535E-1	-3.257294E-1	-7.715454E-1	-3.518372E-1
1.918250E+10	-7.669678E-1	-4.625549E-1	1.518402E-1	-3.261261E-1	1.490631E-1	-3.263855E-1	-7.795410E-1	-3.372498E-1
1.940700E+10	-7.721252E-1	-4.517517E-1	1.435852E-1	-3.265991E-1	1.441498E-1	-3.266754E-1	-7.822876E-1	-3.194580E-1
1.963150E+10	-7.789307E-1	-4.458618E-1	1.387329E-1	-3.266754E-1	1.389465E-1	-3.278351E-1	-7.867737E-1	-3.124695E-1
1.985600E+10	-7.830505E-1	-4.382935E-1	1.343079E-1	-3.275452E-1	1.331787E-1	-3.266754E-1	-7.937012E-1	-2.976990E-1
2.008050E+10	-7.896423E-1	-4.288025E-1	1.272278E-1	-3.277893E-1	1.276093E-1	-3.275452E-1	-8.008728E-1	-2.811890E-1
2.030500E+10	-7.940063E-1	-4.213257E-1	1.219482E-1	-3.277435E-1	1.210327E-1	-3.273926E-1	-7.980347E-1	-2.742310E-1
2.052950E+10	-7.993164E-1	-4.142761E-1	1.159973E-1	-3.294220E-1	1.165771E-1	-3.282776E-1	-8.067322E-1	-2.586975E-1
2.075400E+10	-8.061218E-1	-4.064941E-1	1.135406E-1	-3.279877E-1	1.113739E-1	-3.262939E-1	-8.092651E-1	-2.463989E-1
2.097850E+10	-8.106689E-1	-3.971252E-1	1.077881E-1	-3.284454E-1	1.053467E-1	-3.267365E-1	-8.114319E-1	-2.327576E-1
2.120300E+10	-8.127136E-1	-3.893433E-1	1.028137E-1	-3.264923E-1	9.991455E-2	-3.258362E-1	-8.165588E-1	-2.240906E-1
2.142750E+10	-8.213196E-1	-3.811646E-1	9.675598E-2	-3.265228E-1	9.588623E-2	-3.267822E-1	-8.213501E-1	-2.072449E-1
2.165200E+10	-8.251343E-1	-3.723450E-1	9.013367E-2	-3.257904E-1	9.083557E-2	-3.261871E-1	-8.217468E-1	-1.992798E-1
2.187650E+10	-8.281555E-1	-3.642883E-1	8.819580E-2	-3.265228E-1	8.697510E-2	-3.254089E-1	-8.278809E-1	-1.862793E-1
2.210100E+10	-8.332214E-1	-3.553772E-1	8.213806E-2	-3.258209E-1	8.071899E-2	-3.242035E-1	-8.313599E-1	-1.698914E-1
2.232550E+10	-8.345032E-1	-3.473511E-1	7.969666E-2	-3.238678E-1	7.626343E-2	-3.249359E-1	-8.294983E-1	-1.575928E-1
2.255000E+10	-8.396301E-1	-3.382263E-1	7.196045E-2	-3.256683E-1	7.139587E-2	-3.251801E-1	-8.345337E-1	-1.474915E-1
2.277450E+10	-8.441772E-1	-3.305054E-1	6.935120E-2	-3.251190E-1	6.826782E-2	-3.239136E-1	-8.359375E-1	-1.302795E-1
2.299900E+10	-8.463440E-1	-3.240051E-1	6.289673E-2	-3.245087E-1	6.257629E-2	-3.243408E-1	-8.361511E-1	-1.188049E-1
2.322350E+10	-8.504028E-1	-3.148499E-1	5.909729E-2	-3.238678E-1	5.723572E-2	-3.236237E-1	-8.401794E-1	-1.078491E-1
2.344800E+10	-8.514404E-1	-3.086853E-1	5.421448E-2	-3.238831E-1	5.307007E-2	-3.227997E-1	-8.421936E-1	-9.143066E-2
2.367250E+10	-8.558350E-1	-2.974243E-1	4.875183E-2	-3.222504E-1	4.722595E-2	-3.216858E-1	-8.396912E-1	-8.071899E-2
2.389700E+10	-8.574829E-1	-2.899780E-1	4.490662E-2	-3.220062E-1	4.379272E-2	-3.211823E-1	-8.438110E-1	-6.829834E-2
2.412150E+10	-8.600464E-1	-2.849426E-1	3.866577E-2	-3.211060E-1	3.852844E-2	-3.186646E-1	-8.410034E-1	-4.956055E-2
2.434600E+10	-8.632202E-1	-2.772827E-1	3.392029E-2	-3.190460E-1	3.370667E-2	-3.189545E-1	-8.403015E-1	-4.187012E-2
2.457050E+10	-8.667603E-1	-2.723389E-1	3.230286E-2	-3.186493E-1	3.027344E-2	-3.175812E-1	-8.413696E-1	-3.021240E-2
2.479500E+10	-8.691406E-1	-2.661133E-1	2.903748E-2	-3.170319E-1	2.554321E-2	-3.165588E-1	-8.400879E-1	-1.361084E-2
2.501950E+10	-8.724365E-1	-2.582397E-1	2.195740E-2	-3.177185E-1	2.062988E-2	-3.162994E-1	-8.354492E-1	-4.852295E-3
2.524400E+10	-8.761597E-1	-2.521057E-1	1.924133E-2	-3.166046E-1	1.493835E-2	-3.139496E-1	-8.362427E-1	5.554199E-3
2.546850E+10	-8.786926E-1	-2.428894E-1	1.559448E-2	-3.122559E-1	1.344299E-2	-3.128357E-1	-8.350830E-1	1.901245E-2
2.569300E+10	-8.810120E-1	-2.374573E-1	9.475708E-3	-3.114319E-1	9.384155E-3	-3.126526E-1	-8.343811E-1	2.752686E-2
2.591750E+10	-8.853149E-1	-2.262573E-1	5.722046E-3	-3.106079E-1	3.936768E-3	-3.085327E-1	-8.350220E-1	4.132080E-2
2.614200E+10	-8.876038E-1	-2.200928E-1	4.943848E-3	-3.064423E-1	3.036499E-3	-3.072815E-1	-8.339539E-1	5.300903E-2
2.636650E+10	-8.915100E-1	-2.136841E-1	-1.434326E-3	-3.063507E-1	-1.693726E-3	-3.080750E-1	-8.333740E-1	6.887817E-2
2.659100E+10	-8.904724E-1	-2.081604E-1	-3.372192E-3	-3.080444E-1	-4.684448E-3	-3.051758E-1	-8.273926E-1	7.910156E-2
2.681550E+10	-8.933411E-1	-2.008667E-1	-6.607056E-3	-3.068542E-1	-8.926392E-3	-3.045197E-1	-8.291321E-1	8.721924E-2
2.704000E+10	-8.960266E-1	-1.904907E-1	-1.252747E-2	-3.034515E-1	-1.312256E-2	-3.032379E-1	-8.284912E-1	1.083679E-1
2.726450E+10	-8.968506E-1	-1.829224E-1	-1.353455E-2	-3.015137E-1	-1.470947E-2	-3.049927E-1	-8.197632E-1	1.156006E-1
2.748900E+10	-8.996582E-1	-1.790771E-1	-1.853943E-2	-3.029327E-1	-2.059937E-2	-3.024597E-1	-8.163147E-1	1.251831E-1
2.771350E+10	-8.998108E-1	-1.710815E-1	-2.308655E-2	-2.990265E-1	-2.416992E-2	-2.992096E-1	-8.141479E-1	1.389160E-1
2.793800E+10	-9.057007E-1	-1.663818E-1	-2.629089E-2	-3.004456E-1	-2.581787E-2	-2.986145E-1	-8.124390E-1	1.489258E-1
2.816250E+10	-9.059448E-1	-1.568298E-1	-2.938843E-2	-2.974091E-1	-2.966309E-2	-2.986908E-1	-8.108215E-1	1.589050E-1
2.838700E+10	-9.064331E-1	-1.465149E-1	-3.503418E-2	-2.954102E-1	-3.279114E-2	-2.946320E-1	-8.067017E-1	1.741028E-1
2.861150E+10	-9.050903E-1	-1.415100E-1	-3.913879E-2	-2.961121E-1	-4.132080E-2	-2.958679E-1	-7.998962E-1	1.834412E-1
2.883600E+10	-9.112854E-1	-1.353760E-1	-4.174805E-2	-2.913971E-1	-4.315186E-2	-2.918396E-1	-7.958069E-1	1.891174E-1
2.906050E+10	-9.120789E-1	-1.270447E-1	-4.754639E-2	-2.900848E-1	-4.631042E-2	-2.896423E-1	-7.917175E-1	2.046814E-1
2.928500E+10	-9.144287E-1	-1.209106E-1	-4.696655E-2	-2.881775E-1	-4.867554E-2	-2.879944E-1	-7.863159E-1	2.127075E-1
2.950950E+10	-9.132996E-1	-1.145325E-1	-4.867554E-2	-2.859192E-1	-5.157471E-2	-2.837982E-1	-7.871704E-1	2.201233E-1
2.973400E+10	-9.173279E-1	-1.063232E-1	-5.397034E-2	-2.853394E-1	-5.273437E-2	-2.841644E-1	-7.855835E-1	2.369385E-1
2.995850E+10	-9.123840E-1	-9.698486E-2	-5.520630E-2	-2.834167E-1	-5.610657E-2	-2.837830E-1	-7.787476E-1	2.460022E-1
3.018300E+10	-9.166870E-1	-9.420776E-2	-5.787659E-2	-2.811584E-1	-6.214905E-2	-2.791138E-1	-7.729492E-1	2.639771E-1
3.040750E+10	-9.176941E-1	-8.386230E-2	-6.407166E-2	-2.797699E-1	-6.301880E-2	-2.825165E-1	-7.702637E-1	2.694702E-1
3.063200E+10	-9.155579E-1	-7.687378E-2	-6.710815E-2	-2.776184E-1	-6.286621E-2	-2.774658E-1	-7.660522E-1	2.805481E-1
3.085650E+10	-9.212952E-1	-7.095337E-2	-6.990051E-2	-2.779541E-1	-6.939697E-2	-2.763519E-1	-7.571411E-1	2.905884E-1
3.108100E+10	-9.191589E-1	-6.576538E-2	-7.225037E-2	-2.743988E-1	-7.017517E-2	-2.752838E-1	-7.514954E-1	3.067017E-1
3.130550E+10	-9.196472E-1	-5.972290E-2	-7.496643E-2	-2.746124E-1	-7.708740E-2	-2.756500E-1	-7.424316E-1	3.190613E-1
3.153000E+10	-9.213867E-1	-5.355835E-2	-7.902527E-2	-2.754669E-1	-8.166504E-2	-2.727509E-1	-7.402039E-1	3.202820E-1
3.175450E+10	-9.217224E-1	-4.479980E-2	-8.058167E-2	-2.675171E-1	-8.283997E-2	-2.681732E-1	-7.354431E-1	3.410034E-1
3.197900E+10	-9.221497E-1	-3.753662E-2	-8.380127E-2	-2.678833E-1	-8.738708E-2	-2.702026E-1	-7.184448E-1	3.488770E-1
3.220350E+10	-9.263916E-1	-2.969360E-2	-8.784485E-2	-2.652893E-1	-8.465576E-2	-2.698059E-1	-7.138062E-1	3.588562E-1
3.242800E+10	-9.252625E-1	-2.880859E-2	-8.847046E-2	-2.628937E-1	-8.866882E-2	-2.630463E-1	-7.079468E-1	3.702698E-1
3.265250E+10	-9.295959E-1	-1.913452E-2	-9.390259E-2	-2.618103E-1	-9.883118E-2	-2.624054E-1	-6.955261E-1	3.766479E-1
3.287700E+10	-9.256897E-1	-1.242065E-2	-9.840393E-2	-2.587433E-1	-9.420776E-2	-2.563477E-1	-6.965637E-1	3.853760E-1
3.310150E+10	-9.266968E-1	-2.532959E-3	-9.907532E-2	-2.576447E-1	-9.976196E-2	-2.588501E-1	-6.830139E-1	3.882751E-1
3.332600E+10	-9.275208E-1	5.920410E-3	-1.019745E-1	-2.559814E-1	-1.013031E-1	-2.564697E-1	-6.747437E-1	3.952332E-1
3.355050E+10	-9.237671E-1	1.037598E-2	-1.038818E-1	-2.514801E-1	-1.048203E-1	-2.488403E-1	-6.682129E-1	4.087524E-1
3.377500E+10	-9.246826E-1	1.696777E-2	-1.029816E-1	-2.512665E-1	-9.942627E-2	-2.510986E-1	-6.639404E-1	4.141541E-1
3.399950E+10	-9.243164E-1	2.053833E-2	-1.096649E-1	-2.484131E-1	-1.096954E-1	-2.503967E-1	-6.570740E-1	4.252625E-1
3.422400E+10	-9.254761E-1	3.027344E-2	-1.070480E-1	-2.481384E-1	-1.066284E-1	-2.517700E-1	-6.505432E-1	4.361877E-1
3.444850E+10	-9.247742E-1	3.601074E-2	-1.107483E-1	-2.499237E-1	-1.115265E-1	-2.468491E-1	-6.369019E-1	4.476624E-1
3.467300E+10	-9.252014E-1	4.244995E-2	-1.148682E-1	-2.463226E-1	-1.134720E-1	-2.444687E-1	-6.378174E-1	4.554749E-1
3.489750E+10	-9.268188E-1	4.971313E-2	-1.207123E-1	-2.427979E-1	-1.150665E-1	-2.434387E-1	-6.250916E-1	4.633484E-1
3.512200E+10	-9.279785E-1	5.651855E-2	-1.219940E-1	-2.430573E-1	-1.199722E-1	-2.419586E-1	-6.097717E-1	4.696960E-1
3.534650E+10	-9.277039E-1	6.063843E-2	-1.218109E-1	-2.405014E-1	-1.238098E-1	-2.407303E-1	-6.064758E-1	4.794617E-1
3.557100E+10	-9.250793E-1	6.588745E-2	-1.265869E-1	-2.376785E-1	-1.258545E-1	-2.382202E-1	-5.944824E-1	4.925842E-1
3.579550E+10	-9.234314E-1	7.662964E-2	-1.320648E-1	-2.406921E-1	-1.296082E-1	-2.370605E-1	-5.812988E-1	4.971924E-1
3.602000E+10	-9.259644E-1	7.968140E-2	-1.328201E-1	-2.367401E-1	-1.322098E-1	-2.345123E-1	-5.707092E-1	5.060730E-1
3.624450E+10	-9.230652E-1	9.085083E-2	-1.371536E-1	-2.311783E-1	-1.355362E-1	-2.357101E-1	-5.632019E-1	5.075989E-1
3.646900E+10	-9.234009E-1	9.866333E-2	-1.345367E-1	-2.287140E-1	-1.345520E-1	-2.286682E-1	-5.550842E-1	5.218811E-1
3.669350E+10	-9.200134E-1	1.025696E-1	-1.395569E-1	-2.307892E-1	-1.407852E-1	-2.295456E-1	-5.357666E-1	5.254822E-1
3.691800E+10	-9.191895E-1	1.053772E-1	-1.411972E-1	-2.273102E-1	-1.409378E-1	-2.305450E-1	-5.263672E-1	5.369873E-1
3.714250E+10	-9.202576E-1	1.124878E-1	-1.421890E-1	-2.241821E-1	-1.411743E-1	-2.229004E-1	-5.141907E-1	5.339050E-1
3.736700E+10	-9.168701E-1	1.190186E-1	-1.455307E-1	-2.199554E-1	-1.483078E-1	-2.208786E-1	-5.097656E-1	5.411377E-1
3.759150E+10	-9.170532E-1	1.294250E-1	-1.488190E-1	-2.178268E-1	-1.475143E-1	-2.171326E-1	-4.948730E-1	5.535889E-1
3.781600E+10	-9.137268E-1	1.390991E-1	-1.538391E-1	-2.199478E-1	-1.520157E-1	-2.168732E-1	-4.860840E-1	5.585937E-1
3.804050E+10	-9.180298E-1	1.384888E-1	-1.549759E-1	-2.161026E-1	-1.548538E-1	-2.139893E-1	-4.680786E-1	5.658264E-1
3.826500E+10	-9.110413E-1	1.423035E-1	-1.603394E-1	-2.139435E-1	-1.553192E-1	-2.152939E-1	-4.514160E-1	5.758362E-1
3.848950E+10	-9.082031E-1	1.507568E-1	-1.542358E-1	-2.105789E-1	-1.593323E-1	-2.138596E-1	-4.422913E-1	5.783386E-1
3.871400E+10	-9.112549E-1	1.554565E-1	-1.562500E-1	-2.050400E-1	-1.593475E-1	-2.063751E-1	-4.323425E-1	5.750427E-1
3.893850E+10	-9.097900E-1	1.654663E-1	-1.647034E-1	-2.051620E-1	-1.622543E-1	-2.030716E-1	-4.157715E-1	5.836182E-1
