!Date: 10/28/2005, 12:34 PM

!Vgs = -6.000000E+0
!Vds = 3.000000E+0
!Ig = -4.662500E-5
!Id = 2.191500E-3

# HZ S RI R 50
1.000000E+8	9.920349E-1	-4.409790E-2	-6.393051E-2	1.306915E-2	1.430988E-3	1.266766E-2	9.747925E-1	-1.174927E-2
3.245000E+8	9.762573E-1	-1.196594E-1	-5.520439E-2	4.867744E-2	6.654739E-3	4.145622E-2	9.542236E-1	-9.515381E-2
5.490000E+8	9.579468E-1	-1.945801E-1	-4.451752E-2	7.919693E-2	1.569366E-2	6.747437E-2	9.466858E-1	-1.557312E-1
7.735000E+8	9.349060E-1	-2.672119E-1	-3.009796E-2	1.071091E-1	2.776337E-2	9.098816E-2	9.267273E-1	-2.154541E-1
9.980000E+8	9.079895E-1	-3.337097E-1	-1.223755E-2	1.315765E-1	4.244614E-2	1.123848E-1	9.063416E-1	-2.683716E-1
1.222500E+9	8.754883E-1	-3.980713E-1	6.996155E-3	1.537933E-1	5.860901E-2	1.310120E-1	8.827515E-1	-3.223572E-1
1.447000E+9	8.394165E-1	-4.581909E-1	2.785492E-2	1.730957E-1	7.646179E-2	1.471558E-1	8.552856E-1	-3.717651E-1
1.671500E+9	7.996826E-1	-5.136414E-1	5.054474E-2	1.903915E-1	9.564972E-2	1.620789E-1	8.255920E-1	-4.175415E-1
1.896000E+9	7.572632E-1	-5.634460E-1	7.579041E-2	2.049484E-1	1.180573E-1	1.750565E-1	7.979126E-1	-4.587097E-1
2.120500E+9	7.141418E-1	-6.094360E-1	1.034164E-1	2.150269E-1	1.408386E-1	1.833954E-1	7.675476E-1	-5.008545E-1
2.345000E+9	6.672363E-1	-6.518250E-1	1.296082E-1	2.214432E-1	1.646576E-1	1.884995E-1	7.336121E-1	-5.396423E-1
2.569500E+9	6.213379E-1	-6.869507E-1	1.556931E-1	2.236176E-1	1.869812E-1	1.912613E-1	7.003784E-1	-5.750732E-1
2.794000E+9	5.743103E-1	-7.203674E-1	1.808014E-1	2.247925E-1	2.087326E-1	1.910172E-1	6.651917E-1	-6.061707E-1
3.018500E+9	5.263062E-1	-7.480164E-1	2.051163E-1	2.230225E-1	2.306290E-1	1.890030E-1	6.289368E-1	-6.384888E-1
3.243000E+9	4.794922E-1	-7.729492E-1	2.284164E-1	2.188644E-1	2.507172E-1	1.844025E-1	5.917053E-1	-6.646423E-1
3.467500E+9	4.335327E-1	-7.943726E-1	2.502594E-1	2.133636E-1	2.702942E-1	1.791077E-1	5.557861E-1	-6.884460E-1
3.692000E+9	3.876343E-1	-8.122864E-1	2.711334E-1	2.055664E-1	2.885132E-1	1.717834E-1	5.177917E-1	-7.113342E-1
3.916500E+9	3.423157E-1	-8.271790E-1	2.916260E-1	1.952209E-1	3.052216E-1	1.627350E-1	4.808960E-1	-7.299805E-1
4.141000E+9	2.993774E-1	-8.394775E-1	3.094940E-1	1.858521E-1	3.217926E-1	1.533356E-1	4.461060E-1	-7.477722E-1
4.365500E+9	2.580872E-1	-8.500366E-1	3.262482E-1	1.738892E-1	3.365479E-1	1.419220E-1	4.112854E-1	-7.633362E-1
4.590000E+9	2.155762E-1	-8.586731E-1	3.416290E-1	1.609802E-1	3.499908E-1	1.296387E-1	3.739929E-1	-7.774963E-1
4.814500E+9	1.763611E-1	-8.635864E-1	3.556671E-1	1.474152E-1	3.626099E-1	1.170654E-1	3.404541E-1	-7.904663E-1
5.039000E+9	1.377563E-1	-8.682251E-1	3.688354E-1	1.327972E-1	3.742676E-1	1.033478E-1	3.059998E-1	-8.020935E-1
5.263500E+9	9.976196E-2	-8.691101E-1	3.801422E-1	1.178741E-1	3.836060E-1	8.882141E-2	2.709351E-1	-8.114319E-1
5.488000E+9	6.472778E-2	-8.701782E-1	3.896179E-1	1.023712E-1	3.923950E-1	7.508850E-2	2.389526E-1	-8.184204E-1
5.712500E+9	2.893066E-2	-8.703003E-1	3.979645E-1	8.750916E-2	3.997650E-1	5.986023E-2	2.067871E-1	-8.258362E-1
5.937000E+9	-4.058838E-3	-8.671570E-1	4.059448E-1	7.086182E-2	4.061737E-1	4.507446E-2	1.728210E-1	-8.322144E-1
6.161500E+9	-3.482056E-2	-8.666687E-1	4.117126E-1	5.528259E-2	4.109802E-1	3.018188E-2	1.419373E-1	-8.362122E-1
6.386000E+9	-6.756592E-2	-8.633118E-1	4.160004E-1	4.017639E-2	4.143677E-1	1.499939E-2	1.103516E-1	-8.399963E-1
6.610500E+9	-9.552002E-2	-8.598328E-1	4.197693E-1	2.374268E-2	4.177094E-1	9.460449E-4	7.812500E-2	-8.424377E-1
6.835000E+9	-1.251831E-1	-8.551636E-1	4.223022E-1	9.323120E-3	4.194183E-1	-1.245117E-2	4.797363E-2	-8.429871E-1
7.059500E+9	-1.508484E-1	-8.489990E-1	4.246063E-1	-5.645752E-3	4.203949E-1	-2.580261E-2	2.188110E-2	-8.425903E-1
7.284000E+9	-1.783447E-1	-8.433533E-1	4.248962E-1	-2.076721E-2	4.205933E-1	-4.049683E-2	-9.948730E-3	-8.428040E-1
7.508500E+9	-2.041931E-1	-8.366089E-1	4.253845E-1	-3.500366E-2	4.203949E-1	-5.419922E-2	-3.793335E-2	-8.396301E-1
7.733000E+9	-2.286682E-1	-8.288269E-1	4.243317E-1	-4.920959E-2	4.194794E-1	-6.704712E-2	-6.326294E-2	-8.380127E-1
7.957500E+9	-2.519531E-1	-8.219910E-1	4.231873E-1	-6.309509E-2	4.173889E-1	-8.006287E-2	-9.240723E-2	-8.360291E-1
8.182000E+9	-2.731628E-1	-8.151550E-1	4.212189E-1	-7.600403E-2	4.162292E-1	-9.234619E-2	-1.176758E-1	-8.323364E-1
8.406500E+9	-2.955322E-1	-8.071899E-1	4.183960E-1	-8.804321E-2	4.126282E-1	-1.042023E-1	-1.443481E-1	-8.275146E-1
8.631000E+9	-3.173828E-1	-7.986145E-1	4.160004E-1	-1.021271E-1	4.089661E-1	-1.171722E-1	-1.705017E-1	-8.227844E-1
8.855500E+9	-3.377991E-1	-7.906494E-1	4.130859E-1	-1.124573E-1	4.051971E-1	-1.286774E-1	-1.944580E-1	-8.164368E-1
9.080001E+9	-3.568420E-1	-7.838745E-1	4.085083E-1	-1.246490E-1	4.014435E-1	-1.389618E-1	-2.185364E-1	-8.096619E-1
9.304500E+9	-3.758850E-1	-7.729797E-1	4.039001E-1	-1.359100E-1	3.966217E-1	-1.488342E-1	-2.434692E-1	-8.031616E-1
9.529000E+9	-3.936768E-1	-7.655029E-1	3.995972E-1	-1.463623E-1	3.926086E-1	-1.589813E-1	-2.649231E-1	-7.950134E-1
9.753500E+9	-4.122620E-1	-7.566223E-1	3.946838E-1	-1.566315E-1	3.866882E-1	-1.687164E-1	-2.861023E-1	-7.865295E-1
9.978000E+9	-4.281921E-1	-7.470398E-1	3.897095E-1	-1.660919E-1	3.819733E-1	-1.779022E-1	-3.065491E-1	-7.795105E-1
1.020250E+10	-4.446106E-1	-7.395020E-1	3.840790E-1	-1.765442E-1	3.759308E-1	-1.872101E-1	-3.287964E-1	-7.708130E-1
1.042700E+10	-4.607544E-1	-7.290039E-1	3.780823E-1	-1.855469E-1	3.702698E-1	-1.951447E-1	-3.476562E-1	-7.620850E-1
1.065150E+10	-4.754639E-1	-7.204590E-1	3.715363E-1	-1.935883E-1	3.637085E-1	-2.030487E-1	-3.670349E-1	-7.531738E-1
1.087600E+10	-4.904480E-1	-7.112732E-1	3.654480E-1	-2.019501E-1	3.577423E-1	-2.106934E-1	-3.872070E-1	-7.440186E-1
1.110050E+10	-5.056763E-1	-7.017517E-1	3.590393E-1	-2.106171E-1	3.516083E-1	-2.183533E-1	-4.063416E-1	-7.348938E-1
1.132500E+10	-5.190735E-1	-6.931763E-1	3.522949E-1	-2.170563E-1	3.440552E-1	-2.252808E-1	-4.233704E-1	-7.254944E-1
1.154950E+10	-5.327759E-1	-6.828308E-1	3.453674E-1	-2.239380E-1	3.378448E-1	-2.324829E-1	-4.443665E-1	-7.134705E-1
1.177400E+10	-5.447083E-1	-6.741638E-1	3.396912E-1	-2.315674E-1	3.328400E-1	-2.386780E-1	-4.588623E-1	-7.026367E-1
1.199850E+10	-5.588379E-1	-6.651001E-1	3.333130E-1	-2.378998E-1	3.251801E-1	-2.450562E-1	-4.741821E-1	-6.938171E-1
1.222300E+10	-5.686951E-1	-6.559753E-1	3.266296E-1	-2.434692E-1	3.186951E-1	-2.500458E-1	-4.927368E-1	-6.821899E-1
1.244750E+10	-5.821228E-1	-6.463928E-1	3.190918E-1	-2.503052E-1	3.125916E-1	-2.558441E-1	-5.086670E-1	-6.690979E-1
1.267200E+10	-5.938110E-1	-6.374817E-1	3.126678E-1	-2.555237E-1	3.055420E-1	-2.613220E-1	-5.225220E-1	-6.604309E-1
1.289650E+10	-6.033020E-1	-6.285400E-1	3.056030E-1	-2.600098E-1	2.980499E-1	-2.648163E-1	-5.383301E-1	-6.483765E-1
1.312100E+10	-6.154480E-1	-6.194458E-1	2.978668E-1	-2.648621E-1	2.908325E-1	-2.703552E-1	-5.537720E-1	-6.338196E-1
1.334550E+10	-6.253052E-1	-6.096191E-1	2.914886E-1	-2.703552E-1	2.860107E-1	-2.751923E-1	-5.647278E-1	-6.253052E-1
1.357000E+10	-6.362610E-1	-6.004028E-1	2.843170E-1	-2.740021E-1	2.770081E-1	-2.792969E-1	-5.798645E-1	-6.141357E-1
1.379450E+10	-6.444702E-1	-5.927124E-1	2.777252E-1	-2.790070E-1	2.712402E-1	-2.825470E-1	-5.937805E-1	-5.985107E-1
1.401900E+10	-6.527100E-1	-5.832825E-1	2.718201E-1	-2.818451E-1	2.645264E-1	-2.863922E-1	-6.036682E-1	-5.887146E-1
1.424350E+10	-6.627808E-1	-5.737610E-1	2.633972E-1	-2.856140E-1	2.578125E-1	-2.887726E-1	-6.175537E-1	-5.773010E-1
1.446800E+10	-6.709595E-1	-5.649414E-1	2.571564E-1	-2.888641E-1	2.513123E-1	-2.935791E-1	-6.287537E-1	-5.615845E-1
1.469250E+10	-6.801758E-1	-5.561523E-1	2.502594E-1	-2.921753E-1	2.447662E-1	-2.970886E-1	-6.381226E-1	-5.509949E-1
1.491700E+10	-6.882935E-1	-5.475769E-1	2.436371E-1	-2.953339E-1	2.376556E-1	-2.981110E-1	-6.516113E-1	-5.398254E-1
1.514150E+10	-6.977234E-1	-5.369568E-1	2.361755E-1	-2.978363E-1	2.289429E-1	-3.007660E-1	-6.635132E-1	-5.250244E-1
1.536600E+10	-7.058411E-1	-5.281067E-1	2.286682E-1	-3.006744E-1	2.234802E-1	-3.048401E-1	-6.715698E-1	-5.119629E-1
1.559050E+10	-7.131042E-1	-5.203552E-1	2.240448E-1	-3.029938E-1	2.167206E-1	-3.053894E-1	-6.822510E-1	-5.012207E-1
1.581500E+10	-7.211304E-1	-5.121460E-1	2.149506E-1	-3.047180E-1	2.100525E-1	-3.078613E-1	-6.922913E-1	-4.857788E-1
1.603950E+10	-7.274170E-1	-5.036926E-1	2.090149E-1	-3.086395E-1	2.038574E-1	-3.102722E-1	-6.993408E-1	-4.756165E-1
1.626400E+10	-7.359314E-1	-4.942627E-1	2.043304E-1	-3.089752E-1	1.974335E-1	-3.117676E-1	-7.109070E-1	-4.631042E-1
1.648850E+10	-7.419739E-1	-4.859619E-1	1.967621E-1	-3.106689E-1	1.905212E-1	-3.121490E-1	-7.191772E-1	-4.472046E-1
1.671300E+10	-7.483215E-1	-4.755859E-1	1.899261E-1	-3.123016E-1	1.851654E-1	-3.144073E-1	-7.251587E-1	-4.353638E-1
1.693750E+10	-7.543945E-1	-4.691162E-1	1.844940E-1	-3.138428E-1	1.786346E-1	-3.155365E-1	-7.355652E-1	-4.236450E-1
1.716200E+10	-7.608643E-1	-4.600525E-1	1.778870E-1	-3.150024E-1	1.726227E-1	-3.167419E-1	-7.420959E-1	-4.064026E-1
1.738650E+10	-7.678833E-1	-4.508972E-1	1.715698E-1	-3.148041E-1	1.656494E-1	-3.175812E-1	-7.467346E-1	-3.946838E-1
1.761100E+10	-7.741394E-1	-4.433594E-1	1.656799E-1	-3.167877E-1	1.610718E-1	-3.186035E-1	-7.563477E-1	-3.856506E-1
1.783550E+10	-7.807312E-1	-4.337769E-1	1.602631E-1	-3.171082E-1	1.542816E-1	-3.181610E-1	-7.640076E-1	-3.689575E-1
1.806000E+10	-7.854919E-1	-4.264221E-1	1.540833E-1	-3.193665E-1	1.490936E-1	-3.201141E-1	-7.676392E-1	-3.556824E-1
1.828450E+10	-7.895203E-1	-4.172363E-1	1.486359E-1	-3.171539E-1	1.429291E-1	-3.204346E-1	-7.750549E-1	-3.470764E-1
1.850900E+10	-7.958374E-1	-4.096680E-1	1.416473E-1	-3.188019E-1	1.371155E-1	-3.196716E-1	-7.821960E-1	-3.311157E-1
1.873350E+10	-8.014526E-1	-4.006958E-1	1.359253E-1	-3.196869E-1	1.318665E-1	-3.211060E-1	-7.861023E-1	-3.152161E-1
1.895800E+10	-8.063049E-1	-3.918762E-1	1.321716E-1	-3.190002E-1	1.268005E-1	-3.203583E-1	-7.911377E-1	-3.056335E-1
1.918250E+10	-8.115540E-1	-3.855286E-1	1.250458E-1	-3.203583E-1	1.206512E-1	-3.217010E-1	-7.971191E-1	-2.924805E-1
1.940700E+10	-8.145447E-1	-3.760681E-1	1.209869E-1	-3.208771E-1	1.147308E-1	-3.202820E-1	-8.003235E-1	-2.758484E-1
1.963150E+10	-8.216553E-1	-3.683777E-1	1.129456E-1	-3.193207E-1	1.104584E-1	-3.203735E-1	-8.030396E-1	-2.661133E-1
1.985600E+10	-8.246765E-1	-3.599548E-1	1.088257E-1	-3.191223E-1	1.038055E-1	-3.182373E-1	-8.106079E-1	-2.526855E-1
2.008050E+10	-8.296509E-1	-3.519592E-1	1.007233E-1	-3.205109E-1	9.950256E-2	-3.193970E-1	-8.128967E-1	-2.361145E-1
2.030500E+10	-8.330994E-1	-3.440247E-1	9.910583E-2	-3.193359E-1	9.429932E-2	-3.176117E-1	-8.142090E-1	-2.269287E-1
2.052950E+10	-8.372803E-1	-3.352661E-1	9.159851E-2	-3.188019E-1	8.905029E-2	-3.180695E-1	-8.208313E-1	-2.137146E-1
2.075400E+10	-8.416748E-1	-3.297119E-1	8.894348E-2	-3.189697E-1	8.488464E-2	-3.183899E-1	-8.233337E-1	-1.995544E-1
2.097850E+10	-8.453674E-1	-3.196411E-1	8.247375E-2	-3.170319E-1	7.772827E-2	-3.174744E-1	-8.228760E-1	-1.871338E-1
2.120300E+10	-8.482666E-1	-3.119202E-1	7.792664E-2	-3.164978E-1	7.392883E-2	-3.157654E-1	-8.276978E-1	-1.787415E-1
2.142750E+10	-8.539124E-1	-3.036804E-1	7.319641E-2	-3.152161E-1	6.945801E-2	-3.165131E-1	-8.318176E-1	-1.622314E-1
2.165200E+10	-8.585510E-1	-2.960205E-1	6.944275E-2	-3.144531E-1	6.544495E-2	-3.150940E-1	-8.336487E-1	-1.511536E-1
2.187650E+10	-8.595276E-1	-2.881470E-1	6.695557E-2	-3.141785E-1	6.185913E-2	-3.139648E-1	-8.373108E-1	-1.396179E-1
2.210100E+10	-8.650208E-1	-2.788086E-1	5.870056E-2	-3.132477E-1	5.473328E-2	-3.131256E-1	-8.399963E-1	-1.248474E-1
2.232550E+10	-8.661194E-1	-2.693481E-1	5.435181E-2	-3.130951E-1	5.149841E-2	-3.140717E-1	-8.377380E-1	-1.114807E-1
2.255000E+10	-8.694153E-1	-2.632751E-1	5.128479E-2	-3.117828E-1	4.672241E-2	-3.128967E-1	-8.417664E-1	-1.020508E-1
2.277450E+10	-8.702698E-1	-2.546387E-1	4.658508E-2	-3.112793E-1	4.386902E-2	-3.112183E-1	-8.448181E-1	-8.438110E-2
2.299900E+10	-8.737183E-1	-2.478943E-1	4.348755E-2	-3.093414E-1	3.996277E-2	-3.096008E-1	-8.414612E-1	-7.159424E-2
2.322350E+10	-8.764343E-1	-2.390747E-1	3.869629E-2	-3.073730E-1	3.503418E-2	-3.081512E-1	-8.467712E-1	-6.167603E-2
2.344800E+10	-8.771973E-1	-2.358093E-1	3.335571E-2	-3.066254E-1	3.141785E-2	-3.078766E-1	-8.455200E-1	-4.495239E-2
2.367250E+10	-8.813782E-1	-2.261047E-1	2.952576E-2	-3.073883E-1	2.590942E-2	-3.071442E-1	-8.429871E-1	-3.085327E-2
2.389700E+10	-8.817139E-1	-2.188416E-1	2.537537E-2	-3.072052E-1	2.076721E-2	-3.058014E-1	-8.462830E-1	-2.114868E-2
2.412150E+10	-8.874817E-1	-2.118530E-1	2.131653E-2	-3.035126E-1	1.799011E-2	-3.059998E-1	-8.444824E-1	-3.295898E-3
2.434600E+10	-8.881226E-1	-2.044067E-1	1.731873E-2	-3.032227E-1	1.516724E-2	-3.031158E-1	-8.429260E-1	8.514404E-3
2.457050E+10	-8.905029E-1	-1.997070E-1	1.237488E-2	-3.045959E-1	8.804321E-3	-3.031769E-1	-8.413696E-1	1.641846E-2
2.479500E+10	-8.945312E-1	-1.905518E-1	8.850098E-3	-3.018951E-1	5.889893E-3	-3.025665E-1	-8.402100E-1	3.308105E-2
2.501950E+10	-8.940735E-1	-1.833496E-1	3.677368E-3	-2.998199E-1	-1.831055E-4	-3.018646E-1	-8.348694E-1	4.406738E-2
2.524400E+10	-8.978882E-1	-1.760559E-1	-1.068115E-4	-2.994537E-1	-1.937866E-3	-2.980042E-1	-8.366089E-1	5.041504E-2
2.546850E+10	-8.993225E-1	-1.671143E-1	-3.265381E-3	-2.970123E-1	-6.164551E-3	-2.956238E-1	-8.312683E-1	6.726074E-2
2.569300E+10	-9.024353E-1	-1.622620E-1	-6.698608E-3	-2.950134E-1	-8.209229E-3	-2.932281E-1	-8.327637E-1	7.705688E-2
2.591750E+10	-9.057007E-1	-1.528015E-1	-1.249695E-2	-2.955475E-1	-1.174927E-2	-2.936401E-1	-8.321533E-1	8.465576E-2
2.614200E+10	-9.059753E-1	-1.451111E-1	-1.197815E-2	-2.891846E-1	-1.614380E-2	-2.917328E-1	-8.302917E-1	1.016541E-1
2.636650E+10	-9.064331E-1	-1.394043E-1	-1.797485E-2	-2.908020E-1	-1.914978E-2	-2.876587E-1	-8.282166E-1	1.146240E-1
2.659100E+10	-9.069214E-1	-1.329956E-1	-2.062988E-2	-2.882385E-1	-2.107239E-2	-2.896576E-1	-8.226929E-1	1.250000E-1
2.681550E+10	-9.083557E-1	-1.265869E-1	-2.511597E-2	-2.878571E-1	-2.568054E-2	-2.855835E-1	-8.207397E-1	1.343079E-1
2.704000E+10	-9.097595E-1	-1.156311E-1	-2.789307E-2	-2.848511E-1	-2.867126E-2	-2.869263E-1	-8.209229E-1	1.520386E-1
2.726450E+10	-9.119263E-1	-1.097717E-1	-2.928162E-2	-2.848358E-1	-3.208923E-2	-2.839355E-1	-8.116760E-1	1.592102E-1
2.748900E+10	-9.123535E-1	-1.043701E-1	-3.462219E-2	-2.820587E-1	-3.648376E-2	-2.833252E-1	-8.118591E-1	1.704407E-1
2.771350E+10	-9.128418E-1	-9.503174E-2	-4.058838E-2	-2.820587E-1	-3.939819E-2	-2.811279E-1	-8.081665E-1	1.847534E-1
2.793800E+10	-9.160156E-1	-9.179687E-2	-4.191589E-2	-2.797241E-1	-4.325867E-2	-2.780914E-1	-8.002930E-1	1.925659E-1
2.816250E+10	-9.167175E-1	-8.343506E-2	-4.327393E-2	-2.797699E-1	-4.782104E-2	-2.785645E-1	-7.984314E-1	2.036133E-1
2.838700E+10	-9.162903E-1	-7.681274E-2	-4.966736E-2	-2.786560E-1	-5.007935E-2	-2.753143E-1	-7.921143E-1	2.181091E-1
2.861150E+10	-9.173889E-1	-6.854248E-2	-5.322266E-2	-2.746429E-1	-5.552673E-2	-2.747650E-1	-7.860718E-1	2.277832E-1
2.883600E+10	-9.174500E-1	-6.362915E-2	-5.563354E-2	-2.727966E-1	-5.639648E-2	-2.727661E-1	-7.840576E-1	2.366638E-1
2.906050E+10	-9.194336E-1	-5.468750E-2	-5.734253E-2	-2.692413E-1	-5.871582E-2	-2.681122E-1	-7.779236E-1	2.471924E-1
2.928500E+10	-9.216309E-1	-4.809570E-2	-5.953979E-2	-2.684174E-1	-6.005859E-2	-2.685394E-1	-7.746277E-1	2.560425E-1
2.950950E+10	-9.217834E-1	-3.997803E-2	-6.150818E-2	-2.687378E-1	-6.434631E-2	-2.652435E-1	-7.738342E-1	2.675781E-1
2.973400E+10	-9.240723E-1	-3.451538E-2	-6.571960E-2	-2.661438E-1	-6.752014E-2	-2.651672E-1	-7.672729E-1	2.789612E-1
2.995850E+10	-9.225159E-1	-2.795410E-2	-6.774902E-2	-2.615662E-1	-6.700134E-2	-2.605743E-1	-7.654724E-1	2.863159E-1
3.018300E+10	-9.201355E-1	-2.090454E-2	-6.996155E-2	-2.633667E-1	-7.226562E-2	-2.606506E-1	-7.574768E-1	3.064270E-1
3.040750E+10	-9.230957E-1	-1.513672E-2	-7.226562E-2	-2.600555E-1	-7.444763E-2	-2.604980E-1	-7.513123E-1	3.118286E-1
3.063200E+10	-9.197998E-1	-8.148193E-3	-7.611084E-2	-2.561340E-1	-7.771301E-2	-2.579651E-1	-7.473755E-1	3.235474E-1
3.085650E+10	-9.217224E-1	-1.983643E-3	-7.916260E-2	-2.571564E-1	-8.232117E-2	-2.592163E-1	-7.396851E-1	3.372498E-1
3.108100E+10	-9.235229E-1	4.638672E-3	-8.489990E-2	-2.565308E-1	-8.424377E-2	-2.561035E-1	-7.333069E-1	3.494568E-1
3.130550E+10	-9.226379E-1	1.162720E-2	-8.374023E-2	-2.544556E-1	-8.764648E-2	-2.533875E-1	-7.217407E-1	3.582764E-1
3.153000E+10	-9.240417E-1	1.821899E-2	-9.248352E-2	-2.541656E-1	-8.697510E-2	-2.503662E-1	-7.131042E-1	3.619995E-1
3.175450E+10	-9.215393E-1	2.163696E-2	-8.697510E-2	-2.498627E-1	-9.386444E-2	-2.487183E-1	-7.085876E-1	3.780518E-1
3.197900E+10	-9.230042E-1	3.292847E-2	-9.207916E-2	-2.492065E-1	-9.487152E-2	-2.489319E-1	-6.959534E-1	3.912048E-1
3.220350E+10	-9.242249E-1	3.692627E-2	-9.347534E-2	-2.489090E-1	-9.852600E-2	-2.473297E-1	-6.899109E-1	3.964539E-1
3.242800E+10	-9.270630E-1	4.260254E-2	-1.015320E-1	-2.462158E-1	-1.006622E-1	-2.426300E-1	-6.794434E-1	4.078369E-1
3.265250E+10	-9.269409E-1	5.374146E-2	-1.030731E-1	-2.405243E-1	-1.026688E-1	-2.420425E-1	-6.728210E-1	4.148865E-1
3.287700E+10	-9.208984E-1	5.834961E-2	-1.017914E-1	-2.399826E-1	-1.026306E-1	-2.393036E-1	-6.690979E-1	4.234009E-1
3.310150E+10	-9.247131E-1	6.460571E-2	-1.089325E-1	-2.370987E-1	-1.065369E-1	-2.341690E-1	-6.563721E-1	4.300537E-1
3.332600E+10	-9.194946E-1	7.531738E-2	-1.068573E-1	-2.349548E-1	-1.114807E-1	-2.373047E-1	-6.484375E-1	4.350891E-1
3.355050E+10	-9.216919E-1	7.897949E-2	-1.125793E-1	-2.347641E-1	-1.128769E-1	-2.311707E-1	-6.391296E-1	4.447021E-1
3.377500E+10	-9.206238E-1	8.551025E-2	-1.131287E-1	-2.288055E-1	-1.140060E-1	-2.335281E-1	-6.340637E-1	4.492798E-1
3.399950E+10	-9.217834E-1	9.088135E-2	-1.124115E-1	-2.290955E-1	-1.138000E-1	-2.255020E-1	-6.325073E-1	4.603882E-1
3.422400E+10	-9.212646E-1	9.814453E-2	-1.178055E-1	-2.258759E-1	-1.184998E-1	-2.313004E-1	-6.202698E-1	4.725952E-1
3.444850E+10	-9.186401E-1	1.063538E-1	-1.176910E-1	-2.279663E-1	-1.198425E-1	-2.275543E-1	-6.060181E-1	4.771423E-1
3.467300E+10	-9.185486E-1	1.109924E-1	-1.191788E-1	-2.253876E-1	-1.202469E-1	-2.260361E-1	-6.069946E-1	4.892883E-1
3.489750E+10	-9.189453E-1	1.176453E-1	-1.225281E-1	-2.254028E-1	-1.241226E-1	-2.204895E-1	-5.922241E-1	4.981689E-1
3.512200E+10	-9.154968E-1	1.222534E-1	-1.264801E-1	-2.230148E-1	-1.277313E-1	-2.206802E-1	-5.776978E-1	5.016785E-1
3.534650E+10	-9.162598E-1	1.298828E-1	-1.295395E-1	-2.216873E-1	-1.301117E-1	-2.192917E-1	-5.670471E-1	5.137939E-1
3.557100E+10	-9.174194E-1	1.332703E-1	-1.308060E-1	-2.212677E-1	-1.336441E-1	-2.185822E-1	-5.580750E-1	5.258789E-1
3.579550E+10	-9.158630E-1	1.404419E-1	-1.364670E-1	-2.111053E-1	-1.362610E-1	-2.185287E-1	-5.470886E-1	5.332642E-1
3.602000E+10	-9.210205E-1	1.484070E-1	-1.339340E-1	-2.111664E-1	-1.388779E-1	-2.163544E-1	-5.362244E-1	5.341797E-1
3.624450E+10	-9.124146E-1	1.538086E-1	-1.379547E-1	-2.114334E-1	-1.418610E-1	-2.105408E-1	-5.255737E-1	5.369263E-1
3.646900E+10	-9.088745E-1	1.651917E-1	-1.402893E-1	-2.085648E-1	-1.438522E-1	-2.090683E-1	-5.223694E-1	5.514526E-1
3.669350E+10	-9.075317E-1	1.700439E-1	-1.425858E-1	-2.095795E-1	-1.496735E-1	-2.082596E-1	-5.016174E-1	5.525818E-1
3.691800E+10	-9.085388E-1	1.752930E-1	-1.484909E-1	-2.089767E-1	-1.483154E-1	-2.037201E-1	-4.890747E-1	5.632019E-1
3.714250E+10	-9.058228E-1	1.788940E-1	-1.472855E-1	-2.024307E-1	-1.479568E-1	-2.092896E-1	-4.764404E-1	5.697327E-1
3.736700E+10	-9.043579E-1	1.802063E-1	-1.520081E-1	-1.959534E-1	-1.547394E-1	-2.016602E-1	-4.694519E-1	5.679932E-1
3.759150E+10	-9.029236E-1	1.920776E-1	-1.549835E-1	-1.977005E-1	-1.536102E-1	-1.979828E-1	-4.539185E-1	5.820007E-1
3.781600E+10	-8.995667E-1	1.990051E-1	-1.558990E-1	-1.937027E-1	-1.563034E-1	-1.986771E-1	-4.446716E-1	5.830994E-1
3.804050E+10	-9.055786E-1	2.056274E-1	-1.591263E-1	-1.971054E-1	-1.606598E-1	-1.936722E-1	-4.232483E-1	5.911865E-1
3.826500E+10	-9.000244E-1	2.051392E-1	-1.619110E-1	-1.929245E-1	-1.649246E-1	-1.914597E-1	-4.122314E-1	5.934448E-1
3.848950E+10	-8.963623E-1	2.127380E-1	-1.621170E-1	-1.901016E-1	-1.631317E-1	-1.970978E-1	-4.016418E-1	6.020813E-1
3.871400E+10	-8.952026E-1	2.155762E-1	-1.678162E-1	-1.894760E-1	-1.661987E-1	-1.881638E-1	-3.798523E-1	5.986633E-1
3.893850E+10	-8.937988E-1	2.339172E-1	-1.724625E-1	-1.828613E-1	-1.634750E-1	-1.857529E-1	-3.721313E-1	5.982361E-1
