!Date: 10/28/2005, 12:34 PM

!Vgs = -5.000000E+0
!Vds = 0.000000E+0
!Ig = -3.171100E-5
!Id = 1.243600E-5

# HZ S RI R 50
1.000000E+8	9.839172E-1	-9.234619E-2	1.886368E-3	2.128315E-2	2.860069E-3	2.614594E-2	2.688904E-1	-1.611328E-2
3.245000E+8	9.355774E-1	-2.761841E-1	1.376724E-2	6.770325E-2	1.752472E-2	7.306671E-2	2.382507E-1	-5.957794E-2
5.490000E+8	8.530273E-1	-4.347229E-1	4.114532E-2	1.028099E-1	4.346466E-2	1.144524E-1	2.338867E-1	-9.509277E-2
7.735000E+8	7.463074E-1	-5.655823E-1	6.855774E-2	1.395874E-1	7.744598E-2	1.446304E-1	2.212982E-1	-1.310120E-1
9.980000E+8	6.303406E-1	-6.646423E-1	1.002502E-1	1.594009E-1	1.143188E-1	1.651230E-1	1.983032E-1	-1.574173E-1
1.222500E+9	5.093689E-1	-7.343140E-1	1.414413E-1	1.687622E-1	1.513290E-1	1.760712E-1	1.831665E-1	-1.846008E-1
1.447000E+9	3.909607E-1	-7.792053E-1	1.755829E-1	1.739502E-1	1.862793E-1	1.787338E-1	1.654892E-1	-2.068100E-1
1.671500E+9	2.829285E-1	-8.036194E-1	2.038040E-1	1.712189E-1	2.185669E-1	1.761627E-1	1.432571E-1	-2.246552E-1
1.896000E+9	1.862488E-1	-8.143005E-1	2.353058E-1	1.620331E-1	2.480469E-1	1.690750E-1	1.258469E-1	-2.422333E-1
2.120500E+9	9.933472E-2	-8.138428E-1	2.608643E-1	1.561737E-1	2.734375E-1	1.582947E-1	1.080780E-1	-2.573547E-1
2.345000E+9	1.812744E-2	-8.056335E-1	2.816162E-1	1.468201E-1	2.961426E-1	1.443329E-1	9.423828E-2	-2.755737E-1
2.569500E+9	-4.763794E-2	-7.916870E-1	2.993927E-1	1.276550E-1	3.136902E-1	1.292877E-1	7.691956E-2	-2.882233E-1
2.794000E+9	-1.084290E-1	-7.772522E-1	3.166656E-1	1.122894E-1	3.287354E-1	1.133575E-1	5.831909E-2	-2.989655E-1
3.018500E+9	-1.627808E-1	-7.579956E-1	3.274078E-1	1.021576E-1	3.410034E-1	9.736633E-2	4.150391E-2	-3.114777E-1
3.243000E+9	-2.118225E-1	-7.393494E-1	3.375854E-1	8.250427E-2	3.516388E-1	8.151245E-2	2.110291E-2	-3.191376E-1
3.467500E+9	-2.531128E-1	-7.202759E-1	3.475800E-1	6.774902E-2	3.589630E-1	6.556702E-2	7.797241E-3	-3.309174E-1
3.692000E+9	-2.897949E-1	-7.011719E-1	3.533325E-1	5.032349E-2	3.654175E-1	4.988098E-2	-9.384155E-3	-3.413849E-1
3.916500E+9	-3.227234E-1	-6.825562E-1	3.582306E-1	3.700256E-2	3.710937E-1	3.468323E-2	-2.279663E-2	-3.520660E-1
4.141000E+9	-3.545837E-1	-6.628113E-1	3.618622E-1	2.281189E-2	3.741608E-1	1.953125E-2	-4.005432E-2	-3.575439E-1
4.365500E+9	-3.815002E-1	-6.447144E-1	3.649750E-1	1.068115E-2	3.770599E-1	4.959106E-3	-5.543518E-2	-3.663330E-1
4.590000E+9	-4.071655E-1	-6.263733E-1	3.672943E-1	-3.341675E-3	3.781586E-1	-8.789062E-3	-7.543945E-2	-3.699188E-1
4.814500E+9	-4.277649E-1	-6.108093E-1	3.670959E-1	-1.707458E-2	3.793488E-1	-2.143860E-2	-8.927917E-2	-3.782959E-1
5.039000E+9	-4.488831E-1	-5.948792E-1	3.681030E-1	-3.125000E-2	3.790131E-1	-3.517151E-2	-1.039886E-1	-3.857574E-1
5.263500E+9	-4.673157E-1	-5.788269E-1	3.672638E-1	-4.173279E-2	3.781281E-1	-4.788208E-2	-1.206055E-1	-3.926239E-1
5.488000E+9	-4.845276E-1	-5.638733E-1	3.669739E-1	-5.287170E-2	3.764343E-1	-5.950928E-2	-1.367187E-1	-3.948212E-1
5.712500E+9	-5.018616E-1	-5.494690E-1	3.649597E-1	-6.393433E-2	3.747406E-1	-7.107544E-2	-1.536560E-1	-3.987122E-1
5.937000E+9	-5.172119E-1	-5.340881E-1	3.630981E-1	-7.582092E-2	3.723907E-1	-8.206177E-2	-1.704407E-1	-4.016571E-1
6.161500E+9	-5.299377E-1	-5.228577E-1	3.607788E-1	-8.666992E-2	3.690491E-1	-9.321594E-2	-1.850281E-1	-4.061584E-1
6.386000E+9	-5.441895E-1	-5.102844E-1	3.566132E-1	-9.738159E-2	3.652039E-1	-1.038971E-1	-2.000275E-1	-4.109344E-1
6.610500E+9	-5.557251E-1	-4.991150E-1	3.528900E-1	-1.072693E-1	3.616180E-1	-1.135101E-1	-2.172241E-1	-4.121857E-1
6.835000E+9	-5.682373E-1	-4.871216E-1	3.493652E-1	-1.141357E-1	3.571014E-1	-1.222229E-1	-2.342834E-1	-4.106445E-1
7.059500E+9	-5.779114E-1	-4.757996E-1	3.453979E-1	-1.239014E-1	3.537598E-1	-1.304626E-1	-2.459717E-1	-4.127045E-1
7.284000E+9	-5.888367E-1	-4.647217E-1	3.420715E-1	-1.322021E-1	3.487701E-1	-1.401520E-1	-2.628174E-1	-4.157715E-1
7.508500E+9	-5.994263E-1	-4.542236E-1	3.379059E-1	-1.402893E-1	3.432007E-1	-1.483917E-1	-2.789917E-1	-4.131012E-1
7.733000E+9	-6.087646E-1	-4.415283E-1	3.332977E-1	-1.469879E-1	3.389130E-1	-1.557007E-1	-2.919922E-1	-4.135437E-1
7.957500E+9	-6.181335E-1	-4.326782E-1	3.269196E-1	-1.551971E-1	3.336334E-1	-1.626892E-1	-3.093262E-1	-4.097595E-1
8.182000E+9	-6.260986E-1	-4.226685E-1	3.231964E-1	-1.633911E-1	3.284912E-1	-1.706543E-1	-3.235474E-1	-4.110870E-1
8.406500E+9	-6.322632E-1	-4.151611E-1	3.185730E-1	-1.685181E-1	3.232422E-1	-1.770020E-1	-3.377533E-1	-4.086151E-1
8.631000E+9	-6.426697E-1	-4.038696E-1	3.129272E-1	-1.752472E-1	3.170166E-1	-1.837006E-1	-3.526459E-1	-4.075470E-1
8.855500E+9	-6.492615E-1	-3.954163E-1	3.072205E-1	-1.823578E-1	3.116150E-1	-1.902466E-1	-3.675232E-1	-4.019470E-1
9.080001E+9	-6.561584E-1	-3.879395E-1	3.020020E-1	-1.886444E-1	3.064423E-1	-1.955261E-1	-3.790436E-1	-3.969574E-1
9.304500E+9	-6.634827E-1	-3.771667E-1	2.959595E-1	-1.935577E-1	3.000488E-1	-2.010193E-1	-3.924561E-1	-3.939819E-1
9.529000E+9	-6.698303E-1	-3.716736E-1	2.891541E-1	-1.981049E-1	2.947388E-1	-2.063904E-1	-4.078217E-1	-3.898010E-1
9.753500E+9	-6.763306E-1	-3.622742E-1	2.845764E-1	-2.043610E-1	2.882080E-1	-2.109070E-1	-4.185333E-1	-3.864594E-1
9.978000E+9	-6.833191E-1	-3.536072E-1	2.801819E-1	-2.080383E-1	2.827759E-1	-2.164307E-1	-4.310150E-1	-3.817749E-1
1.020250E+10	-6.895752E-1	-3.455200E-1	2.729034E-1	-2.130432E-1	2.759094E-1	-2.203369E-1	-4.450226E-1	-3.761139E-1
1.042700E+10	-6.951599E-1	-3.372803E-1	2.671356E-1	-2.171936E-1	2.701111E-1	-2.249756E-1	-4.555054E-1	-3.673096E-1
1.065150E+10	-7.005005E-1	-3.299255E-1	2.613678E-1	-2.210693E-1	2.646179E-1	-2.281799E-1	-4.673615E-1	-3.653564E-1
1.087600E+10	-7.059631E-1	-3.231201E-1	2.567902E-1	-2.245636E-1	2.580719E-1	-2.314301E-1	-4.792328E-1	-3.593903E-1
1.110050E+10	-7.114868E-1	-3.144836E-1	2.510529E-1	-2.284851E-1	2.519226E-1	-2.354126E-1	-4.908295E-1	-3.540649E-1
1.132500E+10	-7.167969E-1	-3.067627E-1	2.456970E-1	-2.318573E-1	2.460480E-1	-2.379379E-1	-5.003052E-1	-3.481750E-1
1.154950E+10	-7.221680E-1	-2.984924E-1	2.381134E-1	-2.351532E-1	2.399902E-1	-2.421951E-1	-5.135498E-1	-3.388062E-1
1.177400E+10	-7.253723E-1	-2.933044E-1	2.336273E-1	-2.388229E-1	2.346649E-1	-2.439041E-1	-5.226135E-1	-3.304749E-1
1.199850E+10	-7.302246E-1	-2.875061E-1	2.270966E-1	-2.409897E-1	2.292404E-1	-2.472992E-1	-5.317078E-1	-3.267517E-1
1.222300E+10	-7.342224E-1	-2.796021E-1	2.222977E-1	-2.434998E-1	2.229614E-1	-2.496872E-1	-5.438538E-1	-3.205566E-1
1.244750E+10	-7.388916E-1	-2.732849E-1	2.167435E-1	-2.456818E-1	2.164612E-1	-2.514648E-1	-5.528259E-1	-3.096008E-1
1.267200E+10	-7.446899E-1	-2.644958E-1	2.113190E-1	-2.478027E-1	2.105560E-1	-2.541809E-1	-5.608215E-1	-3.058167E-1
1.289650E+10	-7.474670E-1	-2.596130E-1	2.048874E-1	-2.498093E-1	2.058411E-1	-2.558441E-1	-5.712891E-1	-2.930908E-1
1.312100E+10	-7.519226E-1	-2.520447E-1	1.987915E-1	-2.521515E-1	2.012939E-1	-2.572327E-1	-5.793762E-1	-2.851868E-1
1.334550E+10	-7.560120E-1	-2.467346E-1	1.941223E-1	-2.542572E-1	1.943207E-1	-2.594757E-1	-5.863953E-1	-2.793274E-1
1.357000E+10	-7.593994E-1	-2.374878E-1	1.884155E-1	-2.560883E-1	1.893158E-1	-2.612915E-1	-5.962830E-1	-2.750854E-1
1.379450E+10	-7.628784E-1	-2.328186E-1	1.829834E-1	-2.562866E-1	1.829529E-1	-2.631073E-1	-6.051331E-1	-2.615356E-1
1.401900E+10	-7.657776E-1	-2.279358E-1	1.792450E-1	-2.590027E-1	1.792297E-1	-2.636566E-1	-6.093140E-1	-2.527161E-1
1.424350E+10	-7.703552E-1	-2.203674E-1	1.733704E-1	-2.605896E-1	1.729736E-1	-2.660980E-1	-6.185913E-1	-2.457581E-1
1.446800E+10	-7.730103E-1	-2.148437E-1	1.680908E-1	-2.613678E-1	1.687622E-1	-2.656708E-1	-6.249695E-1	-2.341309E-1
1.469250E+10	-7.758789E-1	-2.056274E-1	1.623077E-1	-2.627563E-1	1.617737E-1	-2.675323E-1	-6.314697E-1	-2.272339E-1
1.491700E+10	-7.794189E-1	-1.998901E-1	1.574249E-1	-2.635956E-1	1.569366E-1	-2.678375E-1	-6.393738E-1	-2.203064E-1
1.514150E+10	-7.817383E-1	-1.951294E-1	1.529694E-1	-2.637482E-1	1.515656E-1	-2.690277E-1	-6.456909E-1	-2.074890E-1
1.536600E+10	-7.853699E-1	-1.888428E-1	1.470337E-1	-2.645721E-1	1.467133E-1	-2.687073E-1	-6.486206E-1	-1.973877E-1
1.559050E+10	-7.873230E-1	-1.824951E-1	1.420593E-1	-2.650299E-1	1.423035E-1	-2.692566E-1	-6.560669E-1	-1.911011E-1
1.581500E+10	-7.901306E-1	-1.758728E-1	1.365356E-1	-2.651825E-1	1.363068E-1	-2.690887E-1	-6.626892E-1	-1.806030E-1
1.603950E+10	-7.944946E-1	-1.708679E-1	1.327515E-1	-2.666626E-1	1.314087E-1	-2.701569E-1	-6.671753E-1	-1.734619E-1
1.626400E+10	-7.961731E-1	-1.645508E-1	1.270142E-1	-2.656403E-1	1.260834E-1	-2.715759E-1	-6.729126E-1	-1.641846E-1
1.648850E+10	-7.990417E-1	-1.589661E-1	1.237488E-1	-2.666321E-1	1.211853E-1	-2.701263E-1	-6.794434E-1	-1.513367E-1
1.671300E+10	-8.013916E-1	-1.524353E-1	1.189880E-1	-2.672577E-1	1.179810E-1	-2.706909E-1	-6.807556E-1	-1.426392E-1
1.693750E+10	-8.027344E-1	-1.475220E-1	1.142578E-1	-2.667694E-1	1.138916E-1	-2.715454E-1	-6.880798E-1	-1.338806E-1
1.716200E+10	-8.056030E-1	-1.404114E-1	1.084900E-1	-2.657928E-1	1.094208E-1	-2.715149E-1	-6.921387E-1	-1.233521E-1
1.738650E+10	-8.076477E-1	-1.353760E-1	1.052094E-1	-2.676544E-1	1.031189E-1	-2.707214E-1	-6.947021E-1	-1.131592E-1
1.761100E+10	-8.103333E-1	-1.287537E-1	1.018829E-1	-2.660980E-1	9.906006E-2	-2.696075E-1	-7.003479E-1	-1.061401E-1
1.783550E+10	-8.128052E-1	-1.223145E-1	9.564209E-2	-2.663574E-1	9.500122E-2	-2.713165E-1	-7.052002E-1	-9.277344E-2
1.806000E+10	-8.150024E-1	-1.177063E-1	9.242249E-2	-2.669830E-1	9.104919E-2	-2.704010E-1	-7.063293E-1	-8.328247E-2
1.828450E+10	-8.158875E-1	-1.110229E-1	8.851624E-2	-2.662201E-1	8.720398E-2	-2.698822E-1	-7.098999E-1	-7.727051E-2
1.850900E+10	-8.176270E-1	-1.057434E-1	8.587646E-2	-2.652283E-1	8.375549E-2	-2.701416E-1	-7.138672E-1	-6.570435E-2
1.873350E+10	-8.204041E-1	-9.942627E-2	8.038330E-2	-2.643585E-1	7.809448E-2	-2.691498E-1	-7.146912E-1	-5.178833E-2
1.895800E+10	-8.197632E-1	-9.567261E-2	7.777405E-2	-2.646790E-1	7.365417E-2	-2.683105E-1	-7.156982E-1	-4.550171E-2
1.918250E+10	-8.240356E-1	-8.926392E-2	7.250977E-2	-2.648010E-1	7.151794E-2	-2.673798E-1	-7.180786E-1	-3.405762E-2
1.940700E+10	-8.249207E-1	-8.316040E-2	6.727600E-2	-2.659760E-1	6.639099E-2	-2.667084E-1	-7.199707E-1	-2.059937E-2
1.963150E+10	-8.248901E-1	-7.589722E-2	6.340027E-2	-2.621155E-1	6.253052E-2	-2.677002E-1	-7.217102E-1	-1.727295E-2
1.985600E+10	-8.287048E-1	-7.162476E-2	6.118774E-2	-2.615356E-1	6.024170E-2	-2.661591E-1	-7.243958E-1	-5.889893E-3
2.008050E+10	-8.293457E-1	-6.640625E-2	5.696106E-2	-2.622986E-1	5.628967E-2	-2.640076E-1	-7.251587E-1	7.446289E-3
2.030500E+10	-8.296509E-1	-6.015015E-2	5.296326E-2	-2.610474E-1	5.290222E-2	-2.640381E-1	-7.233276E-1	1.495361E-2
2.052950E+10	-8.309937E-1	-5.667114E-2	5.035400E-2	-2.606659E-1	4.711914E-2	-2.640686E-1	-7.285156E-1	2.456665E-2
2.075400E+10	-8.336792E-1	-5.120850E-2	4.508972E-2	-2.586975E-1	4.322815E-2	-2.627258E-1	-7.277527E-1	3.607178E-2
2.097850E+10	-8.337097E-1	-4.455566E-2	4.235840E-2	-2.592163E-1	4.077148E-2	-2.624207E-1	-7.269592E-1	4.489136E-2
2.120300E+10	-8.334656E-1	-4.058838E-2	3.858948E-2	-2.562561E-1	3.732300E-2	-2.592163E-1	-7.288513E-1	5.148315E-2
2.142750E+10	-8.376770E-1	-3.335571E-2	3.614807E-2	-2.563477E-1	3.254700E-2	-2.595215E-1	-7.296448E-1	6.430054E-2
2.165200E+10	-8.365479E-1	-2.764893E-2	3.121948E-2	-2.555084E-1	3.138733E-2	-2.574768E-1	-7.282104E-1	7.351685E-2
2.187650E+10	-8.385010E-1	-2.200317E-2	2.998352E-2	-2.552338E-1	2.699280E-2	-2.567139E-1	-7.309570E-1	8.157349E-2
2.210100E+10	-8.394775E-1	-1.712036E-2	2.406311E-2	-2.545013E-1	2.392578E-2	-2.559204E-1	-7.311401E-1	9.442139E-2
2.232550E+10	-8.403320E-1	-1.080322E-2	2.185059E-2	-2.539673E-1	2.122498E-2	-2.550354E-1	-7.273865E-1	1.035767E-1
2.255000E+10	-8.422241E-1	-4.577637E-3	1.795959E-2	-2.527313E-1	1.730347E-2	-2.535248E-1	-7.287903E-1	1.125488E-1
2.277450E+10	-8.419495E-1	6.103516E-5	1.576233E-2	-2.513733E-1	1.303101E-2	-2.547607E-1	-7.256775E-1	1.268311E-1
2.299900E+10	-8.418579E-1	4.394531E-3	1.281738E-2	-2.509918E-1	1.052856E-2	-2.521667E-1	-7.241516E-1	1.354370E-1
2.322350E+10	-8.420715E-1	1.116943E-2	9.040833E-3	-2.499161E-1	6.652832E-3	-2.515259E-1	-7.257080E-1	1.447144E-1
2.344800E+10	-8.439026E-1	1.589966E-2	5.500793E-3	-2.492676E-1	3.982544E-3	-2.526855E-1	-7.244568E-1	1.558228E-1
2.367250E+10	-8.443909E-1	2.307129E-2	1.480103E-3	-2.479248E-1	-1.525879E-5	-2.496643E-1	-7.191162E-1	1.678162E-1
2.389700E+10	-8.429565E-1	2.780151E-2	-1.174927E-3	-2.478867E-1	-1.876831E-3	-2.496262E-1	-7.183533E-1	1.740723E-1
2.412150E+10	-8.448486E-1	3.363037E-2	-6.401062E-3	-2.457047E-1	-7.652283E-3	-2.459335E-1	-7.123108E-1	1.875916E-1
2.434600E+10	-8.450317E-1	3.765869E-2	-7.820129E-3	-2.441711E-1	-8.445740E-3	-2.465286E-1	-7.106628E-1	1.961365E-1
2.457050E+10	-8.456116E-1	4.223633E-2	-1.067352E-2	-2.451630E-1	-1.241302E-2	-2.463989E-1	-7.091675E-1	2.033691E-1
2.479500E+10	-8.436584E-1	4.745483E-2	-1.315308E-2	-2.422867E-1	-1.771545E-2	-2.434387E-1	-7.053223E-1	2.157898E-1
2.501950E+10	-8.435059E-1	5.361938E-2	-1.855469E-2	-2.406693E-1	-1.998901E-2	-2.430801E-1	-6.984253E-1	2.219849E-1
2.524400E+10	-8.478394E-1	5.984497E-2	-2.178192E-2	-2.393875E-1	-2.260590E-2	-2.387924E-1	-6.973572E-1	2.303467E-1
2.546850E+10	-8.447876E-1	6.518555E-2	-2.310181E-2	-2.359772E-1	-2.510071E-2	-2.374954E-1	-6.932983E-1	2.420044E-1
2.569300E+10	-8.450928E-1	6.912231E-2	-2.529144E-2	-2.329788E-1	-2.822113E-2	-2.349396E-1	-6.890869E-1	2.458801E-1
2.591750E+10	-8.459778E-1	7.504272E-2	-2.687836E-2	-2.356644E-1	-3.054810E-2	-2.361069E-1	-6.893921E-1	2.521973E-1
2.614200E+10	-8.444214E-1	8.154297E-2	-3.154755E-2	-2.313614E-1	-3.186035E-2	-2.335052E-1	-6.856689E-1	2.677612E-1
2.636650E+10	-8.463745E-1	8.480835E-2	-3.250122E-2	-2.317886E-1	-3.448486E-2	-2.315903E-1	-6.806641E-1	2.773437E-1
2.659100E+10	-8.437500E-1	9.103394E-2	-3.701782E-2	-2.301178E-1	-3.622437E-2	-2.313385E-1	-6.747131E-1	2.846069E-1
2.681550E+10	-8.431396E-1	9.420776E-2	-3.972626E-2	-2.281189E-1	-4.048157E-2	-2.307816E-1	-6.733704E-1	2.906494E-1
2.704000E+10	-8.450012E-1	1.025391E-1	-4.024506E-2	-2.242050E-1	-4.240417E-2	-2.279739E-1	-6.688843E-1	3.076477E-1
2.726450E+10	-8.424683E-1	1.060181E-1	-4.235840E-2	-2.236557E-1	-4.689789E-2	-2.274857E-1	-6.593628E-1	3.092651E-1
2.748900E+10	-8.418884E-1	1.092834E-1	-4.761505E-2	-2.243423E-1	-4.729462E-2	-2.257690E-1	-6.550903E-1	3.208313E-1
2.771350E+10	-8.424988E-1	1.140747E-1	-4.667664E-2	-2.234955E-1	-5.146027E-2	-2.213898E-1	-6.462402E-1	3.293152E-1
2.793800E+10	-8.413696E-1	1.187134E-1	-5.219269E-2	-2.234192E-1	-5.567932E-2	-2.216034E-1	-6.418457E-1	3.328857E-1
2.816250E+10	-8.408813E-1	1.248474E-1	-5.223083E-2	-2.179642E-1	-5.541992E-2	-2.227631E-1	-6.367493E-1	3.450928E-1
2.838700E+10	-8.392029E-1	1.291809E-1	-5.657196E-2	-2.185898E-1	-5.919647E-2	-2.180862E-1	-6.329956E-1	3.539734E-1
2.861150E+10	-8.393555E-1	1.376038E-1	-5.962372E-2	-2.177582E-1	-6.275940E-2	-2.177277E-1	-6.223755E-1	3.596802E-1
2.883600E+10	-8.385925E-1	1.424866E-1	-6.079865E-2	-2.134857E-1	-6.463623E-2	-2.174454E-1	-6.208801E-1	3.650208E-1
2.906050E+10	-8.381958E-1	1.468201E-1	-6.442261E-2	-2.121353E-1	-6.551361E-2	-2.114258E-1	-6.111450E-1	3.742981E-1
2.928500E+10	-8.364868E-1	1.514282E-1	-6.570435E-2	-2.109604E-1	-6.674194E-2	-2.123337E-1	-6.069946E-1	3.796692E-1
2.950950E+10	-8.337708E-1	1.555481E-1	-6.816864E-2	-2.079391E-1	-6.859589E-2	-2.105637E-1	-6.009827E-1	3.886414E-1
2.973400E+10	-8.378601E-1	1.603088E-1	-7.081604E-2	-2.086868E-1	-7.222748E-2	-2.089157E-1	-5.958862E-1	3.961792E-1
2.995850E+10	-8.313599E-1	1.672974E-1	-7.129669E-2	-2.078857E-1	-7.131195E-2	-2.100372E-1	-5.919800E-1	4.021301E-1
3.018300E+10	-8.299866E-1	1.696472E-1	-7.332611E-2	-2.038269E-1	-7.530212E-2	-2.044144E-1	-5.829163E-1	4.112244E-1
3.040750E+10	-8.286438E-1	1.722717E-1	-7.525635E-2	-2.034531E-1	-7.663727E-2	-2.036209E-1	-5.771484E-1	4.194336E-1
3.063200E+10	-8.268433E-1	1.800842E-1	-7.929993E-2	-2.011337E-1	-7.754517E-2	-2.026749E-1	-5.699463E-1	4.292297E-1
3.085650E+10	-8.247070E-1	1.846313E-1	-8.271027E-2	-2.008057E-1	-8.210754E-2	-2.011490E-1	-5.606995E-1	4.396362E-1
3.108100E+10	-8.272705E-1	1.890564E-1	-8.291626E-2	-1.985016E-1	-8.294678E-2	-1.978531E-1	-5.500793E-1	4.452515E-1
3.130550E+10	-8.206787E-1	1.932373E-1	-8.770752E-2	-1.980591E-1	-8.708954E-2	-1.958008E-1	-5.366211E-1	4.525757E-1
3.153000E+10	-8.243408E-1	1.981201E-1	-8.644867E-2	-1.956787E-1	-8.786011E-2	-1.947479E-1	-5.325317E-1	4.562378E-1
3.175450E+10	-8.233032E-1	2.034607E-1	-9.176636E-2	-1.931763E-1	-8.998871E-2	-1.925049E-1	-5.207214E-1	4.637146E-1
3.197900E+10	-8.230286E-1	2.048950E-1	-9.533691E-2	-1.918335E-1	-9.265137E-2	-1.916046E-1	-5.134583E-1	4.680481E-1
3.220350E+10	-8.156128E-1	2.127380E-1	-9.247589E-2	-1.873398E-1	-9.686279E-2	-1.912613E-1	-5.005188E-1	4.756470E-1
3.242800E+10	-8.185425E-1	2.178345E-1	-9.722137E-2	-1.873779E-1	-9.630585E-2	-1.899109E-1	-4.945526E-1	4.820709E-1
3.265250E+10	-8.159485E-1	2.233887E-1	-9.789276E-2	-1.861496E-1	-9.909821E-2	-1.858826E-1	-4.843292E-1	4.826508E-1
3.287700E+10	-8.150940E-1	2.266235E-1	-9.426880E-2	-1.856613E-1	-1.004715E-1	-1.809311E-1	-4.765778E-1	4.911804E-1
3.310150E+10	-8.106079E-1	2.307739E-1	-1.008682E-1	-1.794968E-1	-9.952545E-2	-1.811295E-1	-4.651642E-1	4.928741E-1
3.332600E+10	-8.106079E-1	2.384644E-1	-1.018753E-1	-1.772232E-1	-1.035919E-1	-1.832809E-1	-4.604645E-1	4.948578E-1
3.355050E+10	-8.090820E-1	2.410278E-1	-1.060257E-1	-1.792908E-1	-1.082993E-1	-1.763229E-1	-4.488068E-1	4.977875E-1
3.377500E+10	-8.028564E-1	2.474670E-1	-1.064835E-1	-1.748352E-1	-1.038589E-1	-1.749191E-1	-4.380188E-1	4.997559E-1
3.399950E+10	-8.020325E-1	2.484741E-1	-1.036301E-1	-1.716995E-1	-1.078568E-1	-1.762085E-1	-4.354858E-1	5.080261E-1
3.422400E+10	-8.039551E-1	2.571411E-1	-1.091690E-1	-1.737213E-1	-1.085968E-1	-1.763840E-1	-4.237061E-1	5.188599E-1
3.444850E+10	-7.969971E-1	2.563171E-1	-1.109543E-1	-1.689606E-1	-1.129379E-1	-1.708527E-1	-4.131470E-1	5.170288E-1
3.467300E+10	-7.962036E-1	2.628174E-1	-1.118927E-1	-1.694260E-1	-1.141739E-1	-1.719360E-1	-4.031067E-1	5.264893E-1
3.489750E+10	-7.948303E-1	2.686157E-1	-1.135712E-1	-1.632690E-1	-1.118240E-1	-1.724396E-1	-3.890686E-1	5.337830E-1
3.512200E+10	-7.910461E-1	2.708435E-1	-1.188583E-1	-1.670914E-1	-1.177139E-1	-1.623001E-1	-3.769531E-1	5.255432E-1
3.534650E+10	-7.865906E-1	2.727661E-1	-1.193924E-1	-1.660080E-1	-1.199417E-1	-1.670990E-1	-3.727417E-1	5.273437E-1
3.557100E+10	-7.825623E-1	2.752991E-1	-1.192398E-1	-1.587448E-1	-1.194458E-1	-1.671066E-1	-3.525696E-1	5.429382E-1
3.579550E+10	-7.860718E-1	2.834778E-1	-1.206360E-1	-1.579666E-1	-1.243896E-1	-1.578217E-1	-3.405762E-1	5.379028E-1
3.602000E+10	-7.850647E-1	2.870483E-1	-1.266327E-1	-1.586227E-1	-1.245956E-1	-1.589355E-1	-3.339844E-1	5.334473E-1
3.624450E+10	-7.829285E-1	2.894592E-1	-1.334152E-1	-1.512909E-1	-1.252594E-1	-1.554794E-1	-3.242187E-1	5.432434E-1
3.646900E+10	-7.745972E-1	2.964478E-1	-1.264343E-1	-1.568832E-1	-1.341324E-1	-1.528244E-1	-3.067932E-1	5.441895E-1
3.669350E+10	-7.714233E-1	2.989502E-1	-1.283264E-1	-1.543427E-1	-1.292801E-1	-1.537018E-1	-2.958069E-1	5.409546E-1
3.691800E+10	-7.690735E-1	3.038940E-1	-1.331177E-1	-1.533432E-1	-1.319199E-1	-1.538544E-1	-2.855225E-1	5.466003E-1
3.714250E+10	-7.709656E-1	3.053894E-1	-1.360016E-1	-1.508255E-1	-1.363449E-1	-1.496429E-1	-2.727051E-1	5.413513E-1
3.736700E+10	-7.599792E-1	3.116150E-1	-1.333466E-1	-1.458282E-1	-1.383820E-1	-1.497345E-1	-2.598877E-1	5.379944E-1
3.759150E+10	-7.636414E-1	3.158569E-1	-1.373215E-1	-1.459274E-1	-1.334763E-1	-1.428223E-1	-2.524719E-1	5.454407E-1
3.781600E+10	-7.553406E-1	3.189697E-1	-1.399460E-1	-1.436234E-1	-1.400909E-1	-1.415787E-1	-2.368774E-1	5.421753E-1
3.804050E+10	-7.563782E-1	3.156738E-1	-1.398010E-1	-1.397400E-1	-1.390686E-1	-1.407242E-1	-2.235107E-1	5.433960E-1
3.826500E+10	-7.523804E-1	3.247070E-1	-1.368790E-1	-1.366653E-1	-1.409988E-1	-1.368408E-1	-2.073669E-1	5.379639E-1
3.848950E+10	-7.429504E-1	3.280334E-1	-1.428986E-1	-1.328430E-1	-1.419067E-1	-1.405258E-1	-1.999512E-1	5.383911E-1
3.871400E+10	-7.401123E-1	3.247375E-1	-1.455994E-1	-1.352768E-1	-1.477737E-1	-1.321564E-1	-1.863098E-1	5.335999E-1
3.893850E+10	-7.358704E-1	3.348694E-1	-1.453247E-1	-1.352615E-1	-1.441422E-1	-1.285858E-1	-1.716309E-1	5.261536E-1
