!Date: 10/28/2005, 12:34 PM

!Vgs = -3.000000E+0
!Vds = 3.000000E+0
!Ig = -1.562900E-5
!Id = 3.493100E-1

# HZ S RI R 50
1.000000E+8	9.523621E-1	-2.371826E-1	-1.242578E+1	1.137695E+0	3.306866E-3	1.000261E-2	1.407166E-1	-9.236145E-2
3.245000E+8	7.134399E-1	-6.334534E-1	-1.050293E+1	4.416992E+0	1.244926E-2	2.688885E-2	-3.182220E-2	-2.149200E-1
5.490000E+8	3.918762E-1	-8.503113E-1	-8.247070E+0	5.993164E+0	2.678680E-2	3.492355E-2	-1.157837E-1	-2.607574E-1
7.735000E+8	1.007996E-1	-9.165344E-1	-6.211914E+0	6.448975E+0	3.974724E-2	3.633881E-2	-2.119141E-1	-2.855835E-1
9.980000E+8	-1.263428E-1	-9.023132E-1	-4.609131E+0	6.322266E+0	4.949379E-2	3.481865E-2	-2.820435E-1	-2.687378E-1
1.222500E+9	-2.994690E-1	-8.543701E-1	-3.419434E+0	5.993408E+0	5.660820E-2	3.153419E-2	-3.277588E-1	-2.557526E-1
1.447000E+9	-4.277954E-1	-7.948608E-1	-2.533203E+0	5.574951E+0	6.161118E-2	2.769470E-2	-3.676605E-1	-2.348022E-1
1.671500E+9	-5.236511E-1	-7.342224E-1	-1.882324E+0	5.152344E+0	6.586838E-2	2.464294E-2	-3.949890E-1	-2.169952E-1
1.896000E+9	-5.971375E-1	-6.748657E-1	-1.401367E+0	4.751221E+0	6.877899E-2	2.119446E-2	-4.168243E-1	-1.970367E-1
2.120500E+9	-6.515503E-1	-6.206360E-1	-1.033447E+0	4.394775E+0	7.077789E-2	1.794434E-2	-4.324951E-1	-1.812897E-1
2.345000E+9	-6.945190E-1	-5.693970E-1	-7.421875E-1	4.067627E+0	7.319260E-2	1.477051E-2	-4.459076E-1	-1.648102E-1
2.569500E+9	-7.250366E-1	-5.246887E-1	-5.184326E-1	3.769531E+0	7.385635E-2	1.198578E-2	-4.544830E-1	-1.514130E-1
2.794000E+9	-7.522888E-1	-4.872131E-1	-3.439941E-1	3.516724E+0	7.471085E-2	9.593964E-3	-4.627686E-1	-1.390076E-1
3.018500E+9	-7.724915E-1	-4.514160E-1	-1.988525E-1	3.281372E+0	7.505417E-2	7.152557E-3	-4.676971E-1	-1.274567E-1
3.243000E+9	-7.903442E-1	-4.185181E-1	-7.946777E-2	3.076660E+0	7.599640E-2	4.585266E-3	-4.730225E-1	-1.179352E-1
3.467500E+9	-8.056335E-1	-3.903809E-1	1.953125E-2	2.894287E+0	7.627487E-2	2.590179E-3	-4.773865E-1	-1.089020E-1
3.692000E+9	-8.172607E-1	-3.641052E-1	1.059570E-1	2.724609E+0	7.664108E-2	6.561279E-4	-4.810486E-1	-1.016388E-1
3.916500E+9	-8.285828E-1	-3.384705E-1	1.723633E-1	2.567261E+0	7.660675E-2	-1.270294E-3	-4.860382E-1	-9.382629E-2
4.141000E+9	-8.374329E-1	-3.156738E-1	2.329102E-1	2.428711E+0	7.653809E-2	-2.891541E-3	-4.874573E-1	-8.615112E-2
4.365500E+9	-8.437500E-1	-2.951660E-1	2.828369E-1	2.301025E+0	7.632828E-2	-4.806519E-3	-4.902954E-1	-8.013916E-2
4.590000E+9	-8.499756E-1	-2.772217E-1	3.259277E-1	2.180176E+0	7.626343E-2	-6.313324E-3	-4.930878E-1	-7.363892E-2
4.814500E+9	-8.563843E-1	-2.590637E-1	3.602295E-1	2.072021E+0	7.656097E-2	-8.083344E-3	-4.944763E-1	-6.774902E-2
5.039000E+9	-8.609314E-1	-2.419128E-1	3.906860E-1	1.973083E+0	7.653809E-2	-9.601593E-3	-4.966888E-1	-6.254578E-2
5.263500E+9	-8.644714E-1	-2.254028E-1	4.181519E-1	1.880127E+0	7.592010E-2	-1.124954E-2	-4.985657E-1	-5.680847E-2
5.488000E+9	-8.666382E-1	-2.125854E-1	4.421387E-1	1.795532E+0	7.617187E-2	-1.226425E-2	-4.999847E-1	-5.171204E-2
5.712500E+9	-8.709717E-1	-1.983948E-1	4.638062E-1	1.713684E+0	7.557297E-2	-1.382065E-2	-5.013428E-1	-4.721069E-2
5.937000E+9	-8.739014E-1	-1.841431E-1	4.812012E-1	1.637207E+0	7.560349E-2	-1.553726E-2	-5.028381E-1	-4.278564E-2
6.161500E+9	-8.762817E-1	-1.726379E-1	4.979858E-1	1.570068E+0	7.513046E-2	-1.724243E-2	-5.045166E-1	-3.674316E-2
6.386000E+9	-8.786011E-1	-1.602173E-1	5.112915E-1	1.503052E+0	7.478333E-2	-1.876450E-2	-5.037537E-1	-3.259277E-2
6.610500E+9	-8.795166E-1	-1.493530E-1	5.249634E-1	1.441040E+0	7.451630E-2	-1.930237E-2	-5.063782E-1	-3.070068E-2
6.835000E+9	-8.825989E-1	-1.393433E-1	5.359497E-1	1.379211E+0	7.410049E-2	-2.104950E-2	-5.075073E-1	-2.343750E-2
7.059500E+9	-8.830261E-1	-1.293335E-1	5.421753E-1	1.324707E+0	7.296753E-2	-2.170563E-2	-5.050964E-1	-2.239990E-2
7.284000E+9	-8.843994E-1	-1.196899E-1	5.496216E-1	1.272583E+0	7.316589E-2	-2.375031E-2	-5.089111E-1	-1.855469E-2
7.508500E+9	-8.862000E-1	-1.096191E-1	5.563354E-1	1.222839E+0	7.256699E-2	-2.408600E-2	-5.067139E-1	-1.333618E-2
7.733000E+9	-8.854980E-1	-1.004333E-1	5.610962E-1	1.175171E+0	7.239151E-2	-2.559280E-2	-5.089722E-1	-1.303101E-2
7.957500E+9	-8.861694E-1	-9.127808E-2	5.686646E-1	1.130859E+0	7.193756E-2	-2.663803E-2	-5.098572E-1	-7.843018E-3
8.182000E+9	-8.869324E-1	-8.163452E-2	5.732422E-1	1.089417E+0	7.135010E-2	-2.791595E-2	-5.123901E-1	-5.798340E-3
8.406500E+9	-8.870850E-1	-7.620239E-2	5.748291E-1	1.047791E+0	6.999588E-2	-2.936935E-2	-5.107117E-1	-3.051758E-4
8.631000E+9	-8.887939E-1	-6.671143E-2	5.795898E-1	1.007935E+0	6.954193E-2	-3.076935E-2	-5.120544E-1	1.800537E-3
8.855500E+9	-8.884888E-1	-5.944824E-2	5.810242E-1	9.699707E-1	6.909180E-2	-3.179550E-2	-5.135498E-1	6.011963E-3
9.080001E+9	-8.891296E-1	-5.310059E-2	5.820923E-1	9.349976E-1	6.833267E-2	-3.282928E-2	-5.125122E-1	9.979248E-3
9.304500E+9	-8.887329E-1	-4.312134E-2	5.819702E-1	8.997803E-1	6.745529E-2	-3.351593E-2	-5.131531E-1	1.251221E-2
9.529000E+9	-8.883667E-1	-3.771973E-2	5.838928E-1	8.668213E-1	6.660843E-2	-3.439331E-2	-5.140991E-1	1.599121E-2
9.753500E+9	-8.889771E-1	-3.149414E-2	5.833130E-1	8.348389E-1	6.567001E-2	-3.535843E-2	-5.138855E-1	1.925659E-2
9.978000E+9	-8.892517E-1	-2.435303E-2	5.834961E-1	8.053589E-1	6.548309E-2	-3.621292E-2	-5.142822E-1	2.075195E-2
1.020250E+10	-8.890991E-1	-1.806641E-2	5.830078E-1	7.767334E-1	6.483841E-2	-3.729630E-2	-5.148315E-1	2.532959E-2
1.042700E+10	-8.898315E-1	-1.138306E-2	5.825806E-1	7.481995E-1	6.425095E-2	-3.815460E-2	-5.139771E-1	2.789307E-2
1.065150E+10	-8.885498E-1	-4.516602E-3	5.806580E-1	7.226257E-1	6.244659E-2	-3.888130E-2	-5.138550E-1	2.963257E-2
1.087600E+10	-8.891602E-1	8.850098E-4	5.795898E-1	6.969299E-1	6.170082E-2	-3.991699E-2	-5.160828E-1	3.308105E-2
1.110050E+10	-8.879089E-1	7.202148E-3	5.781860E-1	6.712341E-1	6.072426E-2	-4.085541E-2	-5.148926E-1	3.692627E-2
1.132500E+10	-8.882751E-1	1.287842E-2	5.762024E-1	6.477966E-1	5.991173E-2	-4.171562E-2	-5.140686E-1	3.787231E-2
1.154950E+10	-8.876648E-1	1.901245E-2	5.747681E-1	6.241455E-1	5.946922E-2	-4.212761E-2	-5.170593E-1	4.187012E-2
1.177400E+10	-8.866577E-1	2.465820E-2	5.718384E-1	6.019897E-1	5.722427E-2	-4.254913E-2	-5.151978E-1	4.583740E-2
1.199850E+10	-8.872986E-1	3.015137E-2	5.698242E-1	5.811157E-1	5.700493E-2	-4.345131E-2	-5.157471E-1	4.684448E-2
1.222300E+10	-8.853455E-1	3.625488E-2	5.665588E-1	5.589905E-1	5.639458E-2	-4.359818E-2	-5.169373E-1	4.949951E-2
1.244750E+10	-8.851318E-1	3.964233E-2	5.624390E-1	5.381165E-1	5.549622E-2	-4.515266E-2	-5.177307E-1	5.361938E-2
1.267200E+10	-8.850403E-1	4.605103E-2	5.596924E-1	5.194397E-1	5.499077E-2	-4.517174E-2	-5.163574E-1	5.438232E-2
1.289650E+10	-8.841553E-1	5.026245E-2	5.565796E-1	5.008850E-1	5.391502E-2	-4.597473E-2	-5.187988E-1	5.560303E-2
1.312100E+10	-8.837891E-1	5.508423E-2	5.531616E-1	4.821777E-1	5.320740E-2	-4.679871E-2	-5.187683E-1	6.149292E-2
1.334550E+10	-8.832703E-1	6.036377E-2	5.494690E-1	4.650269E-1	5.140114E-2	-4.744339E-2	-5.171814E-1	6.195068E-2
1.357000E+10	-8.812866E-1	6.451416E-2	5.461426E-1	4.477844E-1	5.136299E-2	-4.765129E-2	-5.184021E-1	6.179810E-2
1.379450E+10	-8.825073E-1	6.988525E-2	5.415955E-1	4.318542E-1	5.000114E-2	-4.890060E-2	-5.208130E-1	6.942749E-2
1.401900E+10	-8.806458E-1	7.424927E-2	5.396118E-1	4.174500E-1	4.979515E-2	-4.840851E-2	-5.183716E-1	7.031250E-2
1.424350E+10	-8.801575E-1	7.897949E-2	5.343628E-1	4.004211E-1	4.807663E-2	-4.923630E-2	-5.198059E-1	7.315063E-2
1.446800E+10	-8.796082E-1	8.471680E-2	5.319214E-1	3.855591E-1	4.717636E-2	-5.011177E-2	-5.188904E-1	7.882690E-2
1.469250E+10	-8.779297E-1	8.862305E-2	5.266418E-1	3.714294E-1	4.520035E-2	-5.040169E-2	-5.166016E-1	8.084106E-2
1.491700E+10	-8.770752E-1	9.381104E-2	5.235596E-1	3.583069E-1	4.524040E-2	-4.987144E-2	-5.191040E-1	8.013916E-2
1.514150E+10	-8.771973E-1	9.851074E-2	5.183411E-1	3.443604E-1	4.267311E-2	-5.014038E-2	-5.198975E-1	8.560181E-2
1.536600E+10	-8.749084E-1	1.032410E-1	5.151978E-1	3.300171E-1	4.306984E-2	-5.164146E-2	-5.166016E-1	8.889771E-2
1.559050E+10	-8.746643E-1	1.070557E-1	5.121155E-1	3.182068E-1	4.342651E-2	-5.204582E-2	-5.183716E-1	8.770752E-2
1.581500E+10	-8.724976E-1	1.117554E-1	5.056763E-1	3.051758E-1	4.171753E-2	-5.190468E-2	-5.205994E-1	9.149170E-2
1.603950E+10	-8.732605E-1	1.156921E-1	5.017090E-1	2.927246E-1	4.011154E-2	-5.232811E-2	-5.173645E-1	9.674072E-2
1.626400E+10	-8.714294E-1	1.199646E-1	4.973907E-1	2.817383E-1	4.000473E-2	-5.410767E-2	-5.210266E-1	9.655762E-2
1.648850E+10	-8.703918E-1	1.235657E-1	4.918823E-1	2.708435E-1	3.825760E-2	-5.314255E-2	-5.198975E-1	1.004028E-1
1.671300E+10	-8.688965E-1	1.286621E-1	4.884949E-1	2.583771E-1	3.810310E-2	-5.430603E-2	-5.198364E-1	1.033020E-1
1.693750E+10	-8.688354E-1	1.317139E-1	4.846344E-1	2.494507E-1	3.605652E-2	-5.461502E-2	-5.184631E-1	1.046143E-1
1.716200E+10	-8.681641E-1	1.368103E-1	4.793243E-1	2.375183E-1	3.546715E-2	-5.501175E-2	-5.206604E-1	1.095581E-1
1.738650E+10	-8.664246E-1	1.414795E-1	4.744720E-1	2.305298E-1	3.318405E-2	-5.503464E-2	-5.197449E-1	1.117554E-1
1.761100E+10	-8.652649E-1	1.457214E-1	4.701996E-1	2.207336E-1	3.315163E-2	-5.429840E-2	-5.202942E-1	1.131897E-1
1.783550E+10	-8.639832E-1	1.494141E-1	4.672241E-1	2.109222E-1	3.072739E-2	-5.533028E-2	-5.225525E-1	1.187134E-1
1.806000E+10	-8.640442E-1	1.526794E-1	4.628296E-1	2.034912E-1	2.996254E-2	-5.486679E-2	-5.193481E-1	1.227417E-1
1.828450E+10	-8.599854E-1	1.575623E-1	4.576111E-1	1.933136E-1	2.981949E-2	-5.452728E-2	-5.206604E-1	1.226501E-1
1.850900E+10	-8.602600E-1	1.601257E-1	4.544525E-1	1.850739E-1	2.930260E-2	-5.480003E-2	-5.220032E-1	1.271667E-1
1.873350E+10	-8.585510E-1	1.654968E-1	4.496613E-1	1.768799E-1	2.774620E-2	-5.437469E-2	-5.189514E-1	1.323242E-1
1.895800E+10	-8.576660E-1	1.680298E-1	4.444275E-1	1.681519E-1	2.621460E-2	-5.526352E-2	-5.198975E-1	1.302795E-1
1.918250E+10	-8.558960E-1	1.717529E-1	4.413452E-1	1.599579E-1	2.633476E-2	-5.604553E-2	-5.216064E-1	1.347351E-1
1.940700E+10	-8.544312E-1	1.753845E-1	4.364929E-1	1.522369E-1	2.448082E-2	-5.565453E-2	-5.186768E-1	1.424866E-1
1.963150E+10	-8.540955E-1	1.795959E-1	4.302063E-1	1.451874E-1	2.393532E-2	-5.548859E-2	-5.173035E-1	1.398315E-1
1.985600E+10	-8.518677E-1	1.829224E-1	4.259033E-1	1.383362E-1	2.285767E-2	-5.586815E-2	-5.202637E-1	1.447449E-1
2.008050E+10	-8.497620E-1	1.857300E-1	4.239197E-1	1.330109E-1	2.163124E-2	-5.728531E-2	-5.183105E-1	1.508484E-1
2.030500E+10	-8.501282E-1	1.896973E-1	4.181671E-1	1.253662E-1	1.995850E-2	-5.479431E-2	-5.174561E-1	1.485596E-1
2.052950E+10	-8.475647E-1	1.927795E-1	4.135284E-1	1.206970E-1	1.796341E-2	-5.536079E-2	-5.166016E-1	1.544800E-1
2.075400E+10	-8.476868E-1	1.956787E-1	4.101868E-1	1.142883E-1	1.839447E-2	-5.605698E-2	-5.184326E-1	1.591492E-1
2.097850E+10	-8.445435E-1	1.997070E-1	4.075165E-1	1.087646E-1	1.504517E-2	-5.507278E-2	-5.127258E-1	1.610107E-1
2.120300E+10	-8.421631E-1	2.018433E-1	4.003601E-1	1.019135E-1	1.571465E-2	-5.538368E-2	-5.171509E-1	1.598511E-1
2.142750E+10	-8.439941E-1	2.082214E-1	3.975525E-1	9.657288E-2	1.399803E-2	-5.509186E-2	-5.171204E-1	1.677551E-1
2.165200E+10	-8.422546E-1	2.096863E-1	3.947601E-1	9.170532E-2	1.384163E-2	-5.522919E-2	-5.146790E-1	1.679077E-1
2.187650E+10	-8.391724E-1	2.120056E-1	3.900604E-1	8.621216E-2	1.244545E-2	-5.480194E-2	-5.162354E-1	1.727905E-1
2.210100E+10	-8.391113E-1	2.179871E-1	3.850098E-1	8.187866E-2	1.148224E-2	-5.494499E-2	-5.187073E-1	1.766663E-1
2.232550E+10	-8.362732E-1	2.204285E-1	3.832703E-1	7.623291E-2	1.070976E-2	-5.584908E-2	-5.148315E-1	1.812744E-1
2.255000E+10	-8.360901E-1	2.225342E-1	3.761444E-1	7.171631E-2	9.101868E-3	-5.484962E-2	-5.153503E-1	1.813354E-1
2.277450E+10	-8.318176E-1	2.279053E-1	3.737488E-1	6.684875E-2	8.539200E-3	-5.403137E-2	-5.152588E-1	1.867371E-1
2.299900E+10	-8.319702E-1	2.292175E-1	3.715820E-1	6.367493E-2	6.778717E-3	-5.148315E-2	-5.115356E-1	1.907043E-1
2.322350E+10	-8.310852E-1	2.347412E-1	3.674927E-1	5.775452E-2	5.878448E-3	-5.324173E-2	-5.110779E-1	1.917114E-1
2.344800E+10	-8.276062E-1	2.345886E-1	3.637238E-1	5.531311E-2	3.757477E-3	-5.249214E-2	-5.137329E-1	1.995239E-1
2.367250E+10	-8.276367E-1	2.386169E-1	3.604431E-1	5.113220E-2	2.649307E-3	-5.249596E-2	-5.088806E-1	2.033386E-1
2.389700E+10	-8.247986E-1	2.423096E-1	3.567200E-1	4.760742E-2	1.056671E-3	-5.252838E-2	-5.101318E-1	2.030945E-1
2.412150E+10	-8.256836E-1	2.449646E-1	3.533478E-1	4.338074E-2	-1.279831E-3	-5.109406E-2	-5.079651E-1	2.091370E-1
2.434600E+10	-8.212280E-1	2.498779E-1	3.502350E-1	4.057312E-2	-6.408691E-4	-5.047226E-2	-5.054016E-1	2.108459E-1
2.457050E+10	-8.200989E-1	2.515564E-1	3.478546E-1	3.756714E-2	-3.232956E-3	-5.003166E-2	-5.065613E-1	2.136536E-1
2.479500E+10	-8.190002E-1	2.570190E-1	3.441315E-1	3.291321E-2	-3.192902E-3	-4.963112E-2	-5.032349E-1	2.182007E-1
2.501950E+10	-8.161316E-1	2.570496E-1	3.396149E-1	3.189087E-2	-3.789902E-3	-4.896164E-2	-4.998779E-1	2.197113E-1
2.524400E+10	-8.146667E-1	2.611389E-1	3.361359E-1	2.796936E-2	-4.747391E-3	-4.689217E-2	-4.991455E-1	2.214203E-1
2.546850E+10	-8.135071E-1	2.651367E-1	3.343048E-1	2.624512E-2	-7.005692E-3	-4.441643E-2	-4.986267E-1	2.256927E-1
2.569300E+10	-8.104248E-1	2.648315E-1	3.317413E-1	2.198792E-2	-6.973267E-3	-4.691696E-2	-4.979095E-1	2.252045E-1
2.591750E+10	-8.090210E-1	2.722473E-1	3.294525E-1	1.889038E-2	-7.841110E-3	-4.423904E-2	-4.972687E-1	2.291565E-1
2.614200E+10	-8.083191E-1	2.732544E-1	3.269653E-1	1.715088E-2	-9.321213E-3	-4.421043E-2	-5.006714E-1	2.350159E-1
2.636650E+10	-8.051758E-1	2.743835E-1	3.253937E-1	1.504517E-2	-9.826660E-3	-4.492760E-2	-4.974670E-1	2.406158E-1
2.659100E+10	-8.041687E-1	2.775269E-1	3.207550E-1	1.226807E-2	-1.113319E-2	-4.256821E-2	-4.939117E-1	2.418823E-1
2.681550E+10	-8.002625E-1	2.795715E-1	3.211517E-1	8.758545E-3	-1.173782E-2	-4.090500E-2	-4.957581E-1	2.433014E-1
2.704000E+10	-7.986450E-1	2.818298E-1	3.166199E-1	7.446289E-3	-1.296616E-2	-3.773308E-2	-4.960022E-1	2.524719E-1
2.726450E+10	-7.987671E-1	2.868652E-1	3.139648E-1	4.302979E-3	-1.233673E-2	-4.247284E-2	-4.872894E-1	2.528229E-1
2.748900E+10	-7.941895E-1	2.882690E-1	3.152771E-1	4.730225E-3	-1.429176E-2	-3.811646E-2	-4.899292E-1	2.539673E-1
2.771350E+10	-7.923584E-1	2.913208E-1	3.123016E-1	1.388550E-3	-1.347160E-2	-3.905678E-2	-4.878235E-1	2.594299E-1
2.793800E+10	-7.918701E-1	2.932739E-1	3.095398E-1	-1.525879E-5	-1.767731E-2	-3.586769E-2	-4.883423E-1	2.603302E-1
2.816250E+10	-7.909241E-1	2.957153E-1	3.080292E-1	-2.365112E-3	-1.399994E-2	-3.698158E-2	-4.845581E-1	2.650452E-1
2.838700E+10	-7.869568E-1	2.981873E-1	3.052368E-1	-5.340576E-3	-1.778603E-2	-3.560066E-2	-4.859467E-1	2.676697E-1
2.861150E+10	-7.870483E-1	2.983398E-1	3.018646E-1	-8.605957E-3	-1.767921E-2	-3.516197E-2	-4.808807E-1	2.693481E-1
2.883600E+10	-7.841492E-1	3.042908E-1	3.043671E-1	-1.100159E-2	-2.020931E-2	-3.101921E-2	-4.790192E-1	2.710571E-1
2.906050E+10	-7.831421E-1	3.043823E-1	3.003845E-1	-1.208496E-2	-1.954269E-2	-3.217506E-2	-4.785614E-1	2.796936E-1
2.928500E+10	-7.800293E-1	3.088989E-1	2.982635E-1	-1.437378E-2	-1.915169E-2	-3.217125E-2	-4.769135E-1	2.798615E-1
2.950950E+10	-7.774048E-1	3.129578E-1	3.014984E-1	-1.603699E-2	-1.947117E-2	-2.717400E-2	-4.815674E-1	2.820740E-1
2.973400E+10	-7.777405E-1	3.147583E-1	2.995300E-1	-1.718140E-2	-2.209091E-2	-2.626038E-2	-4.783630E-1	2.896423E-1
2.995850E+10	-7.725830E-1	3.146973E-1	2.956238E-1	-2.343750E-2	-2.306080E-2	-2.518845E-2	-4.752502E-1	2.947845E-1
3.018300E+10	-7.723389E-1	3.157654E-1	2.984314E-1	-2.505493E-2	-2.292061E-2	-2.441978E-2	-4.735718E-1	3.007202E-1
3.040750E+10	-7.704773E-1	3.202209E-1	2.958679E-1	-2.473450E-2	-2.286530E-2	-2.692604E-2	-4.714813E-1	3.035431E-1
3.063200E+10	-7.722473E-1	3.217773E-1	2.973328E-1	-2.674866E-2	-1.916409E-2	-2.067280E-2	-4.727478E-1	3.105774E-1
3.085650E+10	-7.674866E-1	3.213196E-1	2.909546E-1	-2.998352E-2	-2.214050E-2	-2.392483E-2	-4.701080E-1	3.150940E-1
3.108100E+10	-7.633972E-1	3.258667E-1	2.957001E-1	-3.279114E-2	-2.231693E-2	-2.097416E-2	-4.619904E-1	3.174286E-1
3.130550E+10	-7.594910E-1	3.256226E-1	2.921600E-1	-3.338623E-2	-2.021503E-2	-1.937199E-2	-4.595184E-1	3.239136E-1
3.153000E+10	-7.656860E-1	3.263245E-1	2.943573E-1	-3.842163E-2	-1.940250E-2	-1.447392E-2	-4.635773E-1	3.249207E-1
3.175450E+10	-7.627258E-1	3.289490E-1	2.914886E-1	-3.569031E-2	-2.255535E-2	-1.734352E-2	-4.598694E-1	3.317108E-1
3.197900E+10	-7.589722E-1	3.312073E-1	2.901306E-1	-4.328918E-2	-2.582932E-2	-1.516628E-2	-4.498444E-1	3.301849E-1
3.220350E+10	-7.577820E-1	3.354797E-1	2.913513E-1	-4.342651E-2	-2.324677E-2	-1.299286E-2	-4.533539E-1	3.387909E-1
3.242800E+10	-7.570496E-1	3.376160E-1	2.893219E-1	-4.641724E-2	-2.470875E-2	-8.121490E-3	-4.484863E-1	3.456879E-1
3.265250E+10	-7.556152E-1	3.407593E-1	2.888641E-1	-4.998779E-2	-2.443409E-2	-6.231308E-3	-4.412384E-1	3.445587E-1
3.287700E+10	-7.553406E-1	3.375854E-1	2.916107E-1	-5.363464E-2	-2.252007E-2	-7.362366E-3	-4.469299E-1	3.485413E-1
3.310150E+10	-7.465210E-1	3.391418E-1	2.913208E-1	-5.226135E-2	-2.549553E-2	-5.499840E-3	-4.357758E-1	3.556061E-1
3.332600E+10	-7.457275E-1	3.464355E-1	2.846527E-1	-5.757141E-2	-2.188396E-2	-6.140709E-3	-4.365387E-1	3.560944E-1
3.355050E+10	-7.468872E-1	3.461914E-1	2.877655E-1	-6.271362E-2	-1.911926E-2	-4.631042E-3	-4.306488E-1	3.565826E-1
3.377500E+10	-7.441711E-1	3.478699E-1	2.905579E-1	-6.370544E-2	-2.080345E-2	-1.252174E-3	-4.297333E-1	3.621674E-1
3.399950E+10	-7.418213E-1	3.497620E-1	2.867126E-1	-6.892395E-2	-2.181816E-2	-1.795769E-3	-4.294128E-1	3.674164E-1
3.422400E+10	-7.412720E-1	3.530884E-1	2.848969E-1	-7.165527E-2	-2.215099E-2	-2.332687E-3	-4.248810E-1	3.795624E-1
3.444850E+10	-7.371521E-1	3.534241E-1	2.858582E-1	-7.551575E-2	-1.748943E-2	5.197525E-4	-4.131165E-1	3.769226E-1
3.467300E+10	-7.342529E-1	3.559570E-1	2.909088E-1	-7.585144E-2	-1.836205E-2	2.903938E-3	-4.155426E-1	3.829651E-1
3.489750E+10	-7.356567E-1	3.571777E-1	2.815247E-1	-8.052063E-2	-1.691341E-2	1.469612E-3	-4.105072E-1	3.924713E-1
3.512200E+10	-7.320862E-1	3.556824E-1	2.861176E-1	-8.834839E-2	-1.702309E-2	3.594398E-3	-4.105377E-1	3.922882E-1
3.534650E+10	-7.339783E-1	3.594971E-1	2.881927E-1	-9.075928E-2	-1.749325E-2	2.321243E-3	-4.026031E-1	3.980255E-1
3.557100E+10	-7.263489E-1	3.554993E-1	2.879791E-1	-9.509277E-2	-1.629639E-2	6.228447E-3	-3.940887E-1	4.097443E-1
3.579550E+10	-7.231140E-1	3.613586E-1	2.866364E-1	-9.445190E-2	-1.334333E-2	6.462574E-3	-3.900909E-1	4.105682E-1
3.602000E+10	-7.270813E-1	3.672485E-1	2.818909E-1	-1.011047E-1	-1.512623E-2	5.541325E-3	-3.888092E-1	4.101715E-1
3.624450E+10	-7.239685E-1	3.643188E-1	2.819519E-1	-1.071472E-1	-1.717472E-2	9.523392E-3	-3.844757E-1	4.142914E-1
3.646900E+10	-7.261658E-1	3.720398E-1	2.832336E-1	-1.099548E-1	-1.215935E-2	9.507179E-3	-3.761749E-1	4.198761E-1
3.669350E+10	-7.257690E-1	3.657837E-1	2.838440E-1	-1.109009E-1	-1.406002E-2	1.880360E-2	-3.679504E-1	4.243622E-1
3.691800E+10	-7.207031E-1	3.714294E-1	2.816162E-1	-1.180420E-1	-9.035110E-3	1.642513E-2	-3.640289E-1	4.306030E-1
3.714250E+10	-7.207031E-1	3.710937E-1	2.744141E-1	-1.235046E-1	-1.444149E-2	1.719189E-2	-3.556213E-1	4.298248E-1
3.736700E+10	-7.174377E-1	3.728943E-1	2.735596E-1	-1.282043E-1	-8.341789E-3	1.580620E-2	-3.469696E-1	4.285583E-1
3.759150E+10	-7.110901E-1	3.716736E-1	2.792511E-1	-1.265259E-1	-5.926132E-3	1.553249E-2	-3.481140E-1	4.385986E-1
3.781600E+10	-7.096863E-1	3.765564E-1	2.743835E-1	-1.347656E-1	-4.095078E-3	1.612282E-2	-3.387451E-1	4.478455E-1
3.804050E+10	-7.079468E-1	3.743286E-1	2.744751E-1	-1.426086E-1	-9.572029E-3	1.846790E-2	-3.265991E-1	4.452820E-1
3.826500E+10	-7.117310E-1	3.749390E-1	2.775421E-1	-1.407318E-1	-1.050186E-2	1.720428E-2	-3.214722E-1	4.516754E-1
3.848950E+10	-7.096252E-1	3.765564E-1	2.716370E-1	-1.469421E-1	-9.861946E-3	2.103043E-2	-3.195343E-1	4.563599E-1
3.871400E+10	-7.031555E-1	3.789978E-1	2.679596E-1	-1.510773E-1	3.671646E-4	2.489662E-2	-3.070679E-1	4.594879E-1
3.893850E+10	-7.072449E-1	3.795776E-1	2.716522E-1	-1.577148E-1	-3.731728E-3	1.903629E-2	-3.003693E-1	4.582367E-1
3.916300E+10	-7.088928E-1	3.833008E-1	2.686005E-1	-1.681366E-1	-1.869202E-3	2.465057E-2	-2.917480E-1	4.526672E-1
3.938750E+10	-7.024536E-1	3.786621E-1	2.666473E-1	-1.702118E-1	2.859116E-3	2.039433E-2	-2.926331E-1	4.582520E-1
