!Date: 10/28/2005, 12:34 PM

!Vgs = 0.000000E+0
!Vds = 0.000000E+0
!Ig = 3.855600E-8
!Id = 1.392900E-4

# HZ S RI R 50
1.000000E+8	9.691467E-1	-1.541443E-1	5.407333E-4	1.824439E-3	-1.012087E-4	2.169609E-3	-9.298706E-1	-1.797485E-2
3.245000E+8	8.609009E-1	-4.597168E-1	1.980782E-3	6.605148E-3	2.652168E-3	6.954670E-3	-9.352722E-1	7.110596E-3
5.490000E+8	6.788330E-1	-6.933899E-1	4.813194E-3	9.689331E-3	4.957676E-3	9.539604E-3	-9.262695E-1	2.047729E-2
7.735000E+8	4.640808E-1	-8.472595E-1	8.062840E-3	1.148796E-2	8.155823E-3	1.182175E-2	-9.261780E-1	2.859497E-2
9.980000E+8	2.543030E-1	-9.292297E-1	1.117229E-2	1.259279E-2	1.115036E-2	1.281118E-2	-9.244385E-1	3.622437E-2
1.222500E+9	6.280518E-2	-9.593811E-1	1.402378E-2	1.256657E-2	1.441574E-2	1.277018E-2	-9.228516E-1	4.284668E-2
1.447000E+9	-1.011047E-1	-9.542542E-1	1.662064E-2	1.197052E-2	1.672554E-2	1.204967E-2	-9.221802E-1	5.093384E-2
1.671500E+9	-2.373352E-1	-9.295044E-1	1.842499E-2	1.147938E-2	1.847839E-2	1.124191E-2	-9.208069E-1	5.728149E-2
1.896000E+9	-3.503113E-1	-8.922424E-1	2.013302E-2	1.051140E-2	2.027130E-2	1.044464E-2	-9.191284E-1	6.555176E-2
2.120500E+9	-4.426880E-1	-8.507690E-1	2.164459E-2	1.007843E-2	2.156353E-2	9.594917E-3	-9.185181E-1	7.299805E-2
2.345000E+9	-5.205078E-1	-8.050537E-1	2.225494E-2	8.150101E-3	2.203465E-2	8.419037E-3	-9.161072E-1	8.032227E-2
2.569500E+9	-5.810547E-1	-7.594910E-1	2.324295E-2	7.247925E-3	2.322674E-2	7.508278E-3	-9.145508E-1	8.676147E-2
2.794000E+9	-6.331787E-1	-7.184448E-1	2.440071E-2	5.601883E-3	2.365780E-2	6.251335E-3	-9.134216E-1	9.399414E-2
3.018500E+9	-6.757812E-1	-6.764832E-1	2.439404E-2	5.406380E-3	2.405167E-2	5.408287E-3	-9.111023E-1	1.002808E-1
3.243000E+9	-7.128906E-1	-6.376953E-1	2.462578E-2	4.095078E-3	2.434826E-2	4.325867E-3	-9.099731E-1	1.082458E-1
3.467500E+9	-7.436829E-1	-6.021729E-1	2.495003E-2	3.474236E-3	2.506161E-2	3.310204E-3	-9.075317E-1	1.147766E-1
3.692000E+9	-7.693787E-1	-5.683899E-1	2.491760E-2	2.382278E-3	2.545071E-2	2.912521E-3	-9.055176E-1	1.206665E-1
3.916500E+9	-7.923279E-1	-5.362244E-1	2.533436E-2	1.827240E-3	2.522182E-2	2.020836E-3	-9.044495E-1	1.282959E-1
4.141000E+9	-8.122253E-1	-5.057983E-1	2.536488E-2	1.226425E-3	2.534676E-2	6.723404E-4	-9.015198E-1	1.347961E-1
4.365500E+9	-8.272095E-1	-4.776917E-1	2.552605E-2	2.889633E-4	2.555084E-2	2.565384E-4	-8.997498E-1	1.415100E-1
4.590000E+9	-8.419800E-1	-4.528198E-1	2.513695E-2	-5.970001E-4	2.537251E-2	-3.738403E-4	-8.974304E-1	1.483459E-1
4.814500E+9	-8.542786E-1	-4.285583E-1	2.517700E-2	-7.715225E-4	2.507210E-2	-1.392365E-3	-8.947144E-1	1.553345E-1
5.039000E+9	-8.653259E-1	-4.055176E-1	2.539635E-2	-1.646042E-3	2.525425E-2	-1.652718E-3	-8.927612E-1	1.607971E-1
5.263500E+9	-8.757629E-1	-3.825989E-1	2.541351E-2	-2.272606E-3	2.507496E-2	-2.447128E-3	-8.904724E-1	1.677856E-1
5.488000E+9	-8.830872E-1	-3.631592E-1	2.521420E-2	-3.009796E-3	2.511024E-2	-3.036499E-3	-8.878479E-1	1.747742E-1
5.712500E+9	-8.912964E-1	-3.435669E-1	2.482224E-2	-3.465652E-3	2.504921E-2	-3.269196E-3	-8.850708E-1	1.802979E-1
5.937000E+9	-8.976746E-1	-3.240662E-1	2.492523E-2	-4.068375E-3	2.447510E-2	-4.430771E-3	-8.833313E-1	1.871948E-1
6.161500E+9	-9.032898E-1	-3.079224E-1	2.451134E-2	-4.662514E-3	2.505398E-2	-4.789352E-3	-8.801880E-1	1.951294E-1
6.386000E+9	-9.093323E-1	-2.905884E-1	2.397346E-2	-4.791260E-3	2.418995E-2	-4.926682E-3	-8.765564E-1	2.001038E-1
6.610500E+9	-9.133301E-1	-2.747192E-1	2.403164E-2	-6.239891E-3	2.385902E-2	-5.473137E-3	-8.746033E-1	2.056274E-1
6.835000E+9	-9.188843E-1	-2.604675E-1	2.392387E-2	-6.330490E-3	2.356243E-2	-6.270409E-3	-8.716431E-1	2.137146E-1
7.059500E+9	-9.210815E-1	-2.471008E-1	2.323818E-2	-6.955147E-3	2.387333E-2	-6.877899E-3	-8.668518E-1	2.186279E-1
7.284000E+9	-9.244690E-1	-2.325745E-1	2.296543E-2	-6.694794E-3	2.324581E-2	-6.980896E-3	-8.647766E-1	2.223511E-1
7.508500E+9	-9.286804E-1	-2.192078E-1	2.247524E-2	-7.351875E-3	2.255249E-2	-7.486343E-3	-8.618469E-1	2.300415E-1
7.733000E+9	-9.302063E-1	-2.056580E-1	2.201366E-2	-8.328438E-3	2.277660E-2	-8.048058E-3	-8.569641E-1	2.348022E-1
7.957500E+9	-9.329224E-1	-1.927490E-1	2.226162E-2	-8.540154E-3	2.196503E-2	-7.909775E-3	-8.551331E-1	2.403259E-1
8.182000E+9	-9.356384E-1	-1.805420E-1	2.161884E-2	-8.018494E-3	2.129555E-2	-8.569717E-3	-8.521423E-1	2.465515E-1
8.406500E+9	-9.370422E-1	-1.707153E-1	2.137756E-2	-9.142876E-3	2.159405E-2	-9.053230E-3	-8.471375E-1	2.518616E-1
8.631000E+9	-9.392090E-1	-1.587830E-1	2.098465E-2	-9.077072E-3	2.073765E-2	-9.088516E-3	-8.450623E-1	2.575378E-1
8.855500E+9	-9.397278E-1	-1.486511E-1	2.027416E-2	-9.482384E-3	2.051449E-2	-9.626389E-3	-8.423157E-1	2.628479E-1
9.080001E+9	-9.418335E-1	-1.390076E-1	2.036953E-2	-9.910583E-3	2.024364E-2	-9.593964E-3	-8.371277E-1	2.694092E-1
9.304500E+9	-9.428406E-1	-1.264648E-1	1.974773E-2	-1.021099E-2	1.935005E-2	-1.009178E-2	-8.347473E-1	2.738037E-1
9.529000E+9	-9.436035E-1	-1.195374E-1	1.986122E-2	-9.953499E-3	1.883507E-2	-1.024914E-2	-8.314514E-1	2.791748E-1
9.753500E+9	-9.451904E-1	-1.097107E-1	1.848888E-2	-9.819984E-3	1.847553E-2	-1.053238E-2	-8.264160E-1	2.850342E-1
9.978000E+9	-9.456177E-1	-1.000977E-1	1.783657E-2	-1.039124E-2	1.780891E-2	-1.024342E-2	-8.238220E-1	2.885742E-1
1.020250E+10	-9.470520E-1	-9.176636E-2	1.815128E-2	-1.042366E-2	1.792145E-2	-1.035023E-2	-8.193970E-1	2.944641E-1
1.042700E+10	-9.477844E-1	-8.215332E-2	1.669312E-2	-1.060295E-2	1.724243E-2	-1.024437E-2	-8.158264E-1	2.995300E-1
1.065150E+10	-9.476929E-1	-7.388306E-2	1.670551E-2	-9.813309E-3	1.746368E-2	-1.085472E-2	-8.124084E-1	3.033752E-1
1.087600E+10	-9.494019E-1	-6.518555E-2	1.700687E-2	-1.040173E-2	1.632881E-2	-1.072025E-2	-8.091125E-1	3.082581E-1
1.110050E+10	-9.497986E-1	-5.603027E-2	1.573277E-2	-1.057434E-2	1.541281E-2	-1.072645E-2	-8.038025E-1	3.137817E-1
1.132500E+10	-9.491882E-1	-4.821777E-2	1.563835E-2	-1.023960E-2	1.540184E-2	-1.064873E-2	-7.998657E-1	3.168335E-1
1.154950E+10	-9.496460E-1	-3.958130E-2	1.517487E-2	-9.963989E-3	1.553679E-2	-1.134682E-2	-7.987061E-1	3.217163E-1
1.177400E+10	-9.482727E-1	-3.271484E-2	1.504564E-2	-1.032925E-2	1.468372E-2	-1.089287E-2	-7.927246E-1	3.283997E-1
1.199850E+10	-9.491577E-1	-2.545166E-2	1.514864E-2	-1.106739E-2	1.421404E-2	-1.129103E-2	-7.887573E-1	3.303223E-1
1.222300E+10	-9.485168E-1	-1.669312E-2	1.440144E-2	-1.049709E-2	1.365185E-2	-1.022959E-2	-7.860718E-1	3.348694E-1
1.244750E+10	-9.486084E-1	-1.083374E-2	1.360893E-2	-1.124430E-2	1.369810E-2	-1.071453E-2	-7.810364E-1	3.407593E-1
1.267200E+10	-9.489441E-1	-3.875732E-3	1.347828E-2	-1.019716E-2	1.292133E-2	-1.073790E-2	-7.767334E-1	3.433228E-1
1.289650E+10	-9.480286E-1	3.814697E-3	1.332045E-2	-9.880543E-3	1.322746E-2	-1.024532E-2	-7.756348E-1	3.464966E-1
1.312100E+10	-9.483337E-1	1.068115E-2	1.289225E-2	-1.077747E-2	1.289225E-2	-9.721279E-3	-7.703552E-1	3.537598E-1
1.334550E+10	-9.483643E-1	1.757812E-2	1.338339E-2	-9.975433E-3	1.257372E-2	-9.902954E-3	-7.655334E-1	3.558044E-1
1.357000E+10	-9.463501E-1	2.410889E-2	1.300859E-2	-1.000309E-2	1.225996E-2	-1.047564E-2	-7.643127E-1	3.561707E-1
1.379450E+10	-9.460754E-1	3.073120E-2	1.167727E-2	-9.697437E-3	1.240015E-2	-9.525776E-3	-7.607422E-1	3.650513E-1
1.401900E+10	-9.461060E-1	3.692627E-2	1.084518E-2	-9.518623E-3	1.169395E-2	-1.085234E-2	-7.539368E-1	3.675842E-1
1.424350E+10	-9.457092E-1	4.376221E-2	1.133966E-2	-1.005173E-2	1.177216E-2	-9.061813E-3	-7.533875E-1	3.697815E-1
1.446800E+10	-9.453125E-1	4.986572E-2	1.097298E-2	-1.004267E-2	1.100159E-2	-9.222031E-3	-7.489014E-1	3.771973E-1
1.469250E+10	-9.436340E-1	5.725098E-2	1.078176E-2	-1.077747E-2	1.104689E-2	-1.025534E-2	-7.421875E-1	3.796387E-1
1.491700E+10	-9.420471E-1	6.228638E-2	1.092482E-2	-1.025963E-2	1.001406E-2	-9.093285E-3	-7.394714E-1	3.818054E-1
1.514150E+10	-9.411316E-1	6.985474E-2	1.032305E-2	-9.788036E-3	1.023579E-2	-9.173870E-3	-7.370605E-1	3.865356E-1
1.536600E+10	-9.405212E-1	7.681274E-2	1.027203E-2	-1.008701E-2	9.358406E-3	-9.909153E-3	-7.309570E-1	3.895264E-1
1.559050E+10	-9.390564E-1	8.093262E-2	9.240150E-3	-9.555340E-3	9.396553E-3	-8.836746E-3	-7.267761E-1	3.922424E-1
1.581500E+10	-9.385071E-1	8.807373E-2	9.493351E-3	-9.360790E-3	9.631157E-3	-1.030636E-2	-7.260437E-1	3.964539E-1
1.603950E+10	-9.389954E-1	9.353638E-2	1.026392E-2	-1.029444E-2	8.939266E-3	-8.759022E-3	-7.191467E-1	4.011230E-1
1.626400E+10	-9.365845E-1	9.979248E-2	9.160519E-3	-8.644581E-3	9.084225E-3	-8.851051E-3	-7.182007E-1	4.024658E-1
1.648850E+10	-9.355469E-1	1.047974E-1	7.236004E-3	-9.615421E-3	8.532047E-3	-8.739948E-3	-7.139282E-1	4.067078E-1
1.671300E+10	-9.341125E-1	1.106873E-1	8.502007E-3	-8.773327E-3	7.497311E-3	-9.221554E-3	-7.091675E-1	4.108887E-1
1.693750E+10	-9.331360E-1	1.172485E-1	8.377075E-3	-9.159088E-3	7.921696E-3	-9.234905E-3	-7.056885E-1	4.121399E-1
1.716200E+10	-9.314270E-1	1.230469E-1	7.381439E-3	-8.776665E-3	7.526875E-3	-8.748531E-3	-7.025452E-1	4.183350E-1
1.738650E+10	-9.299927E-1	1.288452E-1	8.058548E-3	-8.857727E-3	6.677151E-3	-8.552074E-3	-6.969604E-1	4.222717E-1
1.761100E+10	-9.284058E-1	1.347961E-1	6.525993E-3	-8.047104E-3	7.231712E-3	-9.640217E-3	-6.967773E-1	4.228210E-1
1.783550E+10	-9.270020E-1	1.417847E-1	6.578445E-3	-8.517742E-3	6.705284E-3	-8.071423E-3	-6.931763E-1	4.273376E-1
1.806000E+10	-9.254761E-1	1.467285E-1	6.959915E-3	-9.029865E-3	6.050587E-3	-8.499146E-3	-6.871338E-1	4.338379E-1
1.828450E+10	-9.234009E-1	1.516724E-1	6.457329E-3	-8.244514E-3	6.186962E-3	-8.852959E-3	-6.835022E-1	4.336243E-1
1.850900E+10	-9.211731E-1	1.559753E-1	5.385399E-3	-8.428574E-3	5.691051E-3	-9.205818E-3	-6.817322E-1	4.364319E-1
1.873350E+10	-9.196167E-1	1.632690E-1	5.918026E-3	-8.306980E-3	5.449295E-3	-8.366585E-3	-6.757812E-1	4.424133E-1
1.895800E+10	-9.169922E-1	1.668091E-1	5.028248E-3	-8.424282E-3	5.099297E-3	-8.414268E-3	-6.720276E-1	4.415283E-1
1.918250E+10	-9.156799E-1	1.714783E-1	4.318237E-3	-8.475304E-3	5.917072E-3	-8.335590E-3	-6.683350E-1	4.457092E-1
1.940700E+10	-9.132080E-1	1.767883E-1	5.603790E-3	-8.296013E-3	4.198551E-3	-7.191420E-3	-6.631775E-1	4.526672E-1
1.963150E+10	-9.106140E-1	1.831665E-1	4.392624E-3	-7.580519E-3	3.360748E-3	-8.272648E-3	-6.579895E-1	4.519348E-1
1.985600E+10	-9.086304E-1	1.863708E-1	4.152536E-3	-6.554365E-3	4.601955E-3	-8.344173E-3	-6.578674E-1	4.555054E-1
2.008050E+10	-9.066162E-1	1.919250E-1	4.078150E-3	-6.646872E-3	4.211426E-3	-7.238388E-3	-6.517944E-1	4.612122E-1
2.030500E+10	-9.038696E-1	1.955566E-1	2.671719E-3	-6.964684E-3	2.378941E-3	-5.760431E-3	-6.471252E-1	4.618530E-1
2.052950E+10	-9.012756E-1	2.015686E-1	3.449440E-3	-7.244110E-3	3.360987E-3	-7.197380E-3	-6.450806E-1	4.635620E-1
2.075400E+10	-8.984680E-1	2.069092E-1	2.198219E-4	-6.419420E-3	3.418922E-3	-7.218361E-3	-6.432800E-1	4.707031E-1
2.097850E+10	-8.962708E-1	2.112732E-1	5.998611E-4	-7.226944E-3	2.358198E-3	-6.842136E-3	-6.347046E-1	4.724731E-1
2.120300E+10	-8.933105E-1	2.152100E-1	1.279354E-3	-6.797791E-3	7.665157E-4	-6.654739E-3	-6.335754E-1	4.728699E-1
2.142750E+10	-8.911743E-1	2.211609E-1	1.486301E-3	-6.602287E-3	2.051592E-3	-7.495642E-3	-6.336975E-1	4.774170E-1
2.165200E+10	-8.878784E-1	2.259521E-1	1.697302E-3	-6.710529E-3	6.532669E-4	-6.125927E-3	-6.256409E-1	4.804077E-1
2.187650E+10	-8.814392E-1	2.303162E-1	-5.550385E-4	-4.215002E-3	8.411407E-4	-6.141424E-3	-6.226807E-1	4.844055E-1
2.210100E+10	-8.827515E-1	2.356567E-1	1.859665E-4	-4.718065E-3	-4.451275E-4	-5.740404E-3	-6.188965E-1	4.889526E-1
2.232550E+10	-8.777466E-1	2.377014E-1	-3.082752E-4	-6.182194E-3	-1.416445E-3	-4.747152E-3	-6.118164E-1	4.910583E-1
2.255000E+10	-8.771667E-1	2.421875E-1	-9.391308E-4	-5.551815E-3	-1.977682E-3	-3.901601E-3	-6.099548E-1	4.926147E-1
2.277450E+10	-8.701172E-1	2.455444E-1	-7.879734E-4	-6.542206E-3	-2.152920E-3	-5.623102E-3	-6.065979E-1	4.979858E-1
2.299900E+10	-8.687134E-1	2.489319E-1	-3.842950E-3	-3.037930E-3	-2.276063E-3	-3.876090E-3	-5.997925E-1	4.986267E-1
2.322350E+10	-8.657532E-1	2.531433E-1	-3.558874E-3	-4.130840E-3	-3.164291E-3	-4.619837E-3	-5.958862E-1	4.996948E-1
2.344800E+10	-8.626404E-1	2.543945E-1	-4.344463E-3	-3.984928E-3	-3.124714E-3	-4.709721E-3	-5.929565E-1	5.060425E-1
2.367250E+10	-8.580933E-1	2.595825E-1	-4.325628E-3	-3.352880E-3	-3.802896E-3	-2.743721E-3	-5.837708E-1	5.068359E-1
2.389700E+10	-8.550110E-1	2.626038E-1	-3.097534E-3	-2.071738E-3	-5.042553E-3	-1.306534E-3	-5.816956E-1	5.085144E-1
2.412150E+10	-8.528137E-1	2.672119E-1	-4.867315E-3	-1.910925E-3	-5.492687E-3	-2.512932E-3	-5.756836E-1	5.125732E-1
2.434600E+10	-8.469543E-1	2.691956E-1	-5.572081E-3	-1.299143E-3	-5.474329E-3	9.236336E-4	-5.735474E-1	5.148010E-1
2.457050E+10	-8.419189E-1	2.712708E-1	-7.137060E-3	6.906986E-4	-6.833076E-3	6.175041E-4	-5.671692E-1	5.158081E-1
2.479500E+10	-8.400879E-1	2.759705E-1	-7.310390E-3	1.718998E-3	-7.487059E-3	-8.702278E-5	-5.626221E-1	5.218811E-1
2.501950E+10	-8.355408E-1	2.780762E-1	-9.209156E-3	2.910137E-3	-7.591009E-3	2.169132E-3	-5.532837E-1	5.203857E-1
2.524400E+10	-8.308411E-1	2.782898E-1	-8.281708E-3	4.134178E-3	-7.017851E-3	5.033731E-3	-5.546875E-1	5.234680E-1
2.546850E+10	-8.282776E-1	2.818298E-1	-7.767439E-3	4.340172E-3	-7.948399E-3	5.482674E-3	-5.476379E-1	5.255127E-1
2.569300E+10	-8.255920E-1	2.803345E-1	-6.988525E-3	5.908966E-3	-7.733345E-3	7.394552E-3	-5.435791E-1	5.253601E-1
2.591750E+10	-8.229065E-1	2.863770E-1	-7.235289E-3	4.938126E-3	-7.931232E-3	8.455276E-3	-5.414124E-1	5.249634E-1
2.614200E+10	-8.185730E-1	2.856445E-1	-7.359505E-3	8.893490E-3	-8.024693E-3	8.078098E-3	-5.411987E-1	5.303345E-1
2.636650E+10	-8.138428E-1	2.854614E-1	-8.862972E-3	6.389141E-3	-8.979321E-3	8.644104E-3	-5.321960E-1	5.334778E-1
2.659100E+10	-8.104553E-1	2.865295E-1	-8.181095E-3	9.137154E-3	-9.278297E-3	9.457111E-3	-5.254517E-1	5.355225E-1
2.681550E+10	-8.059998E-1	2.865906E-1	-8.543491E-3	1.268291E-2	-8.305073E-3	1.083517E-2	-5.269775E-1	5.332947E-1
2.704000E+10	-8.061218E-1	2.865601E-1	-6.268024E-3	1.138210E-2	-8.496284E-3	1.413679E-2	-5.186768E-1	5.429382E-1
2.726450E+10	-8.027954E-1	2.882080E-1	-4.880428E-3	1.343346E-2	-6.600380E-3	1.301432E-2	-5.119324E-1	5.392761E-1
2.748900E+10	-7.988586E-1	2.881775E-1	-8.804321E-3	1.531076E-2	-5.435944E-3	1.478529E-2	-5.118713E-1	5.430603E-1
2.771350E+10	-7.967529E-1	2.897339E-1	-6.759644E-3	1.523447E-2	-7.544041E-3	1.468277E-2	-5.054016E-1	5.425415E-1
2.793800E+10	-7.949829E-1	2.883606E-1	-6.304741E-3	1.472139E-2	-5.093575E-3	1.723289E-2	-5.012512E-1	5.423584E-1
2.816250E+10	-7.904968E-1	2.898560E-1	-5.681038E-3	1.550388E-2	-5.795479E-3	1.784706E-2	-4.988708E-1	5.466309E-1
2.838700E+10	-7.908936E-1	2.890320E-1	-3.973961E-3	1.931953E-2	-9.005547E-3	1.825047E-2	-4.917603E-1	5.497437E-1
2.861150E+10	-7.899780E-1	2.904968E-1	-6.570816E-3	2.090168E-2	-5.530357E-3	2.016449E-2	-4.857483E-1	5.476685E-1
2.883600E+10	-7.875671E-1	2.925720E-1	-4.715919E-3	2.152348E-2	-3.919601E-3	2.275944E-2	-4.864502E-1	5.478210E-1
2.906050E+10	-7.880554E-1	2.886353E-1	-5.644798E-3	2.345085E-2	-3.226280E-3	1.931095E-2	-4.798889E-1	5.515137E-1
2.928500E+10	-7.859497E-1	2.886658E-1	-2.393723E-3	2.183247E-2	-2.943039E-3	2.156544E-2	-4.787292E-1	5.517273E-1
2.950950E+10	-7.850037E-1	2.921448E-1	-3.866196E-3	2.598286E-2	-1.299858E-3	2.487564E-2	-4.734497E-1	5.545044E-1
2.973400E+10	-7.850647E-1	2.899475E-1	-1.894951E-3	2.428913E-2	1.493454E-3	2.525425E-2	-4.689941E-1	5.559387E-1
2.995850E+10	-7.818604E-1	2.903748E-1	7.953644E-4	2.428246E-2	2.075195E-3	2.723026E-2	-4.694824E-1	5.545349E-1
3.018300E+10	-7.822876E-1	2.885742E-1	2.311707E-3	2.872849E-2	1.806259E-3	2.522469E-2	-4.669800E-1	5.638123E-1
3.040750E+10	-7.822571E-1	2.910767E-1	3.222466E-3	2.576256E-2	3.853798E-3	2.714825E-2	-4.581604E-1	5.626831E-1
3.063200E+10	-7.817078E-1	2.914429E-1	1.572609E-3	2.412605E-2	2.983093E-3	2.940750E-2	-4.553528E-1	5.628357E-1
3.085650E+10	-7.799683E-1	2.913818E-1	4.574776E-3	3.035450E-2	3.522873E-3	2.837372E-2	-4.482117E-1	5.686951E-1
3.108100E+10	-7.829895E-1	2.953186E-1	3.470421E-3	2.718544E-2	5.767822E-3	2.869797E-2	-4.436646E-1	5.671082E-1
3.130550E+10	-7.795715E-1	2.903442E-1	3.768921E-3	3.044224E-2	7.670403E-3	2.680016E-2	-4.359436E-1	5.699768E-1
3.153000E+10	-7.850037E-1	2.915344E-1	6.735802E-3	2.673912E-2	1.007652E-2	3.271866E-2	-4.357300E-1	5.733643E-1
3.175450E+10	-7.802429E-1	2.974243E-1	7.846832E-3	3.164864E-2	4.767418E-3	2.977180E-2	-4.306335E-1	5.746765E-1
3.197900E+10	-7.839355E-1	2.970886E-1	7.884979E-3	2.835846E-2	1.114845E-2	2.777863E-2	-4.244995E-1	5.773621E-1
3.220350E+10	-7.817993E-1	3.036499E-1	1.171970E-2	3.099728E-2	1.070690E-2	2.892494E-2	-4.165344E-1	5.733337E-1
3.242800E+10	-7.885437E-1	2.995300E-1	1.175117E-2	3.204346E-2	1.292801E-2	3.625870E-2	-4.147949E-1	5.783997E-1
3.265250E+10	-7.875061E-1	3.038635E-1	1.072407E-2	2.854633E-2	1.237106E-2	3.198051E-2	-4.118042E-1	5.740967E-1
3.287700E+10	-7.877808E-1	3.061523E-1	1.613712E-2	2.690697E-2	1.847076E-2	2.603149E-2	-4.107666E-1	5.824585E-1
3.310150E+10	-7.854614E-1	3.043213E-1	1.310921E-2	3.132629E-2	1.639271E-2	2.904606E-2	-4.032288E-1	5.827026E-1
3.332600E+10	-7.833862E-1	3.086548E-1	1.860523E-2	2.775669E-2	1.599503E-2	3.601074E-2	-4.037170E-1	5.791321E-1
3.355050E+10	-7.848816E-1	3.117981E-1	2.236843E-2	2.880859E-2	1.925659E-2	2.845573E-2	-3.951721E-1	5.823669E-1
3.377500E+10	-7.857971E-1	3.171692E-1	2.171707E-2	3.467560E-2	2.040863E-2	3.148079E-2	-3.925781E-1	5.827332E-1
3.399950E+10	-7.841187E-1	3.163147E-1	2.093697E-2	2.862263E-2	2.095413E-2	3.171921E-2	-3.968201E-1	5.822449E-1
3.422400E+10	-7.864075E-1	3.194275E-1	2.092838E-2	2.775955E-2	2.160835E-2	2.966404E-2	-3.869629E-1	5.953674E-1
3.444850E+10	-7.866516E-1	3.225098E-1	2.344894E-2	2.968502E-2	2.038956E-2	2.885437E-2	-3.829346E-1	5.881348E-1
3.467300E+10	-7.828064E-1	3.233337E-1	2.402592E-2	2.779484E-2	2.141953E-2	2.682877E-2	-3.793030E-1	5.896606E-1
3.489750E+10	-7.868958E-1	3.264160E-1	2.167511E-2	2.555180E-2	2.771378E-2	2.555275E-2	-3.735962E-1	5.957336E-1
3.512200E+10	-7.894897E-1	3.273926E-1	2.562141E-2	2.792072E-2	2.625275E-2	2.810574E-2	-3.648376E-1	5.928955E-1
3.534650E+10	-7.888184E-1	3.301086E-1	2.617168E-2	2.934456E-2	2.897167E-2	2.752876E-2	-3.632812E-1	5.963745E-1
3.557100E+10	-7.878723E-1	3.350830E-1	2.869797E-2	2.873325E-2	2.393532E-2	3.148460E-2	-3.557129E-1	6.027832E-1
3.579550E+10	-7.911987E-1	3.356934E-1	3.132248E-2	2.609634E-2	2.597523E-2	2.564716E-2	-3.504028E-1	5.997925E-1
3.602000E+10	-7.853088E-1	3.424683E-1	3.012943E-2	2.124786E-2	3.024292E-2	2.398396E-2	-3.495789E-1	6.033020E-1
3.624450E+10	-7.876892E-1	3.386536E-1	2.952099E-2	2.429390E-2	2.936745E-2	2.449799E-2	-3.506165E-1	5.979309E-1
3.646900E+10	-7.888184E-1	3.504639E-1	2.744675E-2	2.576733E-2	2.577496E-2	2.461243E-2	-3.398743E-1	5.994263E-1
3.669350E+10	-7.871704E-1	3.474121E-1	2.576447E-2	2.378368E-2	3.134346E-2	2.534866E-2	-3.338318E-1	5.977173E-1
3.691800E+10	-7.876587E-1	3.545227E-1	3.042984E-2	2.485752E-2	3.191948E-2	2.372169E-2	-3.278809E-1	6.066895E-1
3.714250E+10	-7.840271E-1	3.524475E-1	2.595901E-2	2.318096E-2	2.877998E-2	2.451229E-2	-3.262329E-1	6.068726E-1
3.736700E+10	-7.810364E-1	3.630066E-1	3.068066E-2	2.295876E-2	3.064537E-2	2.419376E-2	-3.155518E-1	6.068115E-1
3.759150E+10	-7.857971E-1	3.623352E-1	3.631783E-2	2.090645E-2	3.216934E-2	2.415657E-2	-3.151550E-1	6.068115E-1
3.781600E+10	-7.839355E-1	3.636780E-1	3.155708E-2	1.953888E-2	3.109932E-2	2.160645E-2	-3.134155E-1	6.085510E-1
3.804050E+10	-7.833252E-1	3.633728E-1	3.578568E-2	2.490425E-2	3.821754E-2	2.375793E-2	-3.049622E-1	6.065979E-1
3.826500E+10	-7.837830E-1	3.741150E-1	3.476143E-2	2.404785E-2	2.868462E-2	2.363968E-2	-3.001404E-1	6.153259E-1
3.848950E+10	-7.797852E-1	3.773804E-1	3.632736E-2	1.752472E-2	3.697205E-2	2.021408E-2	-2.980957E-1	6.160583E-1
3.871400E+10	-7.792053E-1	3.807678E-1	3.038406E-2	2.012062E-2	3.722763E-2	1.733017E-2	-2.853699E-1	6.102905E-1
3.893850E+10	-7.834473E-1	3.811646E-1	3.374863E-2	2.211571E-2	3.617477E-2	2.186584E-2	-2.882080E-1	6.144104E-1
3.916300E+10	-7.860718E-1	3.834534E-1	3.667259E-2	2.270889E-2	3.959656E-2	2.425575E-2	-2.850952E-1	6.102905E-1
3.938750E+10	-7.792664E-1	3.904114E-1	3.091145E-2	1.821995E-2	3.464699E-2	2.191925E-2	-2.760620E-1	6.138916E-1
