!Date: 10/28/2005, 12:34 PM

!Vgs = -5.000000E+0
!Vds = 5.000000E+0
!Ig = -4.099100E-5
!Id = 8.553000E-3

# HZ S RI R 50
1.000000E+8	9.855957E-1	-8.282471E-2	-2.400513E+0	1.248779E-1	1.405239E-3	9.243011E-3	8.872375E-1	-2.871704E-2
3.245000E+8	9.456787E-1	-2.450867E-1	-2.309204E+0	4.913330E-1	8.001328E-3	3.525162E-2	8.484802E-1	-1.273804E-1
5.490000E+8	8.811340E-1	-3.898926E-1	-2.172363E+0	7.703857E-1	1.850700E-2	5.574608E-2	8.255310E-1	-1.994629E-1
7.735000E+8	7.977905E-1	-5.158691E-1	-1.979126E+0	9.944458E-1	3.306198E-2	7.210922E-2	7.876892E-1	-2.644958E-1
9.980000E+8	7.043762E-1	-6.181946E-1	-1.766479E+0	1.175110E+0	4.899597E-2	8.485794E-2	7.495117E-1	-3.176575E-1
1.222500E+9	6.010742E-1	-7.012024E-1	-1.561584E+0	1.326965E+0	6.522751E-2	9.366989E-2	7.075195E-1	-3.662109E-1
1.447000E+9	4.964600E-1	-7.631836E-1	-1.351318E+0	1.424316E+0	8.202744E-2	9.935760E-2	6.657715E-1	-4.082642E-1
1.671500E+9	3.947754E-1	-8.059387E-1	-1.140503E+0	1.485352E+0	9.805679E-2	1.032829E-1	6.215820E-1	-4.429626E-1
1.896000E+9	2.966003E-1	-8.348083E-1	-9.481201E-1	1.521118E+0	1.151085E-1	1.043701E-1	5.802002E-1	-4.705200E-1
2.120500E+9	2.063904E-1	-8.510132E-1	-7.654419E-1	1.520874E+0	1.305923E-1	1.032791E-1	5.433044E-1	-4.962158E-1
2.345000E+9	1.182556E-1	-8.562622E-1	-5.971069E-1	1.500610E+0	1.443253E-1	9.806061E-2	5.050354E-1	-5.162964E-1
2.569500E+9	4.513550E-2	-8.524475E-1	-4.478760E-1	1.481323E+0	1.560516E-1	9.295654E-2	4.682312E-1	-5.337830E-1
2.794000E+9	-2.667236E-2	-8.455811E-1	-3.156738E-1	1.442749E+0	1.670761E-1	8.759308E-2	4.341736E-1	-5.478821E-1
3.018500E+9	-8.975220E-2	-8.331299E-1	-1.965332E-1	1.392456E+0	1.766739E-1	8.051300E-2	4.014282E-1	-5.624390E-1
3.243000E+9	-1.493530E-1	-8.175659E-1	-8.911133E-2	1.345886E+0	1.846848E-1	7.315063E-2	3.699646E-1	-5.748901E-1
3.467500E+9	-1.999512E-1	-8.018494E-1	2.075195E-3	1.296204E+0	1.911316E-1	6.610870E-2	3.418579E-1	-5.847473E-1
3.692000E+9	-2.458496E-1	-7.835693E-1	8.526611E-2	1.239807E+0	1.976166E-1	5.872345E-2	3.134460E-1	-5.959167E-1
3.916500E+9	-2.875366E-1	-7.648315E-1	1.575317E-1	1.178284E+0	2.034302E-1	5.139160E-2	2.848816E-1	-6.030273E-1
4.141000E+9	-3.259583E-1	-7.443848E-1	2.203979E-1	1.118469E+0	2.081909E-1	4.396057E-2	2.590027E-1	-6.103821E-1
4.365500E+9	-3.595886E-1	-7.241211E-1	2.751465E-1	1.060181E+0	2.119598E-1	3.656769E-2	2.340698E-1	-6.193542E-1
4.590000E+9	-3.927307E-1	-7.047119E-1	3.240356E-1	1.008789E+0	2.149887E-1	2.915955E-2	2.073059E-1	-6.255493E-1
4.814500E+9	-4.182739E-1	-6.863403E-1	3.666992E-1	9.546814E-1	2.179413E-1	2.204132E-2	1.848145E-1	-6.329956E-1
5.039000E+9	-4.444275E-1	-6.674805E-1	4.041443E-1	9.022827E-1	2.200241E-1	1.409149E-2	1.601868E-1	-6.390381E-1
5.263500E+9	-4.676208E-1	-6.485291E-1	4.349976E-1	8.479614E-1	2.212372E-1	6.942749E-3	1.346130E-1	-6.431885E-1
5.488000E+9	-4.887695E-1	-6.307068E-1	4.608154E-1	7.958984E-1	2.224731E-1	-3.280640E-4	1.126709E-1	-6.465759E-1
5.712500E+9	-5.101929E-1	-6.125793E-1	4.853210E-1	7.482910E-1	2.238312E-1	-6.698608E-3	9.091187E-2	-6.518250E-1
5.937000E+9	-5.278625E-1	-5.944519E-1	5.054321E-1	7.030029E-1	2.242355E-1	-1.341248E-2	6.829834E-2	-6.571045E-1
6.161500E+9	-5.430603E-1	-5.800781E-1	5.222473E-1	6.602783E-1	2.243729E-1	-2.017975E-2	4.705811E-2	-6.600647E-1
6.386000E+9	-5.589600E-1	-5.645447E-1	5.369568E-1	6.148682E-1	2.233124E-1	-2.649689E-2	2.435303E-2	-6.631775E-1
6.610500E+9	-5.726318E-1	-5.488892E-1	5.486755E-1	5.726318E-1	2.236557E-1	-3.255463E-2	1.281738E-3	-6.664429E-1
6.835000E+9	-5.867920E-1	-5.348511E-1	5.568848E-1	5.327454E-1	2.233124E-1	-3.850555E-2	-1.977539E-2	-6.665039E-1
7.059500E+9	-5.967407E-1	-5.208740E-1	5.635376E-1	4.945984E-1	2.226257E-1	-4.371643E-2	-3.790283E-2	-6.706238E-1
7.284000E+9	-6.099243E-1	-5.070190E-1	5.689697E-1	4.567566E-1	2.204742E-1	-4.975891E-2	-6.100464E-2	-6.710510E-1
7.508500E+9	-6.209717E-1	-4.934387E-1	5.726929E-1	4.212036E-1	2.194824E-1	-5.539703E-2	-8.218384E-2	-6.685791E-1
7.733000E+9	-6.308594E-1	-4.784546E-1	5.744324E-1	3.884583E-1	2.177048E-1	-6.060791E-2	-1.012268E-1	-6.712341E-1
7.957500E+9	-6.398621E-1	-4.674683E-1	5.762329E-1	3.578796E-1	2.175064E-1	-6.613159E-2	-1.240234E-1	-6.711426E-1
8.182000E+9	-6.483459E-1	-4.551086E-1	5.760498E-1	3.266602E-1	2.149506E-1	-7.093048E-2	-1.419983E-1	-6.712341E-1
8.406500E+9	-6.565552E-1	-4.451599E-1	5.738831E-1	2.966309E-1	2.124176E-1	-7.519531E-2	-1.614685E-1	-6.687012E-1
8.631000E+9	-6.660461E-1	-4.319458E-1	5.723877E-1	2.665405E-1	2.102661E-1	-7.983398E-2	-1.828918E-1	-6.661377E-1
8.855500E+9	-6.731873E-1	-4.200439E-1	5.688477E-1	2.401428E-1	2.087250E-1	-8.488464E-2	-2.021484E-1	-6.633911E-1
9.080001E+9	-6.798401E-1	-4.114685E-1	5.660400E-1	2.138977E-1	2.067871E-1	-8.963776E-2	-2.200317E-1	-6.603699E-1
9.304500E+9	-6.874390E-1	-3.980408E-1	5.617676E-1	1.909790E-1	2.036133E-1	-9.315491E-2	-2.401123E-1	-6.556091E-1
9.529000E+9	-6.919861E-1	-3.913574E-1	5.557861E-1	1.666260E-1	2.012100E-1	-9.671021E-2	-2.587891E-1	-6.528015E-1
9.753500E+9	-6.999817E-1	-3.808594E-1	5.494690E-1	1.437683E-1	1.985245E-1	-1.011581E-1	-2.755432E-1	-6.474609E-1
9.978000E+9	-7.045288E-1	-3.703613E-1	5.430298E-1	1.219177E-1	1.959763E-1	-1.048889E-1	-2.931213E-1	-6.445618E-1
1.020250E+10	-7.114868E-1	-3.609924E-1	5.364380E-1	1.021729E-1	1.940155E-1	-1.086960E-1	-3.111267E-1	-6.394348E-1
1.042700E+10	-7.171631E-1	-3.522034E-1	5.308533E-1	8.435059E-2	1.909485E-1	-1.126938E-1	-3.281250E-1	-6.336670E-1
1.065150E+10	-7.213440E-1	-3.431091E-1	5.225830E-1	6.579590E-2	1.878433E-1	-1.159286E-1	-3.442383E-1	-6.289368E-1
1.087600E+10	-7.265625E-1	-3.352051E-1	5.153198E-1	4.794312E-2	1.849747E-1	-1.187744E-1	-3.609924E-1	-6.227417E-1
1.110050E+10	-7.316284E-1	-3.253174E-1	5.063782E-1	2.960205E-2	1.820755E-1	-1.219711E-1	-3.784485E-1	-6.163940E-1
1.132500E+10	-7.362061E-1	-3.163757E-1	4.990692E-1	1.399231E-2	1.784592E-1	-1.249084E-1	-3.927917E-1	-6.112671E-1
1.154950E+10	-7.408752E-1	-3.082886E-1	4.908295E-1	-9.002686E-4	1.766739E-1	-1.277161E-1	-4.097290E-1	-6.028442E-1
1.177400E+10	-7.441101E-1	-3.002930E-1	4.832153E-1	-1.469421E-2	1.734695E-1	-1.297913E-1	-4.247742E-1	-5.943298E-1
1.199850E+10	-7.492371E-1	-2.931519E-1	4.745636E-1	-2.987671E-2	1.700134E-1	-1.334610E-1	-4.378052E-1	-5.893250E-1
1.222300E+10	-7.522583E-1	-2.862854E-1	4.645081E-1	-4.272461E-2	1.674194E-1	-1.360855E-1	-4.543457E-1	-5.812073E-1
1.244750E+10	-7.562561E-1	-2.777405E-1	4.549713E-1	-5.648804E-2	1.640549E-1	-1.387634E-1	-4.690857E-1	-5.706787E-1
1.267200E+10	-7.609558E-1	-2.690125E-1	4.471436E-1	-6.779480E-2	1.618805E-1	-1.407776E-1	-4.806519E-1	-5.649109E-1
1.289650E+10	-7.627869E-1	-2.622681E-1	4.388428E-1	-7.740784E-2	1.578217E-1	-1.427765E-1	-4.970398E-1	-5.570984E-1
1.312100E+10	-7.669983E-1	-2.550049E-1	4.285126E-1	-9.040833E-2	1.538162E-1	-1.445084E-1	-5.101929E-1	-5.451965E-1
1.334550E+10	-7.702026E-1	-2.493286E-1	4.195862E-1	-1.001129E-1	1.516495E-1	-1.467896E-1	-5.205994E-1	-5.401306E-1
1.357000E+10	-7.742310E-1	-2.397461E-1	4.117432E-1	-1.089935E-1	1.486740E-1	-1.488495E-1	-5.356750E-1	-5.309448E-1
1.379450E+10	-7.753906E-1	-2.342834E-1	4.026489E-1	-1.192474E-1	1.464386E-1	-1.511765E-1	-5.485840E-1	-5.169983E-1
1.401900E+10	-7.796326E-1	-2.280273E-1	3.945160E-1	-1.279755E-1	1.436691E-1	-1.537704E-1	-5.567017E-1	-5.110168E-1
1.424350E+10	-7.824097E-1	-2.213745E-1	3.837280E-1	-1.349792E-1	1.391602E-1	-1.543198E-1	-5.715637E-1	-5.007935E-1
1.446800E+10	-7.837524E-1	-2.129822E-1	3.760529E-1	-1.437378E-1	1.357651E-1	-1.566544E-1	-5.819397E-1	-4.882202E-1
1.469250E+10	-7.866821E-1	-2.073059E-1	3.667603E-1	-1.517792E-1	1.336975E-1	-1.580658E-1	-5.900879E-1	-4.806213E-1
1.491700E+10	-7.898254E-1	-2.016296E-1	3.588409E-1	-1.574707E-1	1.300507E-1	-1.597748E-1	-6.034241E-1	-4.721069E-1
1.514150E+10	-7.913818E-1	-1.950684E-1	3.491974E-1	-1.655121E-1	1.269836E-1	-1.614532E-1	-6.150513E-1	-4.575195E-1
1.536600E+10	-7.938232E-1	-1.878967E-1	3.389130E-1	-1.721039E-1	1.241150E-1	-1.626511E-1	-6.213989E-1	-4.479980E-1
1.559050E+10	-7.955017E-1	-1.809082E-1	3.311768E-1	-1.777954E-1	1.217575E-1	-1.637268E-1	-6.340027E-1	-4.407043E-1
1.581500E+10	-7.987671E-1	-1.745605E-1	3.222809E-1	-1.826630E-1	1.179276E-1	-1.644287E-1	-6.430359E-1	-4.265747E-1
1.603950E+10	-8.020325E-1	-1.683960E-1	3.154449E-1	-1.878967E-1	1.135254E-1	-1.657944E-1	-6.510010E-1	-4.177856E-1
1.626400E+10	-8.039246E-1	-1.632690E-1	3.079529E-1	-1.926270E-1	1.122131E-1	-1.668015E-1	-6.614075E-1	-4.075317E-1
1.648850E+10	-8.060608E-1	-1.565247E-1	2.975464E-1	-1.974182E-1	1.081848E-1	-1.682587E-1	-6.706848E-1	-3.937073E-1
1.671300E+10	-8.065186E-1	-1.496887E-1	2.903595E-1	-2.019958E-1	1.058121E-1	-1.683960E-1	-6.774597E-1	-3.844299E-1
1.693750E+10	-8.092346E-1	-1.439209E-1	2.826080E-1	-2.051086E-1	1.019669E-1	-1.700058E-1	-6.857910E-1	-3.741150E-1
1.716200E+10	-8.099365E-1	-1.372986E-1	2.751465E-1	-2.083130E-1	9.888458E-2	-1.709900E-1	-6.925659E-1	-3.583374E-1
1.738650E+10	-8.129272E-1	-1.322021E-1	2.670441E-1	-2.133179E-1	9.641266E-2	-1.720200E-1	-6.990051E-1	-3.479309E-1
1.761100E+10	-8.145447E-1	-1.275024E-1	2.595520E-1	-2.151794E-1	9.283447E-2	-1.713181E-1	-7.088623E-1	-3.396301E-1
1.783550E+10	-8.155212E-1	-1.198730E-1	2.515106E-1	-2.190094E-1	8.981323E-2	-1.723785E-1	-7.176208E-1	-3.257446E-1
1.806000E+10	-8.179626E-1	-1.155090E-1	2.447433E-1	-2.231064E-1	8.795929E-2	-1.738739E-1	-7.203369E-1	-3.163147E-1
1.828450E+10	-8.190308E-1	-1.078186E-1	2.363510E-1	-2.254181E-1	8.554840E-2	-1.730576E-1	-7.267761E-1	-3.049927E-1
1.850900E+10	-8.208618E-1	-1.032715E-1	2.314453E-1	-2.271118E-1	8.153534E-2	-1.745911E-1	-7.354126E-1	-2.924805E-1
1.873350E+10	-8.219299E-1	-9.729004E-2	2.234192E-1	-2.301483E-1	7.803345E-2	-1.753769E-1	-7.397156E-1	-2.785950E-1
1.895800E+10	-8.224487E-1	-9.307861E-2	2.155075E-1	-2.315140E-1	7.579041E-2	-1.757431E-1	-7.444153E-1	-2.707520E-1
1.918250E+10	-8.245544E-1	-8.703613E-2	2.085724E-1	-2.340164E-1	7.353973E-2	-1.754913E-1	-7.500305E-1	-2.580872E-1
1.940700E+10	-8.254395E-1	-8.093262E-2	2.011414E-1	-2.377167E-1	7.000732E-2	-1.758652E-1	-7.545471E-1	-2.398987E-1
1.963150E+10	-8.282166E-1	-7.543945E-2	1.944427E-1	-2.374649E-1	6.655121E-2	-1.758804E-1	-7.582092E-1	-2.333679E-1
1.985600E+10	-8.274841E-1	-7.031250E-2	1.893387E-1	-2.375946E-1	6.525421E-2	-1.753845E-1	-7.634277E-1	-2.207947E-1
2.008050E+10	-8.288879E-1	-6.591797E-2	1.810455E-1	-2.392654E-1	6.255341E-2	-1.753311E-1	-7.692566E-1	-2.054138E-1
2.030500E+10	-8.309937E-1	-5.996704E-2	1.756744E-1	-2.397537E-1	5.947876E-2	-1.768875E-1	-7.686462E-1	-1.972351E-1
2.052950E+10	-8.324280E-1	-5.493164E-2	1.673889E-1	-2.417526E-1	5.602264E-2	-1.759491E-1	-7.758789E-1	-1.860352E-1
2.075400E+10	-8.334045E-1	-5.035400E-2	1.624756E-1	-2.428207E-1	5.432892E-2	-1.763306E-1	-7.789917E-1	-1.728516E-1
2.097850E+10	-8.343201E-1	-4.388428E-2	1.556091E-1	-2.422638E-1	5.053711E-2	-1.769257E-1	-7.777710E-1	-1.612549E-1
2.120300E+10	-8.335571E-1	-3.854370E-2	1.496658E-1	-2.412186E-1	4.735565E-2	-1.769638E-1	-7.837830E-1	-1.545410E-1
2.142750E+10	-8.357544E-1	-3.213501E-2	1.450729E-1	-2.440643E-1	4.511261E-2	-1.768341E-1	-7.887573E-1	-1.382141E-1
2.165200E+10	-8.378296E-1	-2.615356E-2	1.395569E-1	-2.450027E-1	4.358673E-2	-1.763611E-1	-7.904053E-1	-1.258545E-1
2.187650E+10	-8.362732E-1	-2.377319E-2	1.337662E-1	-2.453842E-1	4.112244E-2	-1.771927E-1	-7.964478E-1	-1.150513E-1
2.210100E+10	-8.392944E-1	-1.461792E-2	1.281433E-1	-2.466125E-1	3.652191E-2	-1.769257E-1	-7.979126E-1	-9.930420E-2
2.232550E+10	-8.380127E-1	-1.043701E-2	1.218033E-1	-2.440414E-1	3.382111E-2	-1.763687E-1	-7.971497E-1	-8.718872E-2
2.255000E+10	-8.412476E-1	-3.845215E-3	1.169586E-1	-2.451401E-1	3.278351E-2	-1.770325E-1	-8.003845E-1	-8.044434E-2
2.277450E+10	-8.407288E-1	1.861572E-3	1.117630E-1	-2.451935E-1	3.015900E-2	-1.766815E-1	-8.016968E-1	-6.469727E-2
2.299900E+10	-8.414612E-1	5.401611E-3	1.065140E-1	-2.456665E-1	2.852631E-2	-1.756058E-1	-7.992249E-1	-5.364990E-2
2.322350E+10	-8.416748E-1	9.552002E-3	1.018677E-1	-2.468491E-1	2.497864E-2	-1.765289E-1	-8.047180E-1	-4.284668E-2
2.344800E+10	-8.421326E-1	1.419067E-2	9.477997E-2	-2.455750E-1	2.306366E-2	-1.770935E-1	-8.052063E-1	-2.719116E-2
2.367250E+10	-8.419189E-1	2.221680E-2	9.037781E-2	-2.468719E-1	2.044678E-2	-1.781235E-1	-8.024292E-1	-1.501465E-2
2.389700E+10	-8.410339E-1	2.520752E-2	8.404541E-2	-2.454071E-1	1.787567E-2	-1.766739E-1	-8.041992E-1	-4.791260E-3
2.412150E+10	-8.423157E-1	3.109741E-2	7.987213E-2	-2.444916E-1	1.478577E-2	-1.766281E-1	-8.030090E-1	1.135254E-2
2.434600E+10	-8.428955E-1	3.784180E-2	7.482910E-2	-2.455902E-1	1.219940E-2	-1.748123E-1	-8.003845E-1	2.148437E-2
2.457050E+10	-8.421631E-1	4.110718E-2	6.975555E-2	-2.445145E-1	8.171082E-3	-1.758347E-1	-8.007507E-1	2.935791E-2
2.479500E+10	-8.425293E-1	4.708862E-2	6.394196E-2	-2.448196E-1	5.699158E-3	-1.764832E-1	-7.985229E-1	4.611206E-2
2.501950E+10	-8.418274E-1	5.130005E-2	5.903625E-2	-2.409668E-1	2.243042E-3	-1.743851E-1	-7.935486E-1	5.520630E-2
2.524400E+10	-8.428650E-1	5.480957E-2	5.500793E-2	-2.410202E-1	2.006531E-3	-1.718826E-1	-7.971802E-1	6.579590E-2
2.546850E+10	-8.416443E-1	6.185913E-2	5.091858E-2	-2.368088E-1	-7.629395E-4	-1.710434E-1	-7.928162E-1	7.870483E-2
2.569300E+10	-8.414917E-1	6.607056E-2	4.711914E-2	-2.367630E-1	-3.181458E-3	-1.696167E-1	-7.903442E-1	8.694458E-2
2.591750E+10	-8.430481E-1	7.211304E-2	4.108429E-2	-2.375259E-1	-4.348755E-3	-1.693573E-1	-7.902222E-1	9.997559E-2
2.614200E+10	-8.429871E-1	7.788086E-2	4.013062E-2	-2.332535E-1	-4.905701E-3	-1.705704E-1	-7.901611E-1	1.112366E-1
2.636650E+10	-8.392029E-1	8.120728E-2	3.358459E-2	-2.347183E-1	-1.173401E-2	-1.690292E-1	-7.880554E-1	1.248169E-1
2.659100E+10	-8.409119E-1	8.612061E-2	3.041840E-2	-2.349243E-1	-1.329041E-2	-1.691742E-1	-7.821045E-1	1.345520E-1
2.681550E+10	-8.414612E-1	8.807373E-2	2.582550E-2	-2.322845E-1	-1.441956E-2	-1.683731E-1	-7.820740E-1	1.430054E-1
2.704000E+10	-8.415222E-1	9.646606E-2	2.165222E-2	-2.311020E-1	-1.606750E-2	-1.673431E-1	-7.814331E-1	1.614075E-1
2.726450E+10	-8.395996E-1	1.038513E-1	1.550293E-2	-2.302246E-1	-1.662445E-2	-1.688004E-1	-7.687073E-1	1.683350E-1
2.748900E+10	-8.398437E-1	1.062927E-1	1.255798E-2	-2.310028E-1	-2.236176E-2	-1.662140E-1	-7.721863E-1	1.781311E-1
2.771350E+10	-8.388367E-1	1.109924E-1	8.880615E-3	-2.261429E-1	-2.388000E-2	-1.658478E-1	-7.624512E-1	1.903381E-1
2.793800E+10	-8.406982E-1	1.147766E-1	3.417969E-3	-2.261429E-1	-2.398682E-2	-1.661301E-1	-7.643738E-1	1.972351E-1
2.816250E+10	-8.391113E-1	1.215515E-1	-8.163452E-4	-2.256851E-1	-2.689362E-2	-1.636810E-1	-7.568665E-1	2.079773E-1
2.838700E+10	-8.367920E-1	1.261597E-1	-4.318237E-3	-2.230988E-1	-3.070831E-2	-1.633835E-1	-7.559204E-1	2.174072E-1
2.861150E+10	-8.370056E-1	1.313171E-1	-6.828308E-3	-2.197647E-1	-3.643036E-2	-1.652527E-1	-7.474670E-1	2.307129E-1
2.883600E+10	-8.363342E-1	1.349487E-1	-9.262085E-3	-2.232132E-1	-3.411102E-2	-1.617050E-1	-7.436829E-1	2.352905E-1
2.906050E+10	-8.354187E-1	1.401062E-1	-1.535797E-2	-2.203369E-1	-3.858185E-2	-1.592865E-1	-7.395935E-1	2.494202E-1
2.928500E+10	-8.367615E-1	1.445618E-1	-1.695251E-2	-2.163696E-1	-3.953552E-2	-1.564789E-1	-7.338867E-1	2.590332E-1
2.950950E+10	-8.334656E-1	1.524353E-1	-1.981354E-2	-2.157135E-1	-4.135132E-2	-1.544037E-1	-7.332458E-1	2.665405E-1
2.973400E+10	-8.334961E-1	1.549988E-1	-2.238464E-2	-2.125702E-1	-4.215240E-2	-1.549683E-1	-7.284851E-1	2.813721E-1
2.995850E+10	-8.305359E-1	1.608276E-1	-2.524567E-2	-2.145157E-1	-4.389191E-2	-1.540833E-1	-7.232666E-1	2.929993E-1
3.018300E+10	-8.295898E-1	1.634216E-1	-3.110504E-2	-2.098923E-1	-4.714203E-2	-1.554794E-1	-7.177734E-1	3.023376E-1
3.040750E+10	-8.290100E-1	1.687317E-1	-3.367615E-2	-2.081223E-1	-4.782867E-2	-1.542358E-1	-7.106323E-1	3.132324E-1
3.063200E+10	-8.251343E-1	1.735229E-1	-3.457642E-2	-2.086792E-1	-5.433655E-2	-1.544113E-1	-7.037354E-1	3.221741E-1
3.085650E+10	-8.276062E-1	1.787415E-1	-3.999329E-2	-2.048111E-1	-5.304718E-2	-1.535950E-1	-6.987000E-1	3.330994E-1
3.108100E+10	-8.282471E-1	1.789246E-1	-4.405212E-2	-2.024384E-1	-5.493164E-2	-1.521683E-1	-6.921387E-1	3.425903E-1
3.130550E+10	-8.257446E-1	1.841125E-1	-4.716492E-2	-2.027664E-1	-6.285095E-2	-1.568604E-1	-6.826782E-1	3.525696E-1
3.153000E+10	-8.229980E-1	1.884460E-1	-4.673767E-2	-2.001724E-1	-6.571198E-2	-1.490707E-1	-6.772156E-1	3.564758E-1
3.175450E+10	-8.232117E-1	1.951904E-1	-5.084991E-2	-1.951675E-1	-6.116486E-2	-1.496658E-1	-6.683655E-1	3.738708E-1
3.197900E+10	-8.192444E-1	2.010498E-1	-5.393982E-2	-1.949539E-1	-6.225586E-2	-1.511230E-1	-6.523743E-1	3.748474E-1
3.220350E+10	-8.208923E-1	2.071838E-1	-6.081390E-2	-1.950378E-1	-7.186127E-2	-1.477661E-1	-6.447144E-1	3.829346E-1
3.242800E+10	-8.278503E-1	2.125854E-1	-6.248474E-2	-1.926117E-1	-7.092285E-2	-1.490021E-1	-6.406555E-1	3.957214E-1
3.265250E+10	-8.200684E-1	2.131042E-1	-6.649780E-2	-1.892090E-1	-7.221985E-2	-1.411285E-1	-6.305237E-1	4.032288E-1
3.287700E+10	-8.171692E-1	2.211914E-1	-6.956482E-2	-1.884842E-1	-7.527924E-2	-1.456299E-1	-6.256104E-1	4.062500E-1
3.310150E+10	-8.175049E-1	2.248535E-1	-7.333374E-2	-1.824417E-1	-7.417297E-2	-1.396103E-1	-6.160583E-1	4.168396E-1
3.332600E+10	-8.104553E-1	2.337646E-1	-7.756805E-2	-1.829224E-1	-7.470703E-2	-1.372528E-1	-6.065674E-1	4.204712E-1
3.355050E+10	-8.097229E-1	2.327881E-1	-7.499695E-2	-1.801224E-1	-8.239746E-2	-1.333847E-1	-6.003418E-1	4.237671E-1
3.377500E+10	-8.102722E-1	2.373352E-1	-7.745361E-2	-1.763306E-1	-8.173370E-2	-1.364136E-1	-5.948181E-1	4.343567E-1
3.399950E+10	-8.062134E-1	2.404480E-1	-8.111572E-2	-1.766739E-1	-8.055115E-2	-1.331329E-1	-5.838318E-1	4.457703E-1
3.422400E+10	-8.049622E-1	2.470703E-1	-8.388519E-2	-1.778564E-1	-8.579254E-2	-1.325836E-1	-5.812988E-1	4.552917E-1
3.444850E+10	-8.022461E-1	2.504883E-1	-8.631897E-2	-1.756744E-1	-8.778381E-2	-1.340866E-1	-5.674744E-1	4.627380E-1
3.467300E+10	-8.020935E-1	2.574463E-1	-8.408356E-2	-1.762695E-1	-9.530640E-2	-1.336975E-1	-5.625000E-1	4.681702E-1
3.489750E+10	-8.020325E-1	2.615662E-1	-8.687592E-2	-1.698761E-1	-9.341431E-2	-1.278763E-1	-5.531006E-1	4.757690E-1
3.512200E+10	-7.972717E-1	2.635193E-1	-9.356689E-2	-1.660614E-1	-9.529114E-2	-1.243820E-1	-5.381470E-1	4.798584E-1
3.534650E+10	-7.994385E-1	2.669983E-1	-9.614563E-2	-1.649933E-1	-9.864807E-2	-1.261368E-1	-5.378723E-1	4.901123E-1
3.557100E+10	-7.912598E-1	2.732849E-1	-9.503937E-2	-1.625748E-1	-1.038284E-1	-1.272888E-1	-5.165100E-1	5.004272E-1
3.579550E+10	-7.919006E-1	2.739868E-1	-1.013107E-1	-1.632233E-1	-9.931946E-2	-1.295090E-1	-5.018616E-1	4.979248E-1
3.602000E+10	-7.889099E-1	2.770081E-1	-1.054459E-1	-1.614456E-1	-1.039810E-1	-1.178474E-1	-4.923706E-1	5.038147E-1
3.624450E+10	-7.879333E-1	2.826843E-1	-1.045380E-1	-1.557465E-1	-1.103973E-1	-1.177635E-1	-4.855957E-1	5.096130E-1
3.646900E+10	-7.824097E-1	2.921448E-1	-1.063843E-1	-1.546478E-1	-1.075096E-1	-1.146927E-1	-4.738770E-1	5.198669E-1
3.669350E+10	-7.820129E-1	2.924194E-1	-1.128845E-1	-1.517944E-1	-1.123657E-1	-1.177063E-1	-4.628601E-1	5.173645E-1
3.691800E+10	-7.775879E-1	2.957764E-1	-1.126709E-1	-1.455612E-1	-1.127243E-1	-1.128578E-1	-4.486389E-1	5.274353E-1
3.714250E+10	-7.772217E-1	2.989197E-1	-1.150589E-1	-1.441422E-1	-1.152306E-1	-1.074562E-1	-4.382019E-1	5.286255E-1
3.736700E+10	-7.733154E-1	3.026733E-1	-1.160049E-1	-1.426849E-1	-1.193352E-1	-1.035271E-1	-4.234009E-1	5.325317E-1
3.759150E+10	-7.686768E-1	3.087158E-1	-1.231918E-1	-1.362000E-1	-1.173096E-1	-1.035805E-1	-4.125061E-1	5.350342E-1
3.781600E+10	-7.669373E-1	3.144226E-1	-1.253967E-1	-1.401062E-1	-1.229134E-1	-1.024933E-1	-4.040527E-1	5.377502E-1
3.804050E+10	-7.644653E-1	3.146057E-1	-1.258621E-1	-1.301270E-1	-1.276093E-1	-9.786987E-2	-3.854065E-1	5.462036E-1
3.826500E+10	-7.615356E-1	3.218079E-1	-1.280289E-1	-1.325455E-1	-1.288757E-1	-9.706116E-2	-3.719177E-1	5.474548E-1
3.848950E+10	-7.568054E-1	3.201599E-1	-1.281586E-1	-1.272583E-1	-1.255341E-1	-9.732056E-2	-3.682251E-1	5.492859E-1
3.871400E+10	-7.592468E-1	3.223877E-1	-1.309662E-1	-1.274948E-1	-1.299286E-1	-8.666992E-2	-3.486023E-1	5.511475E-1
3.893850E+10	-7.546692E-1	3.311768E-1	-1.323471E-1	-1.210175E-1	-1.298218E-1	-8.666992E-2	-3.386536E-1	5.516968E-1
