!Date: 10/28/2005, 12:34 PM

!Vgs = -1.000000E+0
!Vds = 4.000000E+0
!Ig = -1.096600E-5
!Id = 7.615400E-1

# HZ S RI R 50
1.000000E+8	9.620361E-1	-2.182617E-1	-6.742920E+0	2.690430E-1	-1.254082E-4	1.232719E-2	-1.620560E-1	-1.191559E-1
3.245000E+8	7.348633E-1	-6.134338E-1	-5.658447E+0	2.179199E+0	1.224327E-2	2.983475E-2	-3.623505E-1	-1.442719E-1
5.490000E+8	4.280090E-1	-8.388672E-1	-4.445312E+0	3.105957E+0	2.753830E-2	3.911209E-2	-3.791962E-1	-1.399231E-1
7.735000E+8	1.412659E-1	-9.176636E-1	-3.377686E+0	3.413696E+0	4.204750E-2	4.136086E-2	-4.425201E-1	-1.655579E-1
9.980000E+8	-8.889771E-2	-9.114075E-1	-2.527100E+0	3.370972E+0	5.327988E-2	3.979301E-2	-4.834747E-1	-1.445618E-1
1.222500E+9	-2.676697E-1	-8.684692E-1	-1.876831E+0	3.202148E+0	6.140900E-2	3.668785E-2	-5.043030E-1	-1.385498E-1
1.447000E+9	-4.001465E-1	-8.113708E-1	-1.396118E+0	2.988403E+0	6.746292E-2	3.288651E-2	-5.307312E-1	-1.227112E-1
1.671500E+9	-4.993591E-1	-7.510681E-1	-1.043091E+0	2.767822E+0	7.172012E-2	2.910995E-2	-5.446777E-1	-1.106873E-1
1.896000E+9	-5.758057E-1	-6.921387E-1	-7.775879E-1	2.558960E+0	7.567978E-2	2.544785E-2	-5.582581E-1	-9.704590E-2
2.120500E+9	-6.325073E-1	-6.381226E-1	-5.770264E-1	2.378296E+0	7.809448E-2	2.216339E-2	-5.679321E-1	-8.630371E-2
2.345000E+9	-6.777039E-1	-5.865479E-1	-4.162598E-1	2.202881E+0	8.018494E-2	1.879883E-2	-5.777283E-1	-7.220459E-2
2.569500E+9	-7.107544E-1	-5.409851E-1	-2.888184E-1	2.042603E+0	8.141708E-2	1.541138E-2	-5.802307E-1	-6.207275E-2
2.794000E+9	-7.394409E-1	-5.029297E-1	-1.914062E-1	1.909485E+0	8.287430E-2	1.233673E-2	-5.869141E-1	-5.282593E-2
3.018500E+9	-7.612610E-1	-4.664001E-1	-1.116943E-1	1.780640E+0	8.354187E-2	1.036835E-2	-5.883789E-1	-4.183960E-2
3.243000E+9	-7.799072E-1	-4.326782E-1	-4.583740E-2	1.669861E+0	8.409119E-2	7.713318E-3	-5.903015E-1	-3.634644E-2
3.467500E+9	-7.960510E-1	-4.036255E-1	9.399414E-3	1.569092E+0	8.448792E-2	4.737854E-3	-5.949707E-1	-2.639771E-2
3.692000E+9	-8.086548E-1	-3.766479E-1	5.548096E-2	1.479736E+0	8.518600E-2	2.773285E-3	-5.934448E-1	-1.922607E-2
3.916500E+9	-8.197021E-1	-3.507385E-1	9.387207E-2	1.395630E+0	8.574677E-2	1.293182E-3	-5.982361E-1	-1.412964E-2
4.141000E+9	-8.298340E-1	-3.274231E-1	1.256714E-1	1.322205E+0	8.523560E-2	-8.544922E-4	-5.973511E-1	-4.821777E-3
4.365500E+9	-8.349915E-1	-3.062744E-1	1.544800E-1	1.252502E+0	8.517075E-2	-2.765656E-3	-5.985718E-1	-9.765625E-4
4.590000E+9	-8.425903E-1	-2.878723E-1	1.777954E-1	1.187378E+0	8.560181E-2	-4.276276E-3	-6.007385E-1	6.835937E-3
4.814500E+9	-8.489075E-1	-2.695312E-1	1.976929E-1	1.128418E+0	8.548355E-2	-6.412506E-3	-6.000671E-1	1.239014E-2
5.039000E+9	-8.538818E-1	-2.521667E-1	2.152100E-1	1.075623E+0	8.566666E-2	-7.869720E-3	-6.013794E-1	1.708984E-2
5.263500E+9	-8.586121E-1	-2.347412E-1	2.306519E-1	1.026001E+0	8.498764E-2	-9.426117E-3	-6.011658E-1	2.413940E-2
5.488000E+9	-8.612671E-1	-2.207642E-1	2.445068E-1	9.809570E-1	8.519363E-2	-1.112747E-2	-6.015015E-1	2.929687E-2
5.712500E+9	-8.645325E-1	-2.070312E-1	2.565918E-1	9.358215E-1	8.486557E-2	-1.259613E-2	-6.008606E-1	3.405762E-2
5.937000E+9	-8.669739E-1	-1.928101E-1	2.661133E-1	8.939209E-1	8.459854E-2	-1.390457E-2	-6.014404E-1	3.836060E-2
6.161500E+9	-8.701782E-1	-1.812134E-1	2.761536E-1	8.575439E-1	8.491516E-2	-1.548767E-2	-6.020813E-1	4.663086E-2
6.386000E+9	-8.728027E-1	-1.681213E-1	2.835388E-1	8.212585E-1	8.396530E-2	-1.728821E-2	-5.984497E-1	5.038452E-2
6.610500E+9	-8.742371E-1	-1.571655E-1	2.909851E-1	7.890930E-1	8.397293E-2	-1.858139E-2	-6.005859E-1	5.267334E-2
6.835000E+9	-8.767090E-1	-1.469421E-1	2.969360E-1	7.549744E-1	8.350754E-2	-2.009201E-2	-5.982666E-1	6.259155E-2
7.059500E+9	-8.777466E-1	-1.368408E-1	3.014832E-1	7.250977E-1	8.277893E-2	-2.155304E-2	-5.945129E-1	6.201172E-2
7.284000E+9	-8.789062E-1	-1.261292E-1	3.045959E-1	6.975098E-1	8.221436E-2	-2.271652E-2	-5.989990E-1	6.658936E-2
7.508500E+9	-8.801575E-1	-1.166687E-1	3.080750E-1	6.711121E-1	8.203888E-2	-2.344131E-2	-5.915833E-1	7.003784E-2
7.733000E+9	-8.805847E-1	-1.070557E-1	3.115540E-1	6.461792E-1	8.111572E-2	-2.429962E-2	-5.963745E-1	7.180786E-2
7.957500E+9	-8.817139E-1	-9.814453E-2	3.161316E-1	6.226807E-1	8.135605E-2	-2.597427E-2	-5.945129E-1	7.928467E-2
8.182000E+9	-8.824463E-1	-8.886719E-2	3.192139E-1	5.998840E-1	8.110046E-2	-2.763367E-2	-5.964661E-1	8.117676E-2
8.406500E+9	-8.822021E-1	-8.157349E-2	3.202209E-1	5.761414E-1	7.981491E-2	-2.894592E-2	-5.936890E-1	8.920288E-2
8.631000E+9	-8.836365E-1	-7.321167E-2	3.238525E-1	5.554199E-1	7.905579E-2	-3.009796E-2	-5.924072E-1	9.036255E-2
8.855500E+9	-8.838806E-1	-6.518555E-2	3.252563E-1	5.348206E-1	7.843018E-2	-3.108978E-2	-5.922852E-1	9.548950E-2
9.080001E+9	-8.847046E-1	-5.856323E-2	3.257751E-1	5.159607E-1	7.816696E-2	-3.186035E-2	-5.892944E-1	1.008606E-1
9.304500E+9	-8.843689E-1	-4.867554E-2	3.260193E-1	4.977417E-1	7.724380E-2	-3.353119E-2	-5.889282E-1	1.038208E-1
9.529000E+9	-8.845825E-1	-4.379272E-2	3.272705E-1	4.790955E-1	7.648849E-2	-3.487396E-2	-5.892944E-1	1.078491E-1
9.753500E+9	-8.850098E-1	-3.707886E-2	3.266754E-1	4.621124E-1	7.549667E-2	-3.575516E-2	-5.852966E-1	1.131897E-1
9.978000E+9	-8.835449E-1	-2.963257E-2	3.276978E-1	4.464264E-1	7.487869E-2	-3.692627E-2	-5.841370E-1	1.141968E-1
1.020250E+10	-8.848572E-1	-2.377319E-2	3.280792E-1	4.313354E-1	7.385254E-2	-3.711700E-2	-5.843506E-1	1.192627E-1
1.042700E+10	-8.848572E-1	-1.669312E-2	3.271637E-1	4.162445E-1	7.312012E-2	-3.774643E-2	-5.812988E-1	1.239319E-1
1.065150E+10	-8.840332E-1	-9.857178E-3	3.270874E-1	4.017944E-1	7.297897E-2	-3.914261E-2	-5.803528E-1	1.253052E-1
1.087600E+10	-8.847961E-1	-3.723145E-3	3.264008E-1	3.876495E-1	7.201767E-2	-4.008102E-2	-5.797424E-1	1.301575E-1
1.110050E+10	-8.847046E-1	3.082275E-3	3.261414E-1	3.743286E-1	7.083511E-2	-4.135513E-2	-5.776672E-1	1.336670E-1
1.132500E+10	-8.833923E-1	7.537842E-3	3.263092E-1	3.615570E-1	7.022095E-2	-4.222107E-2	-5.754395E-1	1.349487E-1
1.154950E+10	-8.837891E-1	1.458740E-2	3.249817E-1	3.490295E-1	6.966782E-2	-4.252625E-2	-5.763855E-1	1.398926E-1
1.177400E+10	-8.823242E-1	2.069092E-2	3.239899E-1	3.368683E-1	6.875229E-2	-4.354095E-2	-5.742187E-1	1.445312E-1
1.199850E+10	-8.820801E-1	2.627563E-2	3.229370E-1	3.241425E-1	6.736374E-2	-4.420471E-2	-5.722351E-1	1.462708E-1
1.222300E+10	-8.822937E-1	3.201294E-2	3.213501E-1	3.128967E-1	6.658936E-2	-4.470825E-2	-5.715942E-1	1.489258E-1
1.244750E+10	-8.811951E-1	3.601074E-2	3.206787E-1	3.017578E-1	6.629181E-2	-4.523849E-2	-5.700378E-1	1.536865E-1
1.267200E+10	-8.815308E-1	4.187012E-2	3.191376E-1	2.914429E-1	6.534958E-2	-4.563904E-2	-5.671387E-1	1.550598E-1
1.289650E+10	-8.794861E-1	4.672241E-2	3.168335E-1	2.815399E-1	6.441879E-2	-4.684448E-2	-5.681152E-1	1.575623E-1
1.312100E+10	-8.800659E-1	5.187988E-2	3.154907E-1	2.719421E-1	6.433487E-2	-4.738617E-2	-5.658569E-1	1.636658E-1
1.334550E+10	-8.792419E-1	5.654907E-2	3.146973E-1	2.617493E-1	6.274033E-2	-4.858398E-2	-5.631104E-1	1.652527E-1
1.357000E+10	-8.777161E-1	6.036377E-2	3.132172E-1	2.525482E-1	6.205559E-2	-4.913330E-2	-5.629578E-1	1.646423E-1
1.379450E+10	-8.783569E-1	6.741333E-2	3.114777E-1	2.438660E-1	6.049919E-2	-4.979324E-2	-5.629883E-1	1.701660E-1
1.401900E+10	-8.776550E-1	7.064819E-2	3.087921E-1	2.369843E-1	6.041718E-2	-5.034447E-2	-5.585022E-1	1.722412E-1
1.424350E+10	-8.759460E-1	7.662964E-2	3.067169E-1	2.278748E-1	5.908966E-2	-5.106163E-2	-5.590515E-1	1.750488E-1
1.446800E+10	-8.758240E-1	8.193970E-2	3.062439E-1	2.190704E-1	5.790138E-2	-5.019379E-2	-5.570374E-1	1.806946E-1
1.469250E+10	-8.736572E-1	8.627319E-2	3.034668E-1	2.121277E-1	5.681038E-2	-5.173492E-2	-5.514832E-1	1.833801E-1
1.491700E+10	-8.725891E-1	9.149170E-2	3.018799E-1	2.028961E-1	5.694389E-2	-5.161667E-2	-5.534363E-1	1.829224E-1
1.514150E+10	-8.715210E-1	9.573364E-2	3.003540E-1	1.963501E-1	5.496025E-2	-5.204964E-2	-5.527039E-1	1.896973E-1
1.536600E+10	-8.705444E-1	1.008606E-1	2.978821E-1	1.887665E-1	5.436325E-2	-5.258369E-2	-5.465698E-1	1.905518E-1
1.559050E+10	-8.695374E-1	1.050415E-1	2.957306E-1	1.827698E-1	5.372620E-2	-5.235100E-2	-5.474548E-1	1.902161E-1
1.581500E+10	-8.678894E-1	1.097717E-1	2.942657E-1	1.745605E-1	5.179977E-2	-5.461884E-2	-5.462952E-1	1.956177E-1
1.603950E+10	-8.689270E-1	1.139221E-1	2.936554E-1	1.690216E-1	5.179596E-2	-5.515671E-2	-5.437317E-1	1.985168E-1
1.626400E+10	-8.667603E-1	1.176147E-1	2.899933E-1	1.625366E-1	5.198479E-2	-5.503273E-2	-5.440063E-1	1.993408E-1
1.648850E+10	-8.659058E-1	1.218872E-1	2.883453E-1	1.561279E-1	4.978180E-2	-5.461693E-2	-5.428162E-1	2.040100E-1
1.671300E+10	-8.644104E-1	1.265869E-1	2.863922E-1	1.491699E-1	4.869270E-2	-5.634499E-2	-5.391846E-1	2.062378E-1
1.693750E+10	-8.645630E-1	1.305237E-1	2.846069E-1	1.442108E-1	4.776573E-2	-5.560684E-2	-5.384216E-1	2.059326E-1
1.716200E+10	-8.631592E-1	1.351624E-1	2.818146E-1	1.384125E-1	4.646492E-2	-5.690384E-2	-5.371399E-1	2.124329E-1
1.738650E+10	-8.611450E-1	1.387634E-1	2.804565E-1	1.339569E-1	4.521370E-2	-5.681419E-2	-5.341187E-1	2.146912E-1
1.761100E+10	-8.596802E-1	1.430664E-1	2.779388E-1	1.270142E-1	4.433632E-2	-5.635071E-2	-5.346680E-1	2.152100E-1
1.783550E+10	-8.587952E-1	1.480408E-1	2.747345E-1	1.238861E-1	4.329872E-2	-5.642128E-2	-5.356750E-1	2.200623E-1
1.806000E+10	-8.583374E-1	1.515808E-1	2.746124E-1	1.179352E-1	4.327965E-2	-5.632019E-2	-5.296631E-1	2.246704E-1
1.828450E+10	-8.576660E-1	1.557007E-1	2.707825E-1	1.139679E-1	4.182053E-2	-5.728531E-2	-5.285339E-1	2.240906E-1
1.850900E+10	-8.556824E-1	1.595459E-1	2.695007E-1	1.071472E-1	4.047585E-2	-5.718231E-2	-5.286255E-1	2.290955E-1
1.873350E+10	-8.541565E-1	1.635742E-1	2.670441E-1	1.029510E-1	3.911591E-2	-5.811882E-2	-5.240784E-1	2.347412E-1
1.895800E+10	-8.523254E-1	1.679687E-1	2.659149E-1	9.919739E-2	3.837776E-2	-5.851173E-2	-5.248718E-1	2.322083E-1
1.918250E+10	-8.520508E-1	1.702576E-1	2.640228E-1	9.500122E-2	3.700066E-2	-5.783463E-2	-5.229187E-1	2.349243E-1
1.940700E+10	-8.484497E-1	1.743164E-1	2.616577E-1	8.984375E-2	3.631592E-2	-5.880356E-2	-5.201721E-1	2.424927E-1
1.963150E+10	-8.480835E-1	1.781616E-1	2.587585E-1	8.535767E-2	3.592873E-2	-5.896568E-2	-5.173950E-1	2.399292E-1
1.985600E+10	-8.471069E-1	1.830750E-1	2.552185E-1	8.343506E-2	3.465843E-2	-5.908203E-2	-5.168457E-1	2.434082E-1
2.008050E+10	-8.446045E-1	1.851196E-1	2.534027E-1	7.818604E-2	3.291893E-2	-5.798340E-2	-5.153198E-1	2.496643E-1
2.030500E+10	-8.444214E-1	1.890564E-1	2.540436E-1	7.418823E-2	3.134346E-2	-5.888557E-2	-5.113525E-1	2.492676E-1
2.052950E+10	-8.425598E-1	1.927795E-1	2.502441E-1	7.237244E-2	3.134727E-2	-5.878067E-2	-5.139771E-1	2.516174E-1
2.075400E+10	-8.406982E-1	1.968384E-1	2.493744E-1	6.815338E-2	3.081703E-2	-5.976677E-2	-5.113220E-1	2.566223E-1
2.097850E+10	-8.384399E-1	1.990662E-1	2.475433E-1	6.507874E-2	2.908707E-2	-5.913544E-2	-5.054321E-1	2.579956E-1
2.120300E+10	-8.362427E-1	2.001038E-1	2.454758E-1	6.075287E-2	2.897835E-2	-5.837250E-2	-5.081787E-1	2.570190E-1
2.142750E+10	-8.364258E-1	2.057800E-1	2.449341E-1	5.937195E-2	2.774239E-2	-6.064415E-2	-5.062561E-1	2.646484E-1
2.165200E+10	-8.344421E-1	2.098083E-1	2.414246E-1	5.517578E-2	2.721214E-2	-5.743408E-2	-5.003052E-1	2.646790E-1
2.187650E+10	-8.334656E-1	2.130432E-1	2.384491E-1	5.207825E-2	2.515984E-2	-5.830765E-2	-5.018616E-1	2.699280E-1
2.210100E+10	-8.324280E-1	2.168884E-1	2.365952E-1	4.942322E-2	2.402687E-2	-5.785561E-2	-5.016174E-1	2.727661E-1
2.232550E+10	-8.298340E-1	2.195435E-1	2.332077E-1	4.680634E-2	2.118301E-2	-5.818939E-2	-4.955444E-1	2.777100E-1
2.255000E+10	-8.275146E-1	2.247925E-1	2.342606E-1	4.267120E-2	2.177048E-2	-5.823708E-2	-4.969940E-1	2.791138E-1
2.277450E+10	-8.263245E-1	2.263794E-1	2.349548E-1	4.194641E-2	2.013016E-2	-5.941010E-2	-4.932861E-1	2.824554E-1
2.299900E+10	-8.247986E-1	2.311401E-1	2.321320E-1	3.875732E-2	1.988792E-2	-5.924797E-2	-4.878235E-1	2.832489E-1
2.322350E+10	-8.228149E-1	2.320251E-1	2.309036E-1	3.523254E-2	1.914215E-2	-5.834198E-2	-4.898682E-1	2.868652E-1
2.344800E+10	-8.213806E-1	2.353516E-1	2.289200E-1	3.390503E-2	1.799393E-2	-5.698013E-2	-4.872131E-1	2.920074E-1
2.367250E+10	-8.190613E-1	2.400208E-1	2.279358E-1	3.127289E-2	1.664162E-2	-5.767822E-2	-4.826355E-1	2.940063E-1
2.389700E+10	-8.174133E-1	2.426453E-1	2.273560E-1	2.760315E-2	1.495171E-2	-5.875778E-2	-4.824677E-1	2.944031E-1
2.412150E+10	-8.163757E-1	2.452698E-1	2.209778E-1	2.565002E-2	1.301575E-2	-5.549240E-2	-4.794617E-1	3.007050E-1
2.434600E+10	-8.139954E-1	2.502136E-1	2.223282E-1	2.552795E-2	1.266289E-2	-5.697441E-2	-4.757690E-1	3.000793E-1
2.457050E+10	-8.110352E-1	2.525330E-1	2.191772E-1	2.241516E-2	1.188278E-2	-5.528641E-2	-4.748383E-1	3.024750E-1
2.479500E+10	-8.095398E-1	2.538452E-1	2.189407E-1	1.963806E-2	1.025772E-2	-5.569267E-2	-4.701996E-1	3.088837E-1
2.501950E+10	-8.060913E-1	2.572632E-1	2.191620E-1	1.747131E-2	1.046181E-2	-5.641747E-2	-4.634399E-1	3.093872E-1
2.524400E+10	-8.060913E-1	2.600403E-1	2.161026E-1	1.644897E-2	1.074791E-2	-5.306244E-2	-4.658813E-1	3.089905E-1
2.546850E+10	-8.047791E-1	2.640076E-1	2.154999E-1	1.476288E-2	5.641937E-3	-5.398941E-2	-4.602814E-1	3.133392E-1
2.569300E+10	-8.022156E-1	2.649231E-1	2.154236E-1	1.230621E-2	7.057190E-3	-5.201149E-2	-4.601135E-1	3.123322E-1
2.591750E+10	-8.017578E-1	2.716675E-1	2.116318E-1	9.506226E-3	6.977081E-3	-5.137062E-2	-4.575653E-1	3.151855E-1
2.614200E+10	-7.982788E-1	2.710571E-1	2.126236E-1	1.041412E-2	6.742477E-3	-5.067062E-2	-4.588013E-1	3.213501E-1
2.636650E+10	-7.947388E-1	2.734985E-1	2.115250E-1	7.423401E-3	4.806519E-3	-4.909134E-2	-4.553986E-1	3.241577E-1
2.659100E+10	-7.932739E-1	2.749329E-1	2.111588E-1	5.554199E-3	4.581451E-3	-5.057335E-2	-4.494171E-1	3.268433E-1
2.681550E+10	-7.902527E-1	2.774048E-1	2.106171E-1	3.173828E-3	2.922058E-3	-4.807854E-2	-4.497070E-1	3.285370E-1
2.704000E+10	-7.892761E-1	2.804565E-1	2.094040E-1	1.731873E-3	4.085541E-3	-4.863548E-2	-4.452209E-1	3.347931E-1
2.726450E+10	-7.838440E-1	2.845154E-1	2.078476E-1	-4.486084E-3	1.691818E-3	-4.766655E-2	-4.374084E-1	3.346558E-1
2.748900E+10	-7.839966E-1	2.852783E-1	2.100754E-1	-5.043030E-3	1.506805E-3	-4.629135E-2	-4.368286E-1	3.335724E-1
2.771350E+10	-7.830811E-1	2.871704E-1	2.069778E-1	-5.706787E-3	6.942749E-4	-4.705811E-2	-4.356995E-1	3.375244E-1
2.793800E+10	-7.821045E-1	2.890015E-1	2.062149E-1	-9.094238E-3	1.098633E-3	-4.379082E-2	-4.294281E-1	3.418274E-1
2.816250E+10	-7.817993E-1	2.915649E-1	2.077942E-1	-8.689880E-3	1.543045E-3	-4.279900E-2	-4.293976E-1	3.422852E-1
2.838700E+10	-7.781982E-1	2.920532E-1	2.033539E-1	-1.135254E-2	-7.114410E-4	-4.329681E-2	-4.250946E-1	3.460541E-1
2.861150E+10	-7.756653E-1	2.949829E-1	2.029953E-1	-1.320648E-2	-1.308441E-3	-4.177856E-2	-4.195557E-1	3.465424E-1
2.883600E+10	-7.753601E-1	2.981567E-1	2.025223E-1	-1.475525E-2	-2.750397E-3	-4.076767E-2	-4.207611E-1	3.474579E-1
2.906050E+10	-7.744751E-1	3.019714E-1	2.038193E-1	-1.632690E-2	-5.475998E-3	-3.963280E-2	-4.166260E-1	3.524323E-1
2.928500E+10	-7.706299E-1	3.004456E-1	2.028427E-1	-2.063751E-2	-2.182007E-3	-4.067039E-2	-4.122620E-1	3.556824E-1
2.950950E+10	-7.649231E-1	3.055115E-1	2.024994E-1	-1.974487E-2	-4.217148E-3	-3.877068E-2	-4.122925E-1	3.565369E-1
2.973400E+10	-7.642212E-1	3.053589E-1	2.038574E-1	-2.542877E-2	-6.725311E-3	-3.601456E-2	-4.091644E-1	3.595886E-1
2.995850E+10	-7.607422E-1	3.077393E-1	2.008209E-1	-2.564240E-2	-5.815506E-3	-3.477669E-2	-4.060364E-1	3.631897E-1
3.018300E+10	-7.603760E-1	3.083191E-1	2.036896E-1	-2.758026E-2	-3.499985E-3	-3.672218E-2	-4.078827E-1	3.747864E-1
3.040750E+10	-7.581787E-1	3.111267E-1	2.024155E-1	-2.883911E-2	-2.332687E-3	-3.461456E-2	-3.993530E-1	3.694916E-1
3.063200E+10	-7.558289E-1	3.133240E-1	2.014008E-1	-3.553772E-2	-1.518250E-3	-3.667068E-2	-4.010010E-1	3.725891E-1
3.085650E+10	-7.528687E-1	3.135071E-1	1.984024E-1	-3.585815E-2	-4.159927E-3	-3.117275E-2	-3.950043E-1	3.762512E-1
3.108100E+10	-7.560425E-1	3.170166E-1	2.018280E-1	-3.188324E-2	-5.399704E-3	-3.270340E-2	-3.850708E-1	3.806458E-1
3.130550E+10	-7.513123E-1	3.200073E-1	1.982422E-1	-4.394531E-2	-9.402275E-3	-3.093910E-2	-3.823700E-1	3.852386E-1
3.153000E+10	-7.500916E-1	3.199768E-1	2.000275E-1	-4.293060E-2	-5.018234E-3	-3.190041E-2	-3.792725E-1	3.800201E-1
3.175450E+10	-7.487183E-1	3.207397E-1	1.941986E-1	-4.270935E-2	-8.320808E-3	-2.832413E-2	-3.736115E-1	3.873901E-1
3.197900E+10	-7.510071E-1	3.228760E-1	1.986008E-1	-4.632568E-2	-1.053810E-2	-2.752781E-2	-3.652954E-1	3.853607E-1
3.220350E+10	-7.481689E-1	3.270569E-1	1.983566E-1	-4.703522E-2	-8.543015E-3	-2.796268E-2	-3.664398E-1	3.924408E-1
3.242800E+10	-7.467041E-1	3.262939E-1	1.964798E-1	-5.269623E-2	-8.409500E-3	-2.428055E-2	-3.600616E-1	3.929901E-1
3.265250E+10	-7.472839E-1	3.317261E-1	1.939850E-1	-5.895233E-2	-3.345490E-3	-2.215004E-2	-3.528748E-1	3.917084E-1
3.287700E+10	-7.429810E-1	3.316650E-1	1.968536E-1	-5.592346E-2	-5.533218E-3	-2.538490E-2	-3.535919E-1	3.914948E-1
3.310150E+10	-7.415771E-1	3.326721E-1	1.948090E-1	-5.896759E-2	-3.771782E-3	-2.254200E-2	-3.430786E-1	3.943024E-1
3.332600E+10	-7.399292E-1	3.362122E-1	1.922684E-1	-6.660461E-2	-4.766464E-3	-2.263451E-2	-3.427429E-1	3.981628E-1
3.355050E+10	-7.371521E-1	3.335876E-1	1.920166E-1	-6.622314E-2	-2.613068E-3	-2.510834E-2	-3.418427E-1	3.998718E-1
3.377500E+10	-7.375183E-1	3.409119E-1	1.915359E-1	-7.297516E-2	-5.392075E-3	-2.189922E-2	-3.312073E-1	3.989105E-1
3.399950E+10	-7.335815E-1	3.385315E-1	1.920013E-1	-6.955719E-2	-4.230499E-3	-1.903820E-2	-3.346100E-1	3.993378E-1
3.422400E+10	-7.339172E-1	3.440857E-1	1.879501E-1	-7.299042E-2	-2.581596E-3	-1.897335E-2	-3.314819E-1	4.089813E-1
3.444850E+10	-7.356567E-1	3.423767E-1	1.870193E-1	-8.042908E-2	-1.440048E-3	-1.872063E-2	-3.180847E-1	4.066162E-1
3.467300E+10	-7.281494E-1	3.420410E-1	1.896896E-1	-7.874298E-2	1.364708E-3	-1.793957E-2	-3.179169E-1	4.047394E-1
3.489750E+10	-7.283325E-1	3.424072E-1	1.878891E-1	-8.255005E-2	-3.624916E-3	-2.230740E-2	-3.154907E-1	4.163971E-1
3.512200E+10	-7.262573E-1	3.456116E-1	1.861496E-1	-8.631134E-2	-1.590729E-3	-1.713848E-2	-2.998810E-1	4.096527E-1
3.534650E+10	-7.284851E-1	3.454895E-1	1.820068E-1	-8.631134E-2	-8.459091E-4	-1.910210E-2	-3.073425E-1	4.131012E-1
3.557100E+10	-7.248840E-1	3.469849E-1	1.836853E-1	-9.703827E-2	-1.100063E-3	-1.412439E-2	-2.956543E-1	4.210052E-1
3.579550E+10	-7.246399E-1	3.493347E-1	1.799164E-1	-9.714508E-2	-3.557205E-3	-1.605606E-2	-2.872925E-1	4.147644E-1
3.602000E+10	-7.240906E-1	3.482056E-1	1.755753E-1	-1.027527E-1	6.170273E-4	-1.863384E-2	-2.876282E-1	4.119873E-1
3.624450E+10	-7.223206E-1	3.543701E-1	1.714478E-1	-1.021423E-1	3.528595E-5	-1.798725E-2	-2.840881E-1	4.109802E-1
3.646900E+10	-7.209473E-1	3.580322E-1	1.744003E-1	-1.029282E-1	4.163265E-3	-1.502037E-2	-2.758179E-1	4.145355E-1
3.669350E+10	-7.234497E-1	3.615417E-1	1.712265E-1	-1.064911E-1	3.484249E-3	-1.451206E-2	-2.672272E-1	4.180145E-1
3.691800E+10	-7.205200E-1	3.610229E-1	1.690903E-1	-1.094971E-1	-1.578331E-3	-1.758862E-2	-2.665710E-1	4.159546E-1
3.714250E+10	-7.204590E-1	3.592224E-1	1.622314E-1	-1.142807E-1	3.402710E-3	-1.133251E-2	-2.648468E-1	4.207764E-1
3.736700E+10	-7.139282E-1	3.598938E-1	1.618271E-1	-1.129227E-1	3.134251E-3	-1.486826E-2	-2.475739E-1	4.105835E-1
3.759150E+10	-7.145386E-1	3.639526E-1	1.611252E-1	-1.212006E-1	6.044388E-3	-1.240587E-2	-2.512512E-1	4.152374E-1
3.781600E+10	-7.143555E-1	3.669739E-1	1.534729E-1	-1.207352E-1	5.094528E-3	-1.440048E-2	-2.476501E-1	4.201050E-1
3.804050E+10	-7.194214E-1	3.682251E-1	1.549072E-1	-1.246643E-1	6.227493E-3	-9.259701E-3	-2.306061E-1	4.187775E-1
3.826500E+10	-7.150269E-1	3.709412E-1	1.580582E-1	-1.272049E-1	7.537365E-3	-1.130247E-2	-2.289734E-1	4.188843E-1
3.848950E+10	-7.068481E-1	3.714600E-1	1.487732E-1	-1.251831E-1	3.551960E-3	-1.147842E-2	-2.159119E-1	4.133759E-1
3.871400E+10	-7.140503E-1	3.668518E-1	1.415863E-1	-1.277008E-1	1.001930E-2	-1.578045E-2	-2.199402E-1	4.178467E-1
3.893850E+10	-7.113037E-1	3.768311E-1	1.459351E-1	-1.330872E-1	1.124001E-2	-1.023149E-2	-2.080078E-1	4.194183E-1
3.916300E+10	-7.161255E-1	3.750000E-1	1.438293E-1	-1.391220E-1	9.965897E-3	-8.458614E-3	-2.139740E-1	4.055023E-1
3.938750E+10	-7.130432E-1	3.765259E-1	1.383209E-1	-1.370773E-1	9.004116E-3	-1.112938E-2	-2.117310E-1	4.089661E-1
