!Date: 10/28/2005, 12:34 PM

!Vgs = 0.000000E+0
!Vds = 1.000000E+0
!Ig = -8.382300E-7
!Id = 3.713200E-1

# HZ S RI R 50
1.000000E+8	9.731445E-1	-1.566467E-1	-5.230522E-2	2.868652E-3	-2.886057E-4	3.092647E-3	-9.063110E-1	-1.006165E-1
3.245000E+8	8.619385E-1	-4.630432E-1	-4.330063E-2	1.862717E-2	1.940012E-3	7.378340E-3	-9.499817E-1	-2.600098E-2
5.490000E+8	6.769409E-1	-6.978455E-1	-3.416252E-2	2.890015E-2	5.582809E-3	1.174688E-2	-9.144897E-1	2.093506E-2
7.735000E+8	4.602356E-1	-8.505554E-1	-2.465439E-2	3.570938E-2	9.859085E-3	1.404953E-2	-9.192810E-1	2.578735E-2
9.980000E+8	2.488098E-1	-9.309692E-1	-1.542282E-2	3.885651E-2	1.351929E-2	1.534986E-2	-9.182434E-1	3.869629E-2
1.222500E+9	5.697632E-2	-9.593506E-1	-7.371902E-3	3.954697E-2	1.716900E-2	1.502514E-2	-9.093323E-1	4.205322E-2
1.447000E+9	-1.064453E-1	-9.528198E-1	-4.806519E-4	3.909111E-2	1.964951E-2	1.468372E-2	-9.091492E-1	5.038452E-2
1.671500E+9	-2.423706E-1	-9.264832E-1	5.174637E-3	3.744888E-2	2.221775E-2	1.362705E-2	-9.068909E-1	5.603027E-2
1.896000E+9	-3.549500E-1	-8.887634E-1	1.007271E-2	3.505898E-2	2.380466E-2	1.253986E-2	-9.064331E-1	6.387329E-2
2.120500E+9	-4.461060E-1	-8.465271E-1	1.372528E-2	3.310394E-2	2.561378E-2	1.122189E-2	-9.063110E-1	7.073975E-2
2.345000E+9	-5.233459E-1	-7.996826E-1	1.681614E-2	3.074741E-2	2.659512E-2	1.017380E-2	-9.051208E-1	7.870483E-2
2.569500E+9	-5.832520E-1	-7.545776E-1	1.945496E-2	2.827358E-2	2.772617E-2	8.918762E-3	-9.013977E-1	8.474731E-2
2.794000E+9	-6.343384E-1	-7.124634E-1	2.178097E-2	2.655506E-2	2.879715E-2	8.236885E-3	-9.014282E-1	9.197998E-2
3.018500E+9	-6.771851E-1	-6.709290E-1	2.299023E-2	2.439308E-2	2.891636E-2	6.702423E-3	-8.993530E-1	9.860229E-2
3.243000E+9	-7.128601E-1	-6.328735E-1	2.421093E-2	2.260971E-2	2.947712E-2	5.154610E-3	-8.972778E-1	1.054382E-1
3.467500E+9	-7.438354E-1	-5.967102E-1	2.545834E-2	2.054691E-2	2.999783E-2	4.817963E-3	-8.962402E-1	1.127319E-1
3.692000E+9	-7.687378E-1	-5.630493E-1	2.637768E-2	1.922607E-2	3.014183E-2	3.804207E-3	-8.925781E-1	1.194763E-1
3.916500E+9	-7.910461E-1	-5.313721E-1	2.686882E-2	1.701546E-2	3.022957E-2	2.895355E-3	-8.926697E-1	1.255493E-1
4.141000E+9	-8.106384E-1	-5.015869E-1	2.815533E-2	1.625538E-2	3.073978E-2	1.444817E-3	-8.895264E-1	1.326294E-1
4.365500E+9	-8.253784E-1	-4.733276E-1	2.820206E-2	1.429272E-2	3.081131E-2	9.450912E-4	-8.878174E-1	1.385498E-1
4.590000E+9	-8.396912E-1	-4.482422E-1	2.859497E-2	1.318073E-2	3.053570E-2	-1.983643E-4	-8.862000E-1	1.464539E-1
4.814500E+9	-8.520813E-1	-4.244385E-1	2.876949E-2	1.144695E-2	3.063488E-2	-4.167557E-4	-8.833008E-1	1.522522E-1
5.039000E+9	-8.635559E-1	-4.012146E-1	2.944660E-2	1.044750E-2	3.090191E-2	-1.232147E-3	-8.821106E-1	1.587219E-1
5.263500E+9	-8.727722E-1	-3.784180E-1	2.974796E-2	9.230614E-3	3.029823E-2	-2.049446E-3	-8.795471E-1	1.655579E-1
5.488000E+9	-8.799744E-1	-3.585815E-1	2.940655E-2	8.305550E-3	3.036308E-2	-2.723694E-3	-8.770447E-1	1.726990E-1
5.712500E+9	-8.880920E-1	-3.395386E-1	2.952576E-2	7.586479E-3	3.036594E-2	-2.964020E-3	-8.746948E-1	1.791382E-1
5.937000E+9	-8.942261E-1	-3.211060E-1	2.938938E-2	5.556107E-3	3.048801E-2	-3.855705E-3	-8.719788E-1	1.846008E-1
6.161500E+9	-9.002991E-1	-3.050842E-1	2.976513E-2	4.957199E-3	3.031254E-2	-4.593849E-3	-8.702393E-1	1.932373E-1
6.386000E+9	-9.060364E-1	-2.870178E-1	2.922821E-2	4.019737E-3	2.984333E-2	-5.637169E-3	-8.653564E-1	1.993713E-1
6.610500E+9	-9.099121E-1	-2.721558E-1	2.917480E-2	3.092766E-3	2.963257E-2	-6.121635E-3	-8.643799E-1	2.031860E-1
6.835000E+9	-9.150085E-1	-2.578125E-1	2.913475E-2	2.045631E-3	2.927303E-2	-6.823540E-3	-8.603210E-1	2.131042E-1
7.059500E+9	-9.176941E-1	-2.437134E-1	2.892113E-2	1.951218E-3	2.872181E-2	-6.941795E-3	-8.543701E-1	2.156982E-1
7.284000E+9	-9.215088E-1	-2.294312E-1	2.808666E-2	8.554459E-4	2.869987E-2	-7.688522E-3	-8.545532E-1	2.204285E-1
7.508500E+9	-9.254456E-1	-2.161255E-1	2.812386E-2	8.296967E-5	2.810955E-2	-8.112907E-3	-8.487854E-1	2.265625E-1
7.733000E+9	-9.265442E-1	-2.035522E-1	2.766418E-2	-7.143021E-4	2.844334E-2	-8.944511E-3	-8.469849E-1	2.300110E-1
7.957500E+9	-9.297485E-1	-1.909790E-1	2.764797E-2	-1.594543E-3	2.747536E-2	-8.930206E-3	-8.441772E-1	2.376404E-1
8.182000E+9	-9.312744E-1	-1.782227E-1	2.720356E-2	-1.472473E-3	2.712250E-2	-9.385109E-3	-8.431396E-1	2.434387E-1
8.406500E+9	-9.329529E-1	-1.691284E-1	2.686882E-2	-2.532959E-3	2.610111E-2	-1.006222E-2	-8.382568E-1	2.507324E-1
8.631000E+9	-9.353943E-1	-1.566162E-1	2.638626E-2	-2.717972E-3	2.632523E-2	-1.053524E-2	-8.351746E-1	2.548828E-1
8.855500E+9	-9.358826E-1	-1.461792E-1	2.665424E-2	-3.776550E-3	2.621078E-2	-1.066780E-2	-8.311768E-1	2.607117E-1
9.080001E+9	-9.377441E-1	-1.377869E-1	2.626991E-2	-3.920555E-3	2.535820E-2	-1.125336E-2	-8.265381E-1	2.678528E-1
9.304500E+9	-9.384155E-1	-1.246643E-1	2.525330E-2	-5.080223E-3	2.515507E-2	-1.146793E-2	-8.249817E-1	2.713013E-1
9.529000E+9	-9.401855E-1	-1.174316E-1	2.478027E-2	-5.031586E-3	2.473450E-2	-1.136017E-2	-8.216858E-1	2.769470E-1
9.753500E+9	-9.402466E-1	-1.081543E-1	2.463055E-2	-5.225182E-3	2.361107E-2	-1.176643E-2	-8.159180E-1	2.830811E-1
9.978000E+9	-9.409180E-1	-9.863281E-2	2.429676E-2	-6.066322E-3	2.357578E-2	-1.256466E-2	-8.127747E-1	2.864380E-1
1.020250E+10	-9.428406E-1	-9.017944E-2	2.334976E-2	-5.673409E-3	2.250099E-2	-1.239777E-2	-8.098755E-1	2.928772E-1
1.042700E+10	-9.436951E-1	-8.105469E-2	2.385235E-2	-5.489349E-3	2.234077E-2	-1.238918E-2	-8.045654E-1	2.980957E-1
1.065150E+10	-9.438171E-1	-7.238770E-2	2.323151E-2	-6.508827E-3	2.246284E-2	-1.254749E-2	-8.016052E-1	3.011780E-1
1.087600E+10	-9.449158E-1	-6.396484E-2	2.204323E-2	-6.841660E-3	2.187634E-2	-1.308250E-2	-7.985840E-1	3.069763E-1
1.110050E+10	-9.447937E-1	-5.572510E-2	2.161980E-2	-6.519318E-3	2.155304E-2	-1.210213E-2	-7.927246E-1	3.121948E-1
1.132500E+10	-9.444885E-1	-4.782104E-2	2.107334E-2	-6.973267E-3	2.050495E-2	-1.245785E-2	-7.890625E-1	3.146667E-1
1.154950E+10	-9.448547E-1	-3.866577E-2	2.132416E-2	-6.808281E-3	1.999283E-2	-1.252651E-2	-7.869873E-1	3.208618E-1
1.177400E+10	-9.445801E-1	-3.170776E-2	2.160645E-2	-6.933212E-3	1.967907E-2	-1.243401E-2	-7.820740E-1	3.264465E-1
1.199850E+10	-9.451599E-1	-2.398682E-2	2.043343E-2	-8.111954E-3	1.960373E-2	-1.295185E-2	-7.779846E-1	3.289490E-1
1.222300E+10	-9.445801E-1	-1.663208E-2	2.025032E-2	-6.962776E-3	1.927757E-2	-1.304913E-2	-7.745361E-1	3.332825E-1
1.244750E+10	-9.441833E-1	-9.979248E-3	1.945782E-2	-8.145332E-3	1.872063E-2	-1.283169E-2	-7.711487E-1	3.391724E-1
1.267200E+10	-9.443665E-1	-3.051758E-3	1.949501E-2	-7.534027E-3	1.798153E-2	-1.349258E-2	-7.661743E-1	3.416138E-1
1.289650E+10	-9.435425E-1	3.845215E-3	1.964569E-2	-7.934570E-3	1.783180E-2	-1.300430E-2	-7.642517E-1	3.442688E-1
1.312100E+10	-9.435425E-1	1.098633E-2	1.875687E-2	-7.445335E-3	1.729488E-2	-1.295853E-2	-7.593689E-1	3.517456E-1
1.334550E+10	-9.432983E-1	1.840210E-2	1.861382E-2	-7.889748E-3	1.754284E-2	-1.240921E-2	-7.540283E-1	3.542480E-1
1.357000E+10	-9.411011E-1	2.447510E-2	1.855373E-2	-7.899284E-3	1.661777E-2	-1.232433E-2	-7.514648E-1	3.539429E-1
1.379450E+10	-9.422302E-1	3.106689E-2	1.885223E-2	-8.210182E-3	1.681328E-2	-1.321602E-2	-7.482605E-1	3.616028E-1
1.401900E+10	-9.411011E-1	3.683472E-2	1.815987E-2	-8.234978E-3	1.703644E-2	-1.245975E-2	-7.430420E-1	3.651733E-1
1.424350E+10	-9.406433E-1	4.309082E-2	1.736355E-2	-8.693695E-3	1.564693E-2	-1.283455E-2	-7.405396E-1	3.668823E-1
1.446800E+10	-9.403687E-1	5.056763E-2	1.732826E-2	-8.634567E-3	1.564884E-2	-1.345634E-2	-7.364197E-1	3.760376E-1
1.469250E+10	-9.392395E-1	5.761719E-2	1.616192E-2	-7.687569E-3	1.528168E-2	-1.306820E-2	-7.294922E-1	3.786621E-1
1.491700E+10	-9.373779E-1	6.390381E-2	1.679897E-2	-8.893967E-3	1.516485E-2	-1.266289E-2	-7.283936E-1	3.797607E-1
1.514150E+10	-9.374390E-1	6.930542E-2	1.632214E-2	-7.421494E-3	1.470709E-2	-1.315594E-2	-7.245789E-1	3.854675E-1
1.536600E+10	-9.350281E-1	7.626343E-2	1.561785E-2	-8.076191E-3	1.455832E-2	-1.264715E-2	-7.182617E-1	3.893738E-1
1.559050E+10	-9.339905E-1	8.132935E-2	1.524687E-2	-7.437706E-3	1.429462E-2	-1.182604E-2	-7.151489E-1	3.894653E-1
1.581500E+10	-9.339600E-1	8.718872E-2	1.513863E-2	-7.237911E-3	1.324701E-2	-1.242018E-2	-7.130737E-1	3.940430E-1
1.603950E+10	-9.332275E-1	9.313965E-2	1.476002E-2	-7.627487E-3	1.363087E-2	-1.224947E-2	-7.068787E-1	3.986206E-1
1.626400E+10	-9.307861E-1	9.945679E-2	1.474094E-2	-7.542133E-3	1.275492E-2	-1.207304E-2	-7.053528E-1	4.010620E-1
1.648850E+10	-9.301758E-1	1.043701E-1	1.375008E-2	-8.017063E-3	1.307440E-2	-1.260138E-2	-7.012329E-1	4.053040E-1
1.671300E+10	-9.292297E-1	1.112671E-1	1.368093E-2	-8.386135E-3	1.282406E-2	-1.250553E-2	-6.960144E-1	4.082947E-1
1.693750E+10	-9.284363E-1	1.159058E-1	1.334572E-2	-7.853508E-3	1.252604E-2	-1.290941E-2	-6.921387E-1	4.090576E-1
1.716200E+10	-9.260559E-1	1.220398E-1	1.310873E-2	-8.907795E-3	1.235199E-2	-1.238441E-2	-6.898499E-1	4.153442E-1
1.738650E+10	-9.256592E-1	1.287537E-1	1.314640E-2	-8.523464E-3	1.134825E-2	-1.178169E-2	-6.832886E-1	4.185486E-1
1.761100E+10	-9.229736E-1	1.335144E-1	1.319504E-2	-7.617474E-3	1.098204E-2	-1.124382E-2	-6.824341E-1	4.196777E-1
1.783550E+10	-9.212036E-1	1.392212E-1	1.183081E-2	-8.778095E-3	1.218891E-2	-1.181746E-2	-6.799011E-1	4.243469E-1
1.806000E+10	-9.199219E-1	1.443787E-1	1.225424E-2	-7.825851E-3	1.086569E-2	-1.186800E-2	-6.733093E-1	4.292908E-1
1.828450E+10	-9.174194E-1	1.510925E-1	1.160479E-2	-7.724762E-3	1.131248E-2	-1.180983E-2	-6.699829E-1	4.295044E-1
1.850900E+10	-9.158020E-1	1.536865E-1	1.153851E-2	-8.600235E-3	1.142216E-2	-1.231718E-2	-6.693420E-1	4.336853E-1
1.873350E+10	-9.159851E-1	1.607971E-1	1.176834E-2	-7.744312E-3	1.048470E-2	-1.312780E-2	-6.614685E-1	4.400330E-1
1.895800E+10	-9.117737E-1	1.659241E-1	9.974957E-3	-8.142471E-3	9.709358E-3	-1.110077E-2	-6.585083E-1	4.391174E-1
1.918250E+10	-9.120483E-1	1.700134E-1	1.083708E-2	-8.778095E-3	8.708477E-3	-1.015234E-2	-6.561584E-1	4.414978E-1
1.940700E+10	-9.086609E-1	1.755676E-1	9.844303E-3	-7.947922E-3	8.287430E-3	-1.092196E-2	-6.502075E-1	4.489746E-1
1.963150E+10	-9.057312E-1	1.809692E-1	9.772301E-3	-7.734299E-3	7.420540E-3	-1.099110E-2	-6.453857E-1	4.505310E-1
1.985600E+10	-9.042969E-1	1.857910E-1	9.997368E-3	-7.239819E-3	6.526470E-3	-1.136875E-2	-6.424255E-1	4.521484E-1
2.008050E+10	-9.018860E-1	1.887512E-1	9.529114E-3	-9.283066E-3	8.159637E-3	-1.064110E-2	-6.379089E-1	4.574890E-1
2.030500E+10	-9.003601E-1	1.945496E-1	8.983135E-3	-6.363869E-3	8.249760E-3	-1.005983E-2	-6.330872E-1	4.578247E-1
2.052950E+10	-8.982849E-1	1.979980E-1	8.576870E-3	-6.991863E-3	6.978035E-3	-9.779930E-3	-6.330872E-1	4.612732E-1
2.075400E+10	-8.943787E-1	2.033997E-1	8.068085E-3	-6.195068E-3	7.664680E-3	-1.044559E-2	-6.275330E-1	4.654236E-1
2.097850E+10	-8.922119E-1	2.080994E-1	7.578850E-3	-6.592512E-3	5.198002E-3	-1.045609E-2	-6.192017E-1	4.685059E-1
2.120300E+10	-8.876038E-1	2.125549E-1	6.969690E-3	-6.716490E-3	3.662109E-3	-9.160995E-3	-6.182861E-1	4.690857E-1
2.142750E+10	-8.874207E-1	2.174072E-1	6.832123E-3	-5.165815E-3	4.979610E-3	-1.062727E-2	-6.192932E-1	4.750671E-1
2.165200E+10	-8.842468E-1	2.228699E-1	7.444859E-3	-5.706072E-3	4.242420E-3	-1.169872E-2	-6.099548E-1	4.747925E-1
2.187650E+10	-8.798523E-1	2.243958E-1	6.135464E-3	-7.237911E-3	3.416061E-3	-1.207113E-2	-6.083984E-1	4.779053E-1
2.210100E+10	-8.794556E-1	2.301331E-1	5.494833E-3	-6.141663E-3	5.597115E-3	-8.763313E-3	-6.063232E-1	4.847717E-1
2.232550E+10	-8.746643E-1	2.334290E-1	5.335331E-3	-6.304026E-3	3.365517E-3	-1.046419E-2	-5.977478E-1	4.870300E-1
2.255000E+10	-8.735962E-1	2.399292E-1	5.010366E-3	-7.085800E-3	2.780437E-3	-8.022308E-3	-5.952148E-1	4.898376E-1
2.277450E+10	-8.689270E-1	2.449036E-1	6.488323E-3	-6.437063E-3	3.125668E-3	-8.318901E-3	-5.906372E-1	4.913635E-1
2.299900E+10	-8.671570E-1	2.463989E-1	4.735470E-3	-3.951788E-3	1.375198E-3	-9.040833E-3	-5.843201E-1	4.927063E-1
2.322350E+10	-8.629150E-1	2.498474E-1	3.848076E-3	-6.304026E-3	1.408577E-3	-8.817196E-3	-5.809631E-1	4.959412E-1
2.344800E+10	-8.576050E-1	2.516174E-1	3.401279E-3	-4.404545E-3	1.094341E-3	-8.555889E-3	-5.792847E-1	4.995728E-1
2.367250E+10	-8.565979E-1	2.555542E-1	1.323819E-3	-3.538847E-3	-1.345158E-3	-7.795095E-3	-5.702820E-1	5.030518E-1
2.389700E+10	-8.527527E-1	2.597046E-1	7.584095E-4	-4.480600E-3	-1.276493E-3	-6.566286E-3	-5.689392E-1	5.029297E-1
2.412150E+10	-8.498535E-1	2.629700E-1	1.226902E-3	-4.295111E-3	-2.192974E-3	-5.659342E-3	-5.609741E-1	5.080261E-1
2.434600E+10	-8.452454E-1	2.670593E-1	1.339316E-4	-1.516759E-3	-1.682997E-3	-6.895304E-3	-5.556335E-1	5.085449E-1
2.457050E+10	-8.410950E-1	2.680664E-1	-5.776882E-4	-2.002478E-3	-5.146027E-3	-4.391432E-3	-5.554810E-1	5.112000E-1
2.479500E+10	-8.397217E-1	2.711792E-1	1.578450E-3	-1.018882E-3	-4.042387E-3	-3.675461E-3	-5.474854E-1	5.152283E-1
2.501950E+10	-8.329773E-1	2.732849E-1	-2.478719E-3	6.591082E-4	-5.087614E-3	-2.474546E-3	-5.400391E-1	5.154724E-1
2.524400E+10	-8.303833E-1	2.766418E-1	-2.049327E-3	1.958489E-3	-4.773378E-3	-2.150059E-3	-5.395508E-1	5.151367E-1
2.546850E+10	-8.284912E-1	2.802429E-1	-2.283573E-3	1.222253E-3	-3.924608E-3	9.412766E-4	-5.339355E-1	5.204468E-1
2.569300E+10	-8.245544E-1	2.781982E-1	-2.717495E-3	4.424572E-3	-4.536867E-3	3.333330E-3	-5.299377E-1	5.195007E-1
2.591750E+10	-8.218994E-1	2.824402E-1	-2.185106E-4	1.594782E-3	-5.075455E-3	1.727819E-3	-5.228882E-1	5.194702E-1
2.614200E+10	-8.185120E-1	2.832947E-1	-9.272099E-4	5.215168E-3	-3.810763E-3	2.104640E-3	-5.267944E-1	5.242004E-1
2.636650E+10	-8.143921E-1	2.817688E-1	-1.147747E-3	5.572319E-3	-5.390882E-3	3.147602E-3	-5.180664E-1	5.277710E-1
2.659100E+10	-8.101196E-1	2.847595E-1	-1.405716E-3	5.437613E-3	-6.750107E-3	5.016804E-3	-5.113220E-1	5.276489E-1
2.681550E+10	-8.051453E-1	2.835999E-1	-3.272533E-3	8.677006E-3	-5.542994E-3	6.311655E-3	-5.104675E-1	5.262756E-1
2.704000E+10	-8.059998E-1	2.872009E-1	-7.133484E-4	9.079456E-3	-4.766226E-3	6.293535E-3	-5.072327E-1	5.346069E-1
2.726450E+10	-8.027954E-1	2.882080E-1	-2.514839E-3	9.273529E-3	-3.057718E-3	5.515337E-3	-4.947815E-1	5.361023E-1
2.748900E+10	-7.974243E-1	2.870789E-1	-1.493454E-3	1.154757E-2	-3.549099E-3	7.897377E-3	-4.913940E-1	5.352173E-1
2.771350E+10	-7.952576E-1	2.867432E-1	-2.585411E-3	1.184797E-2	-5.338192E-3	9.793758E-3	-4.877319E-1	5.345764E-1
2.793800E+10	-7.938843E-1	2.879944E-1	4.549026E-4	1.186323E-2	-4.159927E-3	9.285450E-3	-4.818115E-1	5.357056E-1
2.816250E+10	-7.901917E-1	2.888794E-1	9.989738E-4	1.524115E-2	-1.563549E-3	1.251936E-2	-4.822998E-1	5.382996E-1
2.838700E+10	-7.912598E-1	2.892761E-1	-3.037453E-4	1.322460E-2	-2.119064E-3	1.427460E-2	-4.750061E-1	5.412598E-1
2.861150E+10	-7.894592E-1	2.895508E-1	6.361008E-4	1.576042E-2	-3.434658E-3	1.316166E-2	-4.689636E-1	5.364380E-1
2.883600E+10	-7.869568E-1	2.914124E-1	1.349449E-3	1.698589E-2	-3.889084E-3	1.318693E-2	-4.707947E-1	5.411987E-1
2.906050E+10	-7.852173E-1	2.904358E-1	1.778603E-3	1.800060E-2	-1.266479E-3	1.597118E-2	-4.643250E-1	5.438843E-1
2.928500E+10	-7.839966E-1	2.920837E-1	2.697945E-3	1.782990E-2	-3.791809E-3	1.601791E-2	-4.627991E-1	5.436707E-1
2.950950E+10	-7.826843E-1	2.929077E-1	3.649712E-3	1.963234E-2	-1.348495E-3	1.683998E-2	-4.595032E-1	5.448914E-1
2.973400E+10	-7.868042E-1	2.921448E-1	4.286766E-3	2.052212E-2	-5.664825E-4	1.939487E-2	-4.499512E-1	5.496216E-1
2.995850E+10	-7.826233E-1	2.924805E-1	7.136345E-3	1.911736E-2	2.471924E-3	2.033615E-2	-4.470520E-1	5.473328E-1
3.018300E+10	-7.804565E-1	2.916260E-1	6.510735E-3	1.848888E-2	3.492355E-3	1.927757E-2	-4.493103E-1	5.533142E-1
3.040750E+10	-7.804565E-1	2.920837E-1	8.287430E-3	2.199936E-2	4.681587E-3	2.252674E-2	-4.393311E-1	5.541687E-1
3.063200E+10	-7.792664E-1	2.954102E-1	7.787704E-3	1.957989E-2	2.309799E-3	2.073765E-2	-4.347534E-1	5.584717E-1
3.085650E+10	-7.821655E-1	2.979431E-1	8.632660E-3	1.974297E-2	7.301331E-3	2.343750E-2	-4.346619E-1	5.591736E-1
3.108100E+10	-7.796326E-1	2.967529E-1	8.353233E-3	2.168369E-2	3.772736E-3	2.044487E-2	-4.255066E-1	5.593262E-1
3.130550E+10	-7.769165E-1	2.954102E-1	1.268291E-2	2.472019E-2	8.240700E-3	2.025795E-2	-4.203186E-1	5.583191E-1
3.153000E+10	-7.822266E-1	2.982483E-1	8.135796E-3	2.469444E-2	1.024437E-2	2.208900E-2	-4.209900E-1	5.588379E-1
3.175450E+10	-7.814026E-1	2.975769E-1	1.190472E-2	2.631187E-2	1.026154E-2	2.871609E-2	-4.157410E-1	5.610657E-1
3.197900E+10	-7.815857E-1	2.991333E-1	1.217175E-2	2.461147E-2	9.561539E-3	2.731895E-2	-4.054260E-1	5.614014E-1
3.220350E+10	-7.819519E-1	3.007812E-1	1.398754E-2	2.619934E-2	1.431847E-2	2.324867E-2	-4.031372E-1	5.649414E-1
3.242800E+10	-7.828979E-1	3.032532E-1	1.050186E-2	2.293587E-2	1.329422E-2	2.813625E-2	-4.000854E-1	5.646362E-1
3.265250E+10	-7.828064E-1	3.081970E-1	1.459217E-2	2.554607E-2	1.361084E-2	2.962589E-2	-3.921204E-1	5.640564E-1
3.287700E+10	-7.835999E-1	3.099060E-1	1.616001E-2	2.799416E-2	1.410484E-2	2.680016E-2	-3.924255E-1	5.692749E-1
3.310150E+10	-7.847290E-1	3.077087E-1	1.712608E-2	2.469730E-2	1.180744E-2	2.491379E-2	-3.829041E-1	5.693970E-1
3.332600E+10	-7.838135E-1	3.096313E-1	1.670647E-2	2.190876E-2	1.875782E-2	2.251053E-2	-3.799744E-1	5.642090E-1
3.355050E+10	-7.825623E-1	3.163452E-1	1.921272E-2	2.833271E-2	1.509190E-2	2.638149E-2	-3.780823E-1	5.673828E-1
3.377500E+10	-7.827148E-1	3.181152E-1	1.881599E-2	2.709198E-2	2.147293E-2	2.800655E-2	-3.719177E-1	5.702209E-1
3.399950E+10	-7.818909E-1	3.195496E-1	1.861286E-2	2.546501E-2	2.066231E-2	2.484894E-2	-3.752747E-1	5.691528E-1
3.422400E+10	-7.825317E-1	3.200378E-1	2.630711E-2	2.594662E-2	2.135944E-2	2.103996E-2	-3.718872E-1	5.747070E-1
3.444850E+10	-7.793274E-1	3.229980E-1	2.663231E-2	2.447033E-2	2.148533E-2	2.160263E-2	-3.603210E-1	5.756226E-1
3.467300E+10	-7.810669E-1	3.281250E-1	2.300644E-2	2.348804E-2	2.054691E-2	2.285004E-2	-3.657837E-1	5.799255E-1
3.489750E+10	-7.834778E-1	3.245544E-1	2.562237E-2	2.357674E-2	2.372074E-2	2.393436E-2	-3.580322E-1	5.817871E-1
3.512200E+10	-7.815857E-1	3.273621E-1	2.130032E-2	2.335739E-2	2.484035E-2	2.009010E-2	-3.477783E-1	5.751953E-1
3.534650E+10	-7.821045E-1	3.283386E-1	2.570724E-2	2.209854E-2	2.855873E-2	2.508068E-2	-3.465271E-1	5.740967E-1
3.557100E+10	-7.784729E-1	3.342896E-1	2.454376E-2	2.016258E-2	2.302933E-2	2.226734E-2	-3.409119E-1	5.847473E-1
3.579550E+10	-7.848816E-1	3.356628E-1	2.745342E-2	1.881695E-2	2.588558E-2	2.552223E-2	-3.310242E-1	5.830994E-1
3.602000E+10	-7.838135E-1	3.389282E-1	2.719307E-2	1.971149E-2	2.706051E-2	1.570892E-2	-3.351440E-1	5.792847E-1
3.624450E+10	-7.829590E-1	3.451233E-1	2.537727E-2	2.114105E-2	2.649879E-2	2.025318E-2	-3.298035E-1	5.791321E-1
3.646900E+10	-7.801819E-1	3.479614E-1	3.314400E-2	1.877213E-2	3.030491E-2	2.181435E-2	-3.226624E-1	5.848694E-1
3.669350E+10	-7.784119E-1	3.495483E-1	3.115654E-2	2.022934E-2	3.095913E-2	2.061749E-2	-3.185425E-1	5.821228E-1
3.691800E+10	-7.826843E-1	3.503723E-1	3.004551E-2	1.592541E-2	2.853107E-2	1.996136E-2	-3.124390E-1	5.869446E-1
3.714250E+10	-7.826538E-1	3.556824E-1	3.400612E-2	2.158546E-2	2.810287E-2	2.023220E-2	-3.119812E-1	5.901794E-1
3.736700E+10	-7.785034E-1	3.541565E-1	2.832794E-2	2.069092E-2	2.724457E-2	2.095795E-2	-3.049927E-1	5.878296E-1
3.759150E+10	-7.780151E-1	3.670349E-1	3.176117E-2	1.807785E-2	3.664780E-2	1.695824E-2	-3.018188E-1	5.901489E-1
3.781600E+10	-7.748108E-1	3.692932E-1	3.255463E-2	2.299309E-2	2.851391E-2	2.242851E-2	-2.956543E-1	5.906067E-1
3.804050E+10	-7.806396E-1	3.680725E-1	3.155518E-2	1.623917E-2	3.115368E-2	1.784611E-2	-2.868652E-1	5.892029E-1
3.826500E+10	-7.828674E-1	3.677673E-1	3.532410E-2	1.615715E-2	3.467178E-2	1.672745E-2	-2.817078E-1	5.934143E-1
3.848950E+10	-7.747192E-1	3.736572E-1	3.678894E-2	1.617241E-2	3.354836E-2	1.581764E-2	-2.810059E-1	5.937195E-1
3.871400E+10	-7.734375E-1	3.715820E-1	3.557014E-2	1.546288E-2	2.996349E-2	1.761532E-2	-2.707520E-1	5.843201E-1
3.893850E+10	-7.777100E-1	3.793945E-1	2.923393E-2	2.032948E-2	3.249550E-2	1.888084E-2	-2.684021E-1	5.867004E-1
3.916300E+10	-7.764587E-1	3.823853E-1	3.019905E-2	1.619244E-2	3.516579E-2	1.783562E-2	-2.645569E-1	5.955505E-1
3.938750E+10	-7.717285E-1	3.864136E-1	3.158379E-2	1.920128E-2	2.942753E-2	1.309586E-2	-2.650452E-1	5.899048E-1
3.961200E+10	-7.693176E-1	3.877563E-1	3.245926E-2	1.321602E-2	3.505135E-2	1.651382E-2	-2.522583E-1	5.955811E-1
