!Date: 10/28/2005, 12:34 PM

!Vgs = -1.000000E+0
!Vds = 3.000000E+0
!Ig = -1.026100E-5
!Id = 7.298100E-1

# HZ S RI R 50
1.000000E+8	9.654846E-1	-1.990356E-1	-2.521851E+0	8.166504E-2	1.313686E-3	8.702755E-3	-5.943909E-1	-1.578064E-1
3.245000E+8	7.874146E-1	-5.665588E-1	-2.125732E+0	6.984863E-1	7.261276E-3	2.328873E-2	-7.199402E-1	-7.446289E-2
5.490000E+8	5.227966E-1	-8.027649E-1	-1.720703E+0	1.058777E+0	1.955414E-2	3.226471E-2	-6.843567E-1	-2.575684E-2
7.735000E+8	2.507324E-1	-9.129333E-1	-1.353882E+0	1.217651E+0	3.194427E-2	3.564453E-2	-7.079468E-1	-3.625488E-2
9.980000E+8	1.782227E-2	-9.374390E-1	-1.051025E+0	1.245300E+0	4.137611E-2	3.579712E-2	-7.199402E-1	-1.940918E-2
1.222500E+9	-1.716309E-1	-9.155579E-1	-8.005981E-1	1.208008E+0	4.875755E-2	3.398514E-2	-7.176514E-1	-1.828003E-2
1.447000E+9	-3.184509E-1	-8.708191E-1	-6.073608E-1	1.145874E+0	5.499649E-2	3.133392E-2	-7.271729E-1	-8.483887E-3
1.671500E+9	-4.316711E-1	-8.170166E-1	-4.627075E-1	1.077148E+0	5.974770E-2	2.834320E-2	-7.300110E-1	-1.922607E-3
1.896000E+9	-5.202637E-1	-7.615356E-1	-3.497925E-1	1.005005E+0	6.300735E-2	2.550125E-2	-7.355042E-1	6.469727E-3
2.120500E+9	-5.879822E-1	-7.081604E-1	-2.643127E-1	9.425659E-1	6.585693E-2	2.246857E-2	-7.387695E-1	1.336670E-2
2.345000E+9	-6.427612E-1	-6.555786E-1	-1.942139E-1	8.789062E-1	6.795120E-2	1.974487E-2	-7.426147E-1	2.374268E-2
2.569500E+9	-6.838684E-1	-6.083679E-1	-1.394348E-1	8.172913E-1	6.934357E-2	1.696396E-2	-7.403259E-1	3.060913E-2
2.794000E+9	-7.189331E-1	-5.678101E-1	-9.561157E-2	7.668152E-1	7.055283E-2	1.427841E-2	-7.432861E-1	3.771973E-2
3.018500E+9	-7.461853E-1	-5.281372E-1	-5.978394E-2	7.189026E-1	7.140732E-2	1.235962E-2	-7.426147E-1	4.684448E-2
3.243000E+9	-7.700500E-1	-4.926453E-1	-3.067017E-2	6.744690E-1	7.203293E-2	9.639740E-3	-7.417603E-1	5.084229E-2
3.467500E+9	-7.897644E-1	-4.608154E-1	-5.645752E-3	6.349182E-1	7.289505E-2	7.915497E-3	-7.432556E-1	6.060791E-2
3.692000E+9	-8.053894E-1	-4.306641E-1	1.531982E-2	6.000671E-1	7.322311E-2	5.977631E-3	-7.406616E-1	6.607056E-2
3.916500E+9	-8.197632E-1	-4.027405E-1	3.204346E-2	5.669556E-1	7.444763E-2	4.322052E-3	-7.437134E-1	7.113647E-2
4.141000E+9	-8.313599E-1	-3.770447E-1	4.721069E-2	5.387268E-1	7.447052E-2	2.315521E-3	-7.412109E-1	7.983398E-2
4.365500E+9	-8.399048E-1	-3.538818E-1	5.984497E-2	5.105286E-1	7.424927E-2	5.302429E-4	-7.399292E-1	8.389282E-2
4.590000E+9	-8.484192E-1	-3.328857E-1	7.066345E-2	4.847717E-1	7.464218E-2	-6.828308E-4	-7.409058E-1	9.249878E-2
4.814500E+9	-8.562927E-1	-3.130798E-1	7.951355E-2	4.605103E-1	7.457352E-2	-2.445221E-3	-7.390442E-1	9.832764E-2
5.039000E+9	-8.624268E-1	-2.936096E-1	8.802795E-2	4.396973E-1	7.484055E-2	-4.001617E-3	-7.386169E-1	1.031799E-1
5.263500E+9	-8.686218E-1	-2.749023E-1	9.538269E-2	4.197693E-1	7.503510E-2	-5.550385E-3	-7.372437E-1	1.105957E-1
5.488000E+9	-8.722839E-1	-2.584839E-1	1.017303E-1	4.023285E-1	7.462692E-2	-7.209778E-3	-7.357178E-1	1.164551E-1
5.712500E+9	-8.772278E-1	-2.435913E-1	1.068115E-1	3.840027E-1	7.416916E-2	-7.713318E-3	-7.337341E-1	1.221313E-1
5.937000E+9	-8.808289E-1	-2.274170E-1	1.112976E-1	3.668671E-1	7.440186E-2	-9.643555E-3	-7.320862E-1	1.272888E-1
6.161500E+9	-8.837280E-1	-2.145386E-1	1.163483E-1	3.511047E-1	7.414246E-2	-1.079178E-2	-7.322388E-1	1.364136E-1
6.386000E+9	-8.873291E-1	-1.997986E-1	1.195984E-1	3.372803E-1	7.354736E-2	-1.250839E-2	-7.266541E-1	1.412048E-1
6.610500E+9	-8.894653E-1	-1.874695E-1	1.231537E-1	3.236084E-1	7.358551E-2	-1.341248E-2	-7.274475E-1	1.443787E-1
6.835000E+9	-8.922424E-1	-1.766663E-1	1.261902E-1	3.106079E-1	7.297516E-2	-1.456451E-2	-7.236328E-1	1.543274E-1
7.059500E+9	-8.934937E-1	-1.649170E-1	1.279449E-1	2.990265E-1	7.292175E-2	-1.558685E-2	-7.177429E-1	1.550293E-1
7.284000E+9	-8.949585E-1	-1.537476E-1	1.295776E-1	2.863770E-1	7.237625E-2	-1.713181E-2	-7.209167E-1	1.606750E-1
7.508500E+9	-8.975830E-1	-1.425476E-1	1.310730E-1	2.759094E-1	7.199478E-2	-1.752853E-2	-7.125854E-1	1.642761E-1
7.733000E+9	-8.976135E-1	-1.319275E-1	1.326141E-1	2.663422E-1	7.178879E-2	-1.868820E-2	-7.167664E-1	1.667480E-1
7.957500E+9	-8.997803E-1	-1.216736E-1	1.351624E-1	2.565308E-1	7.176971E-2	-1.963043E-2	-7.123718E-1	1.756287E-1
8.182000E+9	-9.004211E-1	-1.116333E-1	1.372070E-1	2.469101E-1	7.082748E-2	-2.131271E-2	-7.142334E-1	1.795349E-1
8.406500E+9	-9.003906E-1	-1.039734E-1	1.372147E-1	2.375107E-1	7.023239E-2	-2.193832E-2	-7.083740E-1	1.877747E-1
8.631000E+9	-9.013672E-1	-9.411621E-2	1.384354E-1	2.290497E-1	7.034302E-2	-2.323151E-2	-7.061768E-1	1.907959E-1
8.855500E+9	-9.024963E-1	-8.590698E-2	1.393280E-1	2.207413E-1	6.901932E-2	-2.439880E-2	-7.041931E-1	1.971130E-1
9.080001E+9	-9.032288E-1	-7.861328E-2	1.398697E-1	2.142258E-1	6.836319E-2	-2.499008E-2	-6.998596E-1	2.027893E-1
9.304500E+9	-9.036560E-1	-6.768799E-2	1.401062E-1	2.056808E-1	6.767654E-2	-2.629852E-2	-6.977539E-1	2.067871E-1
9.529000E+9	-9.029236E-1	-6.222534E-2	1.403732E-1	1.992645E-1	6.733322E-2	-2.723312E-2	-6.965027E-1	2.120667E-1
9.753500E+9	-9.038391E-1	-5.374146E-2	1.396942E-1	1.919250E-1	6.648636E-2	-2.744675E-2	-6.910400E-1	2.181091E-1
9.978000E+9	-9.042664E-1	-4.650879E-2	1.405563E-1	1.856003E-1	6.617355E-2	-2.812195E-2	-6.891479E-1	2.204590E-1
1.020250E+10	-9.048157E-1	-3.985596E-2	1.401596E-1	1.784897E-1	6.489182E-2	-2.925873E-2	-6.868896E-1	2.263489E-1
1.042700E+10	-9.055176E-1	-3.131104E-2	1.407242E-1	1.738434E-1	6.477356E-2	-2.977753E-2	-6.829834E-1	2.304993E-1
1.065150E+10	-9.046326E-1	-2.517700E-2	1.403656E-1	1.674042E-1	6.457138E-2	-3.079224E-2	-6.801453E-1	2.345581E-1
1.087600E+10	-9.049683E-1	-1.782227E-2	1.400604E-1	1.621628E-1	6.277084E-2	-3.163910E-2	-6.782532E-1	2.396240E-1
1.110050E+10	-9.045715E-1	-1.058960E-2	1.403427E-1	1.563568E-1	6.274414E-2	-3.235245E-2	-6.730652E-1	2.439270E-1
1.132500E+10	-9.034729E-1	-3.448486E-3	1.403427E-1	1.514969E-1	6.181335E-2	-3.271675E-2	-6.695557E-1	2.470093E-1
1.154950E+10	-9.031677E-1	3.631592E-3	1.408691E-1	1.468506E-1	6.136513E-2	-3.294754E-2	-6.691895E-1	2.519836E-1
1.177400E+10	-9.028931E-1	8.209229E-3	1.397018E-1	1.423645E-1	6.075478E-2	-3.372383E-2	-6.639404E-1	2.578735E-1
1.199850E+10	-9.028931E-1	1.495361E-2	1.393204E-1	1.376877E-1	6.036186E-2	-3.417587E-2	-6.606750E-1	2.606506E-1
1.222300E+10	-9.021606E-1	2.154541E-2	1.393509E-1	1.329346E-1	5.916786E-2	-3.559303E-2	-6.577148E-1	2.634888E-1
1.244750E+10	-9.015808E-1	2.670288E-2	1.385727E-1	1.283951E-1	5.847168E-2	-3.586578E-2	-6.545715E-1	2.688599E-1
1.267200E+10	-9.012146E-1	3.268433E-2	1.378479E-1	1.238632E-1	5.807877E-2	-3.628349E-2	-6.502075E-1	2.719116E-1
1.289650E+10	-8.999939E-1	3.836060E-2	1.379395E-1	1.200714E-1	5.787086E-2	-3.651047E-2	-6.493225E-1	2.739563E-1
1.312100E+10	-9.006958E-1	4.403687E-2	1.367798E-1	1.158218E-1	5.631065E-2	-3.740501E-2	-6.457825E-1	2.802124E-1
1.334550E+10	-9.000244E-1	4.891968E-2	1.371078E-1	1.123734E-1	5.586243E-2	-3.784561E-2	-6.401978E-1	2.820435E-1
1.357000E+10	-8.986816E-1	5.407715E-2	1.359940E-1	1.093750E-1	5.517197E-2	-3.893280E-2	-6.385803E-1	2.832031E-1
1.379450E+10	-8.983765E-1	6.033325E-2	1.354752E-1	1.049576E-1	5.519104E-2	-3.896141E-2	-6.355286E-1	2.883301E-1
1.401900E+10	-8.981323E-1	6.555176E-2	1.353760E-1	1.027756E-1	5.420494E-2	-3.973579E-2	-6.315002E-1	2.928467E-1
1.424350E+10	-8.963623E-1	7.089233E-2	1.350937E-1	9.847260E-2	5.306435E-2	-3.864479E-2	-6.291199E-1	2.951050E-1
1.446800E+10	-8.959656E-1	7.672119E-2	1.338730E-1	9.526825E-2	5.214119E-2	-4.011917E-2	-6.268921E-1	3.019409E-1
1.469250E+10	-8.942871E-1	8.197021E-2	1.337814E-1	9.328461E-2	5.188370E-2	-4.078102E-2	-6.184387E-1	3.045654E-1
1.491700E+10	-8.924561E-1	8.688354E-2	1.321945E-1	9.030914E-2	5.147743E-2	-3.998566E-2	-6.180115E-1	3.035889E-1
1.514150E+10	-8.923035E-1	9.307861E-2	1.318741E-1	8.724213E-2	4.942131E-2	-4.117966E-2	-6.160889E-1	3.099365E-1
1.536600E+10	-8.910828E-1	9.710693E-2	1.311569E-1	8.404541E-2	4.897308E-2	-4.167175E-2	-6.080933E-1	3.135376E-1
1.559050E+10	-8.900146E-1	1.025391E-1	1.312180E-1	8.190918E-2	4.804420E-2	-4.092598E-2	-6.076660E-1	3.150330E-1
1.581500E+10	-8.894958E-1	1.063232E-1	1.299210E-1	7.955170E-2	4.750633E-2	-4.203415E-2	-6.046448E-1	3.168640E-1
1.603950E+10	-8.897095E-1	1.119385E-1	1.293945E-1	7.648468E-2	4.819298E-2	-4.292679E-2	-5.987854E-1	3.212585E-1
1.626400E+10	-8.872681E-1	1.170044E-1	1.288605E-1	7.441711E-2	4.603004E-2	-4.212189E-2	-5.958557E-1	3.228149E-1
1.648850E+10	-8.854675E-1	1.203308E-1	1.281509E-1	7.169342E-2	4.614639E-2	-4.324341E-2	-5.947876E-1	3.279724E-1
1.671300E+10	-8.847351E-1	1.259155E-1	1.276932E-1	6.983185E-2	4.481697E-2	-4.377556E-2	-5.897522E-1	3.300171E-1
1.693750E+10	-8.830566E-1	1.305847E-1	1.277618E-1	6.707764E-2	4.406929E-2	-4.425430E-2	-5.866699E-1	3.298645E-1
1.716200E+10	-8.829956E-1	1.356201E-1	1.260452E-1	6.529999E-2	4.346275E-2	-4.377747E-2	-5.852051E-1	3.342590E-1
1.738650E+10	-8.804016E-1	1.416016E-1	1.252747E-1	6.444550E-2	4.207230E-2	-4.357529E-2	-5.793762E-1	3.388062E-1
1.761100E+10	-8.789673E-1	1.457214E-1	1.251984E-1	6.185150E-2	4.146004E-2	-4.484558E-2	-5.772400E-1	3.381042E-1
1.783550E+10	-8.776855E-1	1.513367E-1	1.226501E-1	5.967331E-2	4.055023E-2	-4.478455E-2	-5.769043E-1	3.439941E-1
1.806000E+10	-8.767090E-1	1.535645E-1	1.237450E-1	5.770111E-2	4.026604E-2	-4.468346E-2	-5.694580E-1	3.489685E-1
1.828450E+10	-8.743896E-1	1.577148E-1	1.228790E-1	5.539322E-2	3.990364E-2	-4.496574E-2	-5.674133E-1	3.481445E-1
1.850900E+10	-8.736267E-1	1.628113E-1	1.226654E-1	5.421829E-2	3.976059E-2	-4.516792E-2	-5.652466E-1	3.528442E-1
1.873350E+10	-8.717957E-1	1.665039E-1	1.213951E-1	5.200958E-2	3.856659E-2	-4.468155E-2	-5.603333E-1	3.582764E-1
1.895800E+10	-8.687134E-1	1.705933E-1	1.224251E-1	4.998016E-2	3.763390E-2	-4.634094E-2	-5.559387E-1	3.567810E-1
1.918250E+10	-8.677368E-1	1.738892E-1	1.200333E-1	4.935074E-2	3.728485E-2	-4.547501E-2	-5.554199E-1	3.580627E-1
1.940700E+10	-8.651733E-1	1.776733E-1	1.201935E-1	4.638290E-2	3.477097E-2	-4.529190E-2	-5.481873E-1	3.649597E-1
1.963150E+10	-8.655090E-1	1.824036E-1	1.209373E-1	4.587936E-2	3.428078E-2	-4.545593E-2	-5.438843E-1	3.643799E-1
1.985600E+10	-8.632202E-1	1.869812E-1	1.191292E-1	4.445267E-2	3.354263E-2	-4.565430E-2	-5.456238E-1	3.666687E-1
2.008050E+10	-8.605347E-1	1.887512E-1	1.204529E-1	4.208374E-2	3.437805E-2	-4.643631E-2	-5.389404E-1	3.731995E-1
2.030500E+10	-8.583679E-1	1.945496E-1	1.178436E-1	4.146576E-2	3.363037E-2	-4.605484E-2	-5.330811E-1	3.725281E-1
2.052950E+10	-8.563538E-1	1.965332E-1	1.179543E-1	3.958130E-2	3.063965E-2	-4.523468E-2	-5.325012E-1	3.720703E-1
2.075400E+10	-8.554993E-1	2.017822E-1	1.187057E-1	3.919601E-2	3.134727E-2	-4.584312E-2	-5.288391E-1	3.802185E-1
2.097850E+10	-8.551331E-1	2.056274E-1	1.166267E-1	3.816605E-2	3.100586E-2	-4.566574E-2	-5.234680E-1	3.808289E-1
2.120300E+10	-8.518677E-1	2.077637E-1	1.180878E-1	3.654861E-2	2.919388E-2	-4.489517E-2	-5.248718E-1	3.801575E-1
2.142750E+10	-8.506165E-1	2.151489E-1	1.174622E-1	3.622055E-2	2.944946E-2	-4.543686E-2	-5.211792E-1	3.873596E-1
2.165200E+10	-8.490906E-1	2.167969E-1	1.169243E-1	3.403854E-2	2.814674E-2	-4.619217E-2	-5.150757E-1	3.870850E-1
2.187650E+10	-8.435364E-1	2.195740E-1	1.155472E-1	3.303909E-2	2.835655E-2	-4.569435E-2	-5.149536E-1	3.892212E-1
2.210100E+10	-8.440247E-1	2.251282E-1	1.169662E-1	2.965164E-2	2.661705E-2	-4.481697E-2	-5.111694E-1	3.938293E-1
2.232550E+10	-8.417358E-1	2.283325E-1	1.161232E-1	3.005600E-2	2.459145E-2	-4.654121E-2	-5.032349E-1	3.981323E-1
2.255000E+10	-8.382263E-1	2.311096E-1	1.179695E-1	2.952194E-2	2.424431E-2	-4.442596E-2	-5.013428E-1	3.968506E-1
2.277450E+10	-8.361816E-1	2.359924E-1	1.154709E-1	2.811432E-2	2.450562E-2	-4.680824E-2	-4.970551E-1	4.012909E-1
2.299900E+10	-8.338928E-1	2.373352E-1	1.146164E-1	2.620316E-2	2.297783E-2	-4.591370E-2	-4.902039E-1	4.038696E-1
2.322350E+10	-8.333130E-1	2.417297E-1	1.160049E-1	2.579498E-2	2.107048E-2	-4.555893E-2	-4.901733E-1	4.030762E-1
2.344800E+10	-8.300781E-1	2.442017E-1	1.154861E-1	2.512360E-2	1.897430E-2	-4.450035E-2	-4.882355E-1	4.093781E-1
2.367250E+10	-8.286133E-1	2.467346E-1	1.156731E-1	2.212906E-2	2.049446E-2	-4.439163E-2	-4.782257E-1	4.102020E-1
2.389700E+10	-8.250122E-1	2.511902E-1	1.137619E-1	2.315521E-2	2.042007E-2	-4.457283E-2	-4.786072E-1	4.086456E-1
2.412150E+10	-8.242493E-1	2.525635E-1	1.147118E-1	2.061081E-2	1.873970E-2	-4.560471E-2	-4.729614E-1	4.154358E-1
2.434600E+10	-8.208008E-1	2.562866E-1	1.151085E-1	1.869583E-2	1.779938E-2	-4.332924E-2	-4.675293E-1	4.185638E-1
2.457050E+10	-8.166199E-1	2.598572E-1	1.132431E-1	1.847076E-2	1.597595E-2	-4.382706E-2	-4.648132E-1	4.172668E-1
2.479500E+10	-8.143311E-1	2.627869E-1	1.160011E-1	1.567841E-2	1.670074E-2	-4.421234E-2	-4.586792E-1	4.223938E-1
2.501950E+10	-8.125916E-1	2.636414E-1	1.150322E-1	1.585007E-2	1.547623E-2	-4.156876E-2	-4.500580E-1	4.223480E-1
2.524400E+10	-8.106079E-1	2.679138E-1	1.142578E-1	1.668167E-2	1.274300E-2	-4.124451E-2	-4.491577E-1	4.220123E-1
2.546850E+10	-8.083496E-1	2.695007E-1	1.151352E-1	1.444626E-2	1.508713E-2	-4.075432E-2	-4.452515E-1	4.259033E-1
2.569300E+10	-8.048706E-1	2.711182E-1	1.159782E-1	1.356125E-2	1.440048E-2	-3.976250E-2	-4.405823E-1	4.222565E-1
2.591750E+10	-8.041992E-1	2.750854E-1	1.154480E-1	1.439285E-2	1.376915E-2	-3.874969E-2	-4.393921E-1	4.239197E-1
2.614200E+10	-8.027649E-1	2.760620E-1	1.173248E-1	1.022720E-2	1.240730E-2	-3.974342E-2	-4.387360E-1	4.301147E-1
2.636650E+10	-8.000183E-1	2.772522E-1	1.163940E-1	9.304047E-3	1.306725E-2	-3.751183E-2	-4.320984E-1	4.319611E-1
2.659100E+10	-7.963562E-1	2.803955E-1	1.151848E-1	8.773804E-3	1.108742E-2	-3.632736E-2	-4.243774E-1	4.323883E-1
2.681550E+10	-7.934570E-1	2.812500E-1	1.151047E-1	6.656647E-3	1.124763E-2	-3.754234E-2	-4.248199E-1	4.320221E-1
2.704000E+10	-7.930298E-1	2.829895E-1	1.150894E-1	2.601624E-3	1.074028E-2	-3.982925E-2	-4.204254E-1	4.384308E-1
2.726450E+10	-7.903137E-1	2.854309E-1	1.168098E-1	4.776001E-3	1.004410E-2	-3.569221E-2	-4.119568E-1	4.369965E-1
2.748900E+10	-7.865601E-1	2.900391E-1	1.187630E-1	1.094818E-3	1.080513E-2	-3.532410E-2	-4.121399E-1	4.354401E-1
2.771350E+10	-7.844849E-1	2.899780E-1	1.170006E-1	-2.059937E-4	1.212120E-2	-3.305054E-2	-4.008636E-1	4.408417E-1
2.793800E+10	-7.841492E-1	2.902527E-1	1.164932E-1	-1.899719E-3	7.947922E-3	-3.336143E-2	-4.000549E-1	4.409485E-1
2.816250E+10	-7.831421E-1	2.915039E-1	1.153145E-1	-4.432678E-3	7.877350E-3	-3.259468E-2	-3.951721E-1	4.399719E-1
2.838700E+10	-7.784424E-1	2.929077E-1	1.166382E-1	-3.578186E-3	7.734299E-3	-3.195000E-2	-3.909149E-1	4.412384E-1
2.861150E+10	-7.755127E-1	2.955933E-1	1.157570E-1	-5.279541E-3	9.036064E-3	-3.114223E-2	-3.817902E-1	4.454498E-1
2.883600E+10	-7.777405E-1	2.978821E-1	1.163330E-1	-4.734039E-3	8.411407E-3	-3.106499E-2	-3.813782E-1	4.431610E-1
2.906050E+10	-7.738953E-1	3.001404E-1	1.166496E-1	-8.468628E-3	8.703232E-3	-3.058815E-2	-3.787537E-1	4.433594E-1
2.928500E+10	-7.716980E-1	3.006287E-1	1.138229E-1	-7.820129E-3	9.900093E-3	-2.773190E-2	-3.727264E-1	4.439392E-1
2.950950E+10	-7.701721E-1	3.013000E-1	1.153030E-1	-1.094437E-2	1.005363E-2	-2.699852E-2	-3.772736E-1	4.495850E-1
2.973400E+10	-7.681885E-1	3.020020E-1	1.164513E-1	-1.300049E-2	8.561134E-3	-2.843666E-2	-3.674927E-1	4.499054E-1
2.995850E+10	-7.682190E-1	3.049622E-1	1.145935E-1	-1.502991E-2	9.128571E-3	-2.774143E-2	-3.670654E-1	4.498596E-1
3.018300E+10	-7.633972E-1	3.052979E-1	1.159859E-1	-1.798248E-2	9.830475E-3	-2.799416E-2	-3.622589E-1	4.547882E-1
3.040750E+10	-7.634583E-1	3.072205E-1	1.158524E-1	-1.881409E-2	1.078224E-2	-2.782917E-2	-3.551941E-1	4.534454E-1
3.063200E+10	-7.615662E-1	3.084717E-1	1.159592E-1	-1.892853E-2	1.051712E-2	-2.526283E-2	-3.537598E-1	4.574280E-1
3.085650E+10	-7.615662E-1	3.110657E-1	1.134453E-1	-2.163315E-2	7.222176E-3	-2.648449E-2	-3.482361E-1	4.583435E-1
3.108100E+10	-7.610168E-1	3.092346E-1	1.143646E-1	-2.086639E-2	7.797241E-3	-2.401161E-2	-3.407135E-1	4.576263E-1
3.130550E+10	-7.580872E-1	3.087158E-1	1.109962E-1	-2.870178E-2	9.414673E-3	-2.618790E-2	-3.333588E-1	4.604645E-1
3.153000E+10	-7.581787E-1	3.147583E-1	1.099472E-1	-2.419281E-2	8.364677E-3	-2.222252E-2	-3.333282E-1	4.541626E-1
3.175450E+10	-7.609863E-1	3.150024E-1	1.134682E-1	-2.753067E-2	9.202003E-3	-2.610016E-2	-3.306274E-1	4.610748E-1
3.197900E+10	-7.540588E-1	3.164062E-1	1.102486E-1	-3.089905E-2	4.981995E-3	-2.099133E-2	-3.167114E-1	4.548798E-1
3.220350E+10	-7.550964E-1	3.226929E-1	1.077194E-1	-3.713226E-2	1.238632E-2	-1.915550E-2	-3.210449E-1	4.634247E-1
3.242800E+10	-7.557678E-1	3.164673E-1	1.083260E-1	-3.321457E-2	1.148510E-2	-2.267456E-2	-3.100739E-1	4.587097E-1
3.265250E+10	-7.553406E-1	3.253174E-1	1.105995E-1	-3.637695E-2	6.986618E-3	-1.875210E-2	-3.028717E-1	4.560852E-1
3.287700E+10	-7.561951E-1	3.288269E-1	1.088257E-1	-3.720093E-2	1.110268E-2	-2.025509E-2	-3.038330E-1	4.624176E-1
3.310150E+10	-7.522888E-1	3.277283E-1	1.080971E-1	-3.733063E-2	1.213646E-2	-1.688862E-2	-2.931671E-1	4.554138E-1
3.332600E+10	-7.477112E-1	3.262329E-1	1.063652E-1	-3.681946E-2	1.527977E-2	-1.926804E-2	-2.975006E-1	4.525909E-1
3.355050E+10	-7.499084E-1	3.264771E-1	1.034355E-1	-4.471207E-2	1.272106E-2	-2.301979E-2	-2.942505E-1	4.600220E-1
3.377500E+10	-7.495422E-1	3.312378E-1	1.004372E-1	-4.462051E-2	1.242161E-2	-2.014065E-2	-2.840118E-1	4.539948E-1
3.399950E+10	-7.477112E-1	3.324585E-1	1.044540E-1	-4.472351E-2	1.490116E-2	-1.696301E-2	-2.871399E-1	4.551086E-1
3.422400E+10	-7.482910E-1	3.348694E-1	1.009140E-1	-4.450607E-2	1.312256E-2	-2.530956E-2	-2.851257E-1	4.664612E-1
3.444850E+10	-7.469788E-1	3.367615E-1	9.714890E-2	-4.664230E-2	1.266289E-2	-1.756191E-2	-2.706451E-1	4.571381E-1
3.467300E+10	-7.441406E-1	3.349304E-1	1.031456E-1	-4.964828E-2	1.035976E-2	-1.835060E-2	-2.733154E-1	4.587860E-1
3.489750E+10	-7.468872E-1	3.379517E-1	9.823990E-2	-5.017853E-2	1.292038E-2	-1.909256E-2	-2.685852E-1	4.620209E-1
3.512200E+10	-7.430420E-1	3.404846E-1	9.783554E-2	-4.952240E-2	1.321030E-2	-1.876450E-2	-2.620697E-1	4.541626E-1
3.534650E+10	-7.442017E-1	3.427734E-1	9.514999E-2	-5.151749E-2	1.447201E-2	-1.995659E-2	-2.636108E-1	4.583435E-1
3.557100E+10	-7.445068E-1	3.428345E-1	9.291077E-2	-5.473328E-2	1.702785E-2	-1.858997E-2	-2.538300E-1	4.610443E-1
3.579550E+10	-7.417297E-1	3.458862E-1	9.165955E-2	-5.509949E-2	1.460838E-2	-1.866341E-2	-2.446442E-1	4.581146E-1
3.602000E+10	-7.446289E-1	3.513794E-1	9.127808E-2	-5.614090E-2	1.593685E-2	-1.669693E-2	-2.440186E-1	4.552460E-1
3.624450E+10	-7.440796E-1	3.521118E-1	9.474564E-2	-5.975342E-2	1.402760E-2	-2.153683E-2	-2.393799E-1	4.501801E-1
3.646900E+10	-7.407837E-1	3.545532E-1	8.918762E-2	-5.899811E-2	1.858807E-2	-1.821232E-2	-2.369843E-1	4.538422E-1
3.669350E+10	-7.391968E-1	3.582153E-1	8.578110E-2	-5.965424E-2	1.247692E-2	-2.004528E-2	-2.308807E-1	4.527283E-1
3.691800E+10	-7.405701E-1	3.585205E-1	8.411789E-2	-5.942535E-2	1.599121E-2	-1.652622E-2	-2.277222E-1	4.515533E-1
3.714250E+10	-7.373962E-1	3.561401E-1	8.411407E-2	-6.348038E-2	1.665401E-2	-1.729679E-2	-2.278137E-1	4.591827E-1
3.736700E+10	-7.359314E-1	3.616028E-1	8.215332E-2	-6.020355E-2	1.669025E-2	-2.277184E-2	-2.221832E-1	4.532013E-1
3.759150E+10	-7.351990E-1	3.641663E-1	8.593750E-2	-6.491852E-2	1.726627E-2	-1.568031E-2	-2.180939E-1	4.509277E-1
3.781600E+10	-7.302246E-1	3.712158E-1	8.354950E-2	-5.841827E-2	1.228237E-2	-2.558899E-2	-2.103729E-1	4.591522E-1
3.804050E+10	-7.310791E-1	3.622437E-1	7.982254E-2	-5.643845E-2	1.688671E-2	-1.707935E-2	-2.052155E-1	4.445343E-1
3.826500E+10	-7.342529E-1	3.687744E-1	8.167267E-2	-6.375122E-2	1.700306E-2	-1.855946E-2	-1.979980E-1	4.491272E-1
3.848950E+10	-7.279358E-1	3.732605E-1	7.876968E-2	-6.857300E-2	1.778126E-2	-1.928902E-2	-1.916351E-1	4.527893E-1
3.871400E+10	-7.312927E-1	3.723145E-1	7.277298E-2	-6.555939E-2	1.481056E-2	-2.533340E-2	-1.910706E-1	4.477997E-1
3.893850E+10	-7.335510E-1	3.782654E-1	7.007599E-2	-6.209564E-2	1.830101E-2	-1.788807E-2	-1.872101E-1	4.474487E-1
3.916300E+10	-7.364807E-1	3.825684E-1	7.251358E-2	-6.808090E-2	2.057743E-2	-2.166271E-2	-1.866913E-1	4.447174E-1
3.938750E+10	-7.286072E-1	3.866272E-1	7.041931E-2	-6.795883E-2	1.715755E-2	-1.876259E-2	-1.846161E-1	4.437103E-1
