!Date: 10/28/2005, 12:34 PM

!Vgs = -1.000000E+0
!Vds = 5.000000E+0
!Ig = -1.163400E-5
!Id = 7.674900E-1

# HZ S RI R 50
1.000000E+8	9.588318E-1	-2.211914E-1	-9.163086E+0	3.583984E-1	1.569748E-3	1.127386E-2	6.827545E-2	-9.568787E-2
3.245000E+8	7.244263E-1	-6.150513E-1	-7.794922E+0	3.104736E+0	1.278782E-2	3.020668E-2	-1.591873E-1	-1.882553E-1
5.490000E+8	4.142761E-1	-8.374939E-1	-6.104248E+0	4.338379E+0	2.942467E-2	3.973007E-2	-2.053528E-1	-2.090225E-1
7.735000E+8	1.298218E-1	-9.118958E-1	-4.608398E+0	4.715576E+0	4.401970E-2	4.183388E-2	-2.918396E-1	-2.421112E-1
9.980000E+8	-9.692383E-2	-9.017639E-1	-3.430664E+0	4.639648E+0	5.497742E-2	4.017258E-2	-3.516083E-1	-2.193604E-1
1.222500E+9	-2.722473E-1	-8.569336E-1	-2.542969E+0	4.401855E+0	6.307983E-2	3.635788E-2	-3.850708E-1	-2.102051E-1
1.447000E+9	-4.024353E-1	-7.999878E-1	-1.886963E+0	4.099365E+0	6.903076E-2	3.257751E-2	-4.213562E-1	-1.912537E-1
1.671500E+9	-4.995117E-1	-7.401428E-1	-1.406372E+0	3.795410E+0	7.348633E-2	2.917862E-2	-4.423828E-1	-1.764832E-1
1.896000E+9	-5.744019E-1	-6.819763E-1	-1.048218E+0	3.505371E+0	7.726669E-2	2.548599E-2	-4.618225E-1	-1.586914E-1
2.120500E+9	-6.301880E-1	-6.286316E-1	-7.730713E-1	3.249023E+0	8.028412E-2	2.157974E-2	-4.750214E-1	-1.461487E-1
2.345000E+9	-6.741638E-1	-5.766907E-1	-5.552979E-1	3.010864E+0	8.194351E-2	1.793671E-2	-4.879303E-1	-1.301727E-1
2.569500E+9	-7.061462E-1	-5.319824E-1	-3.841553E-1	2.791504E+0	8.321762E-2	1.504135E-2	-4.931793E-1	-1.171417E-1
2.794000E+9	-7.342529E-1	-4.944153E-1	-2.512207E-1	2.604492E+0	8.442688E-2	1.231384E-2	-5.018616E-1	-1.079407E-1
3.018500E+9	-7.553101E-1	-4.591675E-1	-1.444092E-1	2.431396E+0	8.501053E-2	9.666443E-3	-5.054016E-1	-9.475708E-2
3.243000E+9	-7.734375E-1	-4.258728E-1	-5.456543E-2	2.278931E+0	8.565903E-2	6.622314E-3	-5.086365E-1	-8.847046E-2
3.467500E+9	-7.893066E-1	-3.970642E-1	2.124023E-2	2.144531E+0	8.581924E-2	4.676819E-3	-5.146179E-1	-7.806396E-2
3.692000E+9	-8.020935E-1	-3.707581E-1	8.471680E-2	2.018677E+0	8.641815E-2	2.586365E-3	-5.145874E-1	-7.104492E-2
3.916500E+9	-8.124390E-1	-3.451233E-1	1.354370E-1	1.903259E+0	8.679962E-2	-2.174377E-4	-5.217285E-1	-6.500244E-2
4.141000E+9	-8.217468E-1	-3.223877E-1	1.795044E-1	1.800232E+0	8.672714E-2	-1.861572E-3	-5.213928E-1	-5.618286E-2
4.365500E+9	-8.280945E-1	-3.020935E-1	2.178345E-1	1.706726E+0	8.652115E-2	-3.780365E-3	-5.232849E-1	-5.160522E-2
4.590000E+9	-8.348389E-1	-2.835083E-1	2.504272E-1	1.618591E+0	8.693314E-2	-5.821228E-3	-5.265198E-1	-4.421997E-2
4.814500E+9	-8.411560E-1	-2.657471E-1	2.767334E-1	1.537903E+0	8.708191E-2	-7.030487E-3	-5.269775E-1	-3.829956E-2
5.039000E+9	-8.460083E-1	-2.487488E-1	2.999878E-1	1.463501E+0	8.711243E-2	-8.876801E-3	-5.287781E-1	-3.405762E-2
5.263500E+9	-8.503418E-1	-2.319946E-1	3.201904E-1	1.395020E+0	8.712387E-2	-1.076508E-2	-5.301208E-1	-2.743530E-2
5.488000E+9	-8.529053E-1	-2.182007E-1	3.394165E-1	1.333252E+0	8.655930E-2	-1.230621E-2	-5.310364E-1	-2.267456E-2
5.712500E+9	-8.565369E-1	-2.045898E-1	3.557129E-1	1.271973E+0	8.617020E-2	-1.393509E-2	-5.315247E-1	-1.791382E-2
5.937000E+9	-8.594971E-1	-1.903076E-1	3.692017E-1	1.216003E+0	8.611298E-2	-1.545334E-2	-5.324402E-1	-1.312256E-2
6.161500E+9	-8.622131E-1	-1.796570E-1	3.811646E-1	1.165161E+0	8.618546E-2	-1.723480E-2	-5.337219E-1	-6.317139E-3
6.386000E+9	-8.646851E-1	-1.666565E-1	3.919678E-1	1.115662E+0	8.553314E-2	-1.874542E-2	-5.314331E-1	-2.990723E-3
6.610500E+9	-8.659363E-1	-1.557617E-1	4.017944E-1	1.069092E+0	8.458710E-2	-1.998901E-2	-5.340881E-1	-1.098633E-3
6.835000E+9	-8.687439E-1	-1.453552E-1	4.103394E-1	1.023376E+0	8.465195E-2	-2.186966E-2	-5.335388E-1	8.026123E-3
7.059500E+9	-8.696594E-1	-1.357422E-1	4.150696E-1	9.828186E-1	8.405685E-2	-2.295303E-2	-5.307312E-1	6.805420E-3
7.284000E+9	-8.712463E-1	-1.257629E-1	4.207153E-1	9.454041E-1	8.380508E-2	-2.377701E-2	-5.358582E-1	1.110840E-2
7.508500E+9	-8.729248E-1	-1.159058E-1	4.247437E-1	9.070740E-1	8.278656E-2	-2.502441E-2	-5.289917E-1	1.406860E-2
7.733000E+9	-8.725281E-1	-1.065369E-1	4.292908E-1	8.733521E-1	8.291245E-2	-2.637863E-2	-5.349731E-1	1.483154E-2
7.957500E+9	-8.731995E-1	-9.725952E-2	4.345398E-1	8.403931E-1	8.197784E-2	-2.779770E-2	-5.337524E-1	2.255249E-2
8.182000E+9	-8.736267E-1	-8.911133E-2	4.390564E-1	8.096924E-1	8.198547E-2	-2.933884E-2	-5.367737E-1	2.386475E-2
8.406500E+9	-8.748169E-1	-8.200073E-2	4.403687E-1	7.784729E-1	8.109665E-2	-3.026581E-2	-5.343933E-1	2.990723E-2
8.631000E+9	-8.752441E-1	-7.330322E-2	4.443665E-1	7.484131E-1	8.044052E-2	-3.196335E-2	-5.345764E-1	3.182983E-2
8.855500E+9	-8.748474E-1	-6.637573E-2	4.456177E-1	7.199402E-1	7.971191E-2	-3.355026E-2	-5.351868E-1	3.616333E-2
9.080001E+9	-8.759460E-1	-5.966187E-2	4.460754E-1	6.943665E-1	7.886124E-2	-3.444672E-2	-5.336914E-1	4.071045E-2
9.304500E+9	-8.755493E-1	-5.004883E-2	4.472046E-1	6.685181E-1	7.807541E-2	-3.570175E-2	-5.330505E-1	4.208374E-2
9.529000E+9	-8.758240E-1	-4.449463E-2	4.477844E-1	6.431885E-1	7.758713E-2	-3.551483E-2	-5.357971E-1	4.678345E-2
9.753500E+9	-8.762512E-1	-3.756714E-2	4.483032E-1	6.203918E-1	7.690811E-2	-3.694153E-2	-5.331421E-1	5.093384E-2
9.978000E+9	-8.761597E-1	-3.152466E-2	4.477539E-1	5.984497E-1	7.543945E-2	-3.829956E-2	-5.327148E-1	5.273437E-2
1.020250E+10	-8.767395E-1	-2.478027E-2	4.474792E-1	5.765381E-1	7.549286E-2	-3.951263E-2	-5.339050E-1	5.789185E-2
1.042700E+10	-8.770447E-1	-1.809692E-2	4.468079E-1	5.561218E-1	7.417297E-2	-4.018402E-2	-5.320129E-1	6.054687E-2
1.065150E+10	-8.762817E-1	-1.190186E-2	4.469299E-1	5.367737E-1	7.326508E-2	-4.101181E-2	-5.317383E-1	6.167603E-2
1.087600E+10	-8.770447E-1	-5.981445E-3	4.461670E-1	5.177002E-1	7.282639E-2	-4.210663E-2	-5.313110E-1	6.622314E-2
1.110050E+10	-8.762207E-1	1.098633E-3	4.451294E-1	4.984589E-1	7.194519E-2	-4.360962E-2	-5.312805E-1	6.982422E-2
1.132500E+10	-8.758545E-1	6.622314E-3	4.443512E-1	4.813995E-1	7.021332E-2	-4.359818E-2	-5.303040E-1	7.006836E-2
1.154950E+10	-8.757935E-1	1.278687E-2	4.430084E-1	4.626923E-1	6.932449E-2	-4.479980E-2	-5.321350E-1	7.498169E-2
1.177400E+10	-8.745117E-1	1.797485E-2	4.407806E-1	4.451904E-1	6.864548E-2	-4.534912E-2	-5.305786E-1	7.907104E-2
1.199850E+10	-8.747864E-1	2.279663E-2	4.400177E-1	4.310150E-1	6.819534E-2	-4.678345E-2	-5.301208E-1	8.084106E-2
1.222300E+10	-8.736877E-1	2.850342E-2	4.381866E-1	4.152069E-1	6.671906E-2	-4.676056E-2	-5.300293E-1	8.264160E-2
1.244750E+10	-8.734741E-1	3.323364E-2	4.351044E-1	3.986511E-1	6.605148E-2	-4.756165E-2	-5.303650E-1	8.679199E-2
1.267200E+10	-8.733215E-1	3.906250E-2	4.343262E-1	3.850098E-1	6.589127E-2	-4.841995E-2	-5.287781E-1	8.865356E-2
1.289650E+10	-8.722534E-1	4.370117E-2	4.303894E-1	3.705902E-1	6.496811E-2	-4.910660E-2	-5.307312E-1	9.091187E-2
1.312100E+10	-8.722839E-1	4.879761E-2	4.286041E-1	3.572235E-1	6.333923E-2	-4.946899E-2	-5.302734E-1	9.597778E-2
1.334550E+10	-8.724365E-1	5.371094E-2	4.259338E-1	3.446045E-1	6.299973E-2	-5.037689E-2	-5.276184E-1	9.689331E-2
1.357000E+10	-8.698730E-1	5.789185E-2	4.243317E-1	3.315430E-1	6.127548E-2	-5.110550E-2	-5.297546E-1	9.765625E-2
1.379450E+10	-8.703308E-1	6.231689E-2	4.195709E-1	3.183289E-1	6.069565E-2	-5.156136E-2	-5.297546E-1	1.024170E-1
1.401900E+10	-8.695679E-1	6.698608E-2	4.192047E-1	3.079987E-1	5.994225E-2	-5.223846E-2	-5.269165E-1	1.038513E-1
1.424350E+10	-8.687744E-1	7.278442E-2	4.144440E-1	2.959595E-1	6.007385E-2	-5.336952E-2	-5.280762E-1	1.058350E-1
1.446800E+10	-8.673401E-1	7.723999E-2	4.132996E-1	2.845917E-1	5.825806E-2	-5.399323E-2	-5.267639E-1	1.129761E-1
1.469250E+10	-8.663635E-1	8.200073E-2	4.101868E-1	2.730865E-1	5.703926E-2	-5.416107E-2	-5.241089E-1	1.150513E-1
1.491700E+10	-8.646240E-1	8.621216E-2	4.072113E-1	2.633362E-1	5.550957E-2	-5.458832E-2	-5.260620E-1	1.139221E-1
1.514150E+10	-8.647766E-1	9.179687E-2	4.039612E-1	2.526855E-1	5.482864E-2	-5.434799E-2	-5.253601E-1	1.200867E-1
1.536600E+10	-8.641052E-1	9.613037E-2	4.014282E-1	2.424316E-1	5.445671E-2	-5.640602E-2	-5.218201E-1	1.228943E-1
1.559050E+10	-8.627319E-1	1.005554E-1	3.989716E-1	2.322845E-1	5.220985E-2	-5.506706E-2	-5.236816E-1	1.218872E-1
1.581500E+10	-8.624573E-1	1.035156E-1	3.948975E-1	2.234650E-1	5.186272E-2	-5.550766E-2	-5.238037E-1	1.271362E-1
1.603950E+10	-8.622742E-1	1.092224E-1	3.936615E-1	2.132263E-1	5.093575E-2	-5.674744E-2	-5.212708E-1	1.299133E-1
1.626400E+10	-8.603210E-1	1.134338E-1	3.884735E-1	2.062378E-1	5.002022E-2	-5.747986E-2	-5.224609E-1	1.290283E-1
1.648850E+10	-8.590393E-1	1.164246E-1	3.857117E-1	1.967316E-1	4.910851E-2	-5.849648E-2	-5.232239E-1	1.354675E-1
1.671300E+10	-8.583069E-1	1.217346E-1	3.827515E-1	1.881561E-1	4.765320E-2	-5.897141E-2	-5.204773E-1	1.373596E-1
1.693750E+10	-8.580627E-1	1.251526E-1	3.796844E-1	1.796722E-1	4.703712E-2	-5.879402E-2	-5.215149E-1	1.383362E-1
1.716200E+10	-8.557434E-1	1.286316E-1	3.759613E-1	1.735229E-1	4.556656E-2	-5.940819E-2	-5.210266E-1	1.441650E-1
1.738650E+10	-8.557739E-1	1.337585E-1	3.729706E-1	1.661835E-1	4.410172E-2	-5.980873E-2	-5.187073E-1	1.468506E-1
1.761100E+10	-8.548279E-1	1.376038E-1	3.703461E-1	1.582031E-1	4.415512E-2	-5.968094E-2	-5.198975E-1	1.462097E-1
1.783550E+10	-8.528137E-1	1.420593E-1	3.676910E-1	1.513519E-1	4.192734E-2	-6.045532E-2	-5.220642E-1	1.517334E-1
1.806000E+10	-8.544922E-1	1.463318E-1	3.640747E-1	1.434784E-1	4.173660E-2	-5.958176E-2	-5.171509E-1	1.543884E-1
1.828450E+10	-8.518677E-1	1.511536E-1	3.609009E-1	1.376648E-1	4.051018E-2	-6.034660E-2	-5.179138E-1	1.559143E-1
1.850900E+10	-8.496094E-1	1.531982E-1	3.579712E-1	1.307526E-1	4.004478E-2	-6.120491E-2	-5.192871E-1	1.599426E-1
1.873350E+10	-8.485107E-1	1.578674E-1	3.536224E-1	1.244812E-1	3.835487E-2	-6.149673E-2	-5.155640E-1	1.665649E-1
1.895800E+10	-8.468628E-1	1.603699E-1	3.508911E-1	1.171722E-1	3.778267E-2	-6.114006E-2	-5.145264E-1	1.641846E-1
1.918250E+10	-8.441467E-1	1.646729E-1	3.468628E-1	1.128540E-1	3.820801E-2	-6.112289E-2	-5.156860E-1	1.670837E-1
1.940700E+10	-8.432312E-1	1.686707E-1	3.439636E-1	1.069946E-1	3.436279E-2	-6.199455E-2	-5.136719E-1	1.757507E-1
1.963150E+10	-8.431091E-1	1.710205E-1	3.406219E-1	1.017456E-1	3.403282E-2	-6.091881E-2	-5.107727E-1	1.741638E-1
1.985600E+10	-8.416443E-1	1.745911E-1	3.365784E-1	9.669495E-2	3.372765E-2	-6.118393E-2	-5.137634E-1	1.760254E-1
2.008050E+10	-8.401489E-1	1.767883E-1	3.344421E-1	9.069824E-2	3.269577E-2	-6.268311E-2	-5.111694E-1	1.820679E-1
2.030500E+10	-8.393860E-1	1.818237E-1	3.332520E-1	8.689880E-2	3.065681E-2	-6.240463E-2	-5.097046E-1	1.826477E-1
2.052950E+10	-8.379517E-1	1.837769E-1	3.286133E-1	8.102417E-2	2.864838E-2	-6.272888E-2	-5.102539E-1	1.837158E-1
2.075400E+10	-8.361816E-1	1.890869E-1	3.263092E-1	7.592773E-2	2.897263E-2	-6.154251E-2	-5.095825E-1	1.893616E-1
2.097850E+10	-8.347473E-1	1.910095E-1	3.223877E-1	7.212830E-2	2.712250E-2	-6.236458E-2	-5.048523E-1	1.939087E-1
2.120300E+10	-8.315430E-1	1.941223E-1	3.184967E-1	6.835937E-2	2.672958E-2	-6.118774E-2	-5.082092E-1	1.897583E-1
2.142750E+10	-8.327332E-1	1.987610E-1	3.157196E-1	6.211853E-2	2.662849E-2	-6.053352E-2	-5.081482E-1	1.992493E-1
2.165200E+10	-8.299866E-1	2.031250E-1	3.133392E-1	5.860901E-2	2.428818E-2	-6.103516E-2	-5.075989E-1	2.002869E-1
2.187650E+10	-8.289185E-1	2.062073E-1	3.093872E-1	5.392456E-2	2.343941E-2	-6.113052E-2	-5.049744E-1	2.045593E-1
2.210100E+10	-8.278198E-1	2.085876E-1	3.072052E-1	4.890442E-2	2.108192E-2	-6.189156E-2	-5.074463E-1	2.100525E-1
2.232550E+10	-8.274841E-1	2.115479E-1	3.053436E-1	4.872131E-2	2.227020E-2	-6.192207E-2	-5.016479E-1	2.140808E-1
2.255000E+10	-8.253479E-1	2.162170E-1	3.007050E-1	4.447937E-2	2.027702E-2	-6.125450E-2	-5.018005E-1	2.138672E-1
2.277450E+10	-8.233337E-1	2.190247E-1	2.996063E-1	3.857422E-2	1.914597E-2	-6.136131E-2	-4.988556E-1	2.216644E-1
2.299900E+10	-8.218079E-1	2.216492E-1	2.957611E-1	3.559875E-2	1.750183E-2	-6.099129E-2	-4.974060E-1	2.209320E-1
2.322350E+10	-8.206787E-1	2.254028E-1	2.956543E-1	3.056335E-2	1.821136E-2	-6.166267E-2	-4.999695E-1	2.222137E-1
2.344800E+10	-8.190002E-1	2.280579E-1	2.910614E-1	3.083801E-2	1.502228E-2	-6.014252E-2	-4.988861E-1	2.292633E-1
2.367250E+10	-8.166199E-1	2.308350E-1	2.874298E-1	2.520752E-2	1.479530E-2	-6.216240E-2	-4.920654E-1	2.320099E-1
2.389700E+10	-8.139648E-1	2.359924E-1	2.854004E-1	2.410889E-2	1.217651E-2	-6.010818E-2	-4.957428E-1	2.342072E-1
2.412150E+10	-8.143921E-1	2.371826E-1	2.827301E-1	1.860046E-2	1.052856E-2	-5.968857E-2	-4.920807E-1	2.405548E-1
2.434600E+10	-8.109436E-1	2.413635E-1	2.806549E-1	1.628113E-2	1.033783E-2	-6.014061E-2	-4.886169E-1	2.406006E-1
2.457050E+10	-8.104553E-1	2.446899E-1	2.789612E-1	1.428223E-2	8.186340E-3	-5.973053E-2	-4.855499E-1	2.417755E-1
2.479500E+10	-8.086853E-1	2.479553E-1	2.752533E-1	1.141357E-2	8.769989E-3	-5.785751E-2	-4.846039E-1	2.498932E-1
2.501950E+10	-8.048706E-1	2.495728E-1	2.732849E-1	7.736206E-3	7.062912E-3	-5.770302E-2	-4.805298E-1	2.505646E-1
2.524400E+10	-8.053589E-1	2.516785E-1	2.715454E-1	8.605957E-3	6.563187E-3	-5.559731E-2	-4.830170E-1	2.518005E-1
2.546850E+10	-8.038635E-1	2.568665E-1	2.689819E-1	4.684448E-3	3.744125E-3	-5.452919E-2	-4.795532E-1	2.558899E-1
2.569300E+10	-8.018188E-1	2.578735E-1	2.657166E-1	1.800537E-3	4.339218E-3	-5.401039E-2	-4.755402E-1	2.548523E-1
2.591750E+10	-8.007507E-1	2.604980E-1	2.652740E-1	-2.288818E-4	2.965927E-3	-5.406761E-2	-4.765930E-1	2.575836E-1
2.614200E+10	-7.973633E-1	2.652588E-1	2.636261E-1	-1.144409E-3	2.370834E-3	-5.381966E-2	-4.795380E-1	2.644196E-1
2.636650E+10	-7.957153E-1	2.648315E-1	2.603760E-1	-6.103516E-3	1.127243E-3	-5.294991E-2	-4.751587E-1	2.681274E-1
2.659100E+10	-7.928772E-1	2.693176E-1	2.585907E-1	-8.483887E-3	-1.207352E-3	-5.430222E-2	-4.695435E-1	2.724609E-1
2.681550E+10	-7.906189E-1	2.704773E-1	2.580109E-1	-9.796143E-3	-4.901886E-4	-5.299759E-2	-4.707947E-1	2.712555E-1
2.704000E+10	-7.899475E-1	2.723999E-1	2.538910E-1	-1.261902E-2	-2.792358E-3	-5.265808E-2	-4.655762E-1	2.817841E-1
2.726450E+10	-7.866821E-1	2.779236E-1	2.553864E-1	-1.374817E-2	-4.005432E-3	-4.898643E-2	-4.611511E-1	2.798004E-1
2.748900E+10	-7.849731E-1	2.776489E-1	2.509460E-1	-1.435852E-2	-2.349854E-3	-4.874420E-2	-4.617004E-1	2.832794E-1
2.771350E+10	-7.826233E-1	2.800293E-1	2.505341E-1	-2.000427E-2	-4.034042E-3	-4.785728E-2	-4.580231E-1	2.875519E-1
2.793800E+10	-7.825012E-1	2.810364E-1	2.487640E-1	-1.992798E-2	-2.792358E-3	-4.887199E-2	-4.577179E-1	2.875824E-1
2.816250E+10	-7.785645E-1	2.851257E-1	2.474060E-1	-2.349091E-2	-6.628036E-3	-4.917717E-2	-4.568176E-1	2.884369E-1
2.838700E+10	-7.782593E-1	2.877502E-1	2.449112E-1	-2.462769E-2	-8.813858E-3	-4.814148E-2	-4.500580E-1	2.951660E-1
2.861150E+10	-7.761841E-1	2.907715E-1	2.433701E-1	-2.684021E-2	-6.307602E-3	-4.528046E-2	-4.490509E-1	3.007050E-1
2.883600E+10	-7.750549E-1	2.941589E-1	2.439041E-1	-2.931976E-2	-8.527756E-3	-4.495811E-2	-4.479370E-1	2.992401E-1
2.906050E+10	-7.737122E-1	2.947388E-1	2.446365E-1	-3.152466E-2	-8.186340E-3	-4.170990E-2	-4.428253E-1	3.047028E-1
2.928500E+10	-7.713013E-1	2.978516E-1	2.396622E-1	-3.459167E-2	-1.043701E-2	-4.187584E-2	-4.451447E-1	3.054199E-1
2.950950E+10	-7.705688E-1	3.022766E-1	2.391281E-1	-3.276825E-2	-7.976532E-3	-4.126740E-2	-4.455109E-1	3.084717E-1
2.973400E+10	-7.681274E-1	3.023376E-1	2.402954E-1	-3.450012E-2	-8.790970E-3	-3.924179E-2	-4.395599E-1	3.153839E-1
2.995850E+10	-7.656860E-1	3.052063E-1	2.371063E-1	-3.851318E-2	-8.975983E-3	-3.907776E-2	-4.433899E-1	3.161011E-1
3.018300E+10	-7.627869E-1	3.040161E-1	2.363815E-1	-3.978729E-2	-1.248932E-2	-3.825378E-2	-4.384003E-1	3.264771E-1
3.040750E+10	-7.613525E-1	3.084412E-1	2.368011E-1	-4.268646E-2	-1.002502E-2	-3.770638E-2	-4.321899E-1	3.241577E-1
3.063200E+10	-7.600403E-1	3.092651E-1	2.341537E-1	-4.511261E-2	-1.125336E-2	-3.721237E-2	-4.307098E-1	3.312531E-1
3.085650E+10	-7.581787E-1	3.140869E-1	2.343674E-1	-4.843140E-2	-1.218796E-2	-3.195763E-2	-4.257812E-1	3.354950E-1
3.108100E+10	-7.548218E-1	3.157654E-1	2.331390E-1	-5.080414E-2	-1.098633E-2	-3.282547E-2	-4.204102E-1	3.383331E-1
3.130550E+10	-7.526855E-1	3.165588E-1	2.320404E-1	-5.350494E-2	-1.114941E-2	-3.063202E-2	-4.179535E-1	3.395844E-1
3.153000E+10	-7.552185E-1	3.169556E-1	2.331314E-1	-5.538940E-2	-8.305550E-3	-3.107548E-2	-4.144135E-1	3.400574E-1
3.175450E+10	-7.520447E-1	3.185425E-1	2.253647E-1	-5.946350E-2	-1.617241E-2	-3.096390E-2	-4.117126E-1	3.480072E-1
3.197900E+10	-7.515259E-1	3.208923E-1	2.262497E-1	-6.169128E-2	-1.131821E-2	-2.506161E-2	-4.051819E-1	3.430328E-1
3.220350E+10	-7.490234E-1	3.270569E-1	2.309799E-1	-6.142426E-2	-1.049900E-2	-2.835655E-2	-4.050598E-1	3.584595E-1
3.242800E+10	-7.460632E-1	3.268738E-1	2.287064E-1	-6.413269E-2	-1.508522E-2	-2.474403E-2	-3.982849E-1	3.565369E-1
3.265250E+10	-7.494507E-1	3.313599E-1	2.311707E-1	-7.058716E-2	-1.552200E-2	-2.388000E-2	-4.011078E-1	3.538055E-1
3.287700E+10	-7.406616E-1	3.307190E-1	2.277527E-1	-6.645966E-2	-1.307011E-2	-2.665424E-2	-3.983307E-1	3.609314E-1
3.310150E+10	-7.418518E-1	3.306580E-1	2.242584E-1	-7.115936E-2	-1.531982E-2	-2.280903E-2	-3.866882E-1	3.633270E-1
3.332600E+10	-7.387085E-1	3.356628E-1	2.235489E-1	-7.335663E-2	-1.511097E-2	-2.110481E-2	-3.845978E-1	3.657227E-1
3.355050E+10	-7.343750E-1	3.360291E-1	2.248154E-1	-7.744598E-2	-1.010704E-2	-1.912880E-2	-3.829803E-1	3.619537E-1
3.377500E+10	-7.376404E-1	3.335266E-1	2.217712E-1	-7.624054E-2	-1.053905E-2	-1.698208E-2	-3.762360E-1	3.705902E-1
3.399950E+10	-7.348022E-1	3.411865E-1	2.207260E-1	-8.192444E-2	-1.532841E-2	-2.135086E-2	-3.769836E-1	3.723602E-1
3.422400E+10	-7.334290E-1	3.410645E-1	2.180557E-1	-8.703613E-2	-1.284981E-2	-1.916599E-2	-3.720703E-1	3.804474E-1
3.444850E+10	-7.306213E-1	3.423157E-1	2.220078E-1	-8.792877E-2	-9.616852E-3	-1.890755E-2	-3.613586E-1	3.820496E-1
3.467300E+10	-7.277222E-1	3.419800E-1	2.231827E-1	-8.758545E-2	-1.259518E-2	-1.935482E-2	-3.653717E-1	3.846741E-1
3.489750E+10	-7.303467E-1	3.452148E-1	2.165985E-1	-9.218597E-2	-1.183796E-2	-1.747799E-2	-3.596802E-1	3.886871E-1
3.512200E+10	-7.258606E-1	3.454285E-1	2.151566E-1	-9.146118E-2	-1.173019E-2	-1.563263E-2	-3.515778E-1	3.889313E-1
3.534650E+10	-7.270508E-1	3.460083E-1	2.138519E-1	-9.909821E-2	-1.170778E-2	-1.527023E-2	-3.475952E-1	3.952179E-1
3.557100E+10	-7.220154E-1	3.485718E-1	2.169571E-1	-1.029816E-1	-8.132458E-3	-1.255941E-2	-3.409424E-1	3.966217E-1
3.579550E+10	-7.249451E-1	3.455811E-1	2.126389E-1	-1.034317E-1	-6.978989E-3	-9.714603E-3	-3.354492E-1	3.943939E-1
3.602000E+10	-7.222595E-1	3.510132E-1	2.076340E-1	-1.077499E-1	-7.892132E-3	-5.373001E-3	-3.325043E-1	3.945770E-1
3.624450E+10	-7.205505E-1	3.494263E-1	2.117920E-1	-1.087418E-1	-1.118374E-2	-1.081610E-2	-3.276825E-1	3.993683E-1
3.646900E+10	-7.167053E-1	3.576355E-1	2.080994E-1	-1.118469E-1	-8.570194E-3	-8.041382E-3	-3.242187E-1	4.096222E-1
3.669350E+10	-7.190552E-1	3.555908E-1	2.081604E-1	-1.177216E-1	-9.074211E-3	-7.030010E-3	-3.149719E-1	4.042053E-1
3.691800E+10	-7.186584E-1	3.610840E-1	2.020874E-1	-1.229858E-1	-6.054640E-3	-5.629539E-3	-3.045502E-1	4.112854E-1
3.714250E+10	-7.144470E-1	3.568420E-1	1.997833E-1	-1.262894E-1	-9.254932E-3	-7.331371E-3	-3.078461E-1	4.171448E-1
3.736700E+10	-7.110291E-1	3.652954E-1	1.957397E-1	-1.265717E-1	-9.521008E-3	-9.538174E-3	-3.026886E-1	4.099426E-1
3.759150E+10	-7.109070E-1	3.640442E-1	1.948090E-1	-1.278000E-1	-6.602287E-3	-7.347345E-3	-2.956238E-1	4.156342E-1
3.781600E+10	-7.099304E-1	3.701477E-1	1.990967E-1	-1.335602E-1	-4.674196E-3	-2.418518E-3	-2.801971E-1	4.133911E-1
3.804050E+10	-7.120667E-1	3.686829E-1	1.897430E-1	-1.352921E-1	-5.490303E-3	-4.171371E-3	-2.765045E-1	4.129791E-1
3.826500E+10	-7.140503E-1	3.690186E-1	1.914902E-1	-1.407776E-1	2.748609E-3	-8.069277E-4	-2.684784E-1	4.188690E-1
3.848950E+10	-7.058105E-1	3.741455E-1	1.854019E-1	-1.430588E-1	-3.628731E-3	-4.634380E-3	-2.601318E-1	4.212341E-1
3.871400E+10	-7.023926E-1	3.688049E-1	1.826630E-1	-1.426926E-1	-1.432359E-3	1.757324E-3	-2.565155E-1	4.173431E-1
3.893850E+10	-7.037964E-1	3.733521E-1	1.827240E-1	-1.514511E-1	-1.623511E-3	-3.579974E-3	-2.456970E-1	4.180603E-1
3.916300E+10	-7.048035E-1	3.717346E-1	1.740952E-1	-1.549454E-1	-1.455069E-3	-1.935661E-3	-2.489166E-1	4.147034E-1
3.938750E+10	-7.059326E-1	3.739319E-1	1.770630E-1	-1.570740E-1	-1.411676E-3	-3.271818E-3	-2.519684E-1	4.197998E-1
