!Date: 10/28/2005, 12:34 PM

!Vgs = -6.000000E+0
!Vds = 5.000000E+0
!Ig = -5.396100E-5
!Id = 2.515200E-3

# HZ S RI R 50
1.000000E+8	9.896545E-1	-4.232788E-2	-8.275986E-2	1.127625E-2	9.427071E-4	1.011896E-2	9.739380E-1	-1.058960E-2
3.245000E+8	9.769287E-1	-1.177673E-1	-7.727051E-2	4.726410E-2	7.062912E-3	3.841400E-2	9.541016E-1	-9.280396E-2
5.490000E+8	9.591064E-1	-1.906128E-1	-6.708527E-2	7.784271E-2	1.415062E-2	6.244278E-2	9.466553E-1	-1.507874E-1
7.735000E+8	9.371338E-1	-2.622070E-1	-5.341339E-2	1.055908E-1	2.511215E-2	8.393478E-2	9.281311E-1	-2.088928E-1
9.980000E+8	9.111938E-1	-3.274841E-1	-3.670502E-2	1.303711E-1	3.833389E-2	1.039162E-1	9.086609E-1	-2.599487E-1
1.222500E+9	8.799133E-1	-3.911438E-1	-1.770020E-2	1.529007E-1	5.321884E-2	1.217232E-1	8.862305E-1	-3.128052E-1
1.447000E+9	8.452759E-1	-4.508362E-1	2.220154E-3	1.729355E-1	6.962585E-2	1.369400E-1	8.615723E-1	-3.610535E-1
1.671500E+9	8.070984E-1	-5.059814E-1	2.404022E-2	1.900940E-1	8.682251E-2	1.514969E-1	8.331909E-1	-4.058838E-1
1.896000E+9	7.665100E-1	-5.561523E-1	4.891968E-2	2.057037E-1	1.069260E-1	1.641312E-1	8.070679E-1	-4.466248E-1
2.120500E+9	7.246704E-1	-6.022034E-1	7.556915E-2	2.163239E-1	1.282959E-1	1.727219E-1	7.783813E-1	-4.886169E-1
2.345000E+9	6.784973E-1	-6.452026E-1	1.018219E-1	2.234726E-1	1.500702E-1	1.781540E-1	7.459412E-1	-5.272522E-1
2.569500E+9	6.336975E-1	-6.805725E-1	1.273117E-1	2.276611E-1	1.710434E-1	1.813583E-1	7.142029E-1	-5.629578E-1
2.794000E+9	5.873108E-1	-7.151794E-1	1.518402E-1	2.298355E-1	1.910553E-1	1.815262E-1	6.810303E-1	-5.945740E-1
3.018500E+9	5.408630E-1	-7.439270E-1	1.761322E-1	2.288742E-1	2.113647E-1	1.801605E-1	6.463928E-1	-6.261597E-1
3.243000E+9	4.943542E-1	-7.698059E-1	2.002182E-1	2.259521E-1	2.307968E-1	1.775131E-1	6.097717E-1	-6.541443E-1
3.467500E+9	4.489441E-1	-7.923889E-1	2.215958E-1	2.216797E-1	2.488022E-1	1.726532E-1	5.749817E-1	-6.784363E-1
3.692000E+9	4.035950E-1	-8.114319E-1	2.429581E-1	2.154617E-1	2.662506E-1	1.667328E-1	5.392456E-1	-7.029724E-1
3.916500E+9	3.580322E-1	-8.269043E-1	2.630768E-1	2.069702E-1	2.834015E-1	1.588898E-1	5.030518E-1	-7.221069E-1
4.141000E+9	3.156128E-1	-8.403015E-1	2.821045E-1	1.985779E-1	2.987366E-1	1.505737E-1	4.690552E-1	-7.406006E-1
4.365500E+9	2.740784E-1	-8.524475E-1	2.991943E-1	1.877747E-1	3.133850E-1	1.407471E-1	4.344177E-1	-7.586670E-1
4.590000E+9	2.311707E-1	-8.611755E-1	3.153992E-1	1.757660E-1	3.267670E-1	1.297455E-1	3.982849E-1	-7.729187E-1
4.814500E+9	1.917725E-1	-8.673706E-1	3.302155E-1	1.634521E-1	3.389587E-1	1.184387E-1	3.648376E-1	-7.862549E-1
5.039000E+9	1.521301E-1	-8.726196E-1	3.440247E-1	1.496124E-1	3.503265E-1	1.056976E-1	3.309631E-1	-7.994385E-1
5.263500E+9	1.144104E-1	-8.744202E-1	3.560944E-1	1.348724E-1	3.601990E-1	9.284973E-2	2.959290E-1	-8.092651E-1
5.488000E+9	7.910156E-2	-8.768311E-1	3.659821E-1	1.214142E-1	3.686371E-1	7.995605E-2	2.644958E-1	-8.177185E-1
5.712500E+9	4.302979E-2	-8.773804E-1	3.766174E-1	1.062775E-1	3.763733E-1	6.610107E-2	2.316895E-1	-8.256836E-1
5.937000E+9	8.972168E-3	-8.750305E-1	3.840332E-1	9.033203E-2	3.831787E-1	5.215454E-2	1.991882E-1	-8.334045E-1
6.161500E+9	-2.182007E-2	-8.744507E-1	3.914642E-1	7.536316E-2	3.882599E-1	3.852844E-2	1.679687E-1	-8.384094E-1
6.386000E+9	-5.532837E-2	-8.714294E-1	3.970947E-1	5.969238E-2	3.922272E-1	2.381897E-2	1.357727E-1	-8.435974E-1
6.610500E+9	-8.367920E-2	-8.681946E-1	4.016571E-1	4.454041E-2	3.958130E-1	1.083374E-2	1.027832E-1	-8.472595E-1
6.835000E+9	-1.132202E-1	-8.634644E-1	4.051971E-1	2.984619E-2	3.986053E-1	-2.716064E-3	7.449341E-2	-8.480530E-1
7.059500E+9	-1.400146E-1	-8.571777E-1	4.081421E-1	1.541138E-2	4.007416E-1	-1.502991E-2	4.711914E-2	-8.486633E-1
7.284000E+9	-1.678467E-1	-8.525085E-1	4.091949E-1	5.950928E-4	4.010468E-1	-2.899170E-2	1.516724E-2	-8.494263E-1
7.508500E+9	-1.941223E-1	-8.461914E-1	4.105072E-1	-1.321411E-2	4.013977E-1	-4.216003E-2	-1.306152E-2	-8.477173E-1
7.733000E+9	-2.185669E-1	-8.380432E-1	4.102020E-1	-2.830505E-2	4.002533E-1	-5.511475E-2	-3.912354E-2	-8.474426E-1
7.957500E+9	-2.428589E-1	-8.316345E-1	4.100037E-1	-4.132080E-2	3.994598E-1	-6.683350E-2	-6.805420E-2	-8.450623E-1
8.182000E+9	-2.656860E-1	-8.247986E-1	4.093475E-1	-5.477905E-2	3.988190E-1	-7.905579E-2	-9.375000E-2	-8.428650E-1
8.406500E+9	-2.879639E-1	-8.174438E-1	4.072723E-1	-6.687927E-2	3.958588E-1	-9.040833E-2	-1.213379E-1	-8.380432E-1
8.631000E+9	-3.103027E-1	-8.086243E-1	4.046478E-1	-8.038330E-2	3.931885E-1	-1.019440E-1	-1.472778E-1	-8.348083E-1
8.855500E+9	-3.304138E-1	-8.005981E-1	4.019623E-1	-9.262085E-2	3.903656E-1	-1.133575E-1	-1.717529E-1	-8.286133E-1
9.080001E+9	-3.494568E-1	-7.933350E-1	3.986206E-1	-1.037292E-1	3.868103E-1	-1.238251E-1	-1.953430E-1	-8.224792E-1
9.304500E+9	-3.701172E-1	-7.831116E-1	3.949585E-1	-1.148682E-1	3.818359E-1	-1.336060E-1	-2.196960E-1	-8.141174E-1
9.529000E+9	-3.870239E-1	-7.756958E-1	3.918304E-1	-1.257019E-1	3.780670E-1	-1.436615E-1	-2.436218E-1	-8.088684E-1
9.753500E+9	-4.063416E-1	-7.663574E-1	3.863983E-1	-1.362457E-1	3.736420E-1	-1.529083E-1	-2.643433E-1	-8.005371E-1
9.978000E+9	-4.222717E-1	-7.568359E-1	3.822021E-1	-1.457977E-1	3.693848E-1	-1.620178E-1	-2.857056E-1	-7.954407E-1
1.020250E+10	-4.393311E-1	-7.489929E-1	3.772125E-1	-1.559143E-1	3.636017E-1	-1.708679E-1	-3.089600E-1	-7.857056E-1
1.042700E+10	-4.567566E-1	-7.384644E-1	3.725433E-1	-1.658020E-1	3.590698E-1	-1.789703E-1	-3.283997E-1	-7.778320E-1
1.065150E+10	-4.710999E-1	-7.297668E-1	3.663940E-1	-1.741486E-1	3.533325E-1	-1.868286E-1	-3.482361E-1	-7.693787E-1
1.087600E+10	-4.872437E-1	-7.203674E-1	3.609009E-1	-1.824188E-1	3.471985E-1	-1.948700E-1	-3.686829E-1	-7.608643E-1
1.110050E+10	-5.013123E-1	-7.109985E-1	3.542938E-1	-1.904755E-1	3.418884E-1	-2.029572E-1	-3.884888E-1	-7.505188E-1
1.132500E+10	-5.150146E-1	-7.016296E-1	3.486633E-1	-1.983948E-1	3.359222E-1	-2.092438E-1	-4.046021E-1	-7.425537E-1
1.154950E+10	-5.293274E-1	-6.928101E-1	3.423157E-1	-2.059326E-1	3.296814E-1	-2.160645E-1	-4.262085E-1	-7.306519E-1
1.177400E+10	-5.419006E-1	-6.831970E-1	3.374176E-1	-2.122345E-1	3.240662E-1	-2.221832E-1	-4.423218E-1	-7.200928E-1
1.199850E+10	-5.559692E-1	-6.740723E-1	3.301086E-1	-2.191925E-1	3.179932E-1	-2.287598E-1	-4.589233E-1	-7.112122E-1
1.222300E+10	-5.671082E-1	-6.652527E-1	3.237457E-1	-2.253571E-1	3.114319E-1	-2.341919E-1	-4.773560E-1	-7.007751E-1
1.244750E+10	-5.790100E-1	-6.553345E-1	3.169098E-1	-2.322540E-1	3.049774E-1	-2.393036E-1	-4.939575E-1	-6.864319E-1
1.267200E+10	-5.918579E-1	-6.463928E-1	3.102112E-1	-2.375946E-1	2.988739E-1	-2.458954E-1	-5.077209E-1	-6.793823E-1
1.289650E+10	-6.012268E-1	-6.365967E-1	3.039246E-1	-2.428436E-1	2.925720E-1	-2.491302E-1	-5.242920E-1	-6.676025E-1
1.312100E+10	-6.128235E-1	-6.276855E-1	2.961731E-1	-2.479095E-1	2.856293E-1	-2.548370E-1	-5.385437E-1	-6.532898E-1
1.334550E+10	-6.237793E-1	-6.181946E-1	2.902832E-1	-2.531433E-1	2.788391E-1	-2.590332E-1	-5.522156E-1	-6.440125E-1
1.357000E+10	-6.353455E-1	-6.073608E-1	2.829590E-1	-2.581024E-1	2.722168E-1	-2.641296E-1	-5.678711E-1	-6.343994E-1
1.379450E+10	-6.433411E-1	-6.002197E-1	2.774353E-1	-2.627411E-1	2.655792E-1	-2.678833E-1	-5.816650E-1	-6.182251E-1
1.401900E+10	-6.527405E-1	-5.916748E-1	2.712250E-1	-2.659302E-1	2.608490E-1	-2.711487E-1	-5.910034E-1	-6.083069E-1
1.424350E+10	-6.612244E-1	-5.812988E-1	2.641144E-1	-2.704010E-1	2.534790E-1	-2.742920E-1	-6.072083E-1	-5.958252E-1
1.446800E+10	-6.699524E-1	-5.728455E-1	2.574768E-1	-2.735596E-1	2.471771E-1	-2.776642E-1	-6.189575E-1	-5.802612E-1
1.469250E+10	-6.795959E-1	-5.634155E-1	2.511902E-1	-2.775574E-1	2.414246E-1	-2.807617E-1	-6.280823E-1	-5.705261E-1
1.491700E+10	-6.875000E-1	-5.552063E-1	2.438660E-1	-2.807617E-1	2.342529E-1	-2.849884E-1	-6.414490E-1	-5.601501E-1
1.514150E+10	-6.961365E-1	-5.448303E-1	2.360077E-1	-2.836151E-1	2.268677E-1	-2.860413E-1	-6.518555E-1	-5.433350E-1
1.536600E+10	-7.041016E-1	-5.356750E-1	2.300262E-1	-2.868500E-1	2.210999E-1	-2.884827E-1	-6.626282E-1	-5.318298E-1
1.559050E+10	-7.129211E-1	-5.273437E-1	2.229156E-1	-2.889862E-1	2.136536E-1	-2.917023E-1	-6.749268E-1	-5.218201E-1
1.581500E+10	-7.193298E-1	-5.182190E-1	2.164001E-1	-2.902374E-1	2.070312E-1	-2.935486E-1	-6.848450E-1	-5.055237E-1
1.603950E+10	-7.279663E-1	-5.102539E-1	2.103119E-1	-2.940979E-1	2.018127E-1	-2.958069E-1	-6.926270E-1	-4.948120E-1
1.626400E+10	-7.337036E-1	-5.003967E-1	2.053375E-1	-2.955627E-1	1.961517E-1	-2.971802E-1	-7.033691E-1	-4.807129E-1
1.648850E+10	-7.414246E-1	-4.917908E-1	1.987305E-1	-2.975616E-1	1.889343E-1	-2.984772E-1	-7.122498E-1	-4.661255E-1
1.671300E+10	-7.479858E-1	-4.834900E-1	1.925964E-1	-2.996216E-1	1.837921E-1	-3.000793E-1	-7.194824E-1	-4.548645E-1
1.693750E+10	-7.541199E-1	-4.752502E-1	1.855316E-1	-2.999268E-1	1.780090E-1	-3.017426E-1	-7.287292E-1	-4.412842E-1
1.716200E+10	-7.603760E-1	-4.665527E-1	1.798859E-1	-3.038940E-1	1.714478E-1	-3.040009E-1	-7.356262E-1	-4.271545E-1
1.738650E+10	-7.678833E-1	-4.575806E-1	1.735840E-1	-3.035126E-1	1.654816E-1	-3.039856E-1	-7.416687E-1	-4.146729E-1
1.761100E+10	-7.736511E-1	-4.494324E-1	1.678467E-1	-3.038025E-1	1.611633E-1	-3.047333E-1	-7.502136E-1	-4.046326E-1
1.783550E+10	-7.798767E-1	-4.384766E-1	1.610413E-1	-3.043365E-1	1.540833E-1	-3.049164E-1	-7.587280E-1	-3.882751E-1
1.806000E+10	-7.866211E-1	-4.315186E-1	1.559601E-1	-3.058014E-1	1.477661E-1	-3.068848E-1	-7.633057E-1	-3.761902E-1
1.828450E+10	-7.904053E-1	-4.227600E-1	1.504669E-1	-3.076477E-1	1.444550E-1	-3.069153E-1	-7.713623E-1	-3.643494E-1
1.850900E+10	-7.956848E-1	-4.150696E-1	1.452942E-1	-3.075562E-1	1.377411E-1	-3.087616E-1	-7.776489E-1	-3.492737E-1
1.873350E+10	-8.016663E-1	-4.055176E-1	1.389313E-1	-3.077545E-1	1.321716E-1	-3.084717E-1	-7.825317E-1	-3.354492E-1
1.895800E+10	-8.066406E-1	-3.988647E-1	1.327972E-1	-3.080444E-1	1.261902E-1	-3.081665E-1	-7.864380E-1	-3.270264E-1
1.918250E+10	-8.109131E-1	-3.903503E-1	1.276398E-1	-3.088531E-1	1.232300E-1	-3.093719E-1	-7.945862E-1	-3.114929E-1
1.940700E+10	-8.160400E-1	-3.819275E-1	1.207428E-1	-3.093414E-1	1.156769E-1	-3.094482E-1	-7.978210E-1	-2.945862E-1
1.963150E+10	-8.208008E-1	-3.735046E-1	1.165466E-1	-3.086548E-1	1.105652E-1	-3.093109E-1	-8.010254E-1	-2.842407E-1
1.985600E+10	-8.251648E-1	-3.647766E-1	1.132050E-1	-3.084869E-1	1.063232E-1	-3.081970E-1	-8.088989E-1	-2.724304E-1
2.008050E+10	-8.280029E-1	-3.576050E-1	1.035461E-1	-3.092957E-1	1.015778E-1	-3.071899E-1	-8.108215E-1	-2.549438E-1
2.030500E+10	-8.339539E-1	-3.494568E-1	1.009369E-1	-3.089905E-1	9.616089E-2	-3.070679E-1	-8.121033E-1	-2.463989E-1
2.052950E+10	-8.379211E-1	-3.411255E-1	9.640503E-2	-3.087616E-1	9.082031E-2	-3.062134E-1	-8.190918E-1	-2.336426E-1
2.075400E+10	-8.410645E-1	-3.329468E-1	9.114075E-2	-3.080750E-1	8.653259E-2	-3.073578E-1	-8.220825E-1	-2.191162E-1
2.097850E+10	-8.459167E-1	-3.244629E-1	8.633423E-2	-3.067780E-1	8.210754E-2	-3.066711E-1	-8.226624E-1	-2.066650E-1
2.120300E+10	-8.486633E-1	-3.171082E-1	7.997131E-2	-3.064880E-1	7.788086E-2	-3.056030E-1	-8.279724E-1	-1.982727E-1
2.142750E+10	-8.550415E-1	-3.098145E-1	7.814026E-2	-3.067322E-1	7.206726E-2	-3.050842E-1	-8.323364E-1	-1.822815E-1
2.165200E+10	-8.571472E-1	-3.010559E-1	7.075500E-2	-3.048706E-1	6.782532E-2	-3.031769E-1	-8.331604E-1	-1.684265E-1
2.187650E+10	-8.583984E-1	-2.912292E-1	6.779480E-2	-3.041840E-1	6.320190E-2	-3.052673E-1	-8.373413E-1	-1.589661E-1
2.210100E+10	-8.646545E-1	-2.835999E-1	6.298828E-2	-3.032379E-1	5.676270E-2	-3.035278E-1	-8.411865E-1	-1.419983E-1
2.232550E+10	-8.648682E-1	-2.751465E-1	5.839539E-2	-3.050232E-1	5.589294E-2	-3.024597E-1	-8.393860E-1	-1.274719E-1
2.255000E+10	-8.700867E-1	-2.682495E-1	5.343628E-2	-3.025818E-1	4.930115E-2	-3.030090E-1	-8.431091E-1	-1.180420E-1
2.277450E+10	-8.717651E-1	-2.580261E-1	4.971313E-2	-3.010406E-1	4.466248E-2	-3.016968E-1	-8.451843E-1	-1.026611E-1
2.299900E+10	-8.734741E-1	-2.518921E-1	4.623413E-2	-3.015747E-1	4.298401E-2	-2.994690E-1	-8.439331E-1	-8.953857E-2
2.322350E+10	-8.754883E-1	-2.445374E-1	4.078674E-2	-2.991943E-1	3.765869E-2	-3.002167E-1	-8.475037E-1	-7.910156E-2
2.344800E+10	-8.768616E-1	-2.406311E-1	3.601074E-2	-2.999573E-1	3.326416E-2	-2.984467E-1	-8.495178E-1	-6.387329E-2
2.367250E+10	-8.816833E-1	-2.317505E-1	3.173828E-2	-2.974548E-1	3.115845E-2	-2.971954E-1	-8.456421E-1	-4.934692E-2
2.389700E+10	-8.825378E-1	-2.229004E-1	2.905273E-2	-2.970123E-1	2.452087E-2	-2.952728E-1	-8.494873E-1	-3.759766E-2
2.412150E+10	-8.879395E-1	-2.175293E-1	2.403259E-2	-2.965240E-1	1.991272E-2	-2.955627E-1	-8.472290E-1	-2.130127E-2
2.434600E+10	-8.892822E-1	-2.071533E-1	2.041626E-2	-2.948303E-1	1.683044E-2	-2.938385E-1	-8.453674E-1	-1.034546E-2
2.457050E+10	-8.910217E-1	-2.027283E-1	1.727295E-2	-2.951355E-1	1.268005E-2	-2.933655E-1	-8.465881E-1	9.460449E-4
2.479500E+10	-8.939514E-1	-1.940308E-1	1.261902E-2	-2.937164E-1	9.338379E-3	-2.937164E-1	-8.435059E-1	1.696777E-2
2.501950E+10	-8.949280E-1	-1.886597E-1	8.743286E-3	-2.933960E-1	6.866455E-3	-2.921600E-1	-8.379822E-1	2.798462E-2
2.524400E+10	-8.980103E-1	-1.816101E-1	2.944946E-3	-2.903290E-1	-4.577637E-4	-2.881775E-1	-8.401794E-1	3.622437E-2
2.546850E+10	-9.004211E-1	-1.699219E-1	-4.577637E-5	-2.887878E-1	-3.280640E-3	-2.870789E-1	-8.369751E-1	5.163574E-2
2.569300E+10	-8.996277E-1	-1.655579E-1	-2.426147E-3	-2.890778E-1	-5.050659E-3	-2.848206E-1	-8.344421E-1	5.950928E-2
2.591750E+10	-9.039001E-1	-1.586304E-1	-6.988525E-3	-2.871399E-1	-9.765625E-3	-2.854767E-1	-8.358765E-1	6.784058E-2
2.614200E+10	-9.068604E-1	-1.499023E-1	-8.544922E-3	-2.832794E-1	-1.199341E-2	-2.825470E-1	-8.321838E-1	8.578491E-2
2.636650E+10	-9.071045E-1	-1.441650E-1	-1.296997E-2	-2.836151E-1	-1.672363E-2	-2.812500E-1	-8.334961E-1	9.979248E-2
2.659100E+10	-9.088745E-1	-1.362305E-1	-1.739502E-2	-2.820129E-1	-1.850891E-2	-2.803802E-1	-8.271179E-1	1.113892E-1
2.681550E+10	-9.085693E-1	-1.304321E-1	-1.896667E-2	-2.797394E-1	-2.360535E-2	-2.794495E-1	-8.278198E-1	1.188660E-1
2.704000E+10	-9.093018E-1	-1.203003E-1	-2.467346E-2	-2.776489E-1	-2.478027E-2	-2.777252E-1	-8.264771E-1	1.379089E-1
2.726450E+10	-9.097900E-1	-1.153564E-1	-2.697754E-2	-2.800751E-1	-2.818298E-2	-2.761536E-1	-8.161011E-1	1.494141E-1
2.748900E+10	-9.136658E-1	-1.100769E-1	-3.114319E-2	-2.758942E-1	-3.250122E-2	-2.743988E-1	-8.161926E-1	1.578064E-1
2.771350E+10	-9.141541E-1	-1.011047E-1	-3.326416E-2	-2.748413E-1	-3.469849E-2	-2.734222E-1	-8.145142E-1	1.703796E-1
2.793800E+10	-9.159851E-1	-9.555054E-2	-3.578186E-2	-2.767944E-1	-3.843689E-2	-2.733307E-1	-8.113403E-1	1.807251E-1
2.816250E+10	-9.178467E-1	-8.837891E-2	-3.837585E-2	-2.702637E-1	-4.388428E-2	-2.691803E-1	-8.051453E-1	1.900330E-1
2.838700E+10	-9.185791E-1	-8.276367E-2	-4.469299E-2	-2.711487E-1	-4.681396E-2	-2.682343E-1	-7.991943E-1	2.039185E-1
2.861150E+10	-9.189758E-1	-7.412720E-2	-4.779053E-2	-2.697754E-1	-4.920959E-2	-2.663116E-1	-7.930908E-1	2.117615E-1
2.883600E+10	-9.210205E-1	-6.741333E-2	-5.244446E-2	-2.671661E-1	-5.201721E-2	-2.661438E-1	-7.922058E-1	2.185364E-1
2.906050E+10	-9.225464E-1	-6.079102E-2	-5.361938E-2	-2.647400E-1	-5.264282E-2	-2.639008E-1	-7.828979E-1	2.332153E-1
2.928500E+10	-9.209290E-1	-5.075073E-2	-5.586243E-2	-2.625427E-1	-5.807495E-2	-2.612457E-1	-7.776794E-1	2.459412E-1
2.950950E+10	-9.213257E-1	-4.388428E-2	-5.970764E-2	-2.622986E-1	-6.037903E-2	-2.588196E-1	-7.787170E-1	2.511292E-1
2.973400E+10	-9.233093E-1	-3.695679E-2	-5.833435E-2	-2.595673E-1	-6.123352E-2	-2.576904E-1	-7.776794E-1	2.662659E-1
2.995850E+10	-9.225159E-1	-3.085327E-2	-6.030273E-2	-2.601166E-1	-6.355286E-2	-2.569427E-1	-7.760620E-1	2.746277E-1
3.018300E+10	-9.208679E-1	-2.420044E-2	-6.399536E-2	-2.536011E-1	-6.863403E-2	-2.538910E-1	-7.660522E-1	2.906189E-1
3.040750E+10	-9.211731E-1	-1.849365E-2	-6.846619E-2	-2.530212E-1	-7.022095E-2	-2.555389E-1	-7.567749E-1	3.028564E-1
3.063200E+10	-9.212952E-1	-1.159668E-2	-6.919861E-2	-2.539368E-1	-7.357788E-2	-2.503357E-1	-7.552185E-1	3.093567E-1
3.085650E+10	-9.241028E-1	-4.272461E-3	-7.333374E-2	-2.518311E-1	-7.437134E-2	-2.503815E-1	-7.487488E-1	3.266296E-1
3.108100E+10	-9.237671E-1	1.312256E-3	-7.743835E-2	-2.547607E-1	-7.943726E-2	-2.504272E-1	-7.381897E-1	3.320923E-1
3.130550E+10	-9.207764E-1	4.486084E-3	-8.177948E-2	-2.499237E-1	-8.202362E-2	-2.442322E-1	-7.309570E-1	3.432617E-1
3.153000E+10	-9.237366E-1	1.470947E-2	-8.105469E-2	-2.488327E-1	-8.432007E-2	-2.464981E-1	-7.256165E-1	3.531494E-1
3.175450E+10	-9.240723E-1	1.995850E-2	-8.532715E-2	-2.447205E-1	-8.568573E-2	-2.417145E-1	-7.217407E-1	3.688354E-1
3.197900E+10	-9.252625E-1	2.828979E-2	-9.349823E-2	-2.431793E-1	-9.263611E-2	-2.426300E-1	-7.069702E-1	3.799438E-1
3.220350E+10	-9.230957E-1	3.598022E-2	-9.417725E-2	-2.399597E-1	-9.725189E-2	-2.424774E-1	-7.029419E-1	3.878174E-1
3.242800E+10	-9.261169E-1	4.031372E-2	-9.426880E-2	-2.401810E-1	-9.517670E-2	-2.389069E-1	-6.929626E-1	3.952332E-1
3.265250E+10	-9.284973E-1	4.837036E-2	-9.759521E-2	-2.365036E-1	-1.028137E-1	-2.333603E-1	-6.817627E-1	3.990173E-1
3.287700E+10	-9.262390E-1	5.502319E-2	-9.999847E-2	-2.377625E-1	-9.754944E-2	-2.362137E-1	-6.768494E-1	4.101562E-1
3.310150E+10	-9.259338E-1	6.005859E-2	-9.973907E-2	-2.285690E-1	-1.024399E-1	-2.352295E-1	-6.643372E-1	4.187317E-1
3.332600E+10	-9.252930E-1	6.811523E-2	-1.034698E-1	-2.301941E-1	-1.058121E-1	-2.269745E-1	-6.559143E-1	4.250793E-1
3.355050E+10	-9.207458E-1	7.424927E-2	-1.055984E-1	-2.296448E-1	-1.069336E-1	-2.281265E-1	-6.535339E-1	4.312439E-1
3.377500E+10	-9.225769E-1	8.090210E-2	-1.074753E-1	-2.287674E-1	-1.089859E-1	-2.276230E-1	-6.468811E-1	4.363403E-1
3.399950E+10	-9.232483E-1	8.920288E-2	-1.108627E-1	-2.256622E-1	-1.071320E-1	-2.235031E-1	-6.387939E-1	4.531250E-1
3.422400E+10	-9.252930E-1	9.457397E-2	-1.126709E-1	-2.236176E-1	-1.153030E-1	-2.232590E-1	-6.313477E-1	4.622192E-1
3.444850E+10	-9.214478E-1	1.038513E-1	-1.147919E-1	-2.230759E-1	-1.130066E-1	-2.225418E-1	-6.180115E-1	4.703979E-1
3.467300E+10	-9.180298E-1	1.083984E-1	-1.149292E-1	-2.229691E-1	-1.168747E-1	-2.221451E-1	-6.131287E-1	4.771423E-1
3.489750E+10	-9.226990E-1	1.158142E-1	-1.186829E-1	-2.196198E-1	-1.237259E-1	-2.194672E-1	-6.050415E-1	4.915161E-1
3.512200E+10	-9.173889E-1	1.211548E-1	-1.222992E-1	-2.208862E-1	-1.214294E-1	-2.166290E-1	-5.901489E-1	4.931641E-1
3.534650E+10	-9.169617E-1	1.224060E-1	-1.212006E-1	-2.224045E-1	-1.242371E-1	-2.185898E-1	-5.841675E-1	5.101013E-1
3.557100E+10	-9.149780E-1	1.284485E-1	-1.298447E-1	-2.185745E-1	-1.271057E-1	-2.117004E-1	-5.702820E-1	5.184937E-1
3.579550E+10	-9.151001E-1	1.386719E-1	-1.312103E-1	-2.135849E-1	-1.304779E-1	-2.133484E-1	-5.544739E-1	5.208130E-1
3.602000E+10	-9.181824E-1	1.459351E-1	-1.338425E-1	-2.121201E-1	-1.313477E-1	-2.065353E-1	-5.538330E-1	5.233765E-1
3.624450E+10	-9.167786E-1	1.502686E-1	-1.350403E-1	-2.099838E-1	-1.342087E-1	-2.065201E-1	-5.357666E-1	5.298462E-1
3.646900E+10	-9.129028E-1	1.623230E-1	-1.357651E-1	-2.081451E-1	-1.371613E-1	-2.043381E-1	-5.270691E-1	5.393372E-1
3.669350E+10	-9.114685E-1	1.614380E-1	-1.397095E-1	-2.042007E-1	-1.411285E-1	-2.018890E-1	-5.178223E-1	5.456238E-1
3.691800E+10	-9.080811E-1	1.701965E-1	-1.465302E-1	-2.037430E-1	-1.424942E-1	-1.982880E-1	-5.006104E-1	5.557556E-1
3.714250E+10	-9.085388E-1	1.739197E-1	-1.443481E-1	-2.015152E-1	-1.477509E-1	-2.016449E-1	-4.876709E-1	5.621948E-1
3.736700E+10	-9.041443E-1	1.813049E-1	-1.485214E-1	-1.937027E-1	-1.490250E-1	-1.996078E-1	-4.791260E-1	5.654602E-1
3.759150E+10	-9.036255E-1	1.860657E-1	-1.477280E-1	-2.000275E-1	-1.481705E-1	-1.966095E-1	-4.662170E-1	5.690002E-1
3.781600E+10	-9.046326E-1	1.943054E-1	-1.549454E-1	-1.916199E-1	-1.510315E-1	-1.898041E-1	-4.561462E-1	5.780334E-1
3.804050E+10	-9.061890E-1	1.999512E-1	-1.516724E-1	-1.880035E-1	-1.550980E-1	-1.904297E-1	-4.338379E-1	5.844116E-1
3.826500E+10	-9.037170E-1	2.062378E-1	-1.530533E-1	-1.942062E-1	-1.553726E-1	-1.881790E-1	-4.262085E-1	5.917969E-1
3.848950E+10	-8.975220E-1	2.082214E-1	-1.565628E-1	-1.898880E-1	-1.598740E-1	-1.912994E-1	-4.098206E-1	5.891724E-1
3.871400E+10	-8.939819E-1	2.121582E-1	-1.562576E-1	-1.854630E-1	-1.595688E-1	-1.880493E-1	-3.965759E-1	5.989685E-1
3.893850E+10	-8.916321E-1	2.256470E-1	-1.584549E-1	-1.843796E-1	-1.619797E-1	-1.806412E-1	-3.833923E-1	5.993042E-1
