!Date: 10/28/2005, 12:34 PM

!Vgs = -6.000000E+0
!Vds = 0.000000E+0
!Ig = -4.143600E-5
!Id = 1.199700E-5

# HZ S RI R 50
1.000000E+8	9.897461E-1	-4.507446E-2	2.205849E-3	1.737118E-2	1.690865E-3	1.741409E-2	9.109497E-1	-1.083374E-2
3.245000E+8	9.750671E-1	-1.289062E-1	8.333206E-3	5.000496E-2	9.113312E-3	5.085564E-2	8.898010E-1	-9.854126E-2
5.490000E+8	9.541626E-1	-2.091370E-1	2.040482E-2	8.092117E-2	2.022171E-2	8.206177E-2	8.806763E-1	-1.612854E-1
7.735000E+8	9.268799E-1	-2.860413E-1	3.523636E-2	1.095886E-1	3.633881E-2	1.105270E-1	8.591614E-1	-2.233582E-1
9.980000E+8	8.954468E-1	-3.561707E-1	5.346680E-2	1.338043E-1	5.477905E-2	1.356812E-1	8.354492E-1	-2.777100E-1
1.222500E+9	8.579102E-1	-4.234924E-1	7.596588E-2	1.553726E-1	7.640839E-2	1.571198E-1	8.085632E-1	-3.320007E-1
1.447000E+9	8.161316E-1	-4.850769E-1	9.853363E-2	1.743698E-1	9.924316E-2	1.751633E-1	7.778931E-1	-3.818970E-1
1.671500E+9	7.706909E-1	-5.409546E-1	1.219025E-1	1.898041E-1	1.239777E-1	1.914749E-1	7.448730E-1	-4.263611E-1
1.896000E+9	7.239685E-1	-5.906372E-1	1.498871E-1	2.018967E-1	1.513443E-1	2.042847E-1	7.135925E-1	-4.659119E-1
2.120500E+9	6.752319E-1	-6.351013E-1	1.787872E-1	2.105103E-1	1.793365E-1	2.119141E-1	6.793518E-1	-5.063171E-1
2.345000E+9	6.232300E-1	-6.749573E-1	2.058105E-1	2.142258E-1	2.077332E-1	2.151184E-1	6.434021E-1	-5.419617E-1
2.569500E+9	5.737000E-1	-7.072449E-1	2.324448E-1	2.143478E-1	2.339172E-1	2.151337E-1	6.073914E-1	-5.737915E-1
2.794000E+9	5.224304E-1	-7.375488E-1	2.583008E-1	2.117004E-1	2.600555E-1	2.129974E-1	5.709229E-1	-6.028137E-1
3.018500E+9	4.721985E-1	-7.613220E-1	2.827759E-1	2.069550E-1	2.843323E-1	2.071533E-1	5.328369E-1	-6.303101E-1
3.243000E+9	4.233704E-1	-7.827148E-1	3.056488E-1	1.983795E-1	3.074951E-1	1.997833E-1	4.940491E-1	-6.536255E-1
3.467500E+9	3.760071E-1	-8.000793E-1	3.273926E-1	1.892700E-1	3.287506E-1	1.907196E-1	4.578247E-1	-6.736755E-1
3.692000E+9	3.293152E-1	-8.132629E-1	3.468781E-1	1.782074E-1	3.487244E-1	1.796570E-1	4.195251E-1	-6.920471E-1
3.916500E+9	2.828674E-1	-8.245850E-1	3.651733E-1	1.656799E-1	3.665314E-1	1.672974E-1	3.830566E-1	-7.067566E-1
4.141000E+9	2.396851E-1	-8.327026E-1	3.815155E-1	1.533813E-1	3.836975E-1	1.542816E-1	3.485107E-1	-7.206421E-1
4.365500E+9	1.992187E-1	-8.397522E-1	3.970337E-1	1.393127E-1	3.993073E-1	1.389618E-1	3.152161E-1	-7.330017E-1
4.590000E+9	1.575928E-1	-8.446045E-1	4.105072E-1	1.231384E-1	4.125977E-1	1.233826E-1	2.791748E-1	-7.438049E-1
4.814500E+9	1.193542E-1	-8.467102E-1	4.220276E-1	1.073608E-1	4.248047E-1	1.076660E-1	2.466736E-1	-7.523804E-1
5.039000E+9	8.181763E-2	-8.479919E-1	4.336395E-1	9.071350E-2	4.353638E-1	9.127808E-2	2.137756E-1	-7.610779E-1
5.263500E+9	4.550171E-2	-8.464355E-1	4.417267E-1	7.411194E-2	4.443207E-1	7.403564E-2	1.805725E-1	-7.673950E-1
5.488000E+9	1.239014E-2	-8.450928E-1	4.492340E-1	5.743408E-2	4.511108E-1	5.720520E-2	1.499023E-1	-7.722168E-1
5.712500E+9	-2.182007E-2	-8.431396E-1	4.555206E-1	4.084778E-2	4.578247E-1	3.981018E-2	1.202087E-1	-7.764282E-1
5.937000E+9	-5.264282E-2	-8.384094E-1	4.606934E-1	2.261353E-2	4.624481E-1	2.244568E-2	8.905029E-2	-7.807617E-1
6.161500E+9	-8.154297E-2	-8.354492E-1	4.644165E-1	6.530762E-3	4.660645E-1	6.042480E-3	5.923462E-2	-7.826233E-1
6.386000E+9	-1.119995E-1	-8.304138E-1	4.665527E-1	-1.063538E-2	4.687500E-1	-1.095581E-2	3.103638E-2	-7.839661E-1
6.610500E+9	-1.385803E-1	-8.258667E-1	4.678497E-1	-2.651978E-2	4.696655E-1	-2.703857E-2	9.460449E-4	-7.847290E-1
6.835000E+9	-1.657410E-1	-8.199768E-1	4.687042E-1	-4.220581E-2	4.704895E-1	-4.257202E-2	-2.716064E-2	-7.828674E-1
7.059500E+9	-1.902161E-1	-8.124084E-1	4.679565E-1	-5.714417E-2	4.705048E-1	-5.715942E-2	-5.114746E-2	-7.812500E-1
7.284000E+9	-2.150879E-1	-8.066711E-1	4.666290E-1	-7.185364E-2	4.683075E-1	-7.267761E-2	-8.035278E-2	-7.803040E-1
7.508500E+9	-2.388306E-1	-7.995605E-1	4.652557E-1	-8.711243E-2	4.665375E-1	-8.760071E-2	-1.064758E-1	-7.761536E-1
7.733000E+9	-2.612915E-1	-7.905579E-1	4.625092E-1	-1.013336E-1	4.634247E-1	-1.019592E-1	-1.290588E-1	-7.740479E-1
7.957500E+9	-2.824402E-1	-7.837830E-1	4.591522E-1	-1.146851E-1	4.608612E-1	-1.148834E-1	-1.565247E-1	-7.705688E-1
8.182000E+9	-3.030090E-1	-7.756958E-1	4.562531E-1	-1.274719E-1	4.564819E-1	-1.288757E-1	-1.797180E-1	-7.656860E-1
8.406500E+9	-3.239746E-1	-7.676697E-1	4.509888E-1	-1.402283E-1	4.523315E-1	-1.412659E-1	-2.041016E-1	-7.590332E-1
8.631000E+9	-3.445435E-1	-7.596130E-1	4.462433E-1	-1.531982E-1	4.470825E-1	-1.541748E-1	-2.271729E-1	-7.548523E-1
8.855500E+9	-3.619995E-1	-7.515564E-1	4.411163E-1	-1.643677E-1	4.422150E-1	-1.658478E-1	-2.495422E-1	-7.486267E-1
9.080001E+9	-3.790283E-1	-7.445679E-1	4.364166E-1	-1.757050E-1	4.372406E-1	-1.759338E-1	-2.707825E-1	-7.403564E-1
9.304500E+9	-3.971558E-1	-7.341003E-1	4.289703E-1	-1.865234E-1	4.304199E-1	-1.874542E-1	-2.919006E-1	-7.336731E-1
9.529000E+9	-4.132690E-1	-7.268982E-1	4.230042E-1	-1.969147E-1	4.252167E-1	-1.983185E-1	-3.136902E-1	-7.257385E-1
9.753500E+9	-4.304504E-1	-7.177734E-1	4.173279E-1	-2.073669E-1	4.184570E-1	-2.072601E-1	-3.318481E-1	-7.168274E-1
9.978000E+9	-4.463806E-1	-7.090454E-1	4.106445E-1	-2.163086E-1	4.111938E-1	-2.173920E-1	-3.511963E-1	-7.101135E-1
1.020250E+10	-4.613953E-1	-7.008362E-1	4.038239E-1	-2.257080E-1	4.054718E-1	-2.270966E-1	-3.706665E-1	-7.004395E-1
1.042700E+10	-4.761963E-1	-6.914062E-1	3.973999E-1	-2.335815E-1	3.973236E-1	-2.351379E-1	-3.881226E-1	-6.907654E-1
1.065150E+10	-4.898987E-1	-6.833496E-1	3.895264E-1	-2.421570E-1	3.903809E-1	-2.435455E-1	-4.054871E-1	-6.835632E-1
1.087600E+10	-5.038452E-1	-6.738281E-1	3.827972E-1	-2.502441E-1	3.829346E-1	-2.498474E-1	-4.244690E-1	-6.740112E-1
1.110050E+10	-5.173950E-1	-6.649475E-1	3.746948E-1	-2.575684E-1	3.755798E-1	-2.585754E-1	-4.412842E-1	-6.639099E-1
1.132500E+10	-5.299377E-1	-6.572571E-1	3.669434E-1	-2.637634E-1	3.680725E-1	-2.647247E-1	-4.559937E-1	-6.556396E-1
1.154950E+10	-5.423279E-1	-6.471558E-1	3.600769E-1	-2.701263E-1	3.605652E-1	-2.715759E-1	-4.750671E-1	-6.434326E-1
1.177400E+10	-5.539856E-1	-6.390076E-1	3.520813E-1	-2.774200E-1	3.520355E-1	-2.776947E-1	-4.899902E-1	-6.325378E-1
1.199850E+10	-5.670471E-1	-6.298218E-1	3.445282E-1	-2.836609E-1	3.453674E-1	-2.839050E-1	-5.036011E-1	-6.246338E-1
1.222300E+10	-5.772705E-1	-6.213074E-1	3.367310E-1	-2.898102E-1	3.375244E-1	-2.887115E-1	-5.201416E-1	-6.130981E-1
1.244750E+10	-5.884705E-1	-6.124268E-1	3.293152E-1	-2.951355E-1	3.298340E-1	-2.949371E-1	-5.337830E-1	-6.000671E-1
1.267200E+10	-6.002808E-1	-6.039734E-1	3.219452E-1	-2.990570E-1	3.224945E-1	-2.996826E-1	-5.465393E-1	-5.914001E-1
1.289650E+10	-6.083679E-1	-5.948792E-1	3.137207E-1	-3.033142E-1	3.144379E-1	-3.039703E-1	-5.621338E-1	-5.793762E-1
1.312100E+10	-6.194458E-1	-5.869446E-1	3.060608E-1	-3.083801E-1	3.062897E-1	-3.088837E-1	-5.742187E-1	-5.652466E-1
1.334550E+10	-6.295471E-1	-5.780029E-1	2.985992E-1	-3.120422E-1	2.989502E-1	-3.123016E-1	-5.850830E-1	-5.579529E-1
1.357000E+10	-6.401367E-1	-5.677795E-1	2.906036E-1	-3.159332E-1	2.901154E-1	-3.168640E-1	-5.976868E-1	-5.467834E-1
1.379450E+10	-6.469116E-1	-5.617981E-1	2.838135E-1	-3.204651E-1	2.848969E-1	-3.201599E-1	-6.102600E-1	-5.325012E-1
1.401900E+10	-6.562500E-1	-5.525818E-1	2.771912E-1	-3.233490E-1	2.767792E-1	-3.227997E-1	-6.200562E-1	-5.207520E-1
1.424350E+10	-6.657410E-1	-5.435181E-1	2.687683E-1	-3.260193E-1	2.694244E-1	-3.263702E-1	-6.324158E-1	-5.106812E-1
1.446800E+10	-6.734924E-1	-5.352173E-1	2.608948E-1	-3.295898E-1	2.622223E-1	-3.291626E-1	-6.438293E-1	-4.960327E-1
1.469250E+10	-6.814575E-1	-5.263977E-1	2.526855E-1	-3.318329E-1	2.538300E-1	-3.329010E-1	-6.509094E-1	-4.870911E-1
1.491700E+10	-6.891479E-1	-5.184326E-1	2.463531E-1	-3.356934E-1	2.469940E-1	-3.350830E-1	-6.625977E-1	-4.751587E-1
1.514150E+10	-6.979065E-1	-5.094604E-1	2.391052E-1	-3.371429E-1	2.389984E-1	-3.375702E-1	-6.730347E-1	-4.598389E-1
1.536600E+10	-7.057495E-1	-5.007935E-1	2.315369E-1	-3.385468E-1	2.317963E-1	-3.401184E-1	-6.797180E-1	-4.474792E-1
1.559050E+10	-7.132263E-1	-4.922180E-1	2.244720E-1	-3.412170E-1	2.250824E-1	-3.410645E-1	-6.894226E-1	-4.365845E-1
1.581500E+10	-7.213135E-1	-4.843445E-1	2.165680E-1	-3.414917E-1	2.161713E-1	-3.434601E-1	-7.000122E-1	-4.234314E-1
1.603950E+10	-7.261963E-1	-4.766235E-1	2.102051E-1	-3.439941E-1	2.100677E-1	-3.445282E-1	-7.056580E-1	-4.115601E-1
1.626400E+10	-7.342834E-1	-4.674683E-1	2.025757E-1	-3.446960E-1	2.041473E-1	-3.449097E-1	-7.148743E-1	-3.999634E-1
1.648850E+10	-7.402344E-1	-4.598999E-1	1.952972E-1	-3.458252E-1	1.963196E-1	-3.479156E-1	-7.232666E-1	-3.858948E-1
1.671300E+10	-7.466431E-1	-4.501343E-1	1.903992E-1	-3.486023E-1	1.899567E-1	-3.495331E-1	-7.290955E-1	-3.746643E-1
1.693750E+10	-7.537231E-1	-4.434204E-1	1.823578E-1	-3.490295E-1	1.833496E-1	-3.489685E-1	-7.378540E-1	-3.627625E-1
1.716200E+10	-7.583618E-1	-4.349670E-1	1.769104E-1	-3.485565E-1	1.770477E-1	-3.497162E-1	-7.442627E-1	-3.475952E-1
1.738650E+10	-7.645264E-1	-4.263000E-1	1.690063E-1	-3.497467E-1	1.692963E-1	-3.497009E-1	-7.483826E-1	-3.345947E-1
1.761100E+10	-7.713623E-1	-4.185791E-1	1.633148E-1	-3.497162E-1	1.631927E-1	-3.500671E-1	-7.557068E-1	-3.256226E-1
1.783550E+10	-7.775269E-1	-4.099426E-1	1.573639E-1	-3.506775E-1	1.568909E-1	-3.506622E-1	-7.637939E-1	-3.096619E-1
1.806000E+10	-7.831726E-1	-4.038696E-1	1.505280E-1	-3.519135E-1	1.519318E-1	-3.524933E-1	-7.662659E-1	-2.970581E-1
1.828450E+10	-7.868652E-1	-3.928223E-1	1.446381E-1	-3.510590E-1	1.458435E-1	-3.522949E-1	-7.720947E-1	-2.884827E-1
1.850900E+10	-7.939453E-1	-3.859558E-1	1.396027E-1	-3.516998E-1	1.392975E-1	-3.519897E-1	-7.788696E-1	-2.741394E-1
1.873350E+10	-7.982178E-1	-3.767700E-1	1.321106E-1	-3.515472E-1	1.325531E-1	-3.526917E-1	-7.819214E-1	-2.587891E-1
1.895800E+10	-8.027344E-1	-3.693542E-1	1.272125E-1	-3.521576E-1	1.281891E-1	-3.510132E-1	-7.855225E-1	-2.509460E-1
1.918250E+10	-8.068542E-1	-3.618164E-1	1.212921E-1	-3.507690E-1	1.211243E-1	-3.510132E-1	-7.926941E-1	-2.370300E-1
1.940700E+10	-8.114319E-1	-3.550415E-1	1.153870E-1	-3.502045E-1	1.144867E-1	-3.521118E-1	-7.938843E-1	-2.217407E-1
1.963150E+10	-8.159485E-1	-3.461304E-1	1.093597E-1	-3.501587E-1	1.094971E-1	-3.498383E-1	-7.974548E-1	-2.096252E-1
1.985600E+10	-8.208618E-1	-3.393250E-1	1.021576E-1	-3.488770E-1	1.029968E-1	-3.492584E-1	-8.025513E-1	-2.003479E-1
2.008050E+10	-8.236694E-1	-3.322754E-1	9.782410E-2	-3.491058E-1	9.986877E-2	-3.491821E-1	-8.043518E-1	-1.840210E-1
2.030500E+10	-8.283997E-1	-3.236084E-1	9.403992E-2	-3.481598E-1	9.292603E-2	-3.472900E-1	-8.056641E-1	-1.743774E-1
2.052950E+10	-8.326416E-1	-3.155212E-1	8.599854E-2	-3.472748E-1	8.660889E-2	-3.476105E-1	-8.117676E-1	-1.609192E-1
2.075400E+10	-8.360901E-1	-3.077087E-1	8.183289E-2	-3.480225E-1	8.206177E-2	-3.467102E-1	-8.137817E-1	-1.493225E-1
2.097850E+10	-8.406067E-1	-3.003540E-1	7.627869E-2	-3.447113E-1	7.687378E-2	-3.464966E-1	-8.132629E-1	-1.358643E-1
2.120300E+10	-8.426514E-1	-2.918701E-1	7.180786E-2	-3.427277E-1	7.237244E-2	-3.446198E-1	-8.169861E-1	-1.271057E-1
2.142750E+10	-8.488770E-1	-2.853088E-1	6.573486E-2	-3.436279E-1	6.700134E-2	-3.435211E-1	-8.211060E-1	-1.130981E-1
2.165200E+10	-8.522034E-1	-2.767944E-1	6.135559E-2	-3.422699E-1	6.301880E-2	-3.439484E-1	-8.210754E-1	-1.002808E-1
2.187650E+10	-8.540039E-1	-2.673950E-1	5.952454E-2	-3.407288E-1	5.688477E-2	-3.423462E-1	-8.231812E-1	-8.950806E-2
2.210100E+10	-8.588562E-1	-2.580261E-1	5.256653E-2	-3.382568E-1	5.216980E-2	-3.396149E-1	-8.266602E-1	-7.513428E-2
2.232550E+10	-8.594360E-1	-2.533569E-1	4.608154E-2	-3.366241E-1	4.881287E-2	-3.394012E-1	-8.246155E-1	-6.076050E-2
2.255000E+10	-8.640747E-1	-2.438049E-1	4.241943E-2	-3.354340E-1	4.536438E-2	-3.397217E-1	-8.285522E-1	-5.218506E-2
2.277450E+10	-8.668823E-1	-2.367859E-1	3.680420E-2	-3.343658E-1	3.964233E-2	-3.379211E-1	-8.297424E-1	-3.735352E-2
2.299900E+10	-8.664856E-1	-2.297058E-1	3.388977E-2	-3.343048E-1	3.474426E-2	-3.353577E-1	-8.276367E-1	-2.560425E-2
2.322350E+10	-8.699951E-1	-2.221985E-1	3.002930E-2	-3.341827E-1	3.083801E-2	-3.344879E-1	-8.312988E-1	-1.495361E-2
2.344800E+10	-8.707886E-1	-2.175598E-1	2.593994E-2	-3.327484E-1	2.519226E-2	-3.319397E-1	-8.309326E-1	-4.577637E-4
2.367250E+10	-8.748779E-1	-2.088623E-1	2.047729E-2	-3.316345E-1	2.029419E-2	-3.323975E-1	-8.281555E-1	1.751709E-2
2.389700E+10	-8.760376E-1	-2.024231E-1	1.835632E-2	-3.287354E-1	1.654053E-2	-3.305359E-1	-8.296814E-1	2.487183E-2
2.412150E+10	-8.807983E-1	-1.954956E-1	1.057434E-2	-3.278198E-1	1.161194E-2	-3.281860E-1	-8.271484E-1	4.165649E-2
2.434600E+10	-8.819885E-1	-1.869507E-1	8.987427E-3	-3.265839E-1	9.201050E-3	-3.266449E-1	-8.244324E-1	5.276489E-2
2.457050E+10	-8.836975E-1	-1.817627E-1	4.089355E-3	-3.256531E-1	3.372192E-3	-3.255310E-1	-8.234253E-1	6.198120E-2
2.479500E+10	-8.878784E-1	-1.739197E-1	-3.051758E-5	-3.239288E-1	9.613037E-4	-3.254700E-1	-8.203430E-1	7.849121E-2
2.501950E+10	-8.868408E-1	-1.681519E-1	-5.584717E-3	-3.233185E-1	-4.440308E-3	-3.236237E-1	-8.148804E-1	8.773804E-2
2.524400E+10	-8.916016E-1	-1.602478E-1	-9.445190E-3	-3.224487E-1	-6.576538E-3	-3.221436E-1	-8.173218E-1	9.570312E-2
2.546850E+10	-8.926392E-1	-1.495667E-1	-1.367187E-2	-3.170471E-1	-1.177979E-2	-3.192749E-1	-8.138733E-1	1.076355E-1
2.569300E+10	-8.922424E-1	-1.463013E-1	-1.591492E-2	-3.174286E-1	-1.400757E-2	-3.171692E-1	-8.102722E-1	1.158142E-1
2.591750E+10	-8.986206E-1	-1.372681E-1	-1.890564E-2	-3.159027E-1	-1.951599E-2	-3.144989E-1	-8.114014E-1	1.302490E-1
2.614200E+10	-8.947144E-1	-1.307678E-1	-2.284241E-2	-3.120728E-1	-2.175903E-2	-3.139954E-1	-8.075562E-1	1.434021E-1
2.636650E+10	-8.995972E-1	-1.217041E-1	-2.713013E-2	-3.133698E-1	-2.651978E-2	-3.132324E-1	-8.063965E-1	1.549377E-1
2.659100E+10	-9.016418E-1	-1.166077E-1	-3.137207E-2	-3.099518E-1	-3.033447E-2	-3.103180E-1	-7.999573E-1	1.666565E-1
2.681550E+10	-8.998718E-1	-1.128540E-1	-3.379822E-2	-3.085327E-1	-3.346252E-2	-3.094940E-1	-8.000183E-1	1.744995E-1
2.704000E+10	-9.029236E-1	-1.016541E-1	-3.796387E-2	-3.068695E-1	-3.704834E-2	-3.053589E-1	-7.977905E-1	1.915894E-1
2.726450E+10	-9.032898E-1	-9.674072E-2	-4.025269E-2	-3.067627E-1	-4.075623E-2	-3.059692E-1	-7.871399E-1	2.013855E-1
2.748900E+10	-9.047546E-1	-9.030151E-2	-4.335022E-2	-3.024292E-1	-4.322815E-2	-3.037262E-1	-7.875977E-1	2.058411E-1
2.771350E+10	-9.045410E-1	-8.361816E-2	-5.116272E-2	-3.025055E-1	-4.846191E-2	-2.992401E-1	-7.814941E-1	2.211304E-1
2.793800E+10	-9.084778E-1	-7.528687E-2	-5.276489E-2	-2.997437E-1	-5.244446E-2	-2.982788E-1	-7.730713E-1	2.307434E-1
2.816250E+10	-9.085693E-1	-6.729126E-2	-5.485535E-2	-2.980804E-1	-5.436707E-2	-3.006897E-1	-7.760315E-1	2.407532E-1
2.838700E+10	-9.085388E-1	-6.170654E-2	-6.053162E-2	-2.982330E-1	-5.886841E-2	-2.957153E-1	-7.688293E-1	2.560120E-1
2.861150E+10	-9.124146E-1	-5.618286E-2	-6.449890E-2	-2.947388E-1	-6.245422E-2	-2.937164E-1	-7.619019E-1	2.635803E-1
2.883600E+10	-9.113770E-1	-4.913330E-2	-6.649780E-2	-2.905426E-1	-6.730652E-2	-2.903900E-1	-7.594299E-1	2.682190E-1
2.906050E+10	-9.120483E-1	-4.266357E-2	-6.930542E-2	-2.884674E-1	-6.823730E-2	-2.905884E-1	-7.502441E-1	2.836304E-1
2.928500E+10	-9.122620E-1	-3.509521E-2	-7.072449E-2	-2.862854E-1	-7.191467E-2	-2.886963E-1	-7.445984E-1	2.894592E-1
2.950950E+10	-9.156799E-1	-2.966309E-2	-7.411194E-2	-2.825928E-1	-7.537842E-2	-2.842255E-1	-7.431946E-1	3.037109E-1
2.973400E+10	-9.158936E-1	-2.279663E-2	-7.507324E-2	-2.813263E-1	-7.577515E-2	-2.823181E-1	-7.406006E-1	3.149414E-1
2.995850E+10	-9.150391E-1	-1.321411E-2	-7.992554E-2	-2.827148E-1	-7.867432E-2	-2.797546E-1	-7.355347E-1	3.227234E-1
3.018300E+10	-9.137878E-1	-8.819580E-3	-8.204651E-2	-2.785645E-1	-8.105469E-2	-2.786255E-1	-7.307434E-1	3.403320E-1
3.040750E+10	-9.140320E-1	-1.495361E-3	-8.457947E-2	-2.782593E-1	-8.293152E-2	-2.767792E-1	-7.225952E-1	3.456116E-1
3.063200E+10	-9.132996E-1	4.180908E-3	-8.679199E-2	-2.777863E-1	-8.758545E-2	-2.793732E-1	-7.199097E-1	3.564758E-1
3.085650E+10	-9.162903E-1	1.126099E-2	-9.214783E-2	-2.755432E-1	-9.141541E-2	-2.738953E-1	-7.074585E-1	3.670349E-1
3.108100E+10	-9.169617E-1	1.657104E-2	-9.484863E-2	-2.734985E-1	-9.538269E-2	-2.697601E-1	-7.002563E-1	3.743896E-1
3.130550E+10	-9.160461E-1	2.447510E-2	-9.782410E-2	-2.698669E-1	-9.458923E-2	-2.719421E-1	-6.912842E-1	3.855896E-1
3.153000E+10	-9.165649E-1	3.179932E-2	-1.017151E-1	-2.665100E-1	-1.022949E-1	-2.678375E-1	-6.829834E-1	3.942566E-1
3.175450E+10	-9.140930E-1	4.101562E-2	-1.014404E-1	-2.665405E-1	-1.002960E-1	-2.671967E-1	-6.775513E-1	4.062805E-1
3.197900E+10	-9.160767E-1	4.421997E-2	-1.104126E-1	-2.646027E-1	-1.051025E-1	-2.640839E-1	-6.652832E-1	4.156494E-1
3.220350E+10	-9.170227E-1	4.928589E-2	-1.067505E-1	-2.648773E-1	-1.064911E-1	-2.621918E-1	-6.614380E-1	4.291382E-1
3.242800E+10	-9.157410E-1	5.676270E-2	-1.119232E-1	-2.577820E-1	-1.105652E-1	-2.611237E-1	-6.514587E-1	4.319153E-1
3.265250E+10	-9.201050E-1	6.170654E-2	-1.173096E-1	-2.547455E-1	-1.147003E-1	-2.561951E-1	-6.414185E-1	4.414978E-1
3.287700E+10	-9.139404E-1	7.232666E-2	-1.166840E-1	-2.557526E-1	-1.130829E-1	-2.532349E-1	-6.376343E-1	4.475708E-1
3.310150E+10	-9.188843E-1	7.894897E-2	-1.186218E-1	-2.505951E-1	-1.174850E-1	-2.494736E-1	-6.211853E-1	4.569092E-1
3.332600E+10	-9.150391E-1	8.193970E-2	-1.229019E-1	-2.431030E-1	-1.205444E-1	-2.445679E-1	-6.129150E-1	4.577332E-1
3.355050E+10	-9.138794E-1	9.130859E-2	-1.249466E-1	-2.419128E-1	-1.221313E-1	-2.466888E-1	-6.099243E-1	4.719849E-1
3.377500E+10	-9.131470E-1	9.884644E-2	-1.269150E-1	-2.408371E-1	-1.254272E-1	-2.398071E-1	-5.991211E-1	4.729004E-1
3.399950E+10	-9.094543E-1	1.035156E-1	-1.286926E-1	-2.376480E-1	-1.259689E-1	-2.420349E-1	-5.993958E-1	4.817200E-1
3.422400E+10	-9.151611E-1	1.104126E-1	-1.265564E-1	-2.423935E-1	-1.270294E-1	-2.416229E-1	-5.863953E-1	5.032654E-1
3.444850E+10	-9.140320E-1	1.186829E-1	-1.311340E-1	-2.388306E-1	-1.325150E-1	-2.364120E-1	-5.756836E-1	5.041199E-1
3.467300E+10	-9.096375E-1	1.228943E-1	-1.322632E-1	-2.355804E-1	-1.334000E-1	-2.370300E-1	-5.660706E-1	5.122681E-1
3.489750E+10	-9.117737E-1	1.288147E-1	-1.342163E-1	-2.348938E-1	-1.367111E-1	-2.317200E-1	-5.564575E-1	5.219421E-1
3.512200E+10	-9.123230E-1	1.341248E-1	-1.393967E-1	-2.346420E-1	-1.346664E-1	-2.343826E-1	-5.463257E-1	5.236511E-1
3.534650E+10	-9.092102E-1	1.385193E-1	-1.425095E-1	-2.273026E-1	-1.395950E-1	-2.325516E-1	-5.357361E-1	5.351257E-1
3.557100E+10	-9.069214E-1	1.437988E-1	-1.447144E-1	-2.312317E-1	-1.499176E-1	-2.265244E-1	-5.217590E-1	5.468750E-1
3.579550E+10	-9.096680E-1	1.543274E-1	-1.434174E-1	-2.284012E-1	-1.482315E-1	-2.265244E-1	-5.073547E-1	5.525208E-1
3.602000E+10	-9.050903E-1	1.581421E-1	-1.473923E-1	-2.259598E-1	-1.531372E-1	-2.248230E-1	-5.000610E-1	5.568542E-1
3.624450E+10	-9.047241E-1	1.672974E-1	-1.545181E-1	-2.249374E-1	-1.502762E-1	-2.188797E-1	-4.890137E-1	5.578918E-1
3.646900E+10	-9.038391E-1	1.736145E-1	-1.537247E-1	-2.213669E-1	-1.551743E-1	-2.160187E-1	-4.770508E-1	5.698547E-1
3.669350E+10	-9.011230E-1	1.760559E-1	-1.551437E-1	-2.193680E-1	-1.530533E-1	-2.162857E-1	-4.570618E-1	5.722961E-1
3.691800E+10	-8.988037E-1	1.838074E-1	-1.587906E-1	-2.145996E-1	-1.580734E-1	-2.187271E-1	-4.523926E-1	5.754395E-1
3.714250E+10	-8.999939E-1	1.903687E-1	-1.579895E-1	-2.071991E-1	-1.612930E-1	-2.070160E-1	-4.372864E-1	5.854797E-1
3.736700E+10	-8.935547E-1	1.992493E-1	-1.589432E-1	-2.060242E-1	-1.619415E-1	-2.076111E-1	-4.235535E-1	5.871887E-1
3.759150E+10	-8.914490E-1	2.044678E-1	-1.617584E-1	-2.089920E-1	-1.636887E-1	-2.088242E-1	-4.141846E-1	5.891724E-1
3.781600E+10	-8.958130E-1	2.055664E-1	-1.659012E-1	-2.017899E-1	-1.640167E-1	-2.077789E-1	-4.011536E-1	5.974121E-1
3.804050E+10	-8.868103E-1	2.106628E-1	-1.678162E-1	-1.970291E-1	-1.677094E-1	-1.985550E-1	-3.837280E-1	6.006775E-1
3.826500E+10	-8.847046E-1	2.164917E-1	-1.697006E-1	-2.016068E-1	-1.695251E-1	-1.968536E-1	-3.654175E-1	6.106873E-1
3.848950E+10	-8.911438E-1	2.265625E-1	-1.698990E-1	-1.956635E-1	-1.761093E-1	-1.943436E-1	-3.611755E-1	6.092834E-1
3.871400E+10	-8.856506E-1	2.291260E-1	-1.716537E-1	-1.920929E-1	-1.779251E-1	-1.920929E-1	-3.367004E-1	6.122742E-1
3.893850E+10	-8.861084E-1	2.427368E-1	-1.767578E-1	-1.965790E-1	-1.799850E-1	-1.900406E-1	-3.254395E-1	6.096802E-1
