!Date: 10/28/2005, 12:34 PM

!Vgs = -4.000000E+0
!Vds = 4.000000E+0
!Ig = -2.203400E-5
!Id = 1.379100E-1

# HZ S RI R 50
1.000000E+8	9.581604E-1	-1.992187E-1	-1.440088E+1	1.517090E+0	-7.987022E-5	7.591486E-3	4.188232E-1	-8.830261E-2
3.245000E+8	7.598572E-1	-5.794678E-1	-1.257080E+1	4.904297E+0	1.132774E-2	2.583790E-2	2.734680E-1	-2.485962E-1
5.490000E+8	4.813538E-1	-8.018799E-1	-1.024170E+1	6.736328E+0	2.489090E-2	3.496361E-2	1.696625E-1	-3.263397E-1
7.735000E+8	2.100525E-1	-8.943787E-1	-7.989014E+0	7.463867E+0	3.758621E-2	3.776550E-2	5.883789E-2	-3.628998E-1
9.980000E+8	-1.327515E-2	-9.066772E-1	-6.115967E+0	7.534180E+0	4.776764E-2	3.705978E-2	-2.824402E-2	-3.606567E-1
1.222500E+9	-1.918640E-1	-8.791504E-1	-4.656006E+0	7.304687E+0	5.566025E-2	3.438759E-2	-9.365845E-2	-3.520508E-1
1.447000E+9	-3.310547E-1	-8.330994E-1	-3.519775E+0	6.913574E+0	6.175041E-2	3.106880E-2	-1.468506E-1	-3.356171E-1
1.671500E+9	-4.369812E-1	-7.807007E-1	-2.649658E+0	6.464844E+0	6.615067E-2	2.826309E-2	-1.878204E-1	-3.183289E-1
1.896000E+9	-5.208740E-1	-7.257385E-1	-2.000000E+0	6.012695E+0	7.020950E-2	2.464676E-2	-2.192993E-1	-2.976990E-1
2.120500E+9	-5.842285E-1	-6.737366E-1	-1.496094E+0	5.601562E+0	7.292175E-2	2.126694E-2	-2.434235E-1	-2.807770E-1
2.345000E+9	-6.347351E-1	-6.221619E-1	-1.092773E+0	5.210937E+0	7.516479E-2	1.797104E-2	-2.627258E-1	-2.635498E-1
2.569500E+9	-6.719360E-1	-5.767517E-1	-7.761230E-1	4.852051E+0	7.611465E-2	1.432419E-2	-2.771759E-1	-2.490387E-1
2.794000E+9	-7.035522E-1	-5.393066E-1	-5.317383E-1	4.538574E+0	7.761002E-2	1.174927E-2	-2.892151E-1	-2.363434E-1
3.018500E+9	-7.290955E-1	-5.013428E-1	-3.212891E-1	4.246582E+0	7.833481E-2	9.090424E-3	-2.990875E-1	-2.246094E-1
3.243000E+9	-7.503052E-1	-4.675903E-1	-1.500244E-1	3.989014E+0	7.892609E-2	6.595612E-3	-3.082733E-1	-2.146301E-1
3.467500E+9	-7.687073E-1	-4.386597E-1	-7.202148E-3	3.756714E+0	7.943344E-2	4.119873E-3	-3.150787E-1	-2.060852E-1
3.692000E+9	-7.837830E-1	-4.106445E-1	1.160889E-1	3.538208E+0	8.025360E-2	2.376556E-3	-3.227386E-1	-1.992493E-1
3.916500E+9	-7.976379E-1	-3.838501E-1	2.154541E-1	3.338257E+0	8.012009E-2	-1.258850E-4	-3.303223E-1	-1.911316E-1
4.141000E+9	-8.081665E-1	-3.594360E-1	3.011475E-1	3.158813E+0	8.058167E-2	-2.372742E-3	-3.350525E-1	-1.850281E-1
4.365500E+9	-8.158264E-1	-3.377075E-1	3.764648E-1	2.992310E+0	8.025360E-2	-4.257202E-3	-3.402405E-1	-1.799316E-1
4.590000E+9	-8.244934E-1	-3.181152E-1	4.379883E-1	2.834717E+0	8.022690E-2	-5.966187E-3	-3.455200E-1	-1.741791E-1
4.814500E+9	-8.319702E-1	-2.986450E-1	4.880371E-1	2.692383E+0	8.065796E-2	-7.614136E-3	-3.499146E-1	-1.688385E-1
5.039000E+9	-8.373718E-1	-2.807617E-1	5.347900E-1	2.561157E+0	8.037186E-2	-9.613037E-3	-3.544464E-1	-1.650848E-1
5.263500E+9	-8.425598E-1	-2.631836E-1	5.745850E-1	2.439819E+0	8.050537E-2	-1.143265E-2	-3.588409E-1	-1.595001E-1
5.488000E+9	-8.465881E-1	-2.486267E-1	6.092529E-1	2.327271E+0	7.974625E-2	-1.307678E-2	-3.622437E-1	-1.560364E-1
5.712500E+9	-8.511353E-1	-2.342224E-1	6.402588E-1	2.218018E+0	7.934570E-2	-1.440811E-2	-3.653870E-1	-1.535645E-1
5.937000E+9	-8.551636E-1	-2.187805E-1	6.639404E-1	2.118286E+0	7.931900E-2	-1.627350E-2	-3.705139E-1	-1.488495E-1
6.161500E+9	-8.579102E-1	-2.072144E-1	6.881104E-1	2.027588E+0	7.889175E-2	-1.812744E-2	-3.733521E-1	-1.449738E-1
6.386000E+9	-8.611755E-1	-1.935730E-1	7.086792E-1	1.938171E+0	7.847977E-2	-1.946259E-2	-3.756104E-1	-1.423950E-1
6.610500E+9	-8.627625E-1	-1.820374E-1	7.281494E-1	1.856201E+0	7.809448E-2	-2.060699E-2	-3.800049E-1	-1.406708E-1
6.835000E+9	-8.665161E-1	-1.712036E-1	7.430420E-1	1.775391E+0	7.817459E-2	-2.194595E-2	-3.835602E-1	-1.359863E-1
7.059500E+9	-8.675842E-1	-1.607971E-1	7.520142E-1	1.701782E+0	7.748413E-2	-2.416992E-2	-3.842010E-1	-1.346130E-1
7.284000E+9	-8.690491E-1	-1.501465E-1	7.642212E-1	1.630676E+0	7.694626E-2	-2.545929E-2	-3.892517E-1	-1.329193E-1
7.508500E+9	-8.716125E-1	-1.394653E-1	7.735596E-1	1.563049E+0	7.635498E-2	-2.623749E-2	-3.912354E-1	-1.278839E-1
7.733000E+9	-8.721313E-1	-1.295166E-1	7.813721E-1	1.500061E+0	7.590103E-2	-2.746964E-2	-3.932190E-1	-1.285400E-1
7.957500E+9	-8.727722E-1	-1.193542E-1	7.893677E-1	1.440491E+0	7.520676E-2	-2.844620E-2	-3.980408E-1	-1.262207E-1
8.182000E+9	-8.742371E-1	-1.102600E-1	7.954102E-1	1.383179E+0	7.446671E-2	-3.021622E-2	-4.017639E-1	-1.232910E-1
8.406500E+9	-8.742676E-1	-1.031189E-1	7.979736E-1	1.327820E+0	7.423019E-2	-3.145981E-2	-4.040680E-1	-1.207886E-1
8.631000E+9	-8.759155E-1	-9.375000E-2	8.029175E-1	1.273071E+0	7.305908E-2	-3.296280E-2	-4.080353E-1	-1.188660E-1
8.855500E+9	-8.766479E-1	-8.700562E-2	8.056030E-1	1.221313E+0	7.289124E-2	-3.362656E-2	-4.116821E-1	-1.154938E-1
9.080001E+9	-8.773804E-1	-7.916260E-2	8.066406E-1	1.174377E+0	7.194901E-2	-3.492737E-2	-4.127045E-1	-1.124268E-1
9.304500E+9	-8.768616E-1	-6.927490E-2	8.068237E-1	1.128296E+0	7.089615E-2	-3.660965E-2	-4.159088E-1	-1.111145E-1
9.529000E+9	-8.773499E-1	-6.350708E-2	8.074951E-1	1.083801E+0	7.017136E-2	-3.729630E-2	-4.199219E-1	-1.082306E-1
9.753500E+9	-8.783264E-1	-5.718994E-2	8.064575E-1	1.040894E+0	6.903458E-2	-3.924179E-2	-4.216766E-1	-1.048126E-1
9.978000E+9	-8.782654E-1	-4.907227E-2	8.043823E-1	1.000305E+0	6.839752E-2	-3.987503E-2	-4.244232E-1	-1.043549E-1
1.020250E+10	-8.786316E-1	-4.266357E-2	8.038940E-1	9.605713E-1	6.713486E-2	-4.027939E-2	-4.277039E-1	-1.012268E-1
1.042700E+10	-8.795166E-1	-3.585815E-2	8.015137E-1	9.236145E-1	6.667709E-2	-4.126358E-2	-4.298859E-1	-9.925842E-2
1.065150E+10	-8.787842E-1	-2.969360E-2	7.991943E-1	8.885803E-1	6.522751E-2	-4.260635E-2	-4.317169E-1	-9.722900E-2
1.087600E+10	-8.794556E-1	-2.270508E-2	7.964783E-1	8.529968E-1	6.488800E-2	-4.376984E-2	-4.358215E-1	-9.472656E-2
1.110050E+10	-8.795166E-1	-1.593018E-2	7.940369E-1	8.177490E-1	6.320190E-2	-4.489136E-2	-4.372711E-1	-9.211731E-2
1.132500E+10	-8.786316E-1	-1.004028E-2	7.908630E-1	7.862854E-1	6.275177E-2	-4.557419E-2	-4.396210E-1	-9.111023E-2
1.154950E+10	-8.791199E-1	-3.814697E-3	7.864990E-1	7.535095E-1	6.101990E-2	-4.556656E-2	-4.458313E-1	-8.859253E-2
1.177400E+10	-8.775330E-1	1.098633E-3	7.816772E-1	7.250061E-1	6.065178E-2	-4.745293E-2	-4.465027E-1	-8.366394E-2
1.199850E+10	-8.783875E-1	7.232666E-3	7.789612E-1	6.961975E-1	5.951500E-2	-4.676437E-2	-4.480591E-1	-8.502197E-2
1.222300E+10	-8.769531E-1	1.266479E-2	7.725830E-1	6.670532E-1	5.879593E-2	-4.861832E-2	-4.530334E-1	-8.125305E-2
1.244750E+10	-8.772888E-1	1.770020E-2	7.669373E-1	6.388245E-1	5.759621E-2	-4.861832E-2	-4.550323E-1	-7.708740E-2
1.267200E+10	-8.771667E-1	2.365112E-2	7.615356E-1	6.130371E-1	5.672455E-2	-4.971695E-2	-4.565735E-1	-7.728577E-2
1.289650E+10	-8.761902E-1	2.865601E-2	7.552185E-1	5.874023E-1	5.583382E-2	-5.066490E-2	-4.621429E-1	-7.533264E-2
1.312100E+10	-8.761597E-1	3.305054E-2	7.495422E-1	5.640259E-1	5.480766E-2	-5.185318E-2	-4.630127E-1	-6.927490E-2
1.334550E+10	-8.751831E-1	3.918457E-2	7.444763E-1	5.408630E-1	5.423927E-2	-5.256462E-2	-4.636230E-1	-6.889343E-2
1.357000E+10	-8.748779E-1	4.321289E-2	7.376099E-1	5.174255E-1	5.329704E-2	-5.317879E-2	-4.695892E-1	-6.889343E-2
1.379450E+10	-8.749390E-1	4.864502E-2	7.321472E-1	4.965820E-1	5.104446E-2	-5.305290E-2	-4.728394E-1	-6.257629E-2
1.401900E+10	-8.736572E-1	5.401611E-2	7.265320E-1	4.765015E-1	5.176544E-2	-5.335808E-2	-4.714050E-1	-6.053162E-2
1.424350E+10	-8.738098E-1	5.905151E-2	7.190247E-1	4.541321E-1	5.002975E-2	-5.422020E-2	-4.760132E-1	-5.850220E-2
1.446800E+10	-8.730469E-1	6.298828E-2	7.128296E-1	4.349670E-1	4.820061E-2	-5.561638E-2	-4.786682E-1	-5.239868E-2
1.469250E+10	-8.719177E-1	6.860352E-2	7.069397E-1	4.154968E-1	4.733086E-2	-5.517578E-2	-4.791718E-1	-5.055237E-2
1.491700E+10	-8.717957E-1	7.156372E-2	7.007751E-1	3.962402E-1	4.625511E-2	-5.535507E-2	-4.826660E-1	-4.977417E-2
1.514150E+10	-8.705444E-1	7.775879E-2	6.935120E-1	3.788147E-1	4.494858E-2	-5.602646E-2	-4.845428E-1	-4.412842E-2
1.536600E+10	-8.692932E-1	8.316040E-2	6.871338E-1	3.602295E-1	4.425812E-2	-5.732155E-2	-4.851532E-1	-4.144287E-2
1.559050E+10	-8.678894E-1	8.731079E-2	6.798706E-1	3.437805E-1	4.290199E-2	-5.727386E-2	-4.888916E-1	-4.107666E-2
1.581500E+10	-8.684998E-1	9.078979E-2	6.728210E-1	3.262329E-1	4.187965E-2	-5.652237E-2	-4.930267E-1	-3.611755E-2
1.603950E+10	-8.686829E-1	9.613037E-2	6.664429E-1	3.113403E-1	4.040146E-2	-5.807304E-2	-4.913940E-1	-3.359985E-2
1.626400E+10	-8.670349E-1	1.003723E-1	6.592102E-1	2.966614E-1	3.965950E-2	-5.872154E-2	-4.958954E-1	-3.219604E-2
1.648850E+10	-8.649902E-1	1.031494E-1	6.519775E-1	2.810059E-1	3.818893E-2	-5.939102E-2	-4.981842E-1	-2.673340E-2
1.671300E+10	-8.650208E-1	1.099548E-1	6.440125E-1	2.653503E-1	3.730011E-2	-5.974960E-2	-5.001831E-1	-2.413940E-2
1.693750E+10	-8.643799E-1	1.124268E-1	6.377869E-1	2.528687E-1	3.634262E-2	-5.953026E-2	-5.030212E-1	-2.050781E-2
1.716200E+10	-8.624268E-1	1.177063E-1	6.299744E-1	2.394714E-1	3.557587E-2	-5.975342E-2	-5.052490E-1	-1.562500E-2
1.738650E+10	-8.617554E-1	1.218262E-1	6.230774E-1	2.283020E-1	3.395653E-2	-6.059456E-2	-5.048828E-1	-1.345825E-2
1.761100E+10	-8.610840E-1	1.250610E-1	6.160583E-1	2.152100E-1	3.224182E-2	-6.078911E-2	-5.098267E-1	-1.062012E-2
1.783550E+10	-8.594055E-1	1.304321E-1	6.090393E-1	2.023926E-1	2.927208E-2	-6.099701E-2	-5.126648E-1	-2.960205E-3
1.806000E+10	-8.599548E-1	1.347656E-1	6.026001E-1	1.919861E-1	3.067207E-2	-6.048203E-2	-5.125732E-1	3.356934E-4
1.828450E+10	-8.588562E-1	1.384277E-1	5.968933E-1	1.792297E-1	2.931023E-2	-6.097031E-2	-5.145874E-1	2.746582E-4
1.850900E+10	-8.571777E-1	1.421509E-1	5.913696E-1	1.682129E-1	2.840233E-2	-6.220818E-2	-5.164490E-1	3.356934E-3
1.873350E+10	-8.567200E-1	1.456909E-1	5.829468E-1	1.580200E-1	2.583885E-2	-6.208992E-2	-5.153198E-1	1.101685E-2
1.895800E+10	-8.537903E-1	1.495361E-1	5.745239E-1	1.477661E-1	2.630997E-2	-6.232071E-2	-5.176086E-1	1.013184E-2
1.918250E+10	-8.537292E-1	1.532898E-1	5.669556E-1	1.377869E-1	2.533722E-2	-6.176567E-2	-5.211182E-1	1.599121E-2
1.940700E+10	-8.506470E-1	1.575317E-1	5.611572E-1	1.266479E-1	2.384758E-2	-6.225777E-2	-5.228577E-1	2.343750E-2
1.963150E+10	-8.509216E-1	1.617432E-1	5.525513E-1	1.185608E-1	2.207947E-2	-6.282043E-2	-5.225830E-1	2.447510E-2
1.985600E+10	-8.503113E-1	1.655884E-1	5.458984E-1	1.093140E-1	2.111244E-2	-6.241798E-2	-5.271301E-1	2.551270E-2
2.008050E+10	-8.486328E-1	1.680298E-1	5.386353E-1	9.918213E-2	1.960373E-2	-6.272507E-2	-5.274353E-1	3.558350E-2
2.030500E+10	-8.474731E-1	1.719360E-1	5.322876E-1	9.271240E-2	1.868439E-2	-6.257248E-2	-5.249023E-1	3.503418E-2
2.052950E+10	-8.448181E-1	1.753540E-1	5.261536E-1	8.358765E-2	1.634598E-2	-6.288910E-2	-5.287781E-1	3.967285E-2
2.075400E+10	-8.439026E-1	1.789856E-1	5.203552E-1	7.687378E-2	1.515198E-2	-6.191444E-2	-5.307617E-1	4.446411E-2
2.097850E+10	-8.438416E-1	1.826477E-1	5.131836E-1	7.077026E-2	1.282120E-2	-6.125832E-2	-5.277710E-1	4.891968E-2
2.120300E+10	-8.434143E-1	1.853943E-1	5.054626E-1	6.317139E-2	1.376724E-2	-6.300735E-2	-5.320129E-1	4.843140E-2
2.142750E+10	-8.408813E-1	1.906128E-1	5.020142E-1	5.578613E-2	1.158524E-2	-6.018257E-2	-5.341187E-1	5.508423E-2
2.165200E+10	-8.406372E-1	1.939697E-1	4.931183E-1	4.901123E-2	1.122093E-2	-6.174088E-2	-5.331116E-1	6.103516E-2
2.187650E+10	-8.394775E-1	1.979980E-1	4.869080E-1	4.125977E-2	1.044273E-2	-5.929565E-2	-5.355835E-1	6.405640E-2
2.210100E+10	-8.394165E-1	2.016296E-1	4.802551E-1	3.163147E-2	7.152557E-3	-6.088448E-2	-5.391846E-1	7.107544E-2
2.232550E+10	-8.345947E-1	2.045593E-1	4.758453E-1	2.926636E-2	7.678986E-3	-6.007576E-2	-5.368652E-1	7.528687E-2
2.255000E+10	-8.360596E-1	2.081604E-1	4.681549E-1	2.270508E-2	5.697250E-3	-6.204987E-2	-5.371094E-1	7.907104E-2
2.277450E+10	-8.323059E-1	2.117004E-1	4.617004E-1	1.779175E-2	4.451752E-3	-5.979919E-2	-5.398254E-1	8.432007E-2
2.299900E+10	-8.325500E-1	2.146301E-1	4.572144E-1	1.179504E-2	4.108429E-3	-5.881691E-2	-5.385437E-1	8.813477E-2
2.322350E+10	-8.306885E-1	2.192993E-1	4.509125E-1	3.540039E-3	3.517151E-3	-5.959892E-2	-5.403137E-1	8.999634E-2
2.344800E+10	-8.287048E-1	2.206421E-1	4.453278E-1	2.563477E-3	1.173019E-3	-6.010818E-2	-5.411987E-1	9.719849E-2
2.367250E+10	-8.284302E-1	2.255249E-1	4.375000E-1	-4.241943E-3	-7.591248E-4	-6.036377E-2	-5.374451E-1	1.010437E-1
2.389700E+10	-8.249207E-1	2.286072E-1	4.328308E-1	-7.690430E-3	-1.892090E-3	-5.900574E-2	-5.393982E-1	1.044617E-1
2.412150E+10	-8.277283E-1	2.297058E-1	4.267731E-1	-1.261902E-2	-4.884720E-3	-5.785370E-2	-5.373230E-1	1.113281E-1
2.434600E+10	-8.227234E-1	2.340698E-1	4.215088E-1	-1.461792E-2	-3.856659E-3	-5.747795E-2	-5.372620E-1	1.135559E-1
2.457050E+10	-8.206482E-1	2.380676E-1	4.167328E-1	-2.058411E-2	-6.822586E-3	-5.861855E-2	-5.372620E-1	1.167603E-1
2.479500E+10	-8.210144E-1	2.413330E-1	4.103088E-1	-2.465820E-2	-6.536484E-3	-5.719757E-2	-5.385437E-1	1.247253E-1
2.501950E+10	-8.179321E-1	2.447205E-1	4.069977E-1	-2.883911E-2	-8.707047E-3	-5.451393E-2	-5.362244E-1	1.271973E-1
2.524400E+10	-8.164673E-1	2.456665E-1	3.997803E-1	-3.216553E-2	-9.218216E-3	-5.480003E-2	-5.364075E-1	1.284180E-1
2.546850E+10	-8.147278E-1	2.520752E-1	3.946228E-1	-3.352356E-2	-1.183128E-2	-5.424118E-2	-5.357971E-1	1.351624E-1
2.569300E+10	-8.125610E-1	2.516479E-1	3.896942E-1	-3.735352E-2	-1.140404E-2	-5.243683E-2	-5.374451E-1	1.370544E-1
2.591750E+10	-8.111267E-1	2.566833E-1	3.854370E-1	-3.843689E-2	-1.312065E-2	-5.188179E-2	-5.378418E-1	1.425476E-1
2.614200E+10	-8.098450E-1	2.600403E-1	3.795471E-1	-4.287720E-2	-1.400948E-2	-5.241013E-2	-5.396423E-1	1.461487E-1
2.636650E+10	-8.081970E-1	2.615662E-1	3.765564E-1	-4.585266E-2	-1.353645E-2	-5.124855E-2	-5.382385E-1	1.528320E-1
2.659100E+10	-8.047485E-1	2.651062E-1	3.724976E-1	-4.844666E-2	-1.616859E-2	-5.003357E-2	-5.330505E-1	1.571045E-1
2.681550E+10	-8.038330E-1	2.678223E-1	3.669281E-1	-5.030823E-2	-1.738548E-2	-5.004120E-2	-5.361328E-1	1.596375E-1
2.704000E+10	-8.028564E-1	2.722473E-1	3.623505E-1	-5.348206E-2	-1.791954E-2	-4.891586E-2	-5.376587E-1	1.715393E-1
2.726450E+10	-7.981873E-1	2.713623E-1	3.581543E-1	-5.723572E-2	-2.077866E-2	-4.831314E-2	-5.296631E-1	1.706238E-1
2.748900E+10	-7.994385E-1	2.752991E-1	3.571167E-1	-6.079102E-2	-2.076912E-2	-4.725456E-2	-5.346985E-1	1.706238E-1
2.771350E+10	-7.984009E-1	2.803650E-1	3.490448E-1	-5.833435E-2	-2.297974E-2	-4.689026E-2	-5.357971E-1	1.787720E-1
2.793800E+10	-7.949219E-1	2.796326E-1	3.452911E-1	-6.436157E-2	-2.325439E-2	-4.586411E-2	-5.330811E-1	1.799622E-1
2.816250E+10	-7.935181E-1	2.831421E-1	3.408051E-1	-6.530762E-2	-2.111626E-2	-4.660606E-2	-5.319214E-1	1.835937E-1
2.838700E+10	-7.925415E-1	2.862244E-1	3.372345E-1	-6.761169E-2	-2.540398E-2	-4.068184E-2	-5.313110E-1	1.930542E-1
2.861150E+10	-7.907104E-1	2.892456E-1	3.350067E-1	-6.985474E-2	-2.667046E-2	-3.800011E-2	-5.269775E-1	1.952820E-1
2.883600E+10	-7.870789E-1	2.913208E-1	3.323212E-1	-6.842041E-2	-2.615929E-2	-3.767014E-2	-5.281067E-1	1.957703E-1
2.906050E+10	-7.877808E-1	2.936096E-1	3.286591E-1	-7.064819E-2	-2.719688E-2	-3.814125E-2	-5.260620E-1	2.068481E-1
2.928500E+10	-7.861328E-1	2.990112E-1	3.241425E-1	-7.147217E-2	-2.961159E-2	-3.619385E-2	-5.280457E-1	2.074585E-1
2.950950E+10	-7.801514E-1	3.014526E-1	3.222809E-1	-7.577515E-2	-2.837753E-2	-3.496552E-2	-5.288696E-1	2.131042E-1
2.973400E+10	-7.825928E-1	3.022156E-1	3.223419E-1	-7.489014E-2	-3.004837E-2	-3.501129E-2	-5.260620E-1	2.177734E-1
2.995850E+10	-7.776794E-1	3.067322E-1	3.139343E-1	-7.742310E-2	-3.046227E-2	-3.446007E-2	-5.251770E-1	2.270508E-1
3.018300E+10	-7.752991E-1	3.065491E-1	3.124390E-1	-8.287048E-2	-3.221130E-2	-3.076744E-2	-5.285339E-1	2.303772E-1
3.040750E+10	-7.747498E-1	3.075562E-1	3.131561E-1	-8.139038E-2	-3.120995E-2	-2.875042E-2	-5.253296E-1	2.353516E-1
3.063200E+10	-7.715759E-1	3.117065E-1	3.083801E-1	-8.480835E-2	-3.295898E-2	-2.811241E-2	-5.255432E-1	2.410583E-1
3.085650E+10	-7.693787E-1	3.168640E-1	3.078918E-1	-8.491516E-2	-3.489876E-2	-2.752113E-2	-5.210876E-1	2.454224E-1
3.108100E+10	-7.691345E-1	3.156128E-1	3.069763E-1	-8.541870E-2	-3.263855E-2	-2.596283E-2	-5.209045E-1	2.526855E-1
3.130550E+10	-7.659607E-1	3.155212E-1	3.022766E-1	-8.805847E-2	-3.270340E-2	-2.179146E-2	-5.173645E-1	2.498169E-1
3.153000E+10	-7.662354E-1	3.240051E-1	2.997284E-1	-9.033203E-2	-3.249168E-2	-1.689148E-2	-5.114136E-1	2.595520E-1
3.175450E+10	-7.619629E-1	3.258057E-1	2.964630E-1	-9.121704E-2	-3.413773E-2	-1.901627E-2	-5.134888E-1	2.689514E-1
3.197900E+10	-7.640991E-1	3.243103E-1	2.943878E-1	-8.982849E-2	-3.682899E-2	-1.866150E-2	-5.057373E-1	2.713013E-1
3.220350E+10	-7.585754E-1	3.294373E-1	2.926331E-1	-9.147644E-2	-3.327179E-2	-1.783180E-2	-5.056152E-1	2.705994E-1
3.242800E+10	-7.606506E-1	3.308105E-1	2.901459E-1	-9.848022E-2	-3.915215E-2	-1.475906E-2	-5.061951E-1	2.792664E-1
3.265250E+10	-7.607727E-1	3.312988E-1	2.881470E-1	-9.712219E-2	-3.744888E-2	-1.411247E-2	-5.034485E-1	2.877502E-1
3.287700E+10	-7.546997E-1	3.345642E-1	2.899628E-1	-9.994507E-2	-3.522110E-2	-1.438141E-2	-5.052185E-1	2.884521E-1
3.310150E+10	-7.543945E-1	3.339233E-1	2.872314E-1	-1.032410E-1	-3.455544E-2	-1.376915E-2	-4.974976E-1	2.896576E-1
3.332600E+10	-7.515259E-1	3.364868E-1	2.825470E-1	-1.011200E-1	-3.833199E-2	-1.154709E-2	-4.964600E-1	2.963257E-1
3.355050E+10	-7.488098E-1	3.408203E-1	2.819977E-1	-1.062012E-1	-3.412056E-2	-6.635666E-3	-4.972534E-1	3.032379E-1
3.377500E+10	-7.460327E-1	3.433228E-1	2.843628E-1	-1.045227E-1	-3.413963E-2	-8.363724E-3	-4.922028E-1	3.070526E-1
3.399950E+10	-7.459412E-1	3.482971E-1	2.831726E-1	-1.054382E-1	-3.245544E-2	-6.052017E-3	-4.914551E-1	3.137207E-1
3.422400E+10	-7.447510E-1	3.481445E-1	2.811584E-1	-1.097260E-1	-3.311348E-2	-1.050949E-3	-4.879761E-1	3.190308E-1
3.444850E+10	-7.395325E-1	3.472290E-1	2.740173E-1	-1.152191E-1	-3.271866E-2	4.711151E-4	-4.863129E-1	3.270111E-1
3.467300E+10	-7.453613E-1	3.523560E-1	2.803192E-1	-1.133423E-1	-3.313637E-2	-3.814697E-6	-4.864960E-1	3.318481E-1
3.489750E+10	-7.361755E-1	3.498230E-1	2.742004E-1	-1.179047E-1	-3.605461E-2	-8.277893E-4	-4.831238E-1	3.420258E-1
3.512200E+10	-7.366333E-1	3.540039E-1	2.761688E-1	-1.186981E-1	-3.442001E-2	2.872467E-3	-4.765625E-1	3.381805E-1
3.534650E+10	-7.368774E-1	3.535461E-1	2.739868E-1	-1.192169E-1	-2.879715E-2	5.883217E-3	-4.772491E-1	3.475647E-1
3.557100E+10	-7.336731E-1	3.566284E-1	2.776337E-1	-1.233673E-1	-3.403664E-2	6.166458E-3	-4.661255E-1	3.568726E-1
3.579550E+10	-7.326965E-1	3.572083E-1	2.719421E-1	-1.244507E-1	-3.320694E-2	9.349823E-3	-4.636688E-1	3.573456E-1
3.602000E+10	-7.301636E-1	3.659973E-1	2.679596E-1	-1.282806E-1	-3.092003E-2	3.581047E-3	-4.631500E-1	3.612671E-1
3.624450E+10	-7.286987E-1	3.652954E-1	2.699890E-1	-1.314240E-1	-3.633118E-2	9.754181E-3	-4.618683E-1	3.689880E-1
3.646900E+10	-7.272644E-1	3.679810E-1	2.675781E-1	-1.356506E-1	-2.915382E-2	9.484291E-3	-4.496307E-1	3.804169E-1
3.669350E+10	-7.265625E-1	3.627319E-1	2.664185E-1	-1.332855E-1	-3.327751E-2	1.235008E-2	-4.492950E-1	3.824615E-1
3.691800E+10	-7.237854E-1	3.673401E-1	2.673950E-1	-1.332245E-1	-2.650452E-2	1.449108E-2	-4.383850E-1	3.857574E-1
3.714250E+10	-7.232971E-1	3.657837E-1	2.616119E-1	-1.410217E-1	-2.933216E-2	1.603222E-2	-4.401093E-1	3.882446E-1
3.736700E+10	-7.187195E-1	3.717957E-1	2.606812E-1	-1.414795E-1	-3.166199E-2	1.663589E-2	-4.328918E-1	3.981781E-1
3.759150E+10	-7.140808E-1	3.756409E-1	2.625122E-1	-1.429291E-1	-2.934456E-2	1.631737E-2	-4.235535E-1	4.058075E-1
3.781600E+10	-7.177429E-1	3.744812E-1	2.594452E-1	-1.463928E-1	-2.986240E-2	1.777172E-2	-4.218140E-1	4.096985E-1
3.804050E+10	-7.147217E-1	3.768616E-1	2.584076E-1	-1.499023E-1	-3.289032E-2	2.358246E-2	-4.170380E-1	4.160156E-1
3.826500E+10	-7.063599E-1	3.792725E-1	2.630310E-1	-1.497650E-1	-2.724361E-2	2.626896E-2	-4.039612E-1	4.262238E-1
3.848950E+10	-7.026672E-1	3.824768E-1	2.621765E-1	-1.600647E-1	-2.281380E-2	2.478409E-2	-3.992615E-1	4.255829E-1
3.871400E+10	-7.063293E-1	3.782349E-1	2.555237E-1	-1.534882E-1	-1.969910E-2	3.156471E-2	-3.997192E-1	4.303894E-1
3.893850E+10	-7.091064E-1	3.858337E-1	2.600861E-1	-1.660461E-1	-2.287865E-2	2.548027E-2	-3.857117E-1	4.273071E-1
3.916300E+10	-7.047424E-1	3.872986E-1	2.549744E-1	-1.661224E-1	-2.087021E-2	3.205681E-2	-3.814850E-1	4.318848E-1
