!Date: 10/28/2005, 12:34 PM

!Vgs = -7.000000E+0
!Vds = 3.000000E+0
!Ig = -5.719700E-5
!Id = 1.153700E-3

# HZ S RI R 50
1.000000E+8	9.914551E-1	-3.833008E-2	-7.915974E-3	1.104450E-2	1.447201E-3	1.234388E-2	9.832153E-1	-1.013184E-2
3.245000E+8	9.786377E-1	-1.108704E-1	-2.618790E-3	4.146576E-2	6.332397E-3	4.034996E-2	9.640503E-1	-9.423828E-2
5.490000E+8	9.617310E-1	-1.792297E-1	5.950928E-3	6.772232E-2	1.456070E-2	6.619644E-2	9.567261E-1	-1.532898E-1
7.735000E+8	9.418640E-1	-2.470703E-1	1.794815E-2	9.117508E-2	2.646637E-2	8.908844E-2	9.377136E-1	-2.127075E-1
9.980000E+8	9.187012E-1	-3.091736E-1	3.172302E-2	1.130791E-1	4.000854E-2	1.103706E-1	9.171143E-1	-2.655945E-1
1.222500E+9	8.902588E-1	-3.699951E-1	4.760742E-2	1.319351E-1	5.567169E-2	1.294785E-1	8.945923E-1	-3.192749E-1
1.447000E+9	8.584900E-1	-4.266663E-1	6.523895E-2	1.494675E-1	7.297516E-2	1.454239E-1	8.676147E-1	-3.688049E-1
1.671500E+9	8.233337E-1	-4.800110E-1	8.341980E-2	1.653519E-1	9.117126E-2	1.612625E-1	8.388367E-1	-4.145508E-1
1.896000E+9	7.862244E-1	-5.280762E-1	1.055222E-1	1.790466E-1	1.121216E-1	1.748657E-1	8.118896E-1	-4.558411E-1
2.120500E+9	7.481384E-1	-5.736084E-1	1.284332E-1	1.889801E-1	1.350861E-1	1.841125E-1	7.818604E-1	-4.979248E-1
2.345000E+9	7.054443E-1	-6.160278E-1	1.516953E-1	1.951981E-1	1.578064E-1	1.903381E-1	7.485046E-1	-5.365906E-1
2.569500E+9	6.643066E-1	-6.514893E-1	1.738892E-1	1.986771E-1	1.790771E-1	1.942596E-1	7.159729E-1	-5.726013E-1
2.794000E+9	6.212158E-1	-6.859131E-1	1.964874E-1	2.005310E-1	2.010269E-1	1.955032E-1	6.811523E-1	-6.044617E-1
3.018500E+9	5.779419E-1	-7.150269E-1	2.179184E-1	1.995544E-1	2.225418E-1	1.941071E-1	6.448669E-1	-6.367493E-1
3.243000E+9	5.347595E-1	-7.419128E-1	2.393112E-1	1.969910E-1	2.430496E-1	1.915054E-1	6.080627E-1	-6.644897E-1
3.467500E+9	4.915771E-1	-7.653809E-1	2.588196E-1	1.929016E-1	2.626495E-1	1.872559E-1	5.721741E-1	-6.885071E-1
3.692000E+9	4.488525E-1	-7.859192E-1	2.780457E-1	1.869812E-1	2.815094E-1	1.808929E-1	5.348816E-1	-7.122803E-1
3.916500E+9	4.058838E-1	-8.033752E-1	2.967529E-1	1.784821E-1	2.999725E-1	1.730347E-1	4.971313E-1	-7.316895E-1
4.141000E+9	3.653564E-1	-8.183594E-1	3.140869E-1	1.700592E-1	3.167419E-1	1.653595E-1	4.624023E-1	-7.492065E-1
4.365500E+9	3.255310E-1	-8.312988E-1	3.296814E-1	1.604767E-1	3.322754E-1	1.548462E-1	4.270630E-1	-7.658386E-1
4.590000E+9	2.847290E-1	-8.427124E-1	3.448486E-1	1.490173E-1	3.468170E-1	1.437225E-1	3.903809E-1	-7.799377E-1
4.814500E+9	2.465515E-1	-8.501587E-1	3.585815E-1	1.369171E-1	3.605652E-1	1.316833E-1	3.561401E-1	-7.929993E-1
5.039000E+9	2.085266E-1	-8.580933E-1	3.716278E-1	1.237183E-1	3.731384E-1	1.188202E-1	3.218689E-1	-8.047485E-1
5.263500E+9	1.715393E-1	-8.619690E-1	3.825073E-1	1.100006E-1	3.834381E-1	1.052399E-1	2.864990E-1	-8.142700E-1
5.488000E+9	1.375122E-1	-8.659668E-1	3.924255E-1	9.617615E-2	3.930359E-1	9.135437E-2	2.538147E-1	-8.216858E-1
5.712500E+9	1.018982E-1	-8.683777E-1	4.014282E-1	8.181763E-2	4.019928E-1	7.701111E-2	2.221680E-1	-8.294983E-1
5.937000E+9	6.915283E-2	-8.684387E-1	4.085999E-1	6.658936E-2	4.093933E-1	6.201172E-2	1.884766E-1	-8.354187E-1
6.161500E+9	3.802490E-2	-8.692627E-1	4.156036E-1	5.223083E-2	4.156647E-1	4.745483E-2	1.576538E-1	-8.408508E-1
6.386000E+9	5.737305E-3	-8.684998E-1	4.208679E-1	3.741455E-2	4.202881E-1	3.244019E-2	1.255188E-1	-8.440552E-1
6.610500E+9	-2.276611E-2	-8.665161E-1	4.243622E-1	2.238464E-2	4.243317E-1	1.817322E-2	9.283447E-2	-8.467102E-1
6.835000E+9	-5.270386E-2	-8.644104E-1	4.286041E-1	8.453369E-3	4.275055E-1	4.089355E-3	6.311035E-2	-8.474121E-1
7.059500E+9	-7.977295E-2	-8.600769E-1	4.299927E-1	-5.432129E-3	4.299622E-1	-9.368896E-3	3.619385E-2	-8.473511E-1
7.284000E+9	-1.070862E-1	-8.562012E-1	4.315643E-1	-2.001953E-2	4.309845E-1	-2.415466E-2	5.157471E-3	-8.476257E-1
7.508500E+9	-1.337891E-1	-8.524475E-1	4.326630E-1	-3.446960E-2	4.319611E-1	-3.765869E-2	-2.349854E-2	-8.438721E-1
7.733000E+9	-1.587219E-1	-8.457642E-1	4.324646E-1	-4.808044E-2	4.311829E-1	-5.123901E-2	-4.855347E-2	-8.428345E-1
7.957500E+9	-1.832886E-1	-8.407288E-1	4.319153E-1	-6.155396E-2	4.310760E-1	-6.513977E-2	-7.717896E-2	-8.412170E-1
8.182000E+9	-2.062073E-1	-8.347168E-1	4.311676E-1	-7.443237E-2	4.291992E-1	-7.748413E-2	-1.036377E-1	-8.374329E-1
8.406500E+9	-2.287598E-1	-8.287048E-1	4.285431E-1	-8.671570E-2	4.272003E-1	-9.022522E-2	-1.299133E-1	-8.318176E-1
8.631000E+9	-2.521667E-1	-8.215332E-1	4.260406E-1	-9.953308E-2	4.247437E-1	-1.025696E-1	-1.554565E-1	-8.287964E-1
8.855500E+9	-2.721558E-1	-8.153076E-1	4.231567E-1	-1.112061E-1	4.218445E-1	-1.142120E-1	-1.804504E-1	-8.218994E-1
9.080001E+9	-2.916260E-1	-8.090515E-1	4.197998E-1	-1.225891E-1	4.187622E-1	-1.252899E-1	-2.031860E-1	-8.158264E-1
9.304500E+9	-3.126221E-1	-7.998352E-1	4.159546E-1	-1.341248E-1	4.144287E-1	-1.372986E-1	-2.269592E-1	-8.103027E-1
9.529000E+9	-3.308411E-1	-7.939148E-1	4.126282E-1	-1.448822E-1	4.101868E-1	-1.475983E-1	-2.506409E-1	-8.012085E-1
9.753500E+9	-3.501282E-1	-7.856750E-1	4.077454E-1	-1.561890E-1	4.056549E-1	-1.577759E-1	-2.697449E-1	-7.932434E-1
9.978000E+9	-3.671875E-1	-7.775574E-1	4.020386E-1	-1.658783E-1	4.000092E-1	-1.674194E-1	-2.922668E-1	-7.867432E-1
1.020250E+10	-3.844299E-1	-7.706604E-1	3.973541E-1	-1.751404E-1	3.961029E-1	-1.772308E-1	-3.139343E-1	-7.775879E-1
1.042700E+10	-4.017639E-1	-7.612610E-1	3.914948E-1	-1.852112E-1	3.903198E-1	-1.864929E-1	-3.329468E-1	-7.689819E-1
1.065150E+10	-4.176941E-1	-7.532043E-1	3.855286E-1	-1.927795E-1	3.846436E-1	-1.953583E-1	-3.513794E-1	-7.608337E-1
1.087600E+10	-4.342346E-1	-7.444153E-1	3.800507E-1	-2.011871E-1	3.785553E-1	-2.035370E-1	-3.716431E-1	-7.518921E-1
1.110050E+10	-4.493713E-1	-7.355347E-1	3.731842E-1	-2.099915E-1	3.720856E-1	-2.117615E-1	-3.916321E-1	-7.414246E-1
1.132500E+10	-4.638672E-1	-7.288513E-1	3.682709E-1	-2.171783E-1	3.660889E-1	-2.192841E-1	-4.079590E-1	-7.333679E-1
1.154950E+10	-4.790344E-1	-7.185364E-1	3.614502E-1	-2.249908E-1	3.593903E-1	-2.264252E-1	-4.295044E-1	-7.222595E-1
1.177400E+10	-4.914246E-1	-7.113037E-1	3.557129E-1	-2.326660E-1	3.541870E-1	-2.333679E-1	-4.446411E-1	-7.102661E-1
1.199850E+10	-5.062561E-1	-7.024231E-1	3.495026E-1	-2.380371E-1	3.475494E-1	-2.404785E-1	-4.596252E-1	-7.025146E-1
1.222300E+10	-5.188904E-1	-6.941528E-1	3.428192E-1	-2.458649E-1	3.409882E-1	-2.465973E-1	-4.784241E-1	-6.912537E-1
1.244750E+10	-5.318298E-1	-6.846619E-1	3.358765E-1	-2.523956E-1	3.338470E-1	-2.535095E-1	-4.943848E-1	-6.777649E-1
1.267200E+10	-5.444641E-1	-6.759949E-1	3.291016E-1	-2.578735E-1	3.275604E-1	-2.588959E-1	-5.075684E-1	-6.697388E-1
1.289650E+10	-5.549316E-1	-6.676941E-1	3.222656E-1	-2.627411E-1	3.200226E-1	-2.631989E-1	-5.238037E-1	-6.587524E-1
1.312100E+10	-5.676270E-1	-6.585083E-1	3.150940E-1	-2.681122E-1	3.138580E-1	-2.695465E-1	-5.386963E-1	-6.442871E-1
1.334550E+10	-5.790100E-1	-6.508484E-1	3.092499E-1	-2.739105E-1	3.068695E-1	-2.751923E-1	-5.505676E-1	-6.358643E-1
1.357000E+10	-5.915833E-1	-6.401367E-1	3.012390E-1	-2.787933E-1	2.992249E-1	-2.794037E-1	-5.646362E-1	-6.253357E-1
1.379450E+10	-5.993958E-1	-6.332703E-1	2.945709E-1	-2.823334E-1	2.933807E-1	-2.843933E-1	-5.795288E-1	-6.090088E-1
1.401900E+10	-6.085205E-1	-6.244812E-1	2.886963E-1	-2.866821E-1	2.873230E-1	-2.873993E-1	-5.881348E-1	-6.004333E-1
1.424350E+10	-6.204224E-1	-6.152649E-1	2.807770E-1	-2.916412E-1	2.795105E-1	-2.914886E-1	-6.033630E-1	-5.884705E-1
1.446800E+10	-6.289062E-1	-6.074829E-1	2.746429E-1	-2.947235E-1	2.737579E-1	-2.953339E-1	-6.154175E-1	-5.740051E-1
1.469250E+10	-6.381531E-1	-5.983276E-1	2.677155E-1	-2.993164E-1	2.657471E-1	-2.987213E-1	-6.249695E-1	-5.629883E-1
1.491700E+10	-6.477356E-1	-5.899963E-1	2.613678E-1	-3.014526E-1	2.599640E-1	-3.028412E-1	-6.376038E-1	-5.527344E-1
1.514150E+10	-6.568604E-1	-5.807800E-1	2.535706E-1	-3.054504E-1	2.516022E-1	-3.063507E-1	-6.491394E-1	-5.361938E-1
1.536600E+10	-6.662598E-1	-5.716248E-1	2.458801E-1	-3.070526E-1	2.446594E-1	-3.093567E-1	-6.569519E-1	-5.246887E-1
1.559050E+10	-6.755676E-1	-5.639954E-1	2.400360E-1	-3.108521E-1	2.384644E-1	-3.112946E-1	-6.696472E-1	-5.136414E-1
1.581500E+10	-6.837463E-1	-5.549927E-1	2.315979E-1	-3.129272E-1	2.304382E-1	-3.130035E-1	-6.791382E-1	-4.993286E-1
1.603950E+10	-6.918945E-1	-5.470886E-1	2.259064E-1	-3.153534E-1	2.254486E-1	-3.164215E-1	-6.877136E-1	-4.884338E-1
1.626400E+10	-6.994324E-1	-5.381775E-1	2.194519E-1	-3.186188E-1	2.191010E-1	-3.189392E-1	-6.990356E-1	-4.771118E-1
1.648850E+10	-7.070618E-1	-5.293274E-1	2.128448E-1	-3.196716E-1	2.115631E-1	-3.192749E-1	-7.079163E-1	-4.605713E-1
1.671300E+10	-7.135010E-1	-5.205688E-1	2.073059E-1	-3.220978E-1	2.052612E-1	-3.221893E-1	-7.140198E-1	-4.486694E-1
1.693750E+10	-7.205811E-1	-5.131226E-1	2.002411E-1	-3.223877E-1	1.991882E-1	-3.233490E-1	-7.238159E-1	-4.378662E-1
1.716200E+10	-7.285767E-1	-5.046387E-1	1.936951E-1	-3.240509E-1	1.925201E-1	-3.237152E-1	-7.309875E-1	-4.217224E-1
1.738650E+10	-7.348328E-1	-4.965515E-1	1.873932E-1	-3.261871E-1	1.860046E-1	-3.254089E-1	-7.354736E-1	-4.094238E-1
1.761100E+10	-7.420959E-1	-4.879761E-1	1.799469E-1	-3.272095E-1	1.800995E-1	-3.262939E-1	-7.460632E-1	-3.995056E-1
1.783550E+10	-7.499695E-1	-4.776917E-1	1.751709E-1	-3.275757E-1	1.737976E-1	-3.285217E-1	-7.534790E-1	-3.835449E-1
1.806000E+10	-7.542725E-1	-4.713135E-1	1.694031E-1	-3.280792E-1	1.679687E-1	-3.285065E-1	-7.588501E-1	-3.709717E-1
1.828450E+10	-7.610168E-1	-4.608154E-1	1.626129E-1	-3.303375E-1	1.624146E-1	-3.300323E-1	-7.644653E-1	-3.619080E-1
1.850900E+10	-7.676086E-1	-4.550781E-1	1.572266E-1	-3.299408E-1	1.557617E-1	-3.305206E-1	-7.720642E-1	-3.461914E-1
1.873350E+10	-7.737122E-1	-4.447632E-1	1.502075E-1	-3.326721E-1	1.493835E-1	-3.316956E-1	-7.769165E-1	-3.304749E-1
1.895800E+10	-7.775879E-1	-4.371643E-1	1.450500E-1	-3.315430E-1	1.441040E-1	-3.321381E-1	-7.813110E-1	-3.227539E-1
1.918250E+10	-7.848816E-1	-4.305725E-1	1.396942E-1	-3.335724E-1	1.376953E-1	-3.320160E-1	-7.883301E-1	-3.103638E-1
1.940700E+10	-7.911682E-1	-4.202576E-1	1.335449E-1	-3.329926E-1	1.324615E-1	-3.325806E-1	-7.910767E-1	-2.900391E-1
1.963150E+10	-7.947998E-1	-4.132385E-1	1.276398E-1	-3.330231E-1	1.283875E-1	-3.321075E-1	-7.959900E-1	-2.832642E-1
1.985600E+10	-7.998962E-1	-4.042358E-1	1.227570E-1	-3.320923E-1	1.208496E-1	-3.312988E-1	-7.999268E-1	-2.674255E-1
2.008050E+10	-8.041382E-1	-3.976135E-1	1.167908E-1	-3.333588E-1	1.156006E-1	-3.322296E-1	-8.057251E-1	-2.522278E-1
2.030500E+10	-8.084412E-1	-3.883972E-1	1.121216E-1	-3.322601E-1	1.103668E-1	-3.316498E-1	-8.066101E-1	-2.427368E-1
2.052950E+10	-8.152466E-1	-3.827209E-1	1.051483E-1	-3.332672E-1	1.060638E-1	-3.310852E-1	-8.121948E-1	-2.308044E-1
2.075400E+10	-8.196411E-1	-3.751831E-1	1.019592E-1	-3.321228E-1	1.006165E-1	-3.319702E-1	-8.154297E-1	-2.165222E-1
2.097850E+10	-8.231506E-1	-3.669434E-1	9.553528E-2	-3.334808E-1	9.442139E-2	-3.315582E-1	-8.140869E-1	-2.050781E-1
2.120300E+10	-8.265076E-1	-3.576965E-1	9.010315E-2	-3.290710E-1	9.057617E-2	-3.308868E-1	-8.205872E-1	-1.967468E-1
2.142750E+10	-8.330383E-1	-3.501282E-1	8.531189E-2	-3.291168E-1	8.569336E-2	-3.295746E-1	-8.262329E-1	-1.795349E-1
2.165200E+10	-8.359985E-1	-3.401489E-1	7.922363E-2	-3.296204E-1	7.879639E-2	-3.295746E-1	-8.269043E-1	-1.686707E-1
2.187650E+10	-8.407288E-1	-3.338928E-1	7.649231E-2	-3.273926E-1	7.611084E-2	-3.291779E-1	-8.289185E-1	-1.539001E-1
2.210100E+10	-8.453674E-1	-3.240356E-1	7.058716E-2	-3.293762E-1	7.116699E-2	-3.280334E-1	-8.338013E-1	-1.409607E-1
2.232550E+10	-8.482971E-1	-3.153076E-1	6.604004E-2	-3.272858E-1	6.716919E-2	-3.278809E-1	-8.348694E-1	-1.282043E-1
2.255000E+10	-8.527527E-1	-3.070068E-1	6.076050E-2	-3.265381E-1	6.243896E-2	-3.278351E-1	-8.372192E-1	-1.215820E-1
2.277450E+10	-8.540649E-1	-2.983398E-1	5.633545E-2	-3.265686E-1	5.487061E-2	-3.266296E-1	-8.404541E-1	-1.038818E-1
2.299900E+10	-8.588257E-1	-2.913208E-1	5.213928E-2	-3.247833E-1	5.162048E-2	-3.264923E-1	-8.375854E-1	-8.944702E-2
2.322350E+10	-8.615112E-1	-2.835388E-1	4.658508E-2	-3.253021E-1	4.624939E-2	-3.225250E-1	-8.411255E-1	-7.858276E-2
2.344800E+10	-8.625488E-1	-2.760925E-1	4.244995E-2	-3.241882E-1	4.162598E-2	-3.240356E-1	-8.443909E-1	-6.408691E-2
2.367250E+10	-8.647766E-1	-2.664185E-1	3.651428E-2	-3.207550E-1	3.884888E-2	-3.226471E-1	-8.393250E-1	-4.971313E-2
2.389700E+10	-8.655090E-1	-2.615967E-1	3.379822E-2	-3.224945E-1	3.215027E-2	-3.217010E-1	-8.438110E-1	-3.955078E-2
2.412150E+10	-8.706360E-1	-2.547913E-1	3.027344E-2	-3.208160E-1	2.885437E-2	-3.196869E-1	-8.413086E-1	-2.371216E-2
2.434600E+10	-8.712769E-1	-2.484436E-1	2.593994E-2	-3.209839E-1	2.584839E-2	-3.180389E-1	-8.391724E-1	-1.434326E-2
2.457050E+10	-8.753357E-1	-2.430725E-1	2.148437E-2	-3.194580E-1	2.070618E-2	-3.199158E-1	-8.402710E-1	-1.922607E-3
2.479500E+10	-8.802490E-1	-2.338562E-1	1.644897E-2	-3.170776E-1	1.559448E-2	-3.165894E-1	-8.384094E-1	1.507568E-2
2.501950E+10	-8.818359E-1	-2.279053E-1	1.203918E-2	-3.169861E-1	1.229858E-2	-3.162384E-1	-8.331299E-1	2.465820E-2
2.524400E+10	-8.854980E-1	-2.203674E-1	6.164551E-3	-3.148041E-1	7.614136E-3	-3.128204E-1	-8.332825E-1	3.326416E-2
2.546850E+10	-8.874207E-1	-2.101746E-1	5.508423E-3	-3.123322E-1	4.455566E-3	-3.105927E-1	-8.314514E-1	4.852295E-2
2.569300E+10	-8.898010E-1	-2.061462E-1	2.578735E-3	-3.099670E-1	-1.617432E-3	-3.101654E-1	-8.295288E-1	5.581665E-2
2.591750E+10	-8.944397E-1	-1.977539E-1	-4.821777E-3	-3.087769E-1	-5.050659E-3	-3.092041E-1	-8.325806E-1	6.838989E-2
2.614200E+10	-8.937378E-1	-1.901550E-1	-6.072998E-3	-3.068695E-1	-7.308960E-3	-3.058472E-1	-8.303223E-1	8.096313E-2
2.636650E+10	-8.972778E-1	-1.832886E-1	-8.758545E-3	-3.062439E-1	-1.171875E-2	-3.049011E-1	-8.272095E-1	9.500122E-2
2.659100E+10	-8.971558E-1	-1.763916E-1	-1.498413E-2	-3.060303E-1	-1.362610E-2	-3.040619E-1	-8.220825E-1	1.071167E-1
2.681550E+10	-8.993530E-1	-1.699219E-1	-1.565552E-2	-3.047028E-1	-1.762390E-2	-3.052216E-1	-8.251648E-1	1.166992E-1
2.704000E+10	-9.016113E-1	-1.635132E-1	-2.398682E-2	-3.018494E-1	-2.055359E-2	-3.028717E-1	-8.210144E-1	1.354675E-1
2.726450E+10	-9.023437E-1	-1.540527E-1	-2.603149E-2	-3.018951E-1	-2.708435E-2	-3.000336E-1	-8.102722E-1	1.418762E-1
2.748900E+10	-9.040222E-1	-1.472168E-1	-2.813721E-2	-3.002014E-1	-3.184509E-2	-3.007965E-1	-8.135986E-1	1.511230E-1
2.771350E+10	-9.069519E-1	-1.397705E-1	-3.410339E-2	-2.984619E-1	-3.227234E-2	-2.959290E-1	-8.071594E-1	1.648865E-1
2.793800E+10	-9.070129E-1	-1.331787E-1	-3.355408E-2	-2.983246E-1	-3.898621E-2	-2.954712E-1	-8.052979E-1	1.756592E-1
2.816250E+10	-9.088440E-1	-1.257324E-1	-3.944397E-2	-2.957306E-1	-4.106140E-2	-2.956543E-1	-8.062134E-1	1.847839E-1
2.838700E+10	-9.104919E-1	-1.192932E-1	-4.144287E-2	-2.922058E-1	-4.428101E-2	-2.918243E-1	-7.975159E-1	1.986389E-1
2.861150E+10	-9.108582E-1	-1.092224E-1	-4.936218E-2	-2.917328E-1	-4.975891E-2	-2.882233E-1	-7.904053E-1	2.095642E-1
2.883600E+10	-9.148865E-1	-1.048584E-1	-5.267334E-2	-2.868195E-1	-5.114746E-2	-2.891235E-1	-7.885132E-1	2.156067E-1
2.906050E+10	-9.145203E-1	-9.890747E-2	-5.244446E-2	-2.872925E-1	-5.554199E-2	-2.847137E-1	-7.821960E-1	2.311096E-1
2.928500E+10	-9.180908E-1	-9.130859E-2	-5.412292E-2	-2.851105E-1	-5.502319E-2	-2.851868E-1	-7.786865E-1	2.373657E-1
2.950950E+10	-9.164734E-1	-8.404541E-2	-5.946350E-2	-2.830811E-1	-5.863953E-2	-2.798004E-1	-7.773132E-1	2.471313E-1
2.973400E+10	-9.205627E-1	-7.836914E-2	-6.092834E-2	-2.826691E-1	-6.294250E-2	-2.810669E-1	-7.717590E-1	2.613831E-1
2.995850E+10	-9.178162E-1	-6.900024E-2	-6.471252E-2	-2.776031E-1	-6.361389E-2	-2.811584E-1	-7.711182E-1	2.703247E-1
3.018300E+10	-9.194946E-1	-6.192017E-2	-7.119751E-2	-2.771149E-1	-6.657410E-2	-2.777557E-1	-7.633057E-1	2.860413E-1
3.040750E+10	-9.208679E-1	-5.743408E-2	-6.896973E-2	-2.764740E-1	-6.784058E-2	-2.767944E-1	-7.578735E-1	2.994080E-1
3.063200E+10	-9.215088E-1	-4.791260E-2	-7.296753E-2	-2.735291E-1	-7.402039E-2	-2.755127E-1	-7.515259E-1	3.082275E-1
3.085650E+10	-9.224854E-1	-4.324341E-2	-7.727051E-2	-2.728882E-1	-7.402039E-2	-2.738190E-1	-7.435913E-1	3.230591E-1
3.108100E+10	-9.250793E-1	-3.741455E-2	-7.989502E-2	-2.696228E-1	-8.283997E-2	-2.724915E-1	-7.413940E-1	3.288574E-1
3.130550E+10	-9.194641E-1	-2.719116E-2	-8.274841E-2	-2.689514E-1	-8.361816E-2	-2.696381E-1	-7.318115E-1	3.378906E-1
3.153000E+10	-9.217529E-1	-2.395630E-2	-8.584595E-2	-2.673035E-1	-8.644104E-2	-2.665558E-1	-7.222290E-1	3.462830E-1
3.175450E+10	-9.205017E-1	-1.583862E-2	-9.043884E-2	-2.645416E-1	-8.828735E-2	-2.654572E-1	-7.162781E-1	3.621216E-1
3.197900E+10	-9.219055E-1	-5.828857E-3	-9.472656E-2	-2.643738E-1	-9.440613E-2	-2.646790E-1	-7.055664E-1	3.694458E-1
3.220350E+10	-9.199829E-1	-3.875732E-3	-9.121704E-2	-2.644196E-1	-9.846497E-2	-2.595673E-1	-6.991272E-1	3.799438E-1
3.242800E+10	-9.275818E-1	5.157471E-3	-9.971619E-2	-2.602997E-1	-9.425354E-2	-2.606506E-1	-6.868896E-1	3.895874E-1
3.265250E+10	-9.303589E-1	9.826660E-3	-1.058044E-1	-2.595825E-1	-1.016388E-1	-2.616577E-1	-6.788330E-1	3.963318E-1
3.287700E+10	-9.266663E-1	1.919556E-2	-1.012878E-1	-2.586975E-1	-1.018677E-1	-2.539825E-1	-6.809387E-1	4.064636E-1
3.310150E+10	-9.256287E-1	2.536011E-2	-1.060333E-1	-2.568512E-1	-1.049957E-1	-2.524414E-1	-6.677246E-1	4.171143E-1
3.332600E+10	-9.224854E-1	3.353882E-2	-1.068268E-1	-2.519073E-1	-1.024551E-1	-2.484436E-1	-6.591187E-1	4.182129E-1
3.355050E+10	-9.253235E-1	3.924561E-2	-1.094742E-1	-2.491379E-1	-1.096954E-1	-2.457428E-1	-6.575012E-1	4.286804E-1
3.377500E+10	-9.261475E-1	4.501343E-2	-1.081619E-1	-2.456131E-1	-1.125107E-1	-2.454224E-1	-6.392212E-1	4.363708E-1
3.399950E+10	-9.277649E-1	5.148315E-2	-1.128311E-1	-2.495804E-1	-1.123734E-1	-2.488098E-1	-6.378479E-1	4.426880E-1
3.422400E+10	-9.259644E-1	5.853271E-2	-1.174774E-1	-2.448578E-1	-1.173401E-1	-2.436676E-1	-6.394043E-1	4.574280E-1
3.444850E+10	-9.264832E-1	6.622314E-2	-1.172791E-1	-2.398682E-1	-1.178589E-1	-2.386780E-1	-6.236267E-1	4.659729E-1
3.467300E+10	-9.258423E-1	7.391357E-2	-1.188965E-1	-2.414322E-1	-1.163330E-1	-2.388458E-1	-6.146240E-1	4.728699E-1
3.489750E+10	-9.234619E-1	7.843018E-2	-1.222229E-1	-2.404556E-1	-1.198578E-1	-2.396698E-1	-6.088257E-1	4.844055E-1
3.512200E+10	-9.200745E-1	8.285522E-2	-1.296463E-1	-2.399216E-1	-1.294174E-1	-2.374496E-1	-5.943604E-1	4.925537E-1
3.534650E+10	-9.225769E-1	8.581543E-2	-1.296387E-1	-2.367096E-1	-1.313095E-1	-2.386093E-1	-5.863647E-1	4.999390E-1
3.557100E+10	-9.219055E-1	9.442139E-2	-1.321716E-1	-2.348022E-1	-1.284561E-1	-2.299805E-1	-5.696716E-1	5.096130E-1
3.579550E+10	-9.251709E-1	1.017456E-1	-1.292267E-1	-2.313080E-1	-1.358261E-1	-2.321091E-1	-5.554504E-1	5.147095E-1
3.602000E+10	-9.239197E-1	1.127014E-1	-1.385345E-1	-2.248840E-1	-1.391602E-1	-2.293625E-1	-5.500793E-1	5.248108E-1
3.624450E+10	-9.215698E-1	1.163330E-1	-1.390762E-1	-2.239456E-1	-1.430740E-1	-2.301331E-1	-5.441895E-1	5.253906E-1
3.646900E+10	-9.155579E-1	1.210937E-1	-1.401443E-1	-2.252960E-1	-1.385117E-1	-2.275238E-1	-5.280762E-1	5.361023E-1
3.669350E+10	-9.164429E-1	1.288757E-1	-1.430283E-1	-2.252579E-1	-1.439819E-1	-2.248611E-1	-5.146790E-1	5.448608E-1
3.691800E+10	-9.145203E-1	1.328125E-1	-1.474915E-1	-2.211838E-1	-1.460190E-1	-2.206192E-1	-5.021362E-1	5.508423E-1
3.714250E+10	-9.117737E-1	1.393738E-1	-1.473389E-1	-2.185898E-1	-1.473541E-1	-2.181625E-1	-4.984436E-1	5.570984E-1
3.736700E+10	-9.101257E-1	1.465454E-1	-1.502075E-1	-2.190552E-1	-1.567535E-1	-2.146835E-1	-4.854126E-1	5.583191E-1
3.759150E+10	-9.116821E-1	1.521606E-1	-1.557617E-1	-2.128143E-1	-1.560516E-1	-2.123566E-1	-4.730835E-1	5.715027E-1
3.781600E+10	-9.114075E-1	1.621094E-1	-1.584473E-1	-2.087326E-1	-1.557007E-1	-2.122879E-1	-4.621277E-1	5.723572E-1
3.804050E+10	-9.138184E-1	1.643677E-1	-1.549606E-1	-2.091217E-1	-1.644897E-1	-2.067566E-1	-4.382935E-1	5.813293E-1
3.826500E+10	-9.089661E-1	1.776123E-1	-1.561127E-1	-2.064285E-1	-1.612930E-1	-2.042313E-1	-4.289856E-1	5.905762E-1
3.848950E+10	-9.061890E-1	1.742859E-1	-1.590424E-1	-1.984634E-1	-1.652985E-1	-2.086716E-1	-4.197083E-1	5.911865E-1
3.871400E+10	-9.062500E-1	1.808777E-1	-1.660156E-1	-2.068176E-1	-1.642914E-1	-1.974030E-1	-4.049072E-1	5.900269E-1
3.893850E+10	-9.010010E-1	1.918030E-1	-1.628342E-1	-1.972961E-1	-1.690750E-1	-1.972351E-1	-3.876953E-1	5.884399E-1
