!Date: 10/28/2005, 12:34 PM

!Vgs = -7.000000E+0
!Vds = 5.000000E+0
!Ig = -6.678800E-5
!Id = 1.342400E-3

# HZ S RI R 50
1.000000E+8	9.906006E-1	-3.903198E-2	-1.308918E-2	1.070023E-2	9.145737E-4	1.182556E-2	9.826050E-1	-1.260376E-2
3.245000E+8	9.783020E-1	-1.085510E-1	-8.613586E-3	3.978539E-2	6.120682E-3	3.809357E-2	9.642944E-1	-9.167480E-2
5.490000E+8	9.629211E-1	-1.758118E-1	-1.285553E-3	6.447601E-2	1.377296E-2	6.184959E-2	9.579773E-1	-1.496277E-1
7.735000E+8	9.438477E-1	-2.419434E-1	9.742737E-3	8.730316E-2	2.446747E-2	8.363724E-2	9.400635E-1	-2.072144E-1
9.980000E+8	9.211426E-1	-3.031921E-1	2.299118E-2	1.082001E-1	3.701782E-2	1.034622E-1	9.211121E-1	-2.585144E-1
1.222500E+9	8.942261E-1	-3.628540E-1	3.761292E-2	1.268082E-1	5.120850E-2	1.212807E-1	8.995056E-1	-3.110046E-1
1.447000E+9	8.642273E-1	-4.193726E-1	5.383301E-2	1.434937E-1	6.673431E-2	1.370621E-1	8.742981E-1	-3.597717E-1
1.671500E+9	8.305664E-1	-4.724121E-1	7.154083E-2	1.592331E-1	8.352661E-2	1.523972E-1	8.465576E-1	-4.043274E-1
1.896000E+9	7.948608E-1	-5.203247E-1	9.189606E-2	1.731110E-1	1.033401E-1	1.656113E-1	8.211365E-1	-4.451904E-1
2.120500E+9	7.578125E-1	-5.657043E-1	1.136246E-1	1.832504E-1	1.240463E-1	1.747894E-1	7.926025E-1	-4.877930E-1
2.345000E+9	7.166748E-1	-6.085510E-1	1.359177E-1	1.894684E-1	1.458969E-1	1.816940E-1	7.607727E-1	-5.267029E-1
2.569500E+9	6.758118E-1	-6.445923E-1	1.573792E-1	1.938400E-1	1.666183E-1	1.853409E-1	7.302246E-1	-5.620728E-1
2.794000E+9	6.343384E-1	-6.802368E-1	1.780930E-1	1.963272E-1	1.860733E-1	1.877518E-1	6.964722E-1	-5.949707E-1
3.018500E+9	5.922852E-1	-7.099609E-1	1.994781E-1	1.965408E-1	2.069473E-1	1.867905E-1	6.615906E-1	-6.270447E-1
3.243000E+9	5.492249E-1	-7.373657E-1	2.199783E-1	1.947784E-1	2.262268E-1	1.851120E-1	6.257935E-1	-6.559753E-1
3.467500E+9	5.071106E-1	-7.622986E-1	2.390518E-1	1.911621E-1	2.454987E-1	1.820831E-1	5.903931E-1	-6.806946E-1
3.692000E+9	4.653931E-1	-7.839050E-1	2.583313E-1	1.862183E-1	2.632446E-1	1.769714E-1	5.553284E-1	-7.055359E-1
3.916500E+9	4.221497E-1	-8.014526E-1	2.757874E-1	1.792755E-1	2.804413E-1	1.702576E-1	5.174255E-1	-7.255249E-1
4.141000E+9	3.815918E-1	-8.179321E-1	2.930145E-1	1.720276E-1	2.968903E-1	1.626892E-1	4.846191E-1	-7.444153E-1
4.365500E+9	3.425598E-1	-8.315430E-1	3.088379E-1	1.631927E-1	3.123016E-1	1.535187E-1	4.487000E-1	-7.623291E-1
4.590000E+9	3.018799E-1	-8.444519E-1	3.237457E-1	1.525879E-1	3.266449E-1	1.435242E-1	4.127197E-1	-7.777100E-1
4.814500E+9	2.634583E-1	-8.532410E-1	3.378448E-1	1.415253E-1	3.401337E-1	1.325531E-1	3.788452E-1	-7.912598E-1
5.039000E+9	2.250061E-1	-8.615112E-1	3.510590E-1	1.293793E-1	3.525391E-1	1.205902E-1	3.447876E-1	-8.046570E-1
5.263500E+9	1.878357E-1	-8.658752E-1	3.619537E-1	1.165924E-1	3.637543E-1	1.081085E-1	3.093872E-1	-8.142090E-1
5.488000E+9	1.533203E-1	-8.710327E-1	3.721924E-1	1.036835E-1	3.730621E-1	9.523010E-2	2.777710E-1	-8.225098E-1
5.712500E+9	1.170959E-1	-8.738098E-1	3.814850E-1	9.039307E-2	3.820953E-1	8.215332E-2	2.448730E-1	-8.319397E-1
5.937000E+9	8.499146E-2	-8.742676E-1	3.896790E-1	7.548523E-2	3.899231E-1	6.793213E-2	2.115173E-1	-8.388062E-1
6.161500E+9	5.270386E-2	-8.761902E-1	3.962250E-1	6.213379E-2	3.963776E-1	5.403137E-2	1.802673E-1	-8.449402E-1
6.386000E+9	1.947021E-2	-8.760376E-1	4.020538E-1	4.791260E-2	4.015961E-1	4.003906E-2	1.481628E-1	-8.490601E-1
6.610500E+9	-9.429932E-3	-8.747253E-1	4.061279E-1	3.334045E-2	4.061279E-1	2.624512E-2	1.155701E-1	-8.524780E-1
6.835000E+9	-3.964233E-2	-8.728333E-1	4.102936E-1	1.982117E-2	4.100342E-1	1.211548E-2	8.581543E-2	-8.541870E-1
7.059500E+9	-6.674194E-2	-8.688049E-1	4.129181E-1	6.423950E-3	4.122009E-1	-1.831055E-4	5.828857E-2	-8.546448E-1
7.284000E+9	-9.503174E-2	-8.653564E-1	4.156799E-1	-8.010864E-3	4.140472E-1	-1.475525E-2	2.685547E-2	-8.552246E-1
7.508500E+9	-1.219788E-1	-8.609924E-1	4.170990E-1	-2.188110E-2	4.156342E-1	-2.770996E-2	-1.770020E-3	-8.527222E-1
7.733000E+9	-1.477356E-1	-8.558960E-1	4.170990E-1	-3.524780E-2	4.153442E-1	-4.095459E-2	-2.792358E-2	-8.522339E-1
7.957500E+9	-1.724243E-1	-8.501282E-1	4.170685E-1	-4.803467E-2	4.154968E-1	-5.375671E-2	-5.694580E-2	-8.509827E-1
8.182000E+9	-1.948547E-1	-8.446350E-1	4.170685E-1	-5.993652E-2	4.145508E-1	-6.575012E-2	-8.218384E-2	-8.486328E-1
8.406500E+9	-2.184143E-1	-8.387451E-1	4.149017E-1	-7.319641E-2	4.128418E-1	-7.872009E-2	-1.098633E-1	-8.439941E-1
8.631000E+9	-2.417603E-1	-8.320618E-1	4.134216E-1	-8.511353E-2	4.110107E-1	-9.045410E-2	-1.355896E-1	-8.395386E-1
8.855500E+9	-2.628479E-1	-8.256836E-1	4.110413E-1	-9.692383E-2	4.087677E-1	-1.023102E-1	-1.609192E-1	-8.342285E-1
9.080001E+9	-2.829590E-1	-8.193054E-1	4.079285E-1	-1.081848E-1	4.058228E-1	-1.126251E-1	-1.843567E-1	-8.280334E-1
9.304500E+9	-3.049316E-1	-8.105469E-1	4.039001E-1	-1.186829E-1	4.013977E-1	-1.238556E-1	-2.133789E-1	-8.179321E-1
9.529000E+9	-3.232727E-1	-8.038025E-1	4.012146E-1	-1.299438E-1	3.983917E-1	-1.351013E-1	-2.326050E-1	-8.156433E-1
9.753500E+9	-3.426514E-1	-7.963562E-1	3.970795E-1	-1.403961E-1	3.948212E-1	-1.450348E-1	-2.539368E-1	-8.070984E-1
9.978000E+9	-3.601685E-1	-7.877197E-1	3.928375E-1	-1.500244E-1	3.903961E-1	-1.545410E-1	-2.747498E-1	-8.009338E-1
1.020250E+10	-3.784790E-1	-7.815552E-1	3.876190E-1	-1.608429E-1	3.852386E-1	-1.649780E-1	-2.973938E-1	-7.924500E-1
1.042700E+10	-3.957214E-1	-7.709351E-1	3.827972E-1	-1.691895E-1	3.812866E-1	-1.733093E-1	-3.176270E-1	-7.840576E-1
1.065150E+10	-4.124146E-1	-7.635193E-1	3.777161E-1	-1.786346E-1	3.753815E-1	-1.817322E-1	-3.369446E-1	-7.757568E-1
1.087600E+10	-4.289246E-1	-7.553406E-1	3.720245E-1	-1.868591E-1	3.694763E-1	-1.899567E-1	-3.576050E-1	-7.666626E-1
1.110050E+10	-4.437561E-1	-7.459106E-1	3.666534E-1	-1.949768E-1	3.641357E-1	-1.983643E-1	-3.769226E-1	-7.571106E-1
1.132500E+10	-4.590759E-1	-7.384644E-1	3.614807E-1	-2.026520E-1	3.583374E-1	-2.056732E-1	-3.940430E-1	-7.489929E-1
1.154950E+10	-4.737549E-1	-7.287292E-1	3.549500E-1	-2.099304E-1	3.525543E-1	-2.124786E-1	-4.147644E-1	-7.366638E-1
1.177400E+10	-4.875183E-1	-7.210693E-1	3.500671E-1	-2.177582E-1	3.471222E-1	-2.205505E-1	-4.312439E-1	-7.268066E-1
1.199850E+10	-5.027771E-1	-7.124329E-1	3.432770E-1	-2.241669E-1	3.402557E-1	-2.265472E-1	-4.477234E-1	-7.189331E-1
1.222300E+10	-5.151367E-1	-7.033691E-1	3.369751E-1	-2.311096E-1	3.339539E-1	-2.333069E-1	-4.664307E-1	-7.071533E-1
1.244750E+10	-5.279541E-1	-6.946716E-1	3.305511E-1	-2.370300E-1	3.287659E-1	-2.394562E-1	-4.827576E-1	-6.951599E-1
1.267200E+10	-5.401917E-1	-6.852112E-1	3.238068E-1	-2.438507E-1	3.220215E-1	-2.462769E-1	-4.958801E-1	-6.864319E-1
1.289650E+10	-5.523987E-1	-6.764832E-1	3.176117E-1	-2.490845E-1	3.150330E-1	-2.505188E-1	-5.131226E-1	-6.746826E-1
1.312100E+10	-5.643921E-1	-6.680603E-1	3.115540E-1	-2.550354E-1	3.084564E-1	-2.563629E-1	-5.276794E-1	-6.607971E-1
1.334550E+10	-5.766602E-1	-6.593628E-1	3.047791E-1	-2.595215E-1	3.019104E-1	-2.616577E-1	-5.398254E-1	-6.528320E-1
1.357000E+10	-5.886841E-1	-6.494751E-1	2.978058E-1	-2.654114E-1	2.935486E-1	-2.671509E-1	-5.558472E-1	-6.423950E-1
1.379450E+10	-5.974731E-1	-6.430359E-1	2.910767E-1	-2.690125E-1	2.887878E-1	-2.707672E-1	-5.691223E-1	-6.271973E-1
1.401900E+10	-6.065979E-1	-6.331482E-1	2.853851E-1	-2.728271E-1	2.825623E-1	-2.748108E-1	-5.796204E-1	-6.168518E-1
1.424350E+10	-6.185913E-1	-6.243591E-1	2.780914E-1	-2.790375E-1	2.766113E-1	-2.788544E-1	-5.949707E-1	-6.041260E-1
1.446800E+10	-6.273804E-1	-6.158447E-1	2.714691E-1	-2.815247E-1	2.688751E-1	-2.835236E-1	-6.064148E-1	-5.913696E-1
1.469250E+10	-6.364746E-1	-6.070862E-1	2.658997E-1	-2.857513E-1	2.627258E-1	-2.868805E-1	-6.166077E-1	-5.799866E-1
1.491700E+10	-6.456299E-1	-5.995789E-1	2.583313E-1	-2.896881E-1	2.565308E-1	-2.899933E-1	-6.300354E-1	-5.705566E-1
1.514150E+10	-6.550903E-1	-5.891724E-1	2.514038E-1	-2.919922E-1	2.494202E-1	-2.943726E-1	-6.431274E-1	-5.535278E-1
1.536600E+10	-6.643066E-1	-5.802002E-1	2.458954E-1	-2.954559E-1	2.427673E-1	-2.957764E-1	-6.502991E-1	-5.425415E-1
1.559050E+10	-6.738892E-1	-5.721130E-1	2.385864E-1	-2.982635E-1	2.360687E-1	-2.987976E-1	-6.632996E-1	-5.316467E-1
1.581500E+10	-6.819153E-1	-5.636902E-1	2.312012E-1	-3.002472E-1	2.280121E-1	-3.009949E-1	-6.742859E-1	-5.162964E-1
1.603950E+10	-6.903992E-1	-5.548401E-1	2.234802E-1	-3.035278E-1	2.229462E-1	-3.034515E-1	-6.815186E-1	-5.063477E-1
1.626400E+10	-6.981812E-1	-5.460815E-1	2.193298E-1	-3.063812E-1	2.169495E-1	-3.058624E-1	-6.920166E-1	-4.932251E-1
1.648850E+10	-7.052917E-1	-5.368347E-1	2.122803E-1	-3.067017E-1	2.101746E-1	-3.084412E-1	-7.016907E-1	-4.776917E-1
1.671300E+10	-7.129822E-1	-5.278015E-1	2.069092E-1	-3.097839E-1	2.038116E-1	-3.097534E-1	-7.088623E-1	-4.669189E-1
1.693750E+10	-7.203064E-1	-5.201111E-1	1.999512E-1	-3.112335E-1	1.973724E-1	-3.109131E-1	-7.198181E-1	-4.535217E-1
1.716200E+10	-7.267151E-1	-5.122070E-1	1.938019E-1	-3.128815E-1	1.910858E-1	-3.139038E-1	-7.267151E-1	-4.389954E-1
1.738650E+10	-7.344971E-1	-5.037537E-1	1.871033E-1	-3.145294E-1	1.855927E-1	-3.146057E-1	-7.327881E-1	-4.267578E-1
1.761100E+10	-7.420044E-1	-4.949036E-1	1.814880E-1	-3.159943E-1	1.797791E-1	-3.155975E-1	-7.415466E-1	-4.157410E-1
1.783550E+10	-7.495422E-1	-4.860535E-1	1.757660E-1	-3.170166E-1	1.724396E-1	-3.167114E-1	-7.502441E-1	-3.994751E-1
1.806000E+10	-7.556458E-1	-4.787292E-1	1.703949E-1	-3.183289E-1	1.682434E-1	-3.190765E-1	-7.559509E-1	-3.882751E-1
1.828450E+10	-7.608948E-1	-4.682007E-1	1.629486E-1	-3.191681E-1	1.622467E-1	-3.201599E-1	-7.623291E-1	-3.776245E-1
1.850900E+10	-7.665405E-1	-4.616089E-1	1.594543E-1	-3.202820E-1	1.568146E-1	-3.206635E-1	-7.702942E-1	-3.615112E-1
1.873350E+10	-7.748413E-1	-4.532471E-1	1.522675E-1	-3.208008E-1	1.501770E-1	-3.217316E-1	-7.748718E-1	-3.476868E-1
1.895800E+10	-7.780762E-1	-4.457092E-1	1.463470E-1	-3.217773E-1	1.439972E-1	-3.213959E-1	-7.787170E-1	-3.395081E-1
1.918250E+10	-7.855530E-1	-4.367676E-1	1.415100E-1	-3.218536E-1	1.389618E-1	-3.215637E-1	-7.864075E-1	-3.255615E-1
1.940700E+10	-7.902222E-1	-4.283447E-1	1.337585E-1	-3.231964E-1	1.313934E-1	-3.227539E-1	-7.897034E-1	-3.067322E-1
1.963150E+10	-7.958069E-1	-4.197388E-1	1.281433E-1	-3.214722E-1	1.276855E-1	-3.205109E-1	-7.941895E-1	-2.974548E-1
1.985600E+10	-7.988892E-1	-4.119263E-1	1.240082E-1	-3.212128E-1	1.218719E-1	-3.223724E-1	-7.992554E-1	-2.860413E-1
2.008050E+10	-8.056641E-1	-4.034119E-1	1.188507E-1	-3.238068E-1	1.161346E-1	-3.216553E-1	-8.039856E-1	-2.691040E-1
2.030500E+10	-8.094177E-1	-3.960876E-1	1.132507E-1	-3.219604E-1	1.101227E-1	-3.213806E-1	-8.039246E-1	-2.595215E-1
2.052950E+10	-8.138123E-1	-3.889160E-1	1.074524E-1	-3.228607E-1	1.050873E-1	-3.209229E-1	-8.125610E-1	-2.477112E-1
2.075400E+10	-8.196411E-1	-3.800659E-1	1.022339E-1	-3.214569E-1	1.013641E-1	-3.231354E-1	-8.152466E-1	-2.327271E-1
2.097850E+10	-8.252258E-1	-3.711243E-1	9.756470E-2	-3.234863E-1	9.461975E-2	-3.222198E-1	-8.151855E-1	-2.198181E-1
2.120300E+10	-8.287964E-1	-3.641968E-1	9.307861E-2	-3.196869E-1	9.240723E-2	-3.197632E-1	-8.205566E-1	-2.111511E-1
2.142750E+10	-8.335266E-1	-3.559875E-1	8.793640E-2	-3.186951E-1	8.677673E-2	-3.215485E-1	-8.268433E-1	-1.953125E-1
2.165200E+10	-8.370667E-1	-3.477173E-1	8.261108E-2	-3.198547E-1	8.186340E-2	-3.198090E-1	-8.268127E-1	-1.845093E-1
2.187650E+10	-8.413696E-1	-3.383789E-1	7.986450E-2	-3.204346E-1	7.785034E-2	-3.218536E-1	-8.304443E-1	-1.734924E-1
2.210100E+10	-8.468628E-1	-3.284302E-1	7.333374E-2	-3.190460E-1	7.186890E-2	-3.198242E-1	-8.362427E-1	-1.573486E-1
2.232550E+10	-8.482361E-1	-3.207092E-1	6.872559E-2	-3.175659E-1	6.935120E-2	-3.188019E-1	-8.344727E-1	-1.414490E-1
2.255000E+10	-8.533936E-1	-3.120728E-1	6.431580E-2	-3.212280E-1	6.278992E-2	-3.186798E-1	-8.378601E-1	-1.345825E-1
2.277450E+10	-8.537903E-1	-3.044739E-1	6.033325E-2	-3.183594E-1	5.693054E-2	-3.171997E-1	-8.388977E-1	-1.189575E-1
2.299900E+10	-8.598633E-1	-2.971802E-1	5.360413E-2	-3.168335E-1	5.444336E-2	-3.166046E-1	-8.377075E-1	-1.058044E-1
2.322350E+10	-8.615723E-1	-2.909851E-1	4.902649E-2	-3.184967E-1	4.795837E-2	-3.139496E-1	-8.421326E-1	-9.561157E-2
2.344800E+10	-8.630676E-1	-2.828064E-1	4.508972E-2	-3.134918E-1	4.397583E-2	-3.166199E-1	-8.429565E-1	-7.830811E-2
2.367250E+10	-8.656311E-1	-2.726440E-1	4.074097E-2	-3.136902E-1	4.049683E-2	-3.140717E-1	-8.421021E-1	-6.710815E-2
2.389700E+10	-8.667603E-1	-2.666016E-1	3.591919E-2	-3.129425E-1	3.462219E-2	-3.143616E-1	-8.439636E-1	-5.294800E-2
2.412150E+10	-8.737793E-1	-2.600403E-1	3.157043E-2	-3.123779E-1	2.897644E-2	-3.106537E-1	-8.453064E-1	-3.826904E-2
2.434600E+10	-8.723450E-1	-2.539062E-1	2.886963E-2	-3.125916E-1	2.665710E-2	-3.127136E-1	-8.411255E-1	-2.752686E-2
2.457050E+10	-8.761902E-1	-2.472534E-1	2.421570E-2	-3.123779E-1	2.418518E-2	-3.094940E-1	-8.437805E-1	-1.519775E-2
2.479500E+10	-8.803406E-1	-2.384338E-1	1.974487E-2	-3.107605E-1	1.985168E-2	-3.102417E-1	-8.403625E-1	7.629395E-4
2.501950E+10	-8.799133E-1	-2.321167E-1	1.632690E-2	-3.082581E-1	1.472473E-2	-3.092651E-1	-8.380127E-1	9.826660E-3
2.524400E+10	-8.866882E-1	-2.258911E-1	1.011658E-2	-3.060303E-1	9.078979E-3	-3.056793E-1	-8.410339E-1	2.078247E-2
2.546850E+10	-8.878784E-1	-2.163086E-1	7.385254E-3	-3.029480E-1	5.538940E-3	-3.054504E-1	-8.357544E-1	3.323364E-2
2.569300E+10	-8.902283E-1	-2.116699E-1	3.387451E-3	-3.013458E-1	3.021240E-3	-3.022614E-1	-8.337708E-1	4.266357E-2
2.591750E+10	-8.927307E-1	-1.998901E-1	-2.593994E-4	-3.035126E-1	-2.563477E-3	-3.007202E-1	-8.345032E-1	5.194092E-2
2.614200E+10	-8.948059E-1	-1.948242E-1	-2.166748E-3	-3.005219E-1	-5.508423E-3	-2.995758E-1	-8.334656E-1	6.851196E-2
2.636650E+10	-8.972778E-1	-1.885071E-1	-5.630493E-3	-2.965851E-1	-7.232666E-3	-2.994843E-1	-8.353882E-1	8.300781E-2
2.659100E+10	-8.978271E-1	-1.813049E-1	-1.126099E-2	-2.987823E-1	-9.292603E-3	-2.983246E-1	-8.275146E-1	9.313965E-2
2.681550E+10	-9.013062E-1	-1.752625E-1	-1.400757E-2	-2.972870E-1	-1.502991E-2	-2.974091E-1	-8.292542E-1	1.017761E-1
2.704000E+10	-9.020996E-1	-1.653748E-1	-1.963806E-2	-2.956543E-1	-1.698303E-2	-2.958832E-1	-8.265381E-1	1.237183E-1
2.726450E+10	-9.024963E-1	-1.587524E-1	-2.215576E-2	-2.933807E-1	-2.000427E-2	-2.977448E-1	-8.195801E-1	1.298523E-1
2.748900E+10	-9.058838E-1	-1.517944E-1	-2.369690E-2	-2.931976E-1	-2.630615E-2	-2.936859E-1	-8.190613E-1	1.369629E-1
2.771350E+10	-9.064331E-1	-1.437073E-1	-2.920532E-2	-2.888794E-1	-2.993774E-2	-2.903442E-1	-8.135986E-1	1.531677E-1
2.793800E+10	-9.099121E-1	-1.403198E-1	-3.166199E-2	-2.923126E-1	-3.295898E-2	-2.894592E-1	-8.102417E-1	1.619873E-1
2.816250E+10	-9.084778E-1	-1.317139E-1	-3.718567E-2	-2.897491E-1	-3.460693E-2	-2.885284E-1	-8.078613E-1	1.745605E-1
2.838700E+10	-9.082947E-1	-1.256409E-1	-3.953552E-2	-2.856598E-1	-3.857422E-2	-2.862549E-1	-8.044434E-1	1.881104E-1
2.861150E+10	-9.129639E-1	-1.160278E-1	-4.747009E-2	-2.859650E-1	-4.518127E-2	-2.846375E-1	-7.926331E-1	1.968384E-1
2.883600E+10	-9.121094E-1	-1.082764E-1	-5.023193E-2	-2.835236E-1	-4.708862E-2	-2.824249E-1	-7.960510E-1	2.019348E-1
2.906050E+10	-9.156799E-1	-1.053772E-1	-4.739380E-2	-2.804108E-1	-4.801941E-2	-2.820587E-1	-7.903748E-1	2.183838E-1
2.928500E+10	-9.183655E-1	-9.567261E-2	-5.221558E-2	-2.790985E-1	-5.201721E-2	-2.784424E-1	-7.857056E-1	2.258606E-1
2.950950E+10	-9.190674E-1	-8.685303E-2	-5.183411E-2	-2.775421E-1	-5.648804E-2	-2.780457E-1	-7.818909E-1	2.374268E-1
2.973400E+10	-9.212036E-1	-8.374023E-2	-5.778503E-2	-2.741394E-1	-5.674744E-2	-2.743988E-1	-7.787476E-1	2.506104E-1
2.995850E+10	-9.192200E-1	-7.223511E-2	-5.960083E-2	-2.746124E-1	-6.080627E-2	-2.697754E-1	-7.763367E-1	2.610474E-1
3.018300E+10	-9.173584E-1	-6.622314E-2	-6.440735E-2	-2.743683E-1	-6.343079E-2	-2.725830E-1	-7.695923E-1	2.731323E-1
3.040750E+10	-9.203491E-1	-6.121826E-2	-6.690979E-2	-2.727203E-1	-6.613159E-2	-2.725372E-1	-7.646790E-1	2.846069E-1
3.063200E+10	-9.181213E-1	-5.313110E-2	-7.017517E-2	-2.700653E-1	-7.261658E-2	-2.707672E-1	-7.593384E-1	2.990112E-1
3.085650E+10	-9.202881E-1	-4.766846E-2	-7.321167E-2	-2.712860E-1	-7.188416E-2	-2.689819E-1	-7.545776E-1	3.068237E-1
3.108100E+10	-9.228516E-1	-4.272461E-2	-7.643127E-2	-2.675934E-1	-7.185364E-2	-2.672272E-1	-7.458191E-1	3.190308E-1
3.130550E+10	-9.234009E-1	-3.268433E-2	-8.009338E-2	-2.661285E-1	-7.740784E-2	-2.615204E-1	-7.366028E-1	3.281860E-1
3.153000E+10	-9.240723E-1	-2.566528E-2	-8.036804E-2	-2.643127E-1	-8.216858E-2	-2.614136E-1	-7.333069E-1	3.364868E-1
3.175450E+10	-9.253235E-1	-2.069092E-2	-8.708191E-2	-2.617798E-1	-8.276367E-2	-2.581024E-1	-7.267761E-1	3.480225E-1
3.197900E+10	-9.232178E-1	-1.242065E-2	-8.572388E-2	-2.586670E-1	-8.438110E-2	-2.562408E-1	-7.200623E-1	3.569336E-1
3.220350E+10	-9.248962E-1	-4.852295E-3	-9.121704E-2	-2.568512E-1	-8.992004E-2	-2.577057E-1	-7.109375E-1	3.706360E-1
3.242800E+10	-9.264832E-1	7.629395E-4	-9.455872E-2	-2.558899E-1	-9.306335E-2	-2.559967E-1	-7.013245E-1	3.796692E-1
3.265250E+10	-9.297485E-1	9.613037E-3	-9.483337E-2	-2.532959E-1	-9.753418E-2	-2.551117E-1	-6.924438E-1	3.874512E-1
3.287700E+10	-9.236145E-1	1.406860E-2	-9.738159E-2	-2.508087E-1	-1.034622E-1	-2.486343E-1	-6.900940E-1	3.956604E-1
3.310150E+10	-9.303589E-1	2.142334E-2	-1.047821E-1	-2.487717E-1	-9.930420E-2	-2.484283E-1	-6.726685E-1	4.033813E-1
3.332600E+10	-9.255676E-1	2.618408E-2	-1.036606E-1	-2.453537E-1	-1.011887E-1	-2.471771E-1	-6.678772E-1	4.101562E-1
3.355050E+10	-9.237366E-1	3.573608E-2	-1.052856E-1	-2.421875E-1	-1.073380E-1	-2.430344E-1	-6.639099E-1	4.200134E-1
3.377500E+10	-9.285278E-1	4.208374E-2	-1.089706E-1	-2.407150E-1	-1.061020E-1	-2.424088E-1	-6.538696E-1	4.304199E-1
3.399950E+10	-9.226990E-1	4.806519E-2	-1.059723E-1	-2.419968E-1	-1.087723E-1	-2.424850E-1	-6.516724E-1	4.359436E-1
3.422400E+10	-9.256287E-1	5.499268E-2	-1.125946E-1	-2.375946E-1	-1.132050E-1	-2.398834E-1	-6.393738E-1	4.526672E-1
3.444850E+10	-9.291382E-1	6.268311E-2	-1.130371E-1	-2.368851E-1	-1.144943E-1	-2.398529E-1	-6.308899E-1	4.565430E-1
3.467300E+10	-9.261475E-1	6.979370E-2	-1.140594E-1	-2.382355E-1	-1.166992E-1	-2.383652E-1	-6.263733E-1	4.694214E-1
3.489750E+10	-9.228516E-1	7.443237E-2	-1.170807E-1	-2.362900E-1	-1.196365E-1	-2.319183E-1	-6.151428E-1	4.774475E-1
3.512200E+10	-9.213867E-1	7.968140E-2	-1.235733E-1	-2.315750E-1	-1.212463E-1	-2.322617E-1	-6.034851E-1	4.782715E-1
3.534650E+10	-9.242554E-1	8.087158E-2	-1.242065E-1	-2.304687E-1	-1.261368E-1	-2.319641E-1	-5.909729E-1	4.904785E-1
3.557100E+10	-9.235535E-1	8.666992E-2	-1.268845E-1	-2.259827E-1	-1.272964E-1	-2.300491E-1	-5.804749E-1	5.030518E-1
3.579550E+10	-9.264221E-1	9.942627E-2	-1.262283E-1	-2.276764E-1	-1.332855E-1	-2.290649E-1	-5.671692E-1	5.128174E-1
3.602000E+10	-9.240112E-1	1.014709E-1	-1.368713E-1	-2.269669E-1	-1.321716E-1	-2.271729E-1	-5.575562E-1	5.132751E-1
3.624450E+10	-9.184265E-1	1.125488E-1	-1.315994E-1	-2.224731E-1	-1.324234E-1	-2.268906E-1	-5.564575E-1	5.190430E-1
3.646900E+10	-9.186096E-1	1.197815E-1	-1.381454E-1	-2.243805E-1	-1.390839E-1	-2.231369E-1	-5.429077E-1	5.262451E-1
3.669350E+10	-9.173584E-1	1.257324E-1	-1.392059E-1	-2.243881E-1	-1.403809E-1	-2.214584E-1	-5.307312E-1	5.362244E-1
3.691800E+10	-9.179077E-1	1.303711E-1	-1.421432E-1	-2.201080E-1	-1.393890E-1	-2.168427E-1	-5.190735E-1	5.450134E-1
3.714250E+10	-9.175720E-1	1.352844E-1	-1.448059E-1	-2.144547E-1	-1.433029E-1	-2.148285E-1	-5.050354E-1	5.474854E-1
3.736700E+10	-9.118652E-1	1.395874E-1	-1.468811E-1	-2.137985E-1	-1.481552E-1	-2.103119E-1	-4.982605E-1	5.562439E-1
3.759150E+10	-9.131470E-1	1.513062E-1	-1.472015E-1	-2.113037E-1	-1.510239E-1	-2.138596E-1	-4.806824E-1	5.585937E-1
3.781600E+10	-9.081726E-1	1.566772E-1	-1.563568E-1	-2.080154E-1	-1.517563E-1	-2.063599E-1	-4.681396E-1	5.640564E-1
3.804050E+10	-9.164124E-1	1.607361E-1	-1.553650E-1	-2.035217E-1	-1.577835E-1	-2.071533E-1	-4.566956E-1	5.770874E-1
3.826500E+10	-9.155273E-1	1.653748E-1	-1.571579E-1	-2.059479E-1	-1.562653E-1	-2.026901E-1	-4.391174E-1	5.771179E-1
3.848950E+10	-9.067078E-1	1.709900E-1	-1.575851E-1	-2.046432E-1	-1.615906E-1	-2.048111E-1	-4.279480E-1	5.903320E-1
3.871400E+10	-9.063416E-1	1.751099E-1	-1.598282E-1	-1.992645E-1	-1.586227E-1	-1.991348E-1	-4.192810E-1	5.856018E-1
3.893850E+10	-9.053040E-1	1.874695E-1	-1.616135E-1	-1.982803E-1	-1.642380E-1	-1.930618E-1	-4.006042E-1	5.895691E-1
