!Date: 10/28/2005, 12:34 PM

!Vgs = -6.000000E+0
!Vds = 1.000000E+0
!Ig = -4.264400E-5
!Id = 1.514200E-3

# HZ S RI R 50
1.000000E+8	9.902954E-1	-4.412842E-2	-3.303528E-2	1.730537E-2	3.914833E-4	1.474714E-2	9.522705E-1	-1.330566E-2
3.245000E+8	9.754639E-1	-1.239319E-1	-2.508163E-2	5.034065E-2	7.980347E-3	4.647255E-2	9.327698E-1	-9.799194E-2
5.490000E+8	9.559937E-1	-2.015381E-1	-1.355362E-2	8.138275E-2	1.793289E-2	7.517624E-2	9.235535E-1	-1.603699E-1
7.735000E+8	9.310303E-1	-2.767334E-1	1.861572E-3	1.098785E-1	3.212357E-2	1.010818E-1	9.031677E-1	-2.224121E-1
9.980000E+8	9.020996E-1	-3.447266E-1	2.055359E-2	1.347733E-1	4.874420E-2	1.245689E-1	8.804016E-1	-2.766418E-1
1.222500E+9	8.670349E-1	-4.100037E-1	4.158783E-2	1.571732E-1	6.800842E-2	1.451569E-1	8.547363E-1	-3.315735E-1
1.447000E+9	8.280945E-1	-4.712830E-1	6.398010E-2	1.758270E-1	8.850861E-2	1.623383E-1	8.258057E-1	-3.817444E-1
1.671500E+9	7.858582E-1	-5.274658E-1	8.739471E-2	1.923828E-1	1.104660E-1	1.780930E-1	7.935791E-1	-4.276123E-1
1.896000E+9	7.409973E-1	-5.765381E-1	1.141739E-1	2.058868E-1	1.351929E-1	1.909027E-1	7.635193E-1	-4.685669E-1
2.120500E+9	6.953125E-1	-6.217346E-1	1.426926E-1	2.145538E-1	1.611938E-1	1.988831E-1	7.307739E-1	-5.094910E-1
2.345000E+9	6.457520E-1	-6.632080E-1	1.702728E-1	2.190704E-1	1.871872E-1	2.029266E-1	6.948853E-1	-5.474548E-1
2.569500E+9	5.979919E-1	-6.967468E-1	1.974106E-1	2.204895E-1	2.119446E-1	2.048035E-1	6.601868E-1	-5.814209E-1
2.794000E+9	5.488892E-1	-7.284851E-1	2.220688E-1	2.195206E-1	2.362900E-1	2.036591E-1	6.234131E-1	-6.116333E-1
3.018500E+9	5.006714E-1	-7.547607E-1	2.469864E-1	2.160263E-1	2.596741E-1	1.996307E-1	5.851746E-1	-6.414490E-1
3.243000E+9	4.529724E-1	-7.778015E-1	2.710419E-1	2.096863E-1	2.815704E-1	1.934509E-1	5.466919E-1	-6.665955E-1
3.467500E+9	4.053955E-1	-7.974854E-1	2.922821E-1	2.014771E-1	3.012238E-1	1.859741E-1	5.097961E-1	-6.891785E-1
3.692000E+9	3.591614E-1	-8.130188E-1	3.126068E-1	1.923828E-1	3.211975E-1	1.770477E-1	4.714966E-1	-7.104187E-1
3.916500E+9	3.135986E-1	-8.257751E-1	3.320923E-1	1.809387E-1	3.389587E-1	1.659698E-1	4.343262E-1	-7.259521E-1
4.141000E+9	2.703857E-1	-8.364563E-1	3.498077E-1	1.694336E-1	3.556671E-1	1.546631E-1	3.994751E-1	-7.418213E-1
4.365500E+9	2.296143E-1	-8.447266E-1	3.653107E-1	1.556244E-1	3.708954E-1	1.414642E-1	3.644104E-1	-7.556763E-1
4.590000E+9	1.872864E-1	-8.519287E-1	3.804626E-1	1.416016E-1	3.843079E-1	1.269226E-1	3.269653E-1	-7.686157E-1
4.814500E+9	1.482239E-1	-8.553467E-1	3.927307E-1	1.266022E-1	3.972626E-1	1.127319E-1	2.939453E-1	-7.788086E-1
5.039000E+9	1.098328E-1	-8.583069E-1	4.050446E-1	1.103363E-1	4.080048E-1	9.748840E-2	2.594910E-1	-7.886353E-1
5.263500E+9	7.299805E-2	-8.584595E-1	4.148712E-1	9.396362E-2	4.173126E-1	8.125305E-2	2.243042E-1	-7.962952E-1
5.488000E+9	3.921509E-2	-8.581543E-1	4.233704E-1	7.856750E-2	4.251404E-1	6.593323E-2	1.934204E-1	-8.021545E-1
5.712500E+9	4.150391E-3	-8.575134E-1	4.308624E-1	6.178284E-2	4.319458E-1	4.971313E-2	1.614075E-1	-8.079834E-1
5.937000E+9	-2.774048E-2	-8.534851E-1	4.366150E-1	4.440308E-2	4.375305E-1	3.327942E-2	1.290894E-1	-8.125916E-1
6.161500E+9	-5.801392E-2	-8.515320E-1	4.416962E-1	2.832031E-2	4.413910E-1	1.770020E-2	9.814453E-2	-8.152771E-1
6.386000E+9	-8.926392E-2	-8.474121E-1	4.446564E-1	1.161194E-2	4.445343E-1	1.083374E-3	6.787109E-2	-8.179321E-1
6.610500E+9	-1.166382E-1	-8.436584E-1	4.473114E-1	-3.738403E-3	4.468231E-1	-1.403809E-2	3.732300E-2	-8.193359E-1
6.835000E+9	-1.449280E-1	-8.381958E-1	4.488831E-1	-1.933289E-2	4.482117E-1	-2.897644E-2	7.293701E-3	-8.186340E-1
7.059500E+9	-1.699219E-1	-8.310852E-1	4.495850E-1	-3.419495E-2	4.487000E-1	-4.310608E-2	-1.763916E-2	-8.174744E-1
7.284000E+9	-1.965942E-1	-8.254395E-1	4.481506E-1	-4.922485E-2	4.472504E-1	-5.841064E-2	-4.760742E-2	-8.165588E-1
7.508500E+9	-2.214966E-1	-8.187256E-1	4.475250E-1	-6.387329E-2	4.467773E-1	-7.208252E-2	-7.537842E-2	-8.120728E-1
7.733000E+9	-2.447510E-1	-8.106689E-1	4.463348E-1	-7.814026E-2	4.445496E-1	-8.610535E-2	-1.001587E-1	-8.108215E-1
7.957500E+9	-2.670288E-1	-8.029175E-1	4.437714E-1	-9.178162E-2	4.414825E-1	-9.918213E-2	-1.278992E-1	-8.074341E-1
8.182000E+9	-2.879028E-1	-7.962952E-1	4.409637E-1	-1.051483E-1	4.390717E-1	-1.124115E-1	-1.527405E-1	-8.035278E-1
8.406500E+9	-3.088379E-1	-7.887268E-1	4.362640E-1	-1.181488E-1	4.341278E-1	-1.247253E-1	-1.773376E-1	-7.970581E-1
8.631000E+9	-3.311157E-1	-7.802124E-1	4.334106E-1	-1.308746E-1	4.305725E-1	-1.377106E-1	-2.033081E-1	-7.921448E-1
8.855500E+9	-3.496094E-1	-7.718201E-1	4.289093E-1	-1.421204E-1	4.258270E-1	-1.492157E-1	-2.256775E-1	-7.850037E-1
9.080001E+9	-3.674011E-1	-7.645569E-1	4.235687E-1	-1.531067E-1	4.220123E-1	-1.594849E-1	-2.481384E-1	-7.780457E-1
9.304500E+9	-3.867187E-1	-7.541504E-1	4.180298E-1	-1.650085E-1	4.155731E-1	-1.708374E-1	-2.712402E-1	-7.716980E-1
9.529000E+9	-4.035034E-1	-7.468262E-1	4.130554E-1	-1.750793E-1	4.098969E-1	-1.809998E-1	-2.929687E-1	-7.628174E-1
9.753500E+9	-4.218750E-1	-7.373657E-1	4.077301E-1	-1.857452E-1	4.048767E-1	-1.909943E-1	-3.128052E-1	-7.542725E-1
9.978000E+9	-4.369202E-1	-7.286987E-1	4.014740E-1	-1.954498E-1	3.984528E-1	-1.999054E-1	-3.339539E-1	-7.472839E-1
1.020250E+10	-4.532166E-1	-7.211914E-1	3.944855E-1	-2.042236E-1	3.923798E-1	-2.092438E-1	-3.536072E-1	-7.368774E-1
1.042700E+10	-4.696655E-1	-7.109680E-1	3.885040E-1	-2.124634E-1	3.855896E-1	-2.172852E-1	-3.717346E-1	-7.282715E-1
1.065150E+10	-4.826050E-1	-7.026062E-1	3.809814E-1	-2.208862E-1	3.783112E-1	-2.257385E-1	-3.902588E-1	-7.202454E-1
1.087600E+10	-4.972839E-1	-6.932373E-1	3.748016E-1	-2.287903E-1	3.721008E-1	-2.330322E-1	-4.101562E-1	-7.104797E-1
1.110050E+10	-5.119629E-1	-6.838074E-1	3.670654E-1	-2.372589E-1	3.644409E-1	-2.406006E-1	-4.271851E-1	-6.996155E-1
1.132500E+10	-5.243835E-1	-6.752014E-1	3.593903E-1	-2.434845E-1	3.575592E-1	-2.477417E-1	-4.449768E-1	-6.921692E-1
1.154950E+10	-5.375671E-1	-6.652222E-1	3.523254E-1	-2.508850E-1	3.497620E-1	-2.534790E-1	-4.636230E-1	-6.793823E-1
1.177400E+10	-5.499878E-1	-6.570129E-1	3.461914E-1	-2.564850E-1	3.430023E-1	-2.595825E-1	-4.783936E-1	-6.672668E-1
1.199850E+10	-5.632629E-1	-6.476440E-1	3.375702E-1	-2.641144E-1	3.364868E-1	-2.664337E-1	-4.936829E-1	-6.585999E-1
1.222300E+10	-5.736694E-1	-6.395264E-1	3.315582E-1	-2.687988E-1	3.298645E-1	-2.719574E-1	-5.106201E-1	-6.480103E-1
1.244750E+10	-5.860596E-1	-6.300354E-1	3.236389E-1	-2.748718E-1	3.219299E-1	-2.780457E-1	-5.248108E-1	-6.349792E-1
1.267200E+10	-5.971069E-1	-6.205444E-1	3.170319E-1	-2.799530E-1	3.133545E-1	-2.836304E-1	-5.383606E-1	-6.256104E-1
1.289650E+10	-6.053772E-1	-6.124268E-1	3.105469E-1	-2.844391E-1	3.075714E-1	-2.877197E-1	-5.536499E-1	-6.135559E-1
1.312100E+10	-6.177979E-1	-6.038208E-1	3.020172E-1	-2.896729E-1	2.996216E-1	-2.917633E-1	-5.674133E-1	-6.000061E-1
1.334550E+10	-6.278076E-1	-5.939941E-1	2.947083E-1	-2.943420E-1	2.927399E-1	-2.961426E-1	-5.779114E-1	-5.908508E-1
1.357000E+10	-6.381836E-1	-5.848999E-1	2.872009E-1	-2.983246E-1	2.843781E-1	-3.011932E-1	-5.922241E-1	-5.806580E-1
1.379450E+10	-6.466064E-1	-5.770569E-1	2.822876E-1	-3.020172E-1	2.789307E-1	-3.038483E-1	-6.055908E-1	-5.646362E-1
1.401900E+10	-6.545715E-1	-5.693665E-1	2.733917E-1	-3.054962E-1	2.707825E-1	-3.069000E-1	-6.145020E-1	-5.542603E-1
1.424350E+10	-6.655884E-1	-5.593262E-1	2.666473E-1	-3.083344E-1	2.636719E-1	-3.102875E-1	-6.289062E-1	-5.425110E-1
1.446800E+10	-6.728210E-1	-5.509338E-1	2.587433E-1	-3.115997E-1	2.561035E-1	-3.135223E-1	-6.403198E-1	-5.274048E-1
1.469250E+10	-6.813965E-1	-5.422363E-1	2.515564E-1	-3.143005E-1	2.496185E-1	-3.163147E-1	-6.477966E-1	-5.166626E-1
1.491700E+10	-6.891785E-1	-5.333862E-1	2.443695E-1	-3.170776E-1	2.427673E-1	-3.186798E-1	-6.595154E-1	-5.071716E-1
1.514150E+10	-6.963806E-1	-5.237427E-1	2.364349E-1	-3.197784E-1	2.339325E-1	-3.213806E-1	-6.716003E-1	-4.911194E-1
1.536600E+10	-7.061768E-1	-5.147095E-1	2.292633E-1	-3.223572E-1	2.271118E-1	-3.230438E-1	-6.787415E-1	-4.789429E-1
1.559050E+10	-7.134094E-1	-5.071716E-1	2.230225E-1	-3.237610E-1	2.202301E-1	-3.255005E-1	-6.898499E-1	-4.676208E-1
1.581500E+10	-7.208557E-1	-4.973450E-1	2.154846E-1	-3.256378E-1	2.134247E-1	-3.278351E-1	-6.996765E-1	-4.527893E-1
1.603950E+10	-7.284546E-1	-4.898987E-1	2.086334E-1	-3.279572E-1	2.077179E-1	-3.284912E-1	-7.054749E-1	-4.424744E-1
1.626400E+10	-7.351990E-1	-4.801025E-1	2.029114E-1	-3.296661E-1	2.014771E-1	-3.294220E-1	-7.158508E-1	-4.290771E-1
1.648850E+10	-7.412109E-1	-4.726257E-1	1.945953E-1	-3.305359E-1	1.935120E-1	-3.312836E-1	-7.243042E-1	-4.154663E-1
1.671300E+10	-7.477722E-1	-4.629517E-1	1.897888E-1	-3.324738E-1	1.871948E-1	-3.338013E-1	-7.299194E-1	-4.020081E-1
1.693750E+10	-7.543945E-1	-4.559021E-1	1.820221E-1	-3.340454E-1	1.813507E-1	-3.343048E-1	-7.386780E-1	-3.908081E-1
1.716200E+10	-7.600708E-1	-4.481812E-1	1.756287E-1	-3.336639E-1	1.742096E-1	-3.350525E-1	-7.464294E-1	-3.758545E-1
1.738650E+10	-7.667236E-1	-4.399414E-1	1.700897E-1	-3.350220E-1	1.666718E-1	-3.352966E-1	-7.510681E-1	-3.625793E-1
1.761100E+10	-7.722473E-1	-4.298401E-1	1.635284E-1	-3.347931E-1	1.617126E-1	-3.360901E-1	-7.582092E-1	-3.530273E-1
1.783550E+10	-7.808228E-1	-4.204712E-1	1.569061E-1	-3.364716E-1	1.540833E-1	-3.377075E-1	-7.670288E-1	-3.375244E-1
1.806000E+10	-7.854309E-1	-4.145508E-1	1.519928E-1	-3.380737E-1	1.495209E-1	-3.376617E-1	-7.692566E-1	-3.249512E-1
1.828450E+10	-7.889709E-1	-4.055176E-1	1.456146E-1	-3.357239E-1	1.436157E-1	-3.374634E-1	-7.756042E-1	-3.143921E-1
1.850900E+10	-7.949219E-1	-3.981628E-1	1.385040E-1	-3.364716E-1	1.380463E-1	-3.366699E-1	-7.819519E-1	-2.999878E-1
1.873350E+10	-8.000793E-1	-3.887939E-1	1.336060E-1	-3.377075E-1	1.321716E-1	-3.375702E-1	-7.849426E-1	-2.852783E-1
1.895800E+10	-8.055725E-1	-3.817444E-1	1.274872E-1	-3.369751E-1	1.259003E-1	-3.382111E-1	-7.905884E-1	-2.768250E-1
1.918250E+10	-8.108215E-1	-3.725891E-1	1.218719E-1	-3.379364E-1	1.208344E-1	-3.362885E-1	-7.987671E-1	-2.626038E-1
1.940700E+10	-8.128052E-1	-3.652649E-1	1.168518E-1	-3.360596E-1	1.148682E-1	-3.365936E-1	-7.975464E-1	-2.453613E-1
1.963150E+10	-8.204956E-1	-3.572998E-1	1.090393E-1	-3.344269E-1	1.089935E-1	-3.357239E-1	-8.020630E-1	-2.360840E-1
1.985600E+10	-8.239136E-1	-3.486328E-1	1.056061E-1	-3.344269E-1	1.033936E-1	-3.360443E-1	-8.082581E-1	-2.236633E-1
2.008050E+10	-8.261719E-1	-3.408508E-1	9.945679E-2	-3.367462E-1	9.733582E-2	-3.351288E-1	-8.101196E-1	-2.066650E-1
2.030500E+10	-8.304749E-1	-3.342590E-1	9.524536E-2	-3.340302E-1	9.376526E-2	-3.349762E-1	-8.113098E-1	-1.994019E-1
2.052950E+10	-8.351135E-1	-3.262939E-1	8.956909E-2	-3.332214E-1	8.784485E-2	-3.352051E-1	-8.145447E-1	-1.858826E-1
2.075400E+10	-8.400269E-1	-3.183594E-1	8.360291E-2	-3.347015E-1	8.401489E-2	-3.348083E-1	-8.194580E-1	-1.720886E-1
2.097850E+10	-8.434753E-1	-3.092346E-1	7.913208E-2	-3.328400E-1	7.806396E-2	-3.336487E-1	-8.185120E-1	-1.585693E-1
2.120300E+10	-8.468018E-1	-3.028564E-1	7.295227E-2	-3.311768E-1	7.147217E-2	-3.310547E-1	-8.229370E-1	-1.508789E-1
2.142750E+10	-8.514404E-1	-2.939453E-1	6.799316E-2	-3.308105E-1	6.729126E-2	-3.318329E-1	-8.266907E-1	-1.353760E-1
2.165200E+10	-8.552246E-1	-2.856750E-1	6.350708E-2	-3.285980E-1	6.304932E-2	-3.288879E-1	-8.291321E-1	-1.227417E-1
2.187650E+10	-8.558350E-1	-2.771912E-1	5.917358E-2	-3.289642E-1	5.879211E-2	-3.274689E-1	-8.325500E-1	-1.129456E-1
2.210100E+10	-8.610535E-1	-2.684631E-1	5.513000E-2	-3.292084E-1	5.261230E-2	-3.277130E-1	-8.353271E-1	-9.561157E-2
2.232550E+10	-8.624878E-1	-2.591858E-1	5.116272E-2	-3.271484E-1	4.992676E-2	-3.288879E-1	-8.339233E-1	-8.395386E-2
2.255000E+10	-8.676758E-1	-2.543640E-1	4.579163E-2	-3.269806E-1	4.475403E-2	-3.266602E-1	-8.356018E-1	-7.241821E-2
2.277450E+10	-8.684998E-1	-2.445374E-1	4.116821E-2	-3.266144E-1	4.014587E-2	-3.240509E-1	-8.374023E-1	-5.892944E-2
2.299900E+10	-8.709412E-1	-2.377930E-1	3.695679E-2	-3.228455E-1	3.555298E-2	-3.228912E-1	-8.348083E-1	-4.455566E-2
2.322350E+10	-8.725281E-1	-2.319031E-1	3.115845E-2	-3.231964E-1	3.178406E-2	-3.231812E-1	-8.382568E-1	-3.460693E-2
2.344800E+10	-8.735352E-1	-2.264404E-1	2.973938E-2	-3.214722E-1	2.777100E-2	-3.197021E-1	-8.379822E-1	-1.956177E-2
2.367250E+10	-8.782959E-1	-2.170715E-1	2.325439E-2	-3.197479E-1	2.227783E-2	-3.192291E-1	-8.365173E-1	-4.028320E-3
2.389700E+10	-8.795166E-1	-2.095337E-1	2.084351E-2	-3.185120E-1	1.850891E-2	-3.187256E-1	-8.367920E-1	3.540039E-3
2.412150E+10	-8.821411E-1	-2.042236E-1	1.605225E-2	-3.172455E-1	1.403809E-2	-3.184814E-1	-8.366394E-1	2.236938E-2
2.434600E+10	-8.841248E-1	-1.964111E-1	1.136780E-2	-3.144226E-1	1.074219E-2	-3.157043E-1	-8.316040E-1	3.063965E-2
2.457050E+10	-8.877869E-1	-1.898499E-1	6.546021E-3	-3.157806E-1	5.645752E-3	-3.159637E-1	-8.350525E-1	4.199219E-2
2.479500E+10	-8.926086E-1	-1.828003E-1	2.639771E-3	-3.136597E-1	2.456665E-3	-3.153076E-1	-8.303528E-1	5.776978E-2
2.501950E+10	-8.912659E-1	-1.765747E-1	-2.334595E-3	-3.124847E-1	-2.120972E-3	-3.138275E-1	-8.256531E-1	6.750488E-2
2.524400E+10	-8.956604E-1	-1.668396E-1	-6.164551E-3	-3.100128E-1	-4.928589E-3	-3.084564E-1	-8.272705E-1	7.717896E-2
2.546850E+10	-8.961182E-1	-1.592102E-1	-8.865356E-3	-3.081665E-1	-1.057434E-2	-3.073425E-1	-8.236084E-1	9.048462E-2
2.569300E+10	-8.979492E-1	-1.547546E-1	-1.217651E-2	-3.049316E-1	-1.298523E-2	-3.061523E-1	-8.205261E-1	9.835815E-2
2.591750E+10	-9.003296E-1	-1.430664E-1	-1.776123E-2	-3.054047E-1	-1.647949E-2	-3.058167E-1	-8.227539E-1	1.135254E-1
2.614200E+10	-9.009399E-1	-1.347961E-1	-1.805115E-2	-3.029938E-1	-2.015686E-2	-3.031464E-1	-8.193359E-1	1.251221E-1
2.636650E+10	-9.033508E-1	-1.297913E-1	-2.206421E-2	-3.016663E-1	-2.355957E-2	-3.010101E-1	-8.186646E-1	1.392212E-1
2.659100E+10	-9.025574E-1	-1.242981E-1	-2.706909E-2	-2.994843E-1	-2.740479E-2	-3.004761E-1	-8.123169E-1	1.476746E-1
2.681550E+10	-9.056091E-1	-1.195068E-1	-3.027344E-2	-2.991028E-1	-3.062439E-2	-2.990112E-1	-8.129272E-1	1.576538E-1
2.704000E+10	-9.059143E-1	-1.101685E-1	-3.242493E-2	-2.969818E-1	-3.298950E-2	-2.948151E-1	-8.093262E-1	1.756287E-1
2.726450E+10	-9.073181E-1	-1.030579E-1	-3.828430E-2	-2.974243E-1	-3.794861E-2	-2.973480E-1	-7.991028E-1	1.807556E-1
2.748900E+10	-9.096069E-1	-9.619141E-2	-3.811646E-2	-2.952728E-1	-4.058838E-2	-2.944641E-1	-7.993469E-1	1.958008E-1
2.771350E+10	-9.114075E-1	-8.941650E-2	-4.446411E-2	-2.934875E-1	-4.376221E-2	-2.924500E-1	-7.953491E-1	2.086182E-1
2.793800E+10	-9.131775E-1	-8.456421E-2	-4.887390E-2	-2.895508E-1	-4.823303E-2	-2.899628E-1	-7.922668E-1	2.134094E-1
2.816250E+10	-9.101257E-1	-7.730103E-2	-5.241394E-2	-2.885742E-1	-5.073547E-2	-2.898712E-1	-7.886963E-1	2.284241E-1
2.838700E+10	-9.111633E-1	-6.854248E-2	-5.346680E-2	-2.834778E-1	-5.732727E-2	-2.851868E-1	-7.797546E-1	2.370300E-1
2.861150E+10	-9.154053E-1	-6.219482E-2	-6.053162E-2	-2.846375E-1	-5.865479E-2	-2.826233E-1	-7.745667E-1	2.469482E-1
2.883600E+10	-9.165344E-1	-5.581665E-2	-6.207275E-2	-2.830811E-1	-5.809021E-2	-2.799377E-1	-7.692261E-1	2.554626E-1
2.906050E+10	-9.165955E-1	-4.913330E-2	-6.436157E-2	-2.815247E-1	-6.585693E-2	-2.797394E-1	-7.659302E-1	2.673950E-1
2.928500E+10	-9.171753E-1	-4.010010E-2	-6.539917E-2	-2.797241E-1	-6.666565E-2	-2.801666E-1	-7.571411E-1	2.742004E-1
2.950950E+10	-9.176941E-1	-3.417969E-2	-6.822205E-2	-2.779388E-1	-7.087708E-2	-2.745209E-1	-7.571716E-1	2.891541E-1
2.973400E+10	-9.192200E-1	-2.893066E-2	-6.961060E-2	-2.745972E-1	-7.257080E-2	-2.747803E-1	-7.501526E-1	2.977905E-1
2.995850E+10	-9.168091E-1	-2.044678E-2	-7.444763E-2	-2.723694E-1	-7.582092E-2	-2.723846E-1	-7.485046E-1	3.111267E-1
3.018300E+10	-9.157410E-1	-1.538086E-2	-7.710266E-2	-2.687683E-1	-7.752991E-2	-2.725525E-1	-7.413940E-1	3.233948E-1
3.040750E+10	-9.172058E-1	-9.307861E-3	-7.913208E-2	-2.692566E-1	-7.919312E-2	-2.706757E-1	-7.350159E-1	3.316650E-1
3.063200E+10	-9.195251E-1	-1.251221E-3	-8.134460E-2	-2.688751E-1	-8.581543E-2	-2.655182E-1	-7.320251E-1	3.439941E-1
3.085650E+10	-9.200745E-1	4.028320E-3	-8.631897E-2	-2.643890E-1	-8.528137E-2	-2.659607E-1	-7.243958E-1	3.557129E-1
3.108100E+10	-9.195862E-1	1.119995E-2	-8.691406E-2	-2.624969E-1	-8.892822E-2	-2.642212E-1	-7.162476E-1	3.634033E-1
3.130550E+10	-9.184265E-1	1.831055E-2	-9.379578E-2	-2.643585E-1	-9.338379E-2	-2.630920E-1	-7.071228E-1	3.727112E-1
3.153000E+10	-9.222717E-1	2.108765E-2	-9.527588E-2	-2.582703E-1	-9.159851E-2	-2.604523E-1	-6.962891E-1	3.831787E-1
3.175450E+10	-9.206848E-1	3.216553E-2	-9.466553E-2	-2.565308E-1	-9.899902E-2	-2.578430E-1	-6.908875E-1	3.949585E-1
3.197900E+10	-9.199524E-1	3.625488E-2	-9.887695E-2	-2.577515E-1	-1.000214E-1	-2.599487E-1	-6.801147E-1	4.031677E-1
3.220350E+10	-9.230652E-1	4.675293E-2	-1.048584E-1	-2.532196E-1	-1.006622E-1	-2.537689E-1	-6.708069E-1	4.097900E-1
3.242800E+10	-9.206543E-1	5.007935E-2	-1.094666E-1	-2.520905E-1	-1.033936E-1	-2.543640E-1	-6.645508E-1	4.221191E-1
3.265250E+10	-9.199829E-1	5.941772E-2	-1.075592E-1	-2.482300E-1	-1.123428E-1	-2.487946E-1	-6.548767E-1	4.320984E-1
3.287700E+10	-9.245911E-1	6.115723E-2	-1.124496E-1	-2.483368E-1	-1.119614E-1	-2.471619E-1	-6.497498E-1	4.353638E-1
3.310150E+10	-9.220276E-1	7.037354E-2	-1.145325E-1	-2.437363E-1	-1.117783E-1	-2.413254E-1	-6.385803E-1	4.443970E-1
3.332600E+10	-9.188843E-1	7.962036E-2	-1.170578E-1	-2.411346E-1	-1.152039E-1	-2.414551E-1	-6.322632E-1	4.519653E-1
3.355050E+10	-9.176941E-1	8.163452E-2	-1.194000E-1	-2.382507E-1	-1.188202E-1	-2.384872E-1	-6.244202E-1	4.551086E-1
3.377500E+10	-9.161377E-1	9.344482E-2	-1.202469E-1	-2.404175E-1	-1.185074E-1	-2.359314E-1	-6.177368E-1	4.618225E-1
3.399950E+10	-9.175720E-1	9.777832E-2	-1.200714E-1	-2.333145E-1	-1.216812E-1	-2.396545E-1	-6.111450E-1	4.726562E-1
3.422400E+10	-9.168701E-1	1.044617E-1	-1.280441E-1	-2.324677E-1	-1.227341E-1	-2.348709E-1	-6.010437E-1	4.899292E-1
3.444850E+10	-9.171753E-1	1.113586E-1	-1.265640E-1	-2.338715E-1	-1.255875E-1	-2.369232E-1	-5.908508E-1	4.922485E-1
3.467300E+10	-9.138794E-1	1.184692E-1	-1.267548E-1	-2.298431E-1	-1.263885E-1	-2.300186E-1	-5.832214E-1	5.040283E-1
3.489750E+10	-9.120789E-1	1.255798E-1	-1.325836E-1	-2.295380E-1	-1.322479E-1	-2.302170E-1	-5.711670E-1	5.097656E-1
3.512200E+10	-9.115601E-1	1.343689E-1	-1.327667E-1	-2.303925E-1	-1.324234E-1	-2.267456E-1	-5.648193E-1	5.175476E-1
3.534650E+10	-9.132385E-1	1.341858E-1	-1.361389E-1	-2.276230E-1	-1.340027E-1	-2.265396E-1	-5.526123E-1	5.193481E-1
3.557100E+10	-9.113159E-1	1.434937E-1	-1.376190E-1	-2.241821E-1	-1.383209E-1	-2.239456E-1	-5.323486E-1	5.385132E-1
3.579550E+10	-9.112549E-1	1.473694E-1	-1.385269E-1	-2.194824E-1	-1.402130E-1	-2.178955E-1	-5.227661E-1	5.376892E-1
3.602000E+10	-9.126587E-1	1.564636E-1	-1.447220E-1	-2.176895E-1	-1.442032E-1	-2.206039E-1	-5.088806E-1	5.445557E-1
3.624450E+10	-9.136353E-1	1.632385E-1	-1.463547E-1	-2.154999E-1	-1.474915E-1	-2.186966E-1	-5.026245E-1	5.482178E-1
3.646900E+10	-9.089966E-1	1.688843E-1	-1.509476E-1	-2.144241E-1	-1.493530E-1	-2.129135E-1	-4.982910E-1	5.613403E-1
3.669350E+10	-9.036865E-1	1.726685E-1	-1.530075E-1	-2.114487E-1	-1.527939E-1	-2.117615E-1	-4.769592E-1	5.650024E-1
3.691800E+10	-9.013062E-1	1.785583E-1	-1.525574E-1	-2.107925E-1	-1.504593E-1	-2.123795E-1	-4.667358E-1	5.732422E-1
3.714250E+10	-9.023132E-1	1.804810E-1	-1.553879E-1	-2.050018E-1	-1.556473E-1	-2.105255E-1	-4.612732E-1	5.786133E-1
3.736700E+10	-8.988342E-1	1.931763E-1	-1.544418E-1	-2.056656E-1	-1.618423E-1	-2.008286E-1	-4.441223E-1	5.784607E-1
3.759150E+10	-8.980408E-1	2.006226E-1	-1.603165E-1	-2.043304E-1	-1.557236E-1	-2.050552E-1	-4.284058E-1	5.810242E-1
3.781600E+10	-8.956604E-1	2.036133E-1	-1.609116E-1	-1.996994E-1	-1.622543E-1	-2.002487E-1	-4.226990E-1	5.926208E-1
3.804050E+10	-8.995361E-1	2.063599E-1	-1.643906E-1	-1.953354E-1	-1.642685E-1	-1.977234E-1	-3.995972E-1	5.951843E-1
3.826500E+10	-8.974609E-1	2.185669E-1	-1.650925E-1	-1.955566E-1	-1.683121E-1	-1.971054E-1	-3.878174E-1	6.043396E-1
3.848950E+10	-8.916931E-1	2.209473E-1	-1.715622E-1	-1.973114E-1	-1.703110E-1	-1.958008E-1	-3.808289E-1	6.093750E-1
3.871400E+10	-8.896179E-1	2.259827E-1	-1.678314E-1	-1.884003E-1	-1.697540E-1	-1.936035E-1	-3.613892E-1	6.080627E-1
3.893850E+10	-8.877869E-1	2.306824E-1	-1.761398E-1	-1.848907E-1	-1.669159E-1	-1.848602E-1	-3.493958E-1	6.101685E-1
