!Date: 10/28/2005, 12:34 PM

!Vgs = -8.000000E+0
!Vds = 1.000000E+0
!Ig = -6.805400E-5
!Id = 7.346600E-4

# HZ S RI R 50
1.000000E+8	9.904480E-1	-3.863525E-2	-3.411770E-3	1.291323E-2	1.026630E-3	1.342964E-2	9.579468E-1	-1.269531E-2
3.245000E+8	9.781494E-1	-1.090393E-1	3.227234E-3	4.259682E-2	7.038116E-3	4.242325E-2	9.424133E-1	-9.365845E-2
5.490000E+8	9.623108E-1	-1.771240E-1	1.210785E-2	6.909943E-2	1.562500E-2	6.859589E-2	9.339600E-1	-1.534119E-1
7.735000E+8	9.424438E-1	-2.440796E-1	2.438354E-2	9.365463E-2	2.787018E-2	9.278870E-2	9.149780E-1	-2.126770E-1
9.980000E+8	9.191895E-1	-3.050232E-1	3.884506E-2	1.158104E-1	4.168701E-2	1.148911E-1	8.942261E-1	-2.648315E-1
1.222500E+9	8.913269E-1	-3.650818E-1	5.487823E-2	1.352158E-1	5.819702E-2	1.346664E-1	8.710937E-1	-3.184204E-1
1.447000E+9	8.596497E-1	-4.216919E-1	7.301331E-2	1.533127E-1	7.537842E-2	1.513748E-1	8.442383E-1	-3.671875E-1
1.671500E+9	8.254089E-1	-4.738464E-1	9.188843E-2	1.695328E-1	9.439850E-2	1.676407E-1	8.148804E-1	-4.123230E-1
1.896000E+9	7.886047E-1	-5.210876E-1	1.142807E-1	1.834183E-1	1.167908E-1	1.816330E-1	7.868958E-1	-4.533997E-1
2.120500E+9	7.505493E-1	-5.655823E-1	1.376724E-1	1.935883E-1	1.400070E-1	1.911697E-1	7.571106E-1	-4.952698E-1
2.345000E+9	7.089233E-1	-6.073914E-1	1.617355E-1	1.996307E-1	1.637268E-1	1.977005E-1	7.233887E-1	-5.331726E-1
2.569500E+9	6.680603E-1	-6.421814E-1	1.846695E-1	2.035065E-1	1.864471E-1	2.021713E-1	6.901245E-1	-5.680237E-1
2.794000E+9	6.259460E-1	-6.763306E-1	2.076187E-1	2.055359E-1	2.091064E-1	2.034607E-1	6.560669E-1	-5.991821E-1
3.018500E+9	5.831604E-1	-7.051086E-1	2.296066E-1	2.048264E-1	2.308960E-1	2.021408E-1	6.196594E-1	-6.304626E-1
3.243000E+9	5.406494E-1	-7.315979E-1	2.514191E-1	2.012024E-1	2.522583E-1	1.990051E-1	5.818481E-1	-6.568604E-1
3.467500E+9	4.988708E-1	-7.550659E-1	2.715759E-1	1.971588E-1	2.728119E-1	1.950836E-1	5.465088E-1	-6.799316E-1
3.692000E+9	4.570312E-1	-7.752686E-1	2.913513E-1	1.910553E-1	2.918701E-1	1.887207E-1	5.087891E-1	-7.028503E-1
3.916500E+9	4.145508E-1	-7.921448E-1	3.100281E-1	1.824799E-1	3.107147E-1	1.804810E-1	4.719543E-1	-7.202454E-1
4.141000E+9	3.751221E-1	-8.063660E-1	3.281403E-1	1.741333E-1	3.279877E-1	1.727295E-1	4.379883E-1	-7.373962E-1
4.365500E+9	3.364258E-1	-8.199768E-1	3.441315E-1	1.637268E-1	3.445587E-1	1.617126E-1	4.030151E-1	-7.525330E-1
4.590000E+9	2.961731E-1	-8.313599E-1	3.591919E-1	1.523285E-1	3.600616E-1	1.502380E-1	3.662720E-1	-7.662659E-1
4.814500E+9	2.590637E-1	-8.393555E-1	3.732910E-1	1.402283E-1	3.733978E-1	1.380615E-1	3.329163E-1	-7.784119E-1
5.039000E+9	2.215271E-1	-8.468018E-1	3.868408E-1	1.265106E-1	3.864899E-1	1.247711E-1	2.994995E-1	-7.891235E-1
5.263500E+9	1.855774E-1	-8.513184E-1	3.981171E-1	1.120300E-1	3.979034E-1	1.106720E-1	2.644958E-1	-7.973938E-1
5.488000E+9	1.518555E-1	-8.548584E-1	4.077301E-1	9.846497E-2	4.079285E-1	9.649658E-2	2.327881E-1	-8.044739E-1
5.712500E+9	1.170654E-1	-8.576965E-1	4.173889E-1	8.370972E-2	4.169922E-1	8.180237E-2	2.015686E-1	-8.111877E-1
5.937000E+9	8.489990E-2	-8.576050E-1	4.252014E-1	6.814575E-2	4.250031E-1	6.636047E-2	1.686401E-1	-8.171997E-1
6.161500E+9	5.538940E-2	-8.594360E-1	4.319153E-1	5.308533E-2	4.315948E-1	5.162048E-2	1.378174E-1	-8.214417E-1
6.386000E+9	2.294922E-2	-8.589172E-1	4.371643E-1	3.846741E-2	4.366150E-1	3.652954E-2	1.074219E-1	-8.237915E-1
6.610500E+9	-4.455566E-3	-8.574829E-1	4.414215E-1	2.305603E-2	4.406281E-1	2.127075E-2	7.559204E-2	-8.265991E-1
6.835000E+9	-3.448486E-2	-8.558350E-1	4.451599E-1	8.438110E-3	4.446106E-1	6.774902E-3	4.638672E-2	-8.265381E-1
7.059500E+9	-6.033325E-2	-8.518677E-1	4.470215E-1	-5.905151E-3	4.466553E-1	-6.317139E-3	2.130127E-2	-8.259888E-1
7.284000E+9	-8.773804E-2	-8.489685E-1	4.482880E-1	-2.082825E-2	4.476624E-1	-2.221680E-2	-9.338379E-3	-8.252563E-1
7.508500E+9	-1.138916E-1	-8.447266E-1	4.503326E-1	-3.593445E-2	4.488983E-1	-3.654480E-2	-3.713989E-2	-8.216553E-1
7.733000E+9	-1.383667E-1	-8.391724E-1	4.493561E-1	-4.875183E-2	4.491119E-1	-5.072021E-2	-6.085205E-2	-8.200378E-1
7.957500E+9	-1.620178E-1	-8.345337E-1	4.494476E-1	-6.349182E-2	4.484558E-1	-6.376648E-2	-8.975220E-2	-8.180237E-1
8.182000E+9	-1.846619E-1	-8.296814E-1	4.483795E-1	-7.633972E-2	4.476776E-1	-7.733154E-2	-1.142578E-1	-8.149414E-1
8.406500E+9	-2.068787E-1	-8.237610E-1	4.453888E-1	-8.964539E-2	4.452362E-1	-9.080505E-2	-1.401978E-1	-8.099670E-1
8.631000E+9	-2.301331E-1	-8.175049E-1	4.431458E-1	-1.026306E-1	4.421997E-1	-1.038361E-1	-1.647339E-1	-8.053589E-1
8.855500E+9	-2.492065E-1	-8.118286E-1	4.402618E-1	-1.154480E-1	4.397888E-1	-1.157074E-1	-1.890564E-1	-7.986755E-1
9.080001E+9	-2.691956E-1	-8.056946E-1	4.371490E-1	-1.264191E-1	4.360657E-1	-1.269379E-1	-2.108765E-1	-7.924194E-1
9.304500E+9	-2.895813E-1	-7.969971E-1	4.332275E-1	-1.379395E-1	4.318542E-1	-1.390533E-1	-2.331543E-1	-7.855530E-1
9.529000E+9	-3.076782E-1	-7.914124E-1	4.294434E-1	-1.490326E-1	4.285126E-1	-1.498566E-1	-2.568665E-1	-7.784729E-1
9.753500E+9	-3.284302E-1	-7.837830E-1	4.244843E-1	-1.602936E-1	4.242706E-1	-1.601868E-1	-2.765808E-1	-7.698669E-1
9.978000E+9	-3.446045E-1	-7.763977E-1	4.196320E-1	-1.691437E-1	4.190979E-1	-1.707611E-1	-2.969055E-1	-7.632751E-1
1.020250E+10	-3.615723E-1	-7.700806E-1	4.151154E-1	-1.807098E-1	4.141235E-1	-1.812592E-1	-3.176880E-1	-7.546387E-1
1.042700E+10	-3.790283E-1	-7.613220E-1	4.093323E-1	-1.901855E-1	4.084473E-1	-1.908875E-1	-3.362732E-1	-7.468872E-1
1.065150E+10	-3.947144E-1	-7.544250E-1	4.035492E-1	-1.993561E-1	4.021149E-1	-1.992187E-1	-3.550415E-1	-7.390747E-1
1.087600E+10	-4.115906E-1	-7.460022E-1	3.978424E-1	-2.088165E-1	3.958130E-1	-2.077179E-1	-3.745117E-1	-7.288513E-1
1.110050E+10	-4.257812E-1	-7.379150E-1	3.910675E-1	-2.174377E-1	3.901825E-1	-2.175293E-1	-3.930664E-1	-7.196045E-1
1.132500E+10	-4.411621E-1	-7.299500E-1	3.848877E-1	-2.241211E-1	3.847809E-1	-2.245941E-1	-4.094849E-1	-7.117920E-1
1.154950E+10	-4.562073E-1	-7.217407E-1	3.784790E-1	-2.319794E-1	3.773804E-1	-2.325287E-1	-4.296570E-1	-7.010498E-1
1.177400E+10	-4.683228E-1	-7.131348E-1	3.727417E-1	-2.395782E-1	3.717346E-1	-2.400513E-1	-4.429016E-1	-6.896973E-1
1.199850E+10	-4.834595E-1	-7.058716E-1	3.661499E-1	-2.462463E-1	3.648682E-1	-2.472382E-1	-4.595032E-1	-6.820068E-1
1.222300E+10	-4.962463E-1	-6.968994E-1	3.596802E-1	-2.537842E-1	3.583069E-1	-2.534485E-1	-4.770203E-1	-6.708069E-1
1.244750E+10	-5.096130E-1	-6.896973E-1	3.518677E-1	-2.600861E-1	3.504333E-1	-2.605591E-1	-4.919128E-1	-6.576843E-1
1.267200E+10	-5.225830E-1	-6.799927E-1	3.455200E-1	-2.666779E-1	3.444061E-1	-2.666168E-1	-5.053101E-1	-6.499634E-1
1.289650E+10	-5.323792E-1	-6.724548E-1	3.388672E-1	-2.726135E-1	3.370819E-1	-2.718201E-1	-5.223694E-1	-6.386108E-1
1.312100E+10	-5.451050E-1	-6.636658E-1	3.314819E-1	-2.785950E-1	3.297424E-1	-2.775726E-1	-5.354309E-1	-6.253052E-1
1.334550E+10	-5.560913E-1	-6.564941E-1	3.241882E-1	-2.829132E-1	3.233337E-1	-2.831573E-1	-5.462646E-1	-6.167297E-1
1.357000E+10	-5.692139E-1	-6.470947E-1	3.178253E-1	-2.885284E-1	3.148651E-1	-2.895355E-1	-5.616455E-1	-6.060791E-1
1.379450E+10	-5.782471E-1	-6.406555E-1	3.110809E-1	-2.941589E-1	3.100586E-1	-2.921143E-1	-5.746765E-1	-5.921326E-1
1.401900E+10	-5.870972E-1	-6.317749E-1	3.041687E-1	-2.975769E-1	3.030548E-1	-2.970428E-1	-5.838623E-1	-5.820618E-1
1.424350E+10	-5.995789E-1	-6.227112E-1	2.961273E-1	-3.010254E-1	2.957764E-1	-3.004456E-1	-5.990906E-1	-5.697937E-1
1.446800E+10	-6.082458E-1	-6.153259E-1	2.890625E-1	-3.054504E-1	2.891541E-1	-3.054047E-1	-6.100159E-1	-5.565186E-1
1.469250E+10	-6.170349E-1	-6.056824E-1	2.825775E-1	-3.098145E-1	2.823486E-1	-3.100281E-1	-6.184998E-1	-5.466614E-1
1.491700E+10	-6.264038E-1	-5.983582E-1	2.753448E-1	-3.138580E-1	2.749939E-1	-3.132477E-1	-6.322632E-1	-5.363464E-1
1.514150E+10	-6.363220E-1	-5.894775E-1	2.679596E-1	-3.169708E-1	2.670441E-1	-3.151093E-1	-6.431885E-1	-5.205994E-1
1.536600E+10	-6.448975E-1	-5.802002E-1	2.605133E-1	-3.197937E-1	2.605896E-1	-3.203888E-1	-6.510925E-1	-5.082703E-1
1.559050E+10	-6.548767E-1	-5.739136E-1	2.539978E-1	-3.221130E-1	2.514954E-1	-3.229065E-1	-6.612549E-1	-4.979858E-1
1.581500E+10	-6.626282E-1	-5.654602E-1	2.459717E-1	-3.251038E-1	2.458191E-1	-3.248291E-1	-6.735840E-1	-4.845581E-1
1.603950E+10	-6.708069E-1	-5.570068E-1	2.396393E-1	-3.281250E-1	2.403412E-1	-3.270416E-1	-6.803894E-1	-4.714966E-1
1.626400E+10	-6.784363E-1	-5.475769E-1	2.326965E-1	-3.289948E-1	2.334900E-1	-3.288269E-1	-6.912842E-1	-4.625854E-1
1.648850E+10	-6.872559E-1	-5.403442E-1	2.260590E-1	-3.330078E-1	2.250824E-1	-3.315735E-1	-6.997070E-1	-4.474182E-1
1.671300E+10	-6.947327E-1	-5.319519E-1	2.193909E-1	-3.341064E-1	2.188568E-1	-3.345490E-1	-7.061157E-1	-4.358521E-1
1.693750E+10	-7.017212E-1	-5.251465E-1	2.124786E-1	-3.358459E-1	2.122345E-1	-3.367462E-1	-7.158203E-1	-4.242249E-1
1.716200E+10	-7.090149E-1	-5.157776E-1	2.061920E-1	-3.379211E-1	2.067108E-1	-3.378906E-1	-7.226562E-1	-4.091797E-1
1.738650E+10	-7.160034E-1	-5.069580E-1	1.993713E-1	-3.407440E-1	1.992645E-1	-3.386688E-1	-7.290039E-1	-3.967590E-1
1.761100E+10	-7.221375E-1	-5.002441E-1	1.938171E-1	-3.396149E-1	1.920166E-1	-3.396149E-1	-7.361450E-1	-3.886108E-1
1.783550E+10	-7.313843E-1	-4.910583E-1	1.873322E-1	-3.419647E-1	1.866150E-1	-3.418121E-1	-7.446594E-1	-3.717651E-1
1.806000E+10	-7.367859E-1	-4.837646E-1	1.816864E-1	-3.436584E-1	1.803131E-1	-3.430634E-1	-7.494507E-1	-3.601379E-1
1.828450E+10	-7.435913E-1	-4.754639E-1	1.744232E-1	-3.446960E-1	1.745911E-1	-3.424683E-1	-7.556458E-1	-3.498840E-1
1.850900E+10	-7.501221E-1	-4.677124E-1	1.681824E-1	-3.435364E-1	1.675568E-1	-3.437653E-1	-7.637939E-1	-3.354492E-1
1.873350E+10	-7.561646E-1	-4.580078E-1	1.612396E-1	-3.447113E-1	1.611481E-1	-3.449249E-1	-7.676392E-1	-3.204041E-1
1.895800E+10	-7.604370E-1	-4.499817E-1	1.566010E-1	-3.461609E-1	1.558838E-1	-3.449554E-1	-7.713928E-1	-3.128357E-1
1.918250E+10	-7.670593E-1	-4.438171E-1	1.494904E-1	-3.462067E-1	1.500092E-1	-3.459167E-1	-7.792053E-1	-2.994995E-1
1.940700E+10	-7.720947E-1	-4.346924E-1	1.443787E-1	-3.465118E-1	1.436462E-1	-3.472443E-1	-7.807617E-1	-2.818298E-1
1.963150E+10	-7.795105E-1	-4.281311E-1	1.389008E-1	-3.485413E-1	1.371765E-1	-3.464661E-1	-7.858276E-1	-2.731628E-1
1.985600E+10	-7.826843E-1	-4.187012E-1	1.313171E-1	-3.468323E-1	1.314850E-1	-3.469849E-1	-7.911072E-1	-2.597046E-1
2.008050E+10	-7.890625E-1	-4.117737E-1	1.253815E-1	-3.471375E-1	1.268005E-1	-3.457947E-1	-7.958069E-1	-2.438049E-1
2.030500E+10	-7.926331E-1	-4.025574E-1	1.201782E-1	-3.475342E-1	1.213837E-1	-3.465881E-1	-7.955627E-1	-2.363586E-1
2.052950E+10	-7.982178E-1	-3.966064E-1	1.155243E-1	-3.454132E-1	1.145325E-1	-3.458252E-1	-8.031311E-1	-2.229614E-1
2.075400E+10	-8.038330E-1	-3.883057E-1	1.094971E-1	-3.485565E-1	1.096802E-1	-3.465424E-1	-8.063965E-1	-2.090759E-1
2.097850E+10	-8.090820E-1	-3.807678E-1	1.052704E-1	-3.468170E-1	1.063995E-1	-3.455658E-1	-8.068237E-1	-1.975708E-1
2.120300E+10	-8.126221E-1	-3.726501E-1	9.815979E-2	-3.448639E-1	9.880066E-2	-3.447876E-1	-8.113098E-1	-1.889954E-1
2.142750E+10	-8.186035E-1	-3.632202E-1	9.315491E-2	-3.448792E-1	9.281921E-2	-3.441315E-1	-8.179016E-1	-1.743774E-1
2.165200E+10	-8.238525E-1	-3.571167E-1	8.795166E-2	-3.447113E-1	8.813477E-2	-3.439178E-1	-8.176880E-1	-1.606750E-1
2.187650E+10	-8.275146E-1	-3.480835E-1	8.372498E-2	-3.470154E-1	8.454895E-2	-3.451233E-1	-8.195801E-1	-1.491699E-1
2.210100E+10	-8.319092E-1	-3.384705E-1	7.995605E-2	-3.440247E-1	7.839966E-2	-3.423767E-1	-8.234253E-1	-1.342773E-1
2.232550E+10	-8.352356E-1	-3.311157E-1	7.406616E-2	-3.421021E-1	7.426453E-2	-3.434753E-1	-8.241272E-1	-1.228027E-1
2.255000E+10	-8.398437E-1	-3.237610E-1	7.099915E-2	-3.418732E-1	6.942749E-2	-3.439026E-1	-8.262024E-1	-1.124268E-1
2.277450E+10	-8.411865E-1	-3.149109E-1	6.427002E-2	-3.438873E-1	6.239319E-2	-3.427582E-1	-8.319702E-1	-9.857178E-2
2.299900E+10	-8.472900E-1	-3.088989E-1	5.763245E-2	-3.418274E-1	5.812073E-2	-3.401794E-1	-8.294983E-1	-8.563232E-2
2.322350E+10	-8.500061E-1	-2.988586E-1	5.404663E-2	-3.412781E-1	5.371094E-2	-3.427582E-1	-8.311157E-1	-7.455444E-2
2.344800E+10	-8.524475E-1	-2.927551E-1	4.801941E-2	-3.405762E-1	4.913330E-2	-3.396301E-1	-8.324890E-1	-5.789185E-2
2.367250E+10	-8.550110E-1	-2.827454E-1	4.267883E-2	-3.383942E-1	4.452515E-2	-3.386383E-1	-8.303833E-1	-4.519653E-2
2.389700E+10	-8.567200E-1	-2.754517E-1	4.067993E-2	-3.372192E-1	3.746033E-2	-3.369293E-1	-8.350525E-1	-3.778076E-2
2.412150E+10	-8.606873E-1	-2.688293E-1	3.477478E-2	-3.355255E-1	3.268433E-2	-3.341827E-1	-8.328247E-1	-1.901245E-2
2.434600E+10	-8.612366E-1	-2.620239E-1	2.992249E-2	-3.346405E-1	3.030396E-2	-3.350525E-1	-8.310852E-1	-7.873535E-3
2.457050E+10	-8.645020E-1	-2.562256E-1	2.801514E-2	-3.322296E-1	2.595520E-2	-3.333282E-1	-8.331909E-1	3.662109E-3
2.479500E+10	-8.695068E-1	-2.512207E-1	2.174377E-2	-3.319550E-1	2.095032E-2	-3.308105E-1	-8.313599E-1	1.904297E-2
2.501950E+10	-8.701782E-1	-2.431030E-1	1.675415E-2	-3.318939E-1	1.892090E-2	-3.316193E-1	-8.253174E-1	2.780151E-2
2.524400E+10	-8.759155E-1	-2.357788E-1	1.205444E-2	-3.314972E-1	1.028442E-2	-3.272858E-1	-8.258972E-1	3.851318E-2
2.546850E+10	-8.771667E-1	-2.276917E-1	8.743286E-3	-3.263855E-1	7.598877E-3	-3.279724E-1	-8.242798E-1	5.075073E-2
2.569300E+10	-8.801575E-1	-2.212830E-1	3.326416E-3	-3.241272E-1	4.440308E-3	-3.249054E-1	-8.220825E-1	5.953979E-2
2.591750E+10	-8.843994E-1	-2.122803E-1	1.068115E-4	-3.249359E-1	-2.441406E-4	-3.234406E-1	-8.248596E-1	7.113647E-2
2.614200E+10	-8.844604E-1	-2.056885E-1	-2.044678E-3	-3.217621E-1	-1.251221E-3	-3.221283E-1	-8.233032E-1	8.432007E-2
2.636650E+10	-8.885193E-1	-1.996460E-1	-7.308960E-3	-3.217621E-1	-4.943848E-3	-3.220062E-1	-8.189087E-1	9.951782E-2
2.659100E+10	-8.887329E-1	-1.900940E-1	-9.948730E-3	-3.213654E-1	-9.963989E-3	-3.206177E-1	-8.142090E-1	1.101990E-1
2.681550E+10	-8.895264E-1	-1.864014E-1	-1.533508E-2	-3.191833E-1	-1.481628E-2	-3.206940E-1	-8.173523E-1	1.185608E-1
2.704000E+10	-8.919373E-1	-1.777649E-1	-1.930237E-2	-3.155060E-1	-1.765442E-2	-3.165436E-1	-8.132019E-1	1.374207E-1
2.726450E+10	-8.936157E-1	-1.691895E-1	-2.330017E-2	-3.168945E-1	-2.157593E-2	-3.168640E-1	-8.043518E-1	1.444702E-1
2.748900E+10	-8.963318E-1	-1.644287E-1	-2.719116E-2	-3.151245E-1	-2.639771E-2	-3.160095E-1	-8.050232E-1	1.561890E-1
2.771350E+10	-8.975220E-1	-1.559448E-1	-3.086853E-2	-3.117981E-1	-2.941895E-2	-3.121185E-1	-7.997437E-1	1.655884E-1
2.793800E+10	-9.001465E-1	-1.523437E-1	-3.421021E-2	-3.133240E-1	-3.245544E-2	-3.106079E-1	-7.969055E-1	1.759033E-1
2.816250E+10	-9.011536E-1	-1.436157E-1	-3.582764E-2	-3.073425E-1	-3.627014E-2	-3.106995E-1	-7.917175E-1	1.874084E-1
2.838700E+10	-9.032288E-1	-1.358643E-1	-4.124451E-2	-3.077240E-1	-4.101562E-2	-3.069305E-1	-7.880249E-1	2.006531E-1
2.861150E+10	-9.060059E-1	-1.292114E-1	-4.672241E-2	-3.071899E-1	-4.457092E-2	-3.053436E-1	-7.815857E-1	2.112122E-1
2.883600E+10	-9.061279E-1	-1.212158E-1	-5.078125E-2	-3.052368E-1	-4.782104E-2	-3.029480E-1	-7.805481E-1	2.181702E-1
2.906050E+10	-9.095154E-1	-1.141968E-1	-4.983521E-2	-3.043823E-1	-5.265808E-2	-2.999420E-1	-7.741699E-1	2.315369E-1
2.928500E+10	-9.093628E-1	-1.071777E-1	-5.609131E-2	-2.993011E-1	-5.407715E-2	-2.993011E-1	-7.692261E-1	2.411499E-1
2.950950E+10	-9.103088E-1	-9.890747E-2	-5.821228E-2	-2.973938E-1	-5.798340E-2	-2.964935E-1	-7.698059E-1	2.508240E-1
2.973400E+10	-9.137878E-1	-9.381104E-2	-6.079102E-2	-2.975769E-1	-5.827332E-2	-2.974854E-1	-7.640991E-1	2.613525E-1
2.995850E+10	-9.099121E-1	-8.456421E-2	-6.282043E-2	-2.961731E-1	-6.230164E-2	-2.940826E-1	-7.612000E-1	2.682495E-1
3.018300E+10	-9.121399E-1	-7.998657E-2	-6.535339E-2	-2.931061E-1	-6.600952E-2	-2.927094E-1	-7.532654E-1	2.872009E-1
3.040750E+10	-9.142151E-1	-7.171631E-2	-7.058716E-2	-2.934723E-1	-6.851196E-2	-2.937775E-1	-7.484436E-1	2.951965E-1
3.063200E+10	-9.114075E-1	-6.460571E-2	-7.495117E-2	-2.886505E-1	-7.322693E-2	-2.904816E-1	-7.481995E-1	3.077393E-1
3.085650E+10	-9.146423E-1	-5.718994E-2	-7.766724E-2	-2.880249E-1	-7.489014E-2	-2.892761E-1	-7.382507E-1	3.191833E-1
3.108100E+10	-9.177551E-1	-5.130005E-2	-8.038330E-2	-2.909698E-1	-8.140564E-2	-2.859497E-1	-7.324829E-1	3.275757E-1
3.130550E+10	-9.169312E-1	-4.528809E-2	-8.386230E-2	-2.845001E-1	-8.078003E-2	-2.811890E-1	-7.189941E-1	3.373108E-1
3.153000E+10	-9.230957E-1	-4.244995E-2	-8.795166E-2	-2.832794E-1	-8.155823E-2	-2.819366E-1	-7.178345E-1	3.460999E-1
3.175450E+10	-9.186401E-1	-3.051758E-2	-9.260559E-2	-2.751617E-1	-9.060669E-2	-2.778473E-1	-7.140503E-1	3.592224E-1
3.197900E+10	-9.219055E-1	-2.459717E-2	-9.564209E-2	-2.751160E-1	-9.378052E-2	-2.798615E-1	-6.998291E-1	3.656006E-1
3.220350E+10	-9.158630E-1	-1.660156E-2	-9.732056E-2	-2.743988E-1	-9.715271E-2	-2.764435E-1	-6.951599E-1	3.801880E-1
3.242800E+10	-9.250183E-1	-1.147461E-2	-1.002960E-1	-2.739716E-1	-1.018982E-1	-2.704926E-1	-6.887512E-1	3.888855E-1
3.265250E+10	-9.207764E-1	-4.516602E-3	-1.021118E-1	-2.705994E-1	-1.052856E-1	-2.697601E-1	-6.816101E-1	3.941040E-1
3.287700E+10	-9.231262E-1	2.960205E-3	-1.025238E-1	-2.673645E-1	-1.020813E-1	-2.705841E-1	-6.700745E-1	4.058533E-1
3.310150E+10	-9.247742E-1	8.087158E-3	-1.078186E-1	-2.684479E-1	-1.086884E-1	-2.644196E-1	-6.590271E-1	4.135132E-1
3.332600E+10	-9.224548E-1	1.538086E-2	-1.076965E-1	-2.603149E-1	-1.100922E-1	-2.628479E-1	-6.534424E-1	4.230042E-1
3.355050E+10	-9.178772E-1	2.334595E-2	-1.104279E-1	-2.627563E-1	-1.141968E-1	-2.621918E-1	-6.463623E-1	4.313965E-1
3.377500E+10	-9.202576E-1	3.189087E-2	-1.122589E-1	-2.617035E-1	-1.159058E-1	-2.599182E-1	-6.410217E-1	4.313660E-1
3.399950E+10	-9.199219E-1	3.741455E-2	-1.140442E-1	-2.591705E-1	-1.140442E-1	-2.552643E-1	-6.387329E-1	4.421692E-1
3.422400E+10	-9.260254E-1	4.574585E-2	-1.164551E-1	-2.574005E-1	-1.150970E-1	-2.587433E-1	-6.269531E-1	4.636230E-1
3.444850E+10	-9.201355E-1	5.017090E-2	-1.234894E-1	-2.559814E-1	-1.214447E-1	-2.560272E-1	-6.145020E-1	4.596863E-1
3.467300E+10	-9.242554E-1	5.847168E-2	-1.219788E-1	-2.527924E-1	-1.236267E-1	-2.512054E-1	-6.134338E-1	4.733582E-1
3.489750E+10	-9.206543E-1	6.344604E-2	-1.229324E-1	-2.478943E-1	-1.289978E-1	-2.503662E-1	-6.012878E-1	4.815674E-1
3.512200E+10	-9.198303E-1	6.774902E-2	-1.271439E-1	-2.487869E-1	-1.283798E-1	-2.455063E-1	-5.908203E-1	4.851990E-1
3.534650E+10	-9.231262E-1	6.948853E-2	-1.330261E-1	-2.468109E-1	-1.318512E-1	-2.485580E-1	-5.778503E-1	4.996033E-1
3.557100E+10	-9.239197E-1	8.065796E-2	-1.347504E-1	-2.465744E-1	-1.347504E-1	-2.479706E-1	-5.707092E-1	5.061646E-1
3.579550E+10	-9.205322E-1	8.230591E-2	-1.384506E-1	-2.410202E-1	-1.365280E-1	-2.438278E-1	-5.543823E-1	5.109558E-1
3.602000E+10	-9.208069E-1	9.387207E-2	-1.420364E-1	-2.374115E-1	-1.465607E-1	-2.387238E-1	-5.458679E-1	5.169983E-1
3.624450E+10	-9.164734E-1	9.814453E-2	-1.403732E-1	-2.329941E-1	-1.420212E-1	-2.402115E-1	-5.359802E-1	5.268250E-1
3.646900E+10	-9.152832E-1	1.083374E-1	-1.439972E-1	-2.341232E-1	-1.471481E-1	-2.392502E-1	-5.258179E-1	5.327148E-1
3.669350E+10	-9.141235E-1	1.150513E-1	-1.460800E-1	-2.349701E-1	-1.441040E-1	-2.375641E-1	-5.108337E-1	5.391846E-1
3.691800E+10	-9.128113E-1	1.209717E-1	-1.513519E-1	-2.307510E-1	-1.490707E-1	-2.329865E-1	-5.000305E-1	5.495911E-1
3.714250E+10	-9.131165E-1	1.222839E-1	-1.555710E-1	-2.242584E-1	-1.527023E-1	-2.302856E-1	-4.881592E-1	5.556946E-1
3.736700E+10	-9.093628E-1	1.296997E-1	-1.540756E-1	-2.278442E-1	-1.566925E-1	-2.287140E-1	-4.806519E-1	5.539551E-1
3.759150E+10	-9.115295E-1	1.382446E-1	-1.592789E-1	-2.222824E-1	-1.573563E-1	-2.251434E-1	-4.690857E-1	5.622559E-1
3.781600E+10	-9.119263E-1	1.497192E-1	-1.571960E-1	-2.193985E-1	-1.591644E-1	-2.227783E-1	-4.586792E-1	5.675964E-1
3.804050E+10	-9.089355E-1	1.466980E-1	-1.613159E-1	-2.184067E-1	-1.624527E-1	-2.163391E-1	-4.417725E-1	5.773926E-1
3.826500E+10	-9.071045E-1	1.572876E-1	-1.680069E-1	-2.196960E-1	-1.609192E-1	-2.185745E-1	-4.283142E-1	5.857239E-1
3.848950E+10	-8.992004E-1	1.654663E-1	-1.704865E-1	-2.142944E-1	-1.649551E-1	-2.128372E-1	-4.113770E-1	5.918274E-1
3.871400E+10	-9.075317E-1	1.671143E-1	-1.695709E-1	-2.180481E-1	-1.667862E-1	-2.104340E-1	-3.941956E-1	5.867920E-1
3.893850E+10	-9.089355E-1	1.732178E-1	-1.708298E-1	-2.107010E-1	-1.713562E-1	-2.083435E-1	-3.897095E-1	5.879822E-1
