!Date: 10/28/2005, 12:34 PM

!Vgs = -4.000000E+0
!Vds = 3.000000E+0
!Ig = -2.096300E-5
!Id = 1.333900E-1

# HZ S RI R 50
1.000000E+8	9.570007E-1	-2.130432E-1	-1.357666E+1	1.474121E+0	2.457142E-3	9.229660E-3	3.550262E-1	-9.059143E-2
3.245000E+8	7.532959E-1	-5.882874E-1	-1.178955E+1	4.664551E+0	1.202393E-2	2.701950E-2	2.169647E-1	-2.408218E-1
5.490000E+8	4.660034E-1	-8.103333E-1	-9.550781E+0	6.397949E+0	2.603149E-2	3.624916E-2	1.149445E-1	-3.152313E-1
7.735000E+8	1.911926E-1	-8.985596E-1	-7.406738E+0	7.060303E+0	3.914261E-2	3.874969E-2	7.431030E-3	-3.485718E-1
9.980000E+8	-3.421021E-2	-9.062500E-1	-5.635742E+0	7.093018E+0	4.953957E-2	3.788567E-2	-7.737732E-2	-3.443909E-1
1.222500E+9	-2.119141E-1	-8.745117E-1	-4.266113E+0	6.849854E+0	5.769157E-2	3.523064E-2	-1.390686E-1	-3.347778E-1
1.447000E+9	-3.489380E-1	-8.269043E-1	-3.209961E+0	6.459717E+0	6.381226E-2	3.222275E-2	-1.901703E-1	-3.174286E-1
1.671500E+9	-4.530945E-1	-7.714233E-1	-2.405762E+0	6.027100E+0	6.818390E-2	2.778625E-2	-2.288361E-1	-2.997894E-1
1.896000E+9	-5.343628E-1	-7.154846E-1	-1.806885E+0	5.594482E+0	7.202148E-2	2.494049E-2	-2.580261E-1	-2.800751E-1
2.120500E+9	-5.961304E-1	-6.629028E-1	-1.342529E+0	5.205322E+0	7.519150E-2	2.135849E-2	-2.808990E-1	-2.620544E-1
2.345000E+9	-6.450500E-1	-6.116943E-1	-9.750977E-1	4.837158E+0	7.709122E-2	1.743317E-2	-2.986450E-1	-2.456207E-1
2.569500E+9	-6.803589E-1	-5.663757E-1	-6.855469E-1	4.497559E+0	7.828522E-2	1.470566E-2	-3.127441E-1	-2.314758E-1
2.794000E+9	-7.115784E-1	-5.287781E-1	-4.619141E-1	4.205322E+0	7.969284E-2	1.156235E-2	-3.234558E-1	-2.180939E-1
3.018500E+9	-7.358398E-1	-4.912415E-1	-2.713623E-1	3.933594E+0	8.052444E-2	9.174347E-3	-3.328552E-1	-2.072906E-1
3.243000E+9	-7.569275E-1	-4.578552E-1	-1.146240E-1	3.690430E+0	8.132553E-2	6.298065E-3	-3.417358E-1	-1.972351E-1
3.467500E+9	-7.745361E-1	-4.288940E-1	1.403809E-2	3.475586E+0	8.154678E-2	3.799438E-3	-3.475189E-1	-1.885529E-1
3.692000E+9	-7.891235E-1	-4.017944E-1	1.257324E-1	3.271851E+0	8.184814E-2	2.223969E-3	-3.545837E-1	-1.815796E-1
3.916500E+9	-8.019409E-1	-3.748474E-1	2.156982E-1	3.085083E+0	8.248138E-2	-1.907349E-4	-3.613434E-1	-1.734161E-1
4.141000E+9	-8.123169E-1	-3.507690E-1	2.935791E-1	2.918945E+0	8.240509E-2	-2.845764E-3	-3.657990E-1	-1.672821E-1
4.365500E+9	-8.198242E-1	-3.295593E-1	3.601074E-1	2.765137E+0	8.198547E-2	-4.684448E-3	-3.704224E-1	-1.611481E-1
4.590000E+9	-8.278198E-1	-3.100891E-1	4.161377E-1	2.618774E+0	8.212280E-2	-6.259918E-3	-3.751678E-1	-1.553802E-1
4.814500E+9	-8.349609E-1	-2.913513E-1	4.626465E-1	2.486206E+0	8.255386E-2	-8.041382E-3	-3.787994E-1	-1.500092E-1
5.039000E+9	-8.404541E-1	-2.734680E-1	5.025635E-1	2.366943E+0	8.218384E-2	-1.012039E-2	-3.827362E-1	-1.457367E-1
5.263500E+9	-8.453369E-1	-2.557068E-1	5.397949E-1	2.252930E+0	8.183670E-2	-1.189041E-2	-3.874054E-1	-1.411438E-1
5.488000E+9	-8.486328E-1	-2.417297E-1	5.706787E-1	2.149170E+0	8.189011E-2	-1.329803E-2	-3.900146E-1	-1.368408E-1
5.712500E+9	-8.540039E-1	-2.275696E-1	5.991211E-1	2.048828E+0	8.138275E-2	-1.539993E-2	-3.934631E-1	-1.335754E-1
5.937000E+9	-8.567505E-1	-2.122192E-1	6.205444E-1	1.956543E+0	8.150482E-2	-1.661682E-2	-3.969574E-1	-1.297150E-1
6.161500E+9	-8.599243E-1	-2.002869E-1	6.419678E-1	1.872986E+0	8.119202E-2	-1.845169E-2	-4.001007E-1	-1.240845E-1
6.386000E+9	-8.629761E-1	-1.875305E-1	6.605225E-1	1.789612E+0	8.077240E-2	-1.965332E-2	-4.016724E-1	-1.225891E-1
6.610500E+9	-8.647766E-1	-1.764526E-1	6.776123E-1	1.714050E+0	8.041382E-2	-2.131653E-2	-4.054108E-1	-1.208344E-1
6.835000E+9	-8.680725E-1	-1.652527E-1	6.918945E-1	1.639282E+0	7.992935E-2	-2.304077E-2	-4.092102E-1	-1.154022E-1
7.059500E+9	-8.684998E-1	-1.551208E-1	6.996460E-1	1.571594E+0	7.930374E-2	-2.402115E-2	-4.092560E-1	-1.141510E-1
7.284000E+9	-8.702698E-1	-1.442261E-1	7.104492E-1	1.506470E+0	7.878113E-2	-2.554703E-2	-4.141846E-1	-1.119537E-1
7.508500E+9	-8.732300E-1	-1.342773E-1	7.192383E-1	1.444092E+0	7.809830E-2	-2.697754E-2	-4.152985E-1	-1.071777E-1
7.733000E+9	-8.723755E-1	-1.249084E-1	7.247925E-1	1.385803E+0	7.720947E-2	-2.806473E-2	-4.172516E-1	-1.065063E-1
7.957500E+9	-8.745728E-1	-1.151428E-1	7.327881E-1	1.329590E+0	7.684708E-2	-3.018951E-2	-4.218597E-1	-1.049957E-1
8.182000E+9	-8.754883E-1	-1.057434E-1	7.379150E-1	1.277466E+0	7.645798E-2	-3.055954E-2	-4.242859E-1	-1.021423E-1
8.406500E+9	-8.756714E-1	-9.848022E-2	7.400513E-1	1.226318E+0	7.514191E-2	-3.177261E-2	-4.263153E-1	-9.875488E-2
8.631000E+9	-8.767090E-1	-8.978271E-2	7.456055E-1	1.176636E+0	7.499313E-2	-3.356552E-2	-4.304657E-1	-9.664917E-2
8.855500E+9	-8.770447E-1	-8.233643E-2	7.467651E-1	1.129639E+0	7.470703E-2	-3.475189E-2	-4.334564E-1	-9.335327E-2
9.080001E+9	-8.778076E-1	-7.513428E-2	7.478027E-1	1.085571E+0	7.311630E-2	-3.631973E-2	-4.345245E-1	-9.045410E-2
9.304500E+9	-8.780823E-1	-6.527710E-2	7.481079E-1	1.043396E+0	7.221222E-2	-3.701401E-2	-4.376221E-1	-8.799744E-2
9.529000E+9	-8.782959E-1	-5.978394E-2	7.480469E-1	1.001038E+0	7.179260E-2	-3.822327E-2	-4.407501E-1	-8.515930E-2
9.753500E+9	-8.791504E-1	-5.300903E-2	7.470398E-1	9.617004E-1	7.093430E-2	-3.919983E-2	-4.420319E-1	-8.204651E-2
9.978000E+9	-8.788147E-1	-4.559326E-2	7.451477E-1	9.246521E-1	7.011795E-2	-4.088593E-2	-4.446411E-1	-8.105469E-2
1.020250E+10	-8.791199E-1	-3.915405E-2	7.452393E-1	8.883667E-1	6.943512E-2	-4.165649E-2	-4.481964E-1	-7.707214E-2
1.042700E+10	-8.801270E-1	-3.240967E-2	7.431030E-1	8.537292E-1	6.763077E-2	-4.258728E-2	-4.480591E-1	-7.516479E-2
1.065150E+10	-8.786926E-1	-2.532959E-2	7.401428E-1	8.201294E-1	6.727219E-2	-4.296875E-2	-4.507294E-1	-7.388306E-2
1.087600E+10	-8.797913E-1	-1.965332E-2	7.383728E-1	7.890625E-1	6.596375E-2	-4.494095E-2	-4.538269E-1	-7.069397E-2
1.110050E+10	-8.797607E-1	-1.278687E-2	7.355042E-1	7.569275E-1	6.531906E-2	-4.569626E-2	-4.560242E-1	-6.781006E-2
1.132500E+10	-8.786621E-1	-6.958008E-3	7.327271E-1	7.280579E-1	6.391144E-2	-4.644775E-2	-4.573364E-1	-6.719971E-2
1.154950E+10	-8.797913E-1	3.051758E-5	7.289124E-1	6.983948E-1	6.348801E-2	-4.763031E-2	-4.615936E-1	-6.393433E-2
1.177400E+10	-8.777161E-1	4.974365E-3	7.246704E-1	6.712341E-1	6.269455E-2	-4.768753E-2	-4.631042E-1	-5.934143E-2
1.199850E+10	-8.782349E-1	1.022339E-2	7.221985E-1	6.442871E-1	6.138229E-2	-4.833031E-2	-4.646454E-1	-5.863953E-2
1.222300E+10	-8.775024E-1	1.663208E-2	7.164917E-1	6.187744E-1	6.059647E-2	-4.946709E-2	-4.675293E-1	-5.650330E-2
1.244750E+10	-8.770447E-1	2.105713E-2	7.103271E-1	5.921326E-1	5.978584E-2	-4.978943E-2	-4.703217E-1	-5.221558E-2
1.267200E+10	-8.782043E-1	2.716064E-2	7.062683E-1	5.679016E-1	5.849838E-2	-5.094719E-2	-4.711914E-1	-5.252075E-2
1.289650E+10	-8.763733E-1	3.192139E-2	7.006226E-1	5.451050E-1	5.770493E-2	-5.113220E-2	-4.752808E-1	-5.049133E-2
1.312100E+10	-8.765564E-1	3.671265E-2	6.950684E-1	5.221863E-1	5.630875E-2	-5.239677E-2	-4.770203E-1	-4.383850E-2
1.334550E+10	-8.763428E-1	4.217529E-2	6.899414E-1	5.003662E-1	5.518913E-2	-5.327988E-2	-4.784851E-1	-4.405212E-2
1.357000E+10	-8.744202E-1	4.580688E-2	6.850586E-1	4.792786E-1	5.478096E-2	-5.386925E-2	-4.816437E-1	-4.393005E-2
1.379450E+10	-8.750610E-1	5.212402E-2	6.788025E-1	4.598694E-1	5.362892E-2	-5.375862E-2	-4.844208E-1	-3.584290E-2
1.401900E+10	-8.749084E-1	5.618286E-2	6.739807E-1	4.417419E-1	5.285835E-2	-5.480766E-2	-4.832764E-1	-3.559875E-2
1.424350E+10	-8.737793E-1	6.198120E-2	6.671753E-1	4.214783E-1	5.049896E-2	-5.616570E-2	-4.880371E-1	-3.201294E-2
1.446800E+10	-8.745728E-1	6.579590E-2	6.621399E-1	4.037781E-1	4.999924E-2	-5.554390E-2	-4.905396E-1	-2.677917E-2
1.469250E+10	-8.721619E-1	7.104492E-2	6.554871E-1	3.860779E-1	4.945564E-2	-5.680847E-2	-4.894867E-1	-2.519226E-2
1.491700E+10	-8.713684E-1	7.635498E-2	6.496887E-1	3.684998E-1	4.696274E-2	-5.718803E-2	-4.933472E-1	-2.412415E-2
1.514150E+10	-8.699951E-1	8.114624E-2	6.430664E-1	3.522339E-1	4.508972E-2	-5.635452E-2	-4.960022E-1	-1.914978E-2
1.536600E+10	-8.696594E-1	8.682251E-2	6.375122E-1	3.341675E-1	4.581642E-2	-5.818939E-2	-4.941559E-1	-1.579285E-2
1.559050E+10	-8.701782E-1	9.005737E-2	6.307373E-1	3.184509E-1	4.334259E-2	-5.741882E-2	-4.986420E-1	-1.457214E-2
1.581500E+10	-8.667603E-1	9.399414E-2	6.239319E-1	3.031311E-1	4.362488E-2	-5.878448E-2	-5.007935E-1	-1.181030E-2
1.603950E+10	-8.679504E-1	9.924316E-2	6.191406E-1	2.883911E-1	4.188156E-2	-5.861282E-2	-4.998016E-1	-6.576538E-3
1.626400E+10	-8.662109E-1	1.036072E-1	6.118164E-1	2.759399E-1	4.132652E-2	-5.975533E-2	-5.053711E-1	-6.347656E-3
1.648850E+10	-8.660278E-1	1.064453E-1	6.032715E-1	2.611389E-1	3.994751E-2	-6.007385E-2	-5.078735E-1	-1.953125E-3
1.671300E+10	-8.652344E-1	1.112671E-1	5.981140E-1	2.465515E-1	3.905296E-2	-6.008720E-2	-5.085754E-1	1.922607E-3
1.693750E+10	-8.643494E-1	1.158447E-1	5.915833E-1	2.349854E-1	3.713417E-2	-6.142807E-2	-5.096130E-1	4.058838E-3
1.716200E+10	-8.620605E-1	1.191406E-1	5.841675E-1	2.218933E-1	3.579140E-2	-6.157303E-2	-5.119019E-1	8.728027E-3
1.738650E+10	-8.628540E-1	1.249084E-1	5.793762E-1	2.122498E-1	3.511810E-2	-6.210518E-2	-5.121155E-1	1.388550E-2
1.761100E+10	-8.604126E-1	1.294861E-1	5.722351E-1	1.989136E-1	3.361702E-2	-6.086540E-2	-5.161438E-1	1.367187E-2
1.783550E+10	-8.592529E-1	1.330261E-1	5.649719E-1	1.889648E-1	3.340530E-2	-6.231308E-2	-5.186462E-1	2.182007E-2
1.806000E+10	-8.594971E-1	1.374817E-1	5.592346E-1	1.775513E-1	3.196335E-2	-6.305695E-2	-5.166931E-1	2.539062E-2
1.828450E+10	-8.575439E-1	1.416321E-1	5.536499E-1	1.671753E-1	3.118706E-2	-6.086731E-2	-5.190735E-1	2.456665E-2
1.850900E+10	-8.572693E-1	1.440125E-1	5.451355E-1	1.577148E-1	2.920151E-2	-6.175423E-2	-5.230408E-1	3.024292E-2
1.873350E+10	-8.569336E-1	1.491699E-1	5.412292E-1	1.471863E-1	2.874374E-2	-6.266403E-2	-5.229187E-1	3.567505E-2
1.895800E+10	-8.541565E-1	1.532593E-1	5.341492E-1	1.383057E-1	2.729797E-2	-6.433487E-2	-5.220032E-1	3.649902E-2
1.918250E+10	-8.538208E-1	1.569214E-1	5.285950E-1	1.264954E-1	2.529144E-2	-6.159019E-2	-5.250549E-1	3.994751E-2
1.940700E+10	-8.514099E-1	1.603394E-1	5.200500E-1	1.181030E-1	2.510452E-2	-6.257248E-2	-5.234680E-1	4.818726E-2
1.963150E+10	-8.515320E-1	1.647949E-1	5.137634E-1	1.106262E-1	2.296829E-2	-6.280518E-2	-5.233765E-1	4.837036E-2
1.985600E+10	-8.499451E-1	1.667786E-1	5.069580E-1	1.039429E-1	2.239227E-2	-6.390762E-2	-5.280457E-1	5.300903E-2
2.008050E+10	-8.481750E-1	1.708984E-1	5.022888E-1	9.344482E-2	2.045059E-2	-6.380463E-2	-5.293274E-1	5.987549E-2
2.030500E+10	-8.480225E-1	1.744995E-1	4.939575E-1	8.691406E-2	1.809311E-2	-6.410980E-2	-5.272827E-1	5.972290E-2
2.052950E+10	-8.475647E-1	1.773071E-1	4.902039E-1	8.062744E-2	1.906586E-2	-6.352997E-2	-5.308838E-1	6.439209E-2
2.075400E+10	-8.451233E-1	1.815491E-1	4.841766E-1	7.212830E-2	1.605225E-2	-6.419754E-2	-5.328674E-1	6.985474E-2
2.097850E+10	-8.444214E-1	1.838989E-1	4.765015E-1	6.620789E-2	1.517487E-2	-6.359482E-2	-5.289307E-1	7.388306E-2
2.120300E+10	-8.410339E-1	1.874084E-1	4.717865E-1	5.888367E-2	1.337433E-2	-6.259155E-2	-5.317993E-1	7.318115E-2
2.142750E+10	-8.424988E-1	1.915283E-1	4.658356E-1	5.244446E-2	1.374626E-2	-6.227303E-2	-5.346680E-1	8.084106E-2
2.165200E+10	-8.408203E-1	1.959839E-1	4.586029E-1	4.666138E-2	1.295853E-2	-6.012535E-2	-5.336304E-1	8.499146E-2
2.187650E+10	-8.392334E-1	1.981812E-1	4.521179E-1	4.054260E-2	1.240921E-2	-6.055832E-2	-5.356140E-1	8.666992E-2
2.210100E+10	-8.394470E-1	2.037964E-1	4.488525E-1	3.419495E-2	9.147644E-3	-6.280899E-2	-5.372009E-1	9.552002E-2
2.232550E+10	-8.361511E-1	2.063599E-1	4.445343E-1	2.615356E-2	9.101868E-3	-6.224060E-2	-5.357666E-1	9.988403E-2
2.255000E+10	-8.359375E-1	2.109680E-1	4.355927E-1	2.325439E-2	6.690979E-3	-6.143379E-2	-5.359192E-1	1.010132E-1
2.277450E+10	-8.327026E-1	2.138062E-1	4.297791E-1	1.731873E-2	3.522873E-3	-6.081963E-2	-5.376587E-1	1.084595E-1
2.299900E+10	-8.324890E-1	2.171021E-1	4.248962E-1	1.173401E-2	5.151749E-3	-6.232071E-2	-5.344238E-1	1.105042E-1
2.322350E+10	-8.315125E-1	2.201843E-1	4.222260E-1	6.683350E-3	2.992630E-3	-6.178665E-2	-5.393677E-1	1.131287E-1
2.344800E+10	-8.292847E-1	2.205200E-1	4.160919E-1	3.753662E-3	2.361298E-3	-6.036949E-2	-5.390320E-1	1.193848E-1
2.367250E+10	-8.292236E-1	2.286987E-1	4.086914E-1	-2.059937E-3	-1.716614E-4	-5.937958E-2	-5.355225E-1	1.255493E-1
2.389700E+10	-8.253479E-1	2.280579E-1	4.040985E-1	-6.958008E-3	-8.678436E-4	-5.955505E-2	-5.377197E-1	1.272278E-1
2.412150E+10	-8.242187E-1	2.320251E-1	3.991241E-1	-9.735107E-3	-2.418518E-3	-6.116295E-2	-5.373535E-1	1.340637E-1
2.434600E+10	-8.216553E-1	2.370300E-1	3.935089E-1	-1.368713E-2	-4.146576E-3	-5.802917E-2	-5.328064E-1	1.384583E-1
2.457050E+10	-8.197632E-1	2.382507E-1	3.889313E-1	-1.646423E-2	-5.756378E-3	-5.791664E-2	-5.340881E-1	1.394653E-1
2.479500E+10	-8.200378E-1	2.435913E-1	3.830109E-1	-2.008057E-2	-8.167267E-3	-5.659294E-2	-5.345459E-1	1.492615E-1
2.501950E+10	-8.148193E-1	2.459412E-1	3.782959E-1	-2.420044E-2	-7.667542E-3	-5.674171E-2	-5.327148E-1	1.497192E-1
2.524400E+10	-8.160400E-1	2.479248E-1	3.733826E-1	-2.763367E-2	-9.202957E-3	-5.637932E-2	-5.307007E-1	1.511536E-1
2.546850E+10	-8.140869E-1	2.525635E-1	3.680725E-1	-2.833557E-2	-1.037407E-2	-5.558014E-2	-5.300903E-1	1.591492E-1
2.569300E+10	-8.118591E-1	2.547607E-1	3.652649E-1	-3.146362E-2	-1.010513E-2	-5.300140E-2	-5.307922E-1	1.583862E-1
2.591750E+10	-8.131714E-1	2.596436E-1	3.598022E-1	-3.535461E-2	-1.218414E-2	-5.309296E-2	-5.322876E-1	1.622314E-1
2.614200E+10	-8.090515E-1	2.616272E-1	3.541870E-1	-3.642273E-2	-1.137161E-2	-5.309868E-2	-5.336609E-1	1.673584E-1
2.636650E+10	-8.075256E-1	2.636719E-1	3.510437E-1	-3.974915E-2	-1.387024E-2	-5.090523E-2	-5.330811E-1	1.746521E-1
2.659100E+10	-8.044434E-1	2.656250E-1	3.466644E-1	-4.331970E-2	-1.537514E-2	-5.004311E-2	-5.278320E-1	1.782227E-1
2.681550E+10	-8.023987E-1	2.685852E-1	3.457031E-1	-4.559326E-2	-1.678085E-2	-5.073929E-2	-5.321045E-1	1.804504E-1
2.704000E+10	-8.038635E-1	2.734375E-1	3.383179E-1	-4.432678E-2	-1.925659E-2	-5.115128E-2	-5.301819E-1	1.913147E-1
2.726450E+10	-8.008728E-1	2.754517E-1	3.340149E-1	-4.957581E-2	-1.711845E-2	-4.474640E-2	-5.240173E-1	1.890564E-1
2.748900E+10	-7.971497E-1	2.795105E-1	3.321381E-1	-5.364990E-2	-1.795197E-2	-4.855156E-2	-5.271912E-1	1.950989E-1
2.771350E+10	-7.951660E-1	2.800293E-1	3.278809E-1	-5.184937E-2	-1.959038E-2	-4.367828E-2	-5.270081E-1	1.992798E-1
2.793800E+10	-7.942200E-1	2.830200E-1	3.249664E-1	-5.590820E-2	-2.154541E-2	-4.398537E-2	-5.242920E-1	2.009277E-1
2.816250E+10	-7.920837E-1	2.810364E-1	3.214569E-1	-5.764771E-2	-2.481270E-2	-4.457855E-2	-5.243225E-1	2.083740E-1
2.838700E+10	-7.903442E-1	2.886963E-1	3.169403E-1	-5.767822E-2	-2.529716E-2	-4.393578E-2	-5.252991E-1	2.113647E-1
2.861150E+10	-7.872620E-1	2.908325E-1	3.144531E-1	-6.062317E-2	-2.631760E-2	-4.166794E-2	-5.169983E-1	2.149658E-1
2.883600E+10	-7.852478E-1	2.938538E-1	3.108826E-1	-6.230164E-2	-2.466774E-2	-3.763008E-2	-5.209961E-1	2.141418E-1
2.906050E+10	-7.843933E-1	2.951050E-1	3.097229E-1	-6.254578E-2	-2.672195E-2	-3.784561E-2	-5.188293E-1	2.258606E-1
2.928500E+10	-7.828064E-1	2.981262E-1	3.058167E-1	-6.542969E-2	-2.741623E-2	-3.695679E-2	-5.184937E-1	2.260437E-1
2.950950E+10	-7.810669E-1	3.032532E-1	3.047333E-1	-6.671143E-2	-2.817917E-2	-3.441238E-2	-5.178833E-1	2.296753E-1
2.973400E+10	-7.805786E-1	3.051147E-1	3.024139E-1	-6.944275E-2	-2.696419E-2	-3.443909E-2	-5.167542E-1	2.355652E-1
2.995850E+10	-7.766418E-1	3.048706E-1	2.965393E-1	-7.073975E-2	-3.027534E-2	-3.607559E-2	-5.202942E-1	2.416077E-1
3.018300E+10	-7.753296E-1	3.071289E-1	2.945099E-1	-7.022095E-2	-3.002930E-2	-3.248405E-2	-5.145874E-1	2.499695E-1
3.040750E+10	-7.744751E-1	3.105164E-1	2.979431E-1	-7.322693E-2	-2.993298E-2	-3.076267E-2	-5.151062E-1	2.499390E-1
3.063200E+10	-7.701111E-1	3.130493E-1	2.929840E-1	-7.241821E-2	-3.027534E-2	-3.007793E-2	-5.168457E-1	2.601929E-1
3.085650E+10	-7.695618E-1	3.142090E-1	2.921448E-1	-7.714844E-2	-2.884102E-2	-2.674007E-2	-5.105591E-1	2.641296E-1
3.108100E+10	-7.703247E-1	3.160706E-1	2.899780E-1	-7.809448E-2	-3.274727E-2	-2.490616E-2	-5.112915E-1	2.656860E-1
3.130550E+10	-7.651672E-1	3.183289E-1	2.836456E-1	-7.745361E-2	-3.394508E-2	-2.589226E-2	-5.025940E-1	2.746887E-1
3.153000E+10	-7.648010E-1	3.207703E-1	2.857208E-1	-8.097839E-2	-3.198051E-2	-2.741623E-2	-5.053711E-1	2.742920E-1
3.175450E+10	-7.628479E-1	3.229370E-1	2.812500E-1	-8.059692E-2	-3.609276E-2	-1.855087E-2	-5.049438E-1	2.819824E-1
3.197900E+10	-7.600098E-1	3.272400E-1	2.808685E-1	-8.602905E-2	-3.259277E-2	-2.048874E-2	-4.950409E-1	2.863770E-1
3.220350E+10	-7.618103E-1	3.298950E-1	2.824249E-1	-8.627319E-2	-2.896118E-2	-1.939297E-2	-4.948578E-1	2.955780E-1
3.242800E+10	-7.564697E-1	3.300476E-1	2.746429E-1	-8.605957E-2	-3.312111E-2	-1.871300E-2	-4.923859E-1	3.001099E-1
3.265250E+10	-7.579651E-1	3.362122E-1	2.732544E-1	-9.046936E-2	-3.224754E-2	-1.997757E-2	-4.885101E-1	3.013611E-1
3.287700E+10	-7.548523E-1	3.349915E-1	2.813416E-1	-9.359741E-2	-3.295898E-2	-1.559830E-2	-4.912567E-1	3.063812E-1
3.310150E+10	-7.525330E-1	3.376770E-1	2.762299E-1	-8.908081E-2	-3.429413E-2	-1.226807E-2	-4.890747E-1	3.102112E-1
3.332600E+10	-7.494202E-1	3.374939E-1	2.716827E-1	-9.231567E-2	-3.176117E-2	-1.021957E-2	-4.836273E-1	3.151245E-1
3.355050E+10	-7.456360E-1	3.414917E-1	2.746735E-1	-9.727478E-2	-3.516579E-2	-9.828568E-3	-4.809875E-1	3.202972E-1
3.377500E+10	-7.445679E-1	3.452148E-1	2.725372E-1	-9.620667E-2	-2.902508E-2	-7.852554E-3	-4.823456E-1	3.198700E-1
3.399950E+10	-7.438965E-1	3.414307E-1	2.723999E-1	-9.707642E-2	-3.308487E-2	-7.972717E-4	-4.806671E-1	3.303986E-1
3.422400E+10	-7.426453E-1	3.479309E-1	2.683716E-1	-9.971619E-2	-3.369904E-2	-2.445221E-3	-4.754181E-1	3.383942E-1
3.444850E+10	-7.395020E-1	3.504944E-1	2.674866E-1	-1.061096E-1	-3.110409E-2	-1.914978E-3	-4.688568E-1	3.407135E-1
3.467300E+10	-7.380066E-1	3.502502E-1	2.726898E-1	-1.019592E-1	-3.543091E-2	-4.959106E-4	-4.742737E-1	3.462830E-1
3.489750E+10	-7.357788E-1	3.508606E-1	2.674408E-1	-1.081696E-1	-3.112411E-2	-3.446579E-3	-4.656677E-1	3.527069E-1
3.512200E+10	-7.374573E-1	3.527832E-1	2.632446E-1	-1.112366E-1	-3.196335E-2	2.603531E-3	-4.606018E-1	3.598480E-1
3.534650E+10	-7.373352E-1	3.546753E-1	2.633209E-1	-1.108246E-1	-3.522491E-2	2.277374E-3	-4.581757E-1	3.627930E-1
3.557100E+10	-7.305908E-1	3.553772E-1	2.624054E-1	-1.137848E-1	-3.187180E-2	3.496170E-3	-4.488220E-1	3.701782E-1
3.579550E+10	-7.269287E-1	3.564453E-1	2.635803E-1	-1.182861E-1	-3.126907E-2	4.816055E-3	-4.420013E-1	3.771820E-1
3.602000E+10	-7.311707E-1	3.615723E-1	2.633972E-1	-1.263733E-1	-2.879047E-2	9.339333E-3	-4.410248E-1	3.773041E-1
3.624450E+10	-7.262268E-1	3.639526E-1	2.647400E-1	-1.195068E-1	-2.894020E-2	4.941940E-3	-4.426880E-1	3.805084E-1
3.646900E+10	-7.246399E-1	3.699646E-1	2.601166E-1	-1.280365E-1	-2.647114E-2	1.163864E-2	-4.387512E-1	3.922424E-1
3.669350E+10	-7.239380E-1	3.648376E-1	2.642517E-1	-1.266174E-1	-2.678490E-2	1.532078E-2	-4.291840E-1	3.957825E-1
3.691800E+10	-7.205505E-1	3.707886E-1	2.610779E-1	-1.289368E-1	-2.854252E-2	1.253605E-2	-4.243927E-1	4.043884E-1
3.714250E+10	-7.221680E-1	3.695374E-1	2.567749E-1	-1.363068E-1	-3.086948E-2	1.513672E-2	-4.180298E-1	4.084320E-1
3.736700E+10	-7.149353E-1	3.714294E-1	2.599487E-1	-1.347504E-1	-2.802753E-2	2.033806E-2	-4.164276E-1	4.168701E-1
3.759150E+10	-7.132874E-1	3.715515E-1	2.551575E-1	-1.426086E-1	-2.546978E-2	1.713562E-2	-4.041748E-1	4.129028E-1
3.781600E+10	-7.147827E-1	3.700867E-1	2.521973E-1	-1.430359E-1	-2.211952E-2	1.903629E-2	-4.064178E-1	4.225769E-1
3.804050E+10	-7.107239E-1	3.783875E-1	2.521667E-1	-1.515808E-1	-2.062702E-2	2.319527E-2	-3.952026E-1	4.313507E-1
3.826500E+10	-7.134399E-1	3.789978E-1	2.497406E-1	-1.454239E-1	-2.109718E-2	2.179623E-2	-3.887329E-1	4.362488E-1
3.848950E+10	-7.080994E-1	3.841858E-1	2.530975E-1	-1.526642E-1	-1.660252E-2	2.629757E-2	-3.854828E-1	4.349976E-1
3.871400E+10	-7.077332E-1	3.809204E-1	2.491913E-1	-1.552887E-1	-2.326584E-2	2.774906E-2	-3.702850E-1	4.432373E-1
3.893850E+10	-7.026062E-1	3.769531E-1	2.484818E-1	-1.636429E-1	-1.549721E-2	3.199577E-2	-3.674774E-1	4.416351E-1
3.916300E+10	-7.104492E-1	3.823242E-1	2.508392E-1	-1.591644E-1	-1.621628E-2	3.174210E-2	-3.664398E-1	4.466248E-1
