!Date: 10/28/2005, 12:34 PM

!Vgs = -8.000000E+0
!Vds = 0.000000E+0
!Ig = -6.788800E-5
!Id = 1.402400E-5

# HZ S RI R 50
1.000000E+8	9.899597E-1	-4.043579E-2	2.292156E-3	1.559067E-2	1.368999E-3	1.312733E-2	9.337158E-1	-1.025391E-2
3.245000E+8	9.778137E-1	-1.113586E-1	7.865906E-3	4.349709E-2	6.999969E-3	4.382515E-2	9.152832E-1	-9.265137E-2
5.490000E+8	9.612427E-1	-1.808167E-1	1.618195E-2	7.111740E-2	1.653290E-2	7.105255E-2	9.064026E-1	-1.525269E-1
7.735000E+8	9.405212E-1	-2.485657E-1	2.866745E-2	9.620285E-2	2.888107E-2	9.579468E-2	8.876343E-1	-2.115173E-1
9.980000E+8	9.164124E-1	-3.106995E-1	4.330063E-2	1.186714E-1	4.370499E-2	1.188965E-1	8.667908E-1	-2.632141E-1
1.222500E+9	8.873901E-1	-3.714294E-1	6.069946E-2	1.386566E-1	6.042480E-2	1.393814E-1	8.432617E-1	-3.161011E-1
1.447000E+9	8.550720E-1	-4.282532E-1	7.906342E-2	1.566849E-1	7.940674E-2	1.566620E-1	8.159485E-1	-3.641663E-1
1.671500E+9	8.188477E-1	-4.808350E-1	9.864807E-2	1.730728E-1	9.942627E-2	1.731567E-1	7.861938E-1	-4.090271E-1
1.896000E+9	7.813110E-1	-5.284729E-1	1.220245E-1	1.868820E-1	1.221848E-1	1.871948E-1	7.583008E-1	-4.488831E-1
2.120500E+9	7.418518E-1	-5.727234E-1	1.462555E-1	1.971054E-1	1.462250E-1	1.970901E-1	7.278748E-1	-4.898376E-1
2.345000E+9	6.993713E-1	-6.144409E-1	1.709213E-1	2.031937E-1	1.706467E-1	2.031479E-1	6.941528E-1	-5.267334E-1
2.569500E+9	6.573486E-1	-6.488342E-1	1.941605E-1	2.065201E-1	1.941986E-1	2.070541E-1	6.612244E-1	-5.610962E-1
2.794000E+9	6.142883E-1	-6.823730E-1	2.172241E-1	2.080536E-1	2.178192E-1	2.079926E-1	6.264648E-1	-5.912170E-1
3.018500E+9	5.705566E-1	-7.102661E-1	2.404709E-1	2.062454E-1	2.407379E-1	2.066193E-1	5.898132E-1	-6.217957E-1
3.243000E+9	5.274963E-1	-7.364197E-1	2.621460E-1	2.031250E-1	2.623444E-1	2.027893E-1	5.535583E-1	-6.465759E-1
3.467500E+9	4.845581E-1	-7.582703E-1	2.832947E-1	1.979065E-1	2.825775E-1	1.978760E-1	5.184021E-1	-6.694336E-1
3.692000E+9	4.425049E-1	-7.775574E-1	3.028564E-1	1.910400E-1	3.029633E-1	1.915741E-1	4.808960E-1	-6.907959E-1
3.916500E+9	3.999023E-1	-7.937622E-1	3.217163E-1	1.820831E-1	3.221130E-1	1.825104E-1	4.446106E-1	-7.071228E-1
4.141000E+9	3.596802E-1	-8.076172E-1	3.396912E-1	1.735382E-1	3.393555E-1	1.734009E-1	4.110718E-1	-7.239380E-1
4.365500E+9	3.205872E-1	-8.201599E-1	3.555603E-1	1.620483E-1	3.556824E-1	1.621246E-1	3.764343E-1	-7.379456E-1
4.590000E+9	2.807007E-1	-8.305359E-1	3.713684E-1	1.500549E-1	3.708038E-1	1.500397E-1	3.402100E-1	-7.509155E-1
4.814500E+9	2.435303E-1	-8.373108E-1	3.853149E-1	1.377258E-1	3.846893E-1	1.375732E-1	3.075867E-1	-7.617493E-1
5.039000E+9	2.064819E-1	-8.442383E-1	3.980103E-1	1.233368E-1	3.980560E-1	1.234283E-1	2.749939E-1	-7.718811E-1
5.263500E+9	1.705017E-1	-8.472900E-1	4.095459E-1	1.092529E-1	4.091644E-1	1.091003E-1	2.408752E-1	-7.797546E-1
5.488000E+9	1.367493E-1	-8.506165E-1	4.189911E-1	9.448242E-2	4.187317E-1	9.440613E-2	2.096863E-1	-7.860107E-1
5.712500E+9	1.025696E-1	-8.532410E-1	4.279327E-1	7.931519E-2	4.282684E-1	7.958984E-2	1.791687E-1	-7.924805E-1
5.937000E+9	7.043457E-2	-8.524780E-1	4.362335E-1	6.344604E-2	4.353027E-1	6.384277E-2	1.474609E-1	-7.975769E-1
6.161500E+9	4.101562E-2	-8.530884E-1	4.422302E-1	4.806519E-2	4.418488E-1	4.795837E-2	1.173096E-1	-8.009338E-1
6.386000E+9	9.918213E-3	-8.522339E-1	4.472351E-1	3.257751E-2	4.468079E-1	3.271484E-2	8.746338E-2	-8.038330E-1
6.610500E+9	-1.779175E-2	-8.506165E-1	4.509430E-1	1.696777E-2	4.506226E-1	1.708984E-2	5.749512E-2	-8.059692E-1
6.835000E+9	-4.675293E-2	-8.484192E-1	4.544220E-1	2.166748E-3	4.541321E-1	2.166748E-3	2.871704E-2	-8.055115E-1
7.059500E+9	-7.284546E-2	-8.438721E-1	4.561310E-1	-1.150513E-2	4.560852E-1	-1.129150E-2	3.814697E-3	-8.049927E-1
7.284000E+9	-9.924316E-2	-8.410339E-1	4.573059E-1	-2.690125E-2	4.574585E-1	-2.708435E-2	-2.609253E-2	-8.043518E-1
7.508500E+9	-1.251831E-1	-8.363342E-1	4.585724E-1	-4.129028E-2	4.580231E-1	-4.153442E-2	-5.242920E-2	-8.009033E-1
7.733000E+9	-1.488953E-1	-8.304138E-1	4.580231E-1	-5.635071E-2	4.578247E-1	-5.555725E-2	-7.608032E-2	-7.989502E-1
7.957500E+9	-1.727600E-1	-8.255920E-1	4.567108E-1	-6.956482E-2	4.567261E-1	-6.932068E-2	-1.037903E-1	-7.965088E-1
8.182000E+9	-1.947021E-1	-8.203125E-1	4.558411E-1	-8.328247E-2	4.562836E-1	-8.302307E-2	-1.277771E-1	-7.933350E-1
8.406500E+9	-2.159424E-1	-8.141479E-1	4.530945E-1	-9.613037E-2	4.524384E-1	-9.603882E-2	-1.529541E-1	-7.881470E-1
8.631000E+9	-2.396851E-1	-8.076172E-1	4.505920E-1	-1.091003E-1	4.502869E-1	-1.099396E-1	-1.769104E-1	-7.837524E-1
8.855500E+9	-2.584839E-1	-8.019409E-1	4.476013E-1	-1.222076E-1	4.474335E-1	-1.218567E-1	-2.004395E-1	-7.778320E-1
9.080001E+9	-2.779541E-1	-7.958069E-1	4.438171E-1	-1.334534E-1	4.432678E-1	-1.334991E-1	-2.213745E-1	-7.704773E-1
9.304500E+9	-2.978516E-1	-7.876282E-1	4.397583E-1	-1.454468E-1	4.384766E-1	-1.454010E-1	-2.451477E-1	-7.649841E-1
9.529000E+9	-3.153687E-1	-7.814331E-1	4.354248E-1	-1.560364E-1	4.350891E-1	-1.566620E-1	-2.659302E-1	-7.564087E-1
9.753500E+9	-3.349915E-1	-7.735291E-1	4.313354E-1	-1.674805E-1	4.303589E-1	-1.674194E-1	-2.850952E-1	-7.487183E-1
9.978000E+9	-3.512573E-1	-7.654724E-1	4.254913E-1	-1.775513E-1	4.250793E-1	-1.773376E-1	-3.055420E-1	-7.425537E-1
1.020250E+10	-3.683472E-1	-7.589111E-1	4.200439E-1	-1.871185E-1	4.206848E-1	-1.867371E-1	-3.255005E-1	-7.333679E-1
1.042700E+10	-3.852844E-1	-7.510986E-1	4.149933E-1	-1.972656E-1	4.139709E-1	-1.971130E-1	-3.433838E-1	-7.252502E-1
1.065150E+10	-4.006958E-1	-7.433167E-1	4.085388E-1	-2.061310E-1	4.082184E-1	-2.053833E-1	-3.618774E-1	-7.178955E-1
1.087600E+10	-4.163513E-1	-7.359314E-1	4.020996E-1	-2.146301E-1	4.022369E-1	-2.147980E-1	-3.805847E-1	-7.084045E-1
1.110050E+10	-4.318848E-1	-7.275085E-1	3.962708E-1	-2.236786E-1	3.963318E-1	-2.236786E-1	-3.988953E-1	-6.994324E-1
1.132500E+10	-4.457397E-1	-7.196350E-1	3.896027E-1	-2.317657E-1	3.894196E-1	-2.318420E-1	-4.144592E-1	-6.924744E-1
1.154950E+10	-4.600830E-1	-7.108765E-1	3.828583E-1	-2.390900E-1	3.828888E-1	-2.390900E-1	-4.336548E-1	-6.805725E-1
1.177400E+10	-4.734802E-1	-7.041931E-1	3.767090E-1	-2.473450E-1	3.762970E-1	-2.472992E-1	-4.473572E-1	-6.694336E-1
1.199850E+10	-4.875793E-1	-6.954041E-1	3.697662E-1	-2.544708E-1	3.694000E-1	-2.543030E-1	-4.629822E-1	-6.620483E-1
1.222300E+10	-5.000000E-1	-6.880493E-1	3.631592E-1	-2.612000E-1	3.625336E-1	-2.603455E-1	-4.799500E-1	-6.508789E-1
1.244750E+10	-5.124817E-1	-6.794434E-1	3.558960E-1	-2.678986E-1	3.556519E-1	-2.681580E-1	-4.949341E-1	-6.387024E-1
1.267200E+10	-5.249634E-1	-6.723633E-1	3.493500E-1	-2.736664E-1	3.490753E-1	-2.738647E-1	-5.083618E-1	-6.306763E-1
1.289650E+10	-5.358582E-1	-6.624146E-1	3.418884E-1	-2.789154E-1	3.415680E-1	-2.780457E-1	-5.236816E-1	-6.201477E-1
1.312100E+10	-5.480347E-1	-6.550598E-1	3.347473E-1	-2.847748E-1	3.348541E-1	-2.845154E-1	-5.368652E-1	-6.072693E-1
1.334550E+10	-5.590515E-1	-6.460876E-1	3.277740E-1	-2.896423E-1	3.278809E-1	-2.899475E-1	-5.481262E-1	-5.984192E-1
1.357000E+10	-5.709229E-1	-6.373596E-1	3.205261E-1	-2.951508E-1	3.191681E-1	-2.949524E-1	-5.622253E-1	-5.890503E-1
1.379450E+10	-5.800781E-1	-6.305237E-1	3.127899E-1	-2.989960E-1	3.141022E-1	-2.985077E-1	-5.762634E-1	-5.722656E-1
1.401900E+10	-5.895996E-1	-6.223450E-1	3.066711E-1	-3.043213E-1	3.065186E-1	-3.037109E-1	-5.849609E-1	-5.645142E-1
1.424350E+10	-6.003418E-1	-6.139221E-1	2.989044E-1	-3.081665E-1	2.985535E-1	-3.082733E-1	-5.996399E-1	-5.535583E-1
1.446800E+10	-6.096191E-1	-6.059265E-1	2.923737E-1	-3.133850E-1	2.917633E-1	-3.118744E-1	-6.111145E-1	-5.393982E-1
1.469250E+10	-6.190491E-1	-5.986938E-1	2.843475E-1	-3.165894E-1	2.842102E-1	-3.161163E-1	-6.187134E-1	-5.294189E-1
1.491700E+10	-6.285706E-1	-5.900269E-1	2.776794E-1	-3.193207E-1	2.772522E-1	-3.190918E-1	-6.316528E-1	-5.190125E-1
1.514150E+10	-6.365051E-1	-5.820007E-1	2.693634E-1	-3.224792E-1	2.703857E-1	-3.225098E-1	-6.425476E-1	-5.030823E-1
1.536600E+10	-6.471863E-1	-5.724487E-1	2.623291E-1	-3.252258E-1	2.617035E-1	-3.261566E-1	-6.504822E-1	-4.928589E-1
1.559050E+10	-6.548767E-1	-5.631714E-1	2.557831E-1	-3.294983E-1	2.553711E-1	-3.274231E-1	-6.614990E-1	-4.829407E-1
1.581500E+10	-6.637268E-1	-5.559692E-1	2.464294E-1	-3.312836E-1	2.474823E-1	-3.310089E-1	-6.721497E-1	-4.686279E-1
1.603950E+10	-6.718750E-1	-5.478821E-1	2.418823E-1	-3.348083E-1	2.421570E-1	-3.340912E-1	-6.783752E-1	-4.582825E-1
1.626400E+10	-6.795654E-1	-5.399780E-1	2.351990E-1	-3.360443E-1	2.342987E-1	-3.364563E-1	-6.882935E-1	-4.462280E-1
1.648850E+10	-6.873474E-1	-5.321960E-1	2.277985E-1	-3.379669E-1	2.267456E-1	-3.381195E-1	-6.974792E-1	-4.316101E-1
1.671300E+10	-6.956482E-1	-5.228577E-1	2.206879E-1	-3.412170E-1	2.205200E-1	-3.397980E-1	-7.035217E-1	-4.202881E-1
1.693750E+10	-7.009583E-1	-5.159912E-1	2.154541E-1	-3.426666E-1	2.142639E-1	-3.417816E-1	-7.130127E-1	-4.093628E-1
1.716200E+10	-7.085876E-1	-5.076904E-1	2.078247E-1	-3.442688E-1	2.079163E-1	-3.426666E-1	-7.203369E-1	-3.945007E-1
1.738650E+10	-7.161560E-1	-5.007324E-1	2.011719E-1	-3.454285E-1	2.002106E-1	-3.442688E-1	-7.247620E-1	-3.818665E-1
1.761100E+10	-7.238770E-1	-4.923706E-1	1.955109E-1	-3.472137E-1	1.937714E-1	-3.464355E-1	-7.349243E-1	-3.729858E-1
1.783550E+10	-7.304382E-1	-4.839783E-1	1.880798E-1	-3.480835E-1	1.872253E-1	-3.469849E-1	-7.430725E-1	-3.569946E-1
1.806000E+10	-7.362671E-1	-4.766541E-1	1.810760E-1	-3.487396E-1	1.825867E-1	-3.484650E-1	-7.437439E-1	-3.461914E-1
1.828450E+10	-7.427673E-1	-4.682312E-1	1.753082E-1	-3.504181E-1	1.769409E-1	-3.498688E-1	-7.526550E-1	-3.374939E-1
1.850900E+10	-7.490845E-1	-4.602051E-1	1.692047E-1	-3.505554E-1	1.698608E-1	-3.495178E-1	-7.602844E-1	-3.216858E-1
1.873350E+10	-7.565613E-1	-4.514160E-1	1.632690E-1	-3.520050E-1	1.627197E-1	-3.512268E-1	-7.637024E-1	-3.081055E-1
1.895800E+10	-7.597656E-1	-4.439392E-1	1.563110E-1	-3.512573E-1	1.582336E-1	-3.521271E-1	-7.683105E-1	-2.990417E-1
1.918250E+10	-7.664795E-1	-4.375916E-1	1.503296E-1	-3.533020E-1	1.505890E-1	-3.521271E-1	-7.749939E-1	-2.867126E-1
1.940700E+10	-7.718201E-1	-4.281006E-1	1.452484E-1	-3.525848E-1	1.450195E-1	-3.507996E-1	-7.766113E-1	-2.681885E-1
1.963150E+10	-7.793579E-1	-4.199829E-1	1.369019E-1	-3.529968E-1	1.387177E-1	-3.523712E-1	-7.807617E-1	-2.612000E-1
1.985600E+10	-7.830200E-1	-4.124756E-1	1.328278E-1	-3.524780E-1	1.323700E-1	-3.521423E-1	-7.896118E-1	-2.478333E-1
2.008050E+10	-7.887878E-1	-4.042969E-1	1.267853E-1	-3.517609E-1	1.267242E-1	-3.526459E-1	-7.907410E-1	-2.324524E-1
2.030500E+10	-7.921753E-1	-3.979187E-1	1.204071E-1	-3.518219E-1	1.221313E-1	-3.518829E-1	-7.918396E-1	-2.235718E-1
2.052950E+10	-7.988892E-1	-3.898926E-1	1.161346E-1	-3.527832E-1	1.161652E-1	-3.525543E-1	-7.979736E-1	-2.115479E-1
2.075400E+10	-8.021545E-1	-3.824158E-1	1.106567E-1	-3.531799E-1	1.114807E-1	-3.517151E-1	-8.006897E-1	-1.973572E-1
2.097850E+10	-8.092651E-1	-3.744202E-1	1.048431E-1	-3.517151E-1	1.036377E-1	-3.528748E-1	-8.010864E-1	-1.861877E-1
2.120300E+10	-8.124084E-1	-3.662415E-1	9.887695E-2	-3.511810E-1	9.860229E-2	-3.502808E-1	-8.067322E-1	-1.776123E-1
2.142750E+10	-8.182983E-1	-3.591919E-1	9.585571E-2	-3.512726E-1	9.471130E-2	-3.502808E-1	-8.113098E-1	-1.613464E-1
2.165200E+10	-8.221130E-1	-3.514404E-1	8.804321E-2	-3.507690E-1	8.799744E-2	-3.481140E-1	-8.135376E-1	-1.509705E-1
2.187650E+10	-8.239441E-1	-3.426819E-1	8.361816E-2	-3.506775E-1	8.464050E-2	-3.486481E-1	-8.169861E-1	-1.372375E-1
2.210100E+10	-8.312073E-1	-3.339233E-1	7.742310E-2	-3.508759E-1	7.688904E-2	-3.479156E-1	-8.196716E-1	-1.259766E-1
2.232550E+10	-8.318481E-1	-3.260803E-1	7.360840E-2	-3.494720E-1	7.405090E-2	-3.485260E-1	-8.187866E-1	-1.120911E-1
2.255000E+10	-8.375854E-1	-3.188782E-1	6.848145E-2	-3.478241E-1	6.835937E-2	-3.468170E-1	-8.240051E-1	-1.022644E-1
2.277450E+10	-8.410339E-1	-3.099976E-1	6.379700E-2	-3.486023E-1	6.289673E-2	-3.464661E-1	-8.242798E-1	-8.666992E-2
2.299900E+10	-8.446350E-1	-3.019104E-1	5.880737E-2	-3.477325E-1	5.902100E-2	-3.453369E-1	-8.214111E-1	-7.577515E-2
2.322350E+10	-8.484192E-1	-2.944946E-1	5.401611E-2	-3.452301E-1	5.421448E-2	-3.476257E-1	-8.264771E-1	-6.521606E-2
2.344800E+10	-8.506165E-1	-2.859497E-1	4.852295E-2	-3.454132E-1	4.875183E-2	-3.456268E-1	-8.275757E-1	-5.056763E-2
2.367250E+10	-8.541565E-1	-2.769470E-1	4.241943E-2	-3.431854E-1	4.397583E-2	-3.433075E-1	-8.260498E-1	-3.579712E-2
2.389700E+10	-8.551636E-1	-2.704163E-1	3.720093E-2	-3.426514E-1	3.857422E-2	-3.400574E-1	-8.286743E-1	-2.685547E-2
2.412150E+10	-8.580933E-1	-2.650452E-1	3.373718E-2	-3.410645E-1	3.392029E-2	-3.407440E-1	-8.265686E-1	-1.052856E-2
2.434600E+10	-8.594360E-1	-2.563477E-1	2.996826E-2	-3.383179E-1	2.998352E-2	-3.378754E-1	-8.251038E-1	2.166748E-3
2.457050E+10	-8.628845E-1	-2.517090E-1	2.363586E-2	-3.392029E-1	2.525330E-2	-3.386841E-1	-8.247986E-1	1.214600E-2
2.479500E+10	-8.660889E-1	-2.448425E-1	2.127075E-2	-3.376007E-1	2.075195E-2	-3.367462E-1	-8.231812E-1	2.737427E-2
2.501950E+10	-8.664551E-1	-2.395630E-1	1.556396E-2	-3.356323E-1	1.722717E-2	-3.348389E-1	-8.193359E-1	3.707886E-2
2.524400E+10	-8.724060E-1	-2.311401E-1	1.127625E-2	-3.352356E-1	1.358032E-2	-3.318939E-1	-8.207703E-1	4.483032E-2
2.546850E+10	-8.744812E-1	-2.229919E-1	9.613037E-3	-3.309021E-1	9.185791E-3	-3.327484E-1	-8.157349E-1	6.298828E-2
2.569300E+10	-8.760376E-1	-2.171631E-1	5.767822E-3	-3.307648E-1	5.401611E-3	-3.296356E-1	-8.152771E-1	6.872559E-2
2.591750E+10	-8.783875E-1	-2.086487E-1	9.155273E-5	-3.299713E-1	-2.441406E-4	-3.315277E-1	-8.153992E-1	8.004761E-2
2.614200E+10	-8.814392E-1	-2.008972E-1	-2.563477E-3	-3.268890E-1	-2.716064E-3	-3.275604E-1	-8.157349E-1	9.359741E-2
2.636650E+10	-8.874207E-1	-1.954651E-1	-7.675171E-3	-3.251038E-1	-5.523682E-3	-3.260803E-1	-8.137207E-1	1.071472E-1
2.659100E+10	-8.849792E-1	-1.875610E-1	-1.097107E-2	-3.255463E-1	-8.224487E-3	-3.242493E-1	-8.076782E-1	1.174316E-1
2.681550E+10	-8.886414E-1	-1.829529E-1	-1.666260E-2	-3.231659E-1	-1.403809E-2	-3.245392E-1	-8.109436E-1	1.282959E-1
2.704000E+10	-8.935547E-1	-1.738281E-1	-1.895142E-2	-3.199310E-1	-1.597595E-2	-3.203735E-1	-8.056946E-1	1.452332E-1
2.726450E+10	-8.923340E-1	-1.660767E-1	-2.059937E-2	-3.210449E-1	-2.365112E-2	-3.217621E-1	-7.982178E-1	1.540527E-1
2.748900E+10	-8.947144E-1	-1.579285E-1	-2.644348E-2	-3.183441E-1	-2.801514E-2	-3.192444E-1	-7.952576E-1	1.618652E-1
2.771350E+10	-8.940125E-1	-1.534729E-1	-3.150940E-2	-3.174896E-1	-2.976990E-2	-3.177948E-1	-7.904663E-1	1.740723E-1
2.793800E+10	-8.957214E-1	-1.472473E-1	-3.385925E-2	-3.148956E-1	-3.450012E-2	-3.162842E-1	-7.910461E-1	1.842041E-1
2.816250E+10	-8.993530E-1	-1.392822E-1	-3.639221E-2	-3.125916E-1	-3.849792E-2	-3.144684E-1	-7.887268E-1	1.964417E-1
2.838700E+10	-8.999329E-1	-1.313477E-1	-4.211426E-2	-3.124390E-1	-4.376221E-2	-3.135986E-1	-7.835083E-1	2.092896E-1
2.861150E+10	-9.035339E-1	-1.245117E-1	-4.771423E-2	-3.113556E-1	-4.734802E-2	-3.122253E-1	-7.762756E-1	2.171021E-1
2.883600E+10	-9.051514E-1	-1.193848E-1	-5.097961E-2	-3.070526E-1	-5.113220E-2	-3.103485E-1	-7.741699E-1	2.260437E-1
2.906050E+10	-9.068604E-1	-1.106567E-1	-5.224609E-2	-3.048248E-1	-5.343628E-2	-3.073120E-1	-7.681885E-1	2.371216E-1
2.928500E+10	-9.071655E-1	-1.036682E-1	-5.511475E-2	-3.046265E-1	-5.513000E-2	-3.045044E-1	-7.653809E-1	2.451477E-1
2.950950E+10	-9.092102E-1	-9.802246E-2	-5.680847E-2	-3.008728E-1	-5.725098E-2	-3.018646E-1	-7.611389E-1	2.567749E-1
2.973400E+10	-9.107056E-1	-9.036255E-2	-6.021118E-2	-2.999420E-1	-6.221008E-2	-2.990417E-1	-7.579346E-1	2.643738E-1
2.995850E+10	-9.095764E-1	-8.071899E-2	-6.260681E-2	-2.990570E-1	-6.437683E-2	-2.976685E-1	-7.565918E-1	2.772522E-1
3.018300E+10	-9.090271E-1	-7.467651E-2	-6.922913E-2	-2.969360E-1	-6.774902E-2	-2.965698E-1	-7.452393E-1	2.957153E-1
3.040750E+10	-9.105835E-1	-6.640625E-2	-6.994629E-2	-2.969818E-1	-7.092285E-2	-2.974243E-1	-7.444458E-1	3.020935E-1
3.063200E+10	-9.114990E-1	-6.146240E-2	-7.569885E-2	-2.951965E-1	-7.482910E-2	-2.918396E-1	-7.402039E-1	3.105774E-1
3.085650E+10	-9.134521E-1	-5.688477E-2	-7.923889E-2	-2.936707E-1	-7.659912E-2	-2.938232E-1	-7.317505E-1	3.244629E-1
3.108100E+10	-9.151306E-1	-4.922485E-2	-8.161926E-2	-2.917633E-1	-7.734680E-2	-2.874146E-1	-7.243958E-1	3.350830E-1
3.130550E+10	-9.111633E-1	-4.183960E-2	-8.189392E-2	-2.887421E-1	-8.583069E-2	-2.854156E-1	-7.147522E-1	3.446655E-1
3.153000E+10	-9.143372E-1	-3.552246E-2	-8.856201E-2	-2.902832E-1	-8.566284E-2	-2.848663E-1	-7.104797E-1	3.541870E-1
3.175450E+10	-9.141235E-1	-2.960205E-2	-8.880615E-2	-2.826385E-1	-8.959961E-2	-2.805023E-1	-7.045288E-1	3.649292E-1
3.197900E+10	-9.169312E-1	-2.093506E-2	-9.429932E-2	-2.832794E-1	-9.530640E-2	-2.806091E-1	-6.955261E-1	3.740540E-1
3.220350E+10	-9.206543E-1	-1.770020E-2	-9.703064E-2	-2.797699E-1	-9.712219E-2	-2.808075E-1	-6.824951E-1	3.864746E-1
3.242800E+10	-9.191895E-1	-1.092529E-2	-9.829712E-2	-2.782745E-1	-1.042480E-1	-2.778320E-1	-6.779785E-1	3.922729E-1
3.265250E+10	-9.192810E-1	-3.967285E-4	-1.064301E-1	-2.753906E-1	-1.069946E-1	-2.709503E-1	-6.704407E-1	3.997803E-1
3.287700E+10	-9.196472E-1	5.950928E-3	-1.058807E-1	-2.700043E-1	-1.070099E-1	-2.699585E-1	-6.643677E-1	4.100342E-1
3.310150E+10	-9.194336E-1	1.266479E-2	-1.094666E-1	-2.718201E-1	-1.071167E-1	-2.667847E-1	-6.503601E-1	4.152832E-1
3.332600E+10	-9.155273E-1	1.995850E-2	-1.124725E-1	-2.676239E-1	-1.138916E-1	-2.679291E-1	-6.429749E-1	4.233093E-1
3.355050E+10	-9.204102E-1	2.526855E-2	-1.159210E-1	-2.646790E-1	-1.127319E-1	-2.640991E-1	-6.402588E-1	4.306946E-1
3.377500E+10	-9.180908E-1	3.305054E-2	-1.154785E-1	-2.641602E-1	-1.164703E-1	-2.657776E-1	-6.298218E-1	4.363708E-1
3.399950E+10	-9.186707E-1	3.836060E-2	-1.192169E-1	-2.619476E-1	-1.159973E-1	-2.619629E-1	-6.276550E-1	4.454651E-1
3.422400E+10	-9.182739E-1	4.788208E-2	-1.177979E-1	-2.617950E-1	-1.207733E-1	-2.613525E-1	-6.195984E-1	4.645691E-1
3.444850E+10	-9.193726E-1	5.227661E-2	-1.221313E-1	-2.536316E-1	-1.233063E-1	-2.571106E-1	-6.057129E-1	4.645691E-1
3.467300E+10	-9.185486E-1	5.850220E-2	-1.206665E-1	-2.553864E-1	-1.250610E-1	-2.582397E-1	-6.066589E-1	4.772034E-1
3.489750E+10	-9.203186E-1	6.582642E-2	-1.269836E-1	-2.520142E-1	-1.321716E-1	-2.551727E-1	-5.922241E-1	4.902039E-1
3.512200E+10	-9.177856E-1	7.342529E-2	-1.308136E-1	-2.517395E-1	-1.277008E-1	-2.528992E-1	-5.821838E-1	4.881287E-1
3.534650E+10	-9.190674E-1	7.302856E-2	-1.351852E-1	-2.480316E-1	-1.332855E-1	-2.515259E-1	-5.717163E-1	5.009460E-1
3.557100E+10	-9.197388E-1	8.248901E-2	-1.319580E-1	-2.472229E-1	-1.374054E-1	-2.508850E-1	-5.578613E-1	5.091858E-1
3.579550E+10	-9.153442E-1	8.972168E-2	-1.364288E-1	-2.430725E-1	-1.410522E-1	-2.472916E-1	-5.455627E-1	5.171509E-1
3.602000E+10	-9.178467E-1	9.970093E-2	-1.434402E-1	-2.461243E-1	-1.432724E-1	-2.453842E-1	-5.380249E-1	5.217590E-1
3.624450E+10	-9.172668E-1	1.030273E-1	-1.395187E-1	-2.402573E-1	-1.438217E-1	-2.407379E-1	-5.271606E-1	5.295715E-1
3.646900E+10	-9.170227E-1	1.113281E-1	-1.472702E-1	-2.397385E-1	-1.511307E-1	-2.413483E-1	-5.190125E-1	5.386353E-1
3.669350E+10	-9.116821E-1	1.171265E-1	-1.480637E-1	-2.385178E-1	-1.480560E-1	-2.343979E-1	-4.989319E-1	5.409241E-1
3.691800E+10	-9.114685E-1	1.214294E-1	-1.560669E-1	-2.346878E-1	-1.530609E-1	-2.323456E-1	-4.915466E-1	5.493164E-1
3.714250E+10	-9.110107E-1	1.251831E-1	-1.579514E-1	-2.306747E-1	-1.573029E-1	-2.342682E-1	-4.793701E-1	5.558167E-1
3.736700E+10	-9.078979E-1	1.377258E-1	-1.546555E-1	-2.242050E-1	-1.596527E-1	-2.270432E-1	-4.672241E-1	5.606079E-1
3.759150E+10	-9.015808E-1	1.360474E-1	-1.637192E-1	-2.274323E-1	-1.592255E-1	-2.296829E-1	-4.603882E-1	5.696106E-1
3.781600E+10	-9.065247E-1	1.505127E-1	-1.612015E-1	-2.206116E-1	-1.639557E-1	-2.227325E-1	-4.474487E-1	5.714417E-1
3.804050E+10	-9.069519E-1	1.514587E-1	-1.649399E-1	-2.208633E-1	-1.682816E-1	-2.178650E-1	-4.338074E-1	5.777893E-1
3.826500E+10	-9.082336E-1	1.587219E-1	-1.653061E-1	-2.170258E-1	-1.687241E-1	-2.236252E-1	-4.183960E-1	5.884399E-1
3.848950E+10	-9.064331E-1	1.681824E-1	-1.680908E-1	-2.210617E-1	-1.674042E-1	-2.175827E-1	-4.064331E-1	5.956116E-1
3.871400E+10	-9.079285E-1	1.658020E-1	-1.678772E-1	-2.182922E-1	-1.698685E-1	-2.152328E-1	-3.875122E-1	5.879211E-1
3.893850E+10	-9.019470E-1	1.784363E-1	-1.714859E-1	-2.098999E-1	-1.713104E-1	-2.095261E-1	-3.796082E-1	5.919800E-1
