!Date: 10/28/2005, 12:34 PM

!Vgs = -7.000000E+0
!Vds = 1.000000E+0
!Ig = -5.225500E-5
!Id = 7.125000E-4

# HZ S RI R 50
1.000000E+8	9.910889E-1	-4.019165E-2	-5.126953E-3	1.612282E-2	5.784035E-4	1.434326E-2	9.558411E-1	-1.376343E-2
3.245000E+8	9.776001E-1	-1.142273E-1	1.943588E-3	4.484558E-2	7.406235E-3	4.343414E-2	9.396667E-1	-9.555054E-2
5.490000E+8	9.600830E-1	-1.850281E-1	1.145172E-2	7.223511E-2	1.678467E-2	7.169342E-2	9.309082E-1	-1.566162E-1
7.735000E+8	9.390259E-1	-2.543030E-1	2.437973E-2	9.743118E-2	2.958298E-2	9.638977E-2	9.114075E-1	-2.170410E-1
9.980000E+8	9.137573E-1	-3.181763E-1	3.976440E-2	1.204605E-1	4.471588E-2	1.188889E-1	8.897095E-1	-2.702332E-1
1.222500E+9	8.835144E-1	-3.800049E-1	5.717468E-2	1.408005E-1	6.174469E-2	1.392212E-1	8.661804E-1	-3.244019E-1
1.447000E+9	8.499146E-1	-4.380493E-1	7.646942E-2	1.581421E-1	8.110809E-2	1.565323E-1	8.382568E-1	-3.735046E-1
1.671500E+9	8.128052E-1	-4.918518E-1	9.647369E-2	1.748123E-1	1.011276E-1	1.726837E-1	8.075867E-1	-4.191589E-1
1.896000E+9	7.732544E-1	-5.400696E-1	1.200943E-1	1.883316E-1	1.242447E-1	1.867218E-1	7.785034E-1	-4.599915E-1
2.120500E+9	7.332153E-1	-5.845642E-1	1.449890E-1	1.977844E-1	1.481247E-1	1.956635E-1	7.473145E-1	-5.015259E-1
2.345000E+9	6.885986E-1	-6.266785E-1	1.699829E-1	2.039948E-1	1.731567E-1	2.013550E-1	7.130432E-1	-5.396118E-1
2.569500E+9	6.455383E-1	-6.612244E-1	1.931763E-1	2.071075E-1	1.970520E-1	2.040176E-1	6.791687E-1	-5.740051E-1
2.794000E+9	6.009521E-1	-6.948242E-1	2.173157E-1	2.074280E-1	2.208099E-1	2.051010E-1	6.436157E-1	-6.054993E-1
3.018500E+9	5.561523E-1	-7.228394E-1	2.403030E-1	2.056656E-1	2.428894E-1	2.030258E-1	6.064758E-1	-6.364441E-1
3.243000E+9	5.117493E-1	-7.485046E-1	2.625885E-1	2.015076E-1	2.651062E-1	1.989441E-1	5.684204E-1	-6.618958E-1
3.467500E+9	4.676208E-1	-7.702332E-1	2.830963E-1	1.962128E-1	2.852478E-1	1.931458E-1	5.321045E-1	-6.847229E-1
3.692000E+9	4.244080E-1	-7.888794E-1	3.028564E-1	1.887817E-1	3.046875E-1	1.862640E-1	4.943848E-1	-7.064819E-1
3.916500E+9	3.810730E-1	-8.046875E-1	3.214722E-1	1.793518E-1	3.232727E-1	1.761780E-1	4.567261E-1	-7.239990E-1
4.141000E+9	3.405151E-1	-8.179321E-1	3.393402E-1	1.697235E-1	3.407898E-1	1.666107E-1	4.222107E-1	-7.401123E-1
4.365500E+9	3.004761E-1	-8.293152E-1	3.553009E-1	1.583099E-1	3.567352E-1	1.557312E-1	3.873901E-1	-7.550354E-1
4.590000E+9	2.596436E-1	-8.397827E-1	3.702087E-1	1.453247E-1	3.709717E-1	1.424255E-1	3.506470E-1	-7.676697E-1
4.814500E+9	2.218018E-1	-8.460083E-1	3.841858E-1	1.325531E-1	3.849487E-1	1.295471E-1	3.168335E-1	-7.794495E-1
5.039000E+9	1.837463E-1	-8.524475E-1	3.961945E-1	1.182861E-1	3.970947E-1	1.153564E-1	2.833557E-1	-7.896423E-1
5.263500E+9	1.475220E-1	-8.552856E-1	4.075470E-1	1.028900E-1	4.079895E-1	1.003113E-1	2.484131E-1	-7.975159E-1
5.488000E+9	1.136169E-1	-8.577576E-1	4.167023E-1	8.872986E-2	4.168243E-1	8.541870E-2	2.164612E-1	-8.035889E-1
5.712500E+9	7.809448E-2	-8.591919E-1	4.251099E-1	7.302856E-2	4.257660E-1	7.073975E-2	1.852722E-1	-8.103027E-1
5.937000E+9	4.690552E-2	-8.578186E-1	4.323425E-1	5.690002E-2	4.319153E-1	5.479431E-2	1.524353E-1	-8.159790E-1
6.161500E+9	1.608276E-2	-8.577271E-1	4.389648E-1	4.136658E-2	4.380646E-1	3.924561E-2	1.214600E-1	-8.190918E-1
6.386000E+9	-1.525879E-2	-8.566589E-1	4.424438E-1	2.565002E-2	4.427032E-1	2.273560E-2	9.112549E-2	-8.217773E-1
6.610500E+9	-4.370117E-2	-8.542480E-1	4.461823E-1	1.036072E-2	4.457703E-1	8.148193E-3	5.963135E-2	-8.236694E-1
6.835000E+9	-7.244873E-2	-8.513184E-1	4.490662E-1	-4.730225E-3	4.483337E-1	-6.942749E-3	3.082275E-2	-8.229370E-1
7.059500E+9	-9.826660E-2	-8.455505E-1	4.502411E-1	-1.853943E-2	4.503021E-1	-2.062988E-2	5.432129E-3	-8.219910E-1
7.284000E+9	-1.253662E-1	-8.426208E-1	4.513702E-1	-3.379822E-2	4.505157E-1	-3.613281E-2	-2.575684E-2	-8.215637E-1
7.508500E+9	-1.517029E-1	-8.370056E-1	4.515076E-1	-4.896545E-2	4.510040E-1	-5.007935E-2	-5.273437E-2	-8.177490E-1
7.733000E+9	-1.745605E-1	-8.299866E-1	4.503632E-1	-6.254578E-2	4.500885E-1	-6.449890E-2	-7.785034E-2	-8.164368E-1
7.957500E+9	-1.991272E-1	-8.246765E-1	4.494629E-1	-7.667542E-2	4.481812E-1	-7.853699E-2	-1.052246E-1	-8.140564E-1
8.182000E+9	-2.203064E-1	-8.182983E-1	4.475403E-1	-8.929443E-2	4.467010E-1	-9.078979E-2	-1.299438E-1	-8.099060E-1
8.406500E+9	-2.435913E-1	-8.123474E-1	4.441223E-1	-1.024628E-1	4.432983E-1	-1.041870E-1	-1.554565E-1	-8.037720E-1
8.631000E+9	-2.654114E-1	-8.058777E-1	4.415588E-1	-1.156158E-1	4.406891E-1	-1.166840E-1	-1.801147E-1	-7.992554E-1
8.855500E+9	-2.845154E-1	-7.987061E-1	4.378815E-1	-1.275940E-1	4.374542E-1	-1.292114E-1	-2.035522E-1	-7.934570E-1
9.080001E+9	-3.041687E-1	-7.921143E-1	4.341431E-1	-1.387787E-1	4.336395E-1	-1.403503E-1	-2.267456E-1	-7.857056E-1
9.304500E+9	-3.249207E-1	-7.833862E-1	4.299469E-1	-1.500549E-1	4.281158E-1	-1.522217E-1	-2.487793E-1	-7.796021E-1
9.529000E+9	-3.420410E-1	-7.770996E-1	4.246979E-1	-1.616669E-1	4.241028E-1	-1.625824E-1	-2.718506E-1	-7.716370E-1
9.753500E+9	-3.605347E-1	-7.682800E-1	4.203949E-1	-1.725769E-1	4.190521E-1	-1.729126E-1	-2.909851E-1	-7.639160E-1
9.978000E+9	-3.774109E-1	-7.604065E-1	4.152222E-1	-1.819458E-1	4.135590E-1	-1.831970E-1	-3.108521E-1	-7.565002E-1
1.020250E+10	-3.941345E-1	-7.539978E-1	4.088745E-1	-1.920929E-1	4.082947E-1	-1.936035E-1	-3.328247E-1	-7.478638E-1
1.042700E+10	-4.106750E-1	-7.446289E-1	4.030151E-1	-2.019043E-1	4.017487E-1	-2.019501E-1	-3.510132E-1	-7.395020E-1
1.065150E+10	-4.259033E-1	-7.369080E-1	3.971558E-1	-2.097931E-1	3.957367E-1	-2.106934E-1	-3.692017E-1	-7.304077E-1
1.087600E+10	-4.411316E-1	-7.287292E-1	3.903809E-1	-2.182617E-1	3.887024E-1	-2.190704E-1	-3.883057E-1	-7.213135E-1
1.110050E+10	-4.566956E-1	-7.194824E-1	3.830566E-1	-2.273254E-1	3.825378E-1	-2.277985E-1	-4.057922E-1	-7.114868E-1
1.132500E+10	-4.706116E-1	-7.113647E-1	3.766479E-1	-2.350311E-1	3.769226E-1	-2.349854E-1	-4.237366E-1	-7.035217E-1
1.154950E+10	-4.849548E-1	-7.034302E-1	3.706360E-1	-2.420197E-1	3.696136E-1	-2.427826E-1	-4.427490E-1	-6.917114E-1
1.177400E+10	-4.981384E-1	-6.951599E-1	3.635406E-1	-2.489014E-1	3.628082E-1	-2.496796E-1	-4.569397E-1	-6.804199E-1
1.199850E+10	-5.124817E-1	-6.870422E-1	3.574829E-1	-2.565765E-1	3.555908E-1	-2.569733E-1	-4.727173E-1	-6.723633E-1
1.222300E+10	-5.231934E-1	-6.775513E-1	3.510437E-1	-2.629242E-1	3.488312E-1	-2.624969E-1	-4.902344E-1	-6.621094E-1
1.244750E+10	-5.368652E-1	-6.686707E-1	3.422089E-1	-2.678986E-1	3.419189E-1	-2.686920E-1	-5.055542E-1	-6.478271E-1
1.267200E+10	-5.481567E-1	-6.607056E-1	3.355865E-1	-2.744141E-1	3.345947E-1	-2.743530E-1	-5.178833E-1	-6.401672E-1
1.289650E+10	-5.594177E-1	-6.513367E-1	3.281097E-1	-2.789307E-1	3.283234E-1	-2.793884E-1	-5.337219E-1	-6.279907E-1
1.312100E+10	-5.712585E-1	-6.438293E-1	3.216095E-1	-2.847748E-1	3.198700E-1	-2.855225E-1	-5.471802E-1	-6.153564E-1
1.334550E+10	-5.827332E-1	-6.348877E-1	3.151550E-1	-2.902832E-1	3.134918E-1	-2.899933E-1	-5.588379E-1	-6.066589E-1
1.357000E+10	-5.940247E-1	-6.256409E-1	3.076019E-1	-2.946014E-1	3.046265E-1	-2.950745E-1	-5.748901E-1	-5.970459E-1
1.379450E+10	-6.015320E-1	-6.183167E-1	3.001556E-1	-2.980042E-1	2.997437E-1	-2.985077E-1	-5.870667E-1	-5.793762E-1
1.401900E+10	-6.126099E-1	-6.096191E-1	2.938232E-1	-3.023987E-1	2.921753E-1	-3.023224E-1	-5.959167E-1	-5.719299E-1
1.424350E+10	-6.227417E-1	-6.012268E-1	2.863312E-1	-3.066864E-1	2.851410E-1	-3.071747E-1	-6.113586E-1	-5.594482E-1
1.446800E+10	-6.315308E-1	-5.928955E-1	2.786713E-1	-3.102417E-1	2.786407E-1	-3.099213E-1	-6.215515E-1	-5.433960E-1
1.469250E+10	-6.415405E-1	-5.843811E-1	2.719269E-1	-3.145599E-1	2.707825E-1	-3.139801E-1	-6.289978E-1	-5.346985E-1
1.491700E+10	-6.487732E-1	-5.757446E-1	2.651215E-1	-3.173828E-1	2.637024E-1	-3.170013E-1	-6.424866E-1	-5.239563E-1
1.514150E+10	-6.588745E-1	-5.671082E-1	2.571869E-1	-3.201904E-1	2.563629E-1	-3.197479E-1	-6.534424E-1	-5.091553E-1
1.536600E+10	-6.690063E-1	-5.584412E-1	2.496948E-1	-3.229065E-1	2.493134E-1	-3.224945E-1	-6.606445E-1	-4.962158E-1
1.559050E+10	-6.756287E-1	-5.496826E-1	2.429047E-1	-3.254242E-1	2.418671E-1	-3.248444E-1	-6.716309E-1	-4.872742E-1
1.581500E+10	-6.827698E-1	-5.409851E-1	2.354126E-1	-3.267975E-1	2.340088E-1	-3.275604E-1	-6.832886E-1	-4.709473E-1
1.603950E+10	-6.915283E-1	-5.339966E-1	2.282104E-1	-3.292236E-1	2.283478E-1	-3.285675E-1	-6.901550E-1	-4.607849E-1
1.626400E+10	-6.993713E-1	-5.263367E-1	2.206573E-1	-3.318787E-1	2.216644E-1	-3.325195E-1	-6.997681E-1	-4.489746E-1
1.648850E+10	-7.071228E-1	-5.172119E-1	2.144623E-1	-3.333130E-1	2.146454E-1	-3.338013E-1	-7.093811E-1	-4.351196E-1
1.671300E+10	-7.162781E-1	-5.076599E-1	2.082825E-1	-3.357544E-1	2.080231E-1	-3.364410E-1	-7.150269E-1	-4.241943E-1
1.693750E+10	-7.209778E-1	-5.010681E-1	2.022247E-1	-3.377991E-1	2.011719E-1	-3.373871E-1	-7.253113E-1	-4.114075E-1
1.716200E+10	-7.283630E-1	-4.919128E-1	1.951599E-1	-3.388367E-1	1.949158E-1	-3.383026E-1	-7.307129E-1	-3.963318E-1
1.738650E+10	-7.350159E-1	-4.841614E-1	1.898041E-1	-3.407135E-1	1.874695E-1	-3.388672E-1	-7.374268E-1	-3.840332E-1
1.761100E+10	-7.418518E-1	-4.759521E-1	1.835480E-1	-3.400726E-1	1.818695E-1	-3.397980E-1	-7.448730E-1	-3.757935E-1
1.783550E+10	-7.492065E-1	-4.664917E-1	1.746979E-1	-3.412628E-1	1.743317E-1	-3.420715E-1	-7.536621E-1	-3.580017E-1
1.806000E+10	-7.556458E-1	-4.601440E-1	1.702423E-1	-3.432770E-1	1.696320E-1	-3.426208E-1	-7.560730E-1	-3.458252E-1
1.828450E+10	-7.604675E-1	-4.511719E-1	1.635742E-1	-3.441162E-1	1.633606E-1	-3.429108E-1	-7.628174E-1	-3.360291E-1
1.850900E+10	-7.665710E-1	-4.437866E-1	1.583252E-1	-3.445435E-1	1.567688E-1	-3.447418E-1	-7.712402E-1	-3.214722E-1
1.873350E+10	-7.728882E-1	-4.342041E-1	1.511688E-1	-3.445282E-1	1.511841E-1	-3.445740E-1	-7.745056E-1	-3.055420E-1
1.895800E+10	-7.778931E-1	-4.264526E-1	1.457672E-1	-3.437653E-1	1.443024E-1	-3.447571E-1	-7.787476E-1	-2.994080E-1
1.918250E+10	-7.824402E-1	-4.188232E-1	1.389771E-1	-3.445435E-1	1.392517E-1	-3.462372E-1	-7.868652E-1	-2.855530E-1
1.940700E+10	-7.881165E-1	-4.107971E-1	1.313782E-1	-3.465271E-1	1.346130E-1	-3.458557E-1	-7.876587E-1	-2.673950E-1
1.963150E+10	-7.930298E-1	-4.033203E-1	1.270142E-1	-3.460846E-1	1.270294E-1	-3.451385E-1	-7.909851E-1	-2.605896E-1
1.985600E+10	-7.981262E-1	-3.951721E-1	1.216278E-1	-3.429565E-1	1.215973E-1	-3.448639E-1	-7.985840E-1	-2.476501E-1
2.008050E+10	-8.039856E-1	-3.865967E-1	1.155243E-1	-3.452148E-1	1.144562E-1	-3.452911E-1	-8.025818E-1	-2.286377E-1
2.030500E+10	-8.065796E-1	-3.782959E-1	1.098938E-1	-3.432007E-1	1.104584E-1	-3.426361E-1	-8.028870E-1	-2.212219E-1
2.052950E+10	-8.123169E-1	-3.713989E-1	1.060791E-1	-3.453827E-1	1.040649E-1	-3.428650E-1	-8.080750E-1	-2.090454E-1
2.075400E+10	-8.161316E-1	-3.642883E-1	9.996033E-2	-3.438110E-1	1.005096E-1	-3.435822E-1	-8.108826E-1	-1.946716E-1
2.097850E+10	-8.226318E-1	-3.559570E-1	9.310913E-2	-3.434753E-1	9.297180E-2	-3.437805E-1	-8.105164E-1	-1.821899E-1
2.120300E+10	-8.260193E-1	-3.474426E-1	8.802795E-2	-3.396912E-1	8.827209E-2	-3.427429E-1	-8.147278E-1	-1.733093E-1
2.142750E+10	-8.313599E-1	-3.396912E-1	8.392334E-2	-3.428040E-1	8.242798E-2	-3.405762E-1	-8.206482E-1	-1.591187E-1
2.165200E+10	-8.367920E-1	-3.313293E-1	7.998657E-2	-3.390503E-1	7.875061E-2	-3.392181E-1	-8.221130E-1	-1.485596E-1
2.187650E+10	-8.381042E-1	-3.234558E-1	7.638550E-2	-3.406067E-1	7.560730E-2	-3.393555E-1	-8.255005E-1	-1.345825E-1
2.210100E+10	-8.425293E-1	-3.147583E-1	6.945801E-2	-3.408356E-1	7.057190E-2	-3.396454E-1	-8.274231E-1	-1.203918E-1
2.232550E+10	-8.467407E-1	-3.067322E-1	6.353760E-2	-3.377380E-1	6.425476E-2	-3.405151E-1	-8.294373E-1	-1.060791E-1
2.255000E+10	-8.502502E-1	-2.982788E-1	5.973816E-2	-3.383636E-1	5.992126E-2	-3.398590E-1	-8.294678E-1	-9.744263E-2
2.277450E+10	-8.520813E-1	-2.893982E-1	5.352783E-2	-3.374023E-1	5.598450E-2	-3.349457E-1	-8.323364E-1	-8.239746E-2
2.299900E+10	-8.579712E-1	-2.825317E-1	4.989624E-2	-3.349457E-1	5.119324E-2	-3.373413E-1	-8.304138E-1	-7.006836E-2
2.322350E+10	-8.590088E-1	-2.756042E-1	4.533386E-2	-3.352051E-1	4.267883E-2	-3.350067E-1	-8.338623E-1	-6.027222E-2
2.344800E+10	-8.595276E-1	-2.677612E-1	3.965759E-2	-3.334351E-1	3.976440E-2	-3.343506E-1	-8.356628E-1	-4.379272E-2
2.367250E+10	-8.648987E-1	-2.577820E-1	3.500366E-2	-3.327637E-1	3.622437E-2	-3.320465E-1	-8.328857E-1	-3.027344E-2
2.389700E+10	-8.647766E-1	-2.535095E-1	3.170776E-2	-3.309937E-1	2.919006E-2	-3.318634E-1	-8.356934E-1	-2.163696E-2
2.412150E+10	-8.685608E-1	-2.478027E-1	2.726746E-2	-3.311157E-1	2.734375E-2	-3.303375E-1	-8.343811E-1	-3.479004E-3
2.434600E+10	-8.697510E-1	-2.405090E-1	2.517700E-2	-3.288727E-1	2.401733E-2	-3.287048E-1	-8.324280E-1	8.911133E-3
2.457050E+10	-8.720703E-1	-2.341919E-1	2.078247E-2	-3.303528E-1	1.815796E-2	-3.282166E-1	-8.337402E-1	1.660156E-2
2.479500E+10	-8.771667E-1	-2.261963E-1	1.333618E-2	-3.282928E-1	1.374817E-2	-3.262939E-1	-8.304443E-1	3.500366E-2
2.501950E+10	-8.793945E-1	-2.199707E-1	8.728027E-3	-3.263702E-1	9.017944E-3	-3.251953E-1	-8.258972E-1	4.431152E-2
2.524400E+10	-8.817139E-1	-2.132263E-1	4.486084E-3	-3.241730E-1	4.913330E-3	-3.234711E-1	-8.260803E-1	5.191040E-2
2.546850E+10	-8.849182E-1	-2.014160E-1	6.561279E-4	-3.203735E-1	2.700806E-3	-3.215179E-1	-8.239746E-1	6.542969E-2
2.569300E+10	-8.868713E-1	-1.975708E-1	-2.853394E-3	-3.195953E-1	-2.899170E-3	-3.194122E-1	-8.213501E-1	7.553101E-2
2.591750E+10	-8.910522E-1	-1.876831E-1	-3.646851E-3	-3.187103E-1	-6.866455E-3	-3.186340E-1	-8.215637E-1	8.489990E-2
2.614200E+10	-8.900452E-1	-1.802673E-1	-8.544922E-3	-3.155670E-1	-1.026917E-2	-3.162384E-1	-8.202515E-1	1.008301E-1
2.636650E+10	-8.951416E-1	-1.751709E-1	-1.245117E-2	-3.152313E-1	-1.318359E-2	-3.162537E-1	-8.191223E-1	1.134338E-1
2.659100E+10	-8.935242E-1	-1.673889E-1	-1.705933E-2	-3.150940E-1	-1.679993E-2	-3.144379E-1	-8.141174E-1	1.227722E-1
2.681550E+10	-8.960266E-1	-1.617737E-1	-1.936340E-2	-3.126068E-1	-2.038574E-2	-3.133850E-1	-8.154297E-1	1.343384E-1
2.704000E+10	-8.979492E-1	-1.536255E-1	-2.491760E-2	-3.097992E-1	-2.339172E-2	-3.128204E-1	-8.123169E-1	1.516418E-1
2.726450E+10	-8.992615E-1	-1.467590E-1	-2.766418E-2	-3.090210E-1	-2.906799E-2	-3.096161E-1	-8.037109E-1	1.573792E-1
2.748900E+10	-9.017029E-1	-1.394348E-1	-3.269958E-2	-3.081818E-1	-3.202820E-2	-3.091278E-1	-8.024292E-1	1.687622E-1
2.771350E+10	-9.037476E-1	-1.335449E-1	-3.793335E-2	-3.084564E-1	-3.811646E-2	-3.080597E-1	-7.996216E-1	1.812744E-1
2.793800E+10	-9.042969E-1	-1.262207E-1	-3.616333E-2	-3.075867E-1	-3.768921E-2	-3.020782E-1	-7.931519E-1	1.874084E-1
2.816250E+10	-9.078369E-1	-1.194763E-1	-4.264832E-2	-3.042297E-1	-4.310608E-2	-3.019409E-1	-7.902222E-1	2.022095E-1
2.838700E+10	-9.068298E-1	-1.127319E-1	-4.627991E-2	-2.997589E-1	-4.843140E-2	-3.006287E-1	-7.873840E-1	2.186584E-1
2.861150E+10	-9.096375E-1	-1.049805E-1	-5.364990E-2	-3.002625E-1	-5.197144E-2	-3.002319E-1	-7.806702E-1	2.208252E-1
2.883600E+10	-9.133911E-1	-9.854126E-2	-5.532837E-2	-2.974243E-1	-5.451965E-2	-2.969666E-1	-7.760925E-1	2.310181E-1
2.906050E+10	-9.117126E-1	-8.850098E-2	-5.706787E-2	-2.954865E-1	-5.593872E-2	-2.952576E-1	-7.720642E-1	2.453003E-1
2.928500E+10	-9.128723E-1	-8.258057E-2	-6.013489E-2	-2.919617E-1	-6.080627E-2	-2.934418E-1	-7.666626E-1	2.513733E-1
2.950950E+10	-9.146118E-1	-7.489014E-2	-6.138611E-2	-2.918091E-1	-6.260681E-2	-2.901917E-1	-7.657166E-1	2.614136E-1
2.973400E+10	-9.149780E-1	-7.073975E-2	-6.588745E-2	-2.895966E-1	-6.382751E-2	-2.892761E-1	-7.603149E-1	2.753906E-1
2.995850E+10	-9.138489E-1	-6.121826E-2	-6.857300E-2	-2.877350E-1	-6.838989E-2	-2.873840E-1	-7.575073E-1	2.846069E-1
3.018300E+10	-9.155884E-1	-5.517578E-2	-6.976318E-2	-2.840881E-1	-7.394409E-2	-2.824554E-1	-7.530212E-1	2.995911E-1
3.040750E+10	-9.178467E-1	-4.852295E-2	-7.395935E-2	-2.851105E-1	-7.351685E-2	-2.849731E-1	-7.437134E-1	3.084717E-1
3.063200E+10	-9.163818E-1	-4.138184E-2	-7.647705E-2	-2.845917E-1	-7.684326E-2	-2.830811E-1	-7.408752E-1	3.204041E-1
3.085650E+10	-9.164429E-1	-3.533936E-2	-7.998657E-2	-2.815399E-1	-8.248901E-2	-2.848053E-1	-7.320862E-1	3.322144E-1
3.108100E+10	-9.161682E-1	-2.819824E-2	-8.460999E-2	-2.795563E-1	-8.157349E-2	-2.771301E-1	-7.263184E-1	3.391113E-1
3.130550E+10	-9.173584E-1	-2.450562E-2	-8.709717E-2	-2.776031E-1	-8.673096E-2	-2.778320E-1	-7.142944E-1	3.522949E-1
3.153000E+10	-9.215698E-1	-1.477051E-2	-9.098816E-2	-2.756195E-1	-8.738708E-2	-2.733917E-1	-7.093811E-1	3.604431E-1
3.175450E+10	-9.186401E-1	-9.429932E-3	-9.211731E-2	-2.737122E-1	-9.265137E-2	-2.733154E-1	-7.020569E-1	3.737488E-1
3.197900E+10	-9.234619E-1	-3.021240E-3	-9.648132E-2	-2.727966E-1	-9.770203E-2	-2.717590E-1	-6.907654E-1	3.821411E-1
3.220350E+10	-9.187927E-1	4.241943E-3	-9.750366E-2	-2.720032E-1	-1.005554E-1	-2.691345E-1	-6.893616E-1	3.969116E-1
3.242800E+10	-9.220886E-1	8.453369E-3	-1.015167E-1	-2.688599E-1	-1.022491E-1	-2.668610E-1	-6.756592E-1	4.034729E-1
3.265250E+10	-9.233704E-1	1.995850E-2	-1.042480E-1	-2.650299E-1	-1.068726E-1	-2.640991E-1	-6.722717E-1	4.103699E-1
3.287700E+10	-9.262390E-1	2.566528E-2	-1.059418E-1	-2.623901E-1	-1.091766E-1	-2.595367E-1	-6.649170E-1	4.164429E-1
3.310150E+10	-9.224854E-1	3.164673E-2	-1.128082E-1	-2.553558E-1	-1.129761E-1	-2.593079E-1	-6.555786E-1	4.244995E-1
3.332600E+10	-9.221497E-1	3.814697E-2	-1.112366E-1	-2.556000E-1	-1.102600E-1	-2.578278E-1	-6.467896E-1	4.270630E-1
3.355050E+10	-9.202881E-1	4.379272E-2	-1.117859E-1	-2.563171E-1	-1.128082E-1	-2.514648E-1	-6.374207E-1	4.420166E-1
3.377500E+10	-9.197083E-1	5.096436E-2	-1.160202E-1	-2.488861E-1	-1.161652E-1	-2.525024E-1	-6.284485E-1	4.440002E-1
3.399950E+10	-9.200134E-1	5.825806E-2	-1.189880E-1	-2.531281E-1	-1.183014E-1	-2.516632E-1	-6.296387E-1	4.523926E-1
3.422400E+10	-9.215698E-1	6.872559E-2	-1.180115E-1	-2.481537E-1	-1.213531E-1	-2.496338E-1	-6.201477E-1	4.680481E-1
3.444850E+10	-9.205322E-1	7.312012E-2	-1.266327E-1	-2.467041E-1	-1.233597E-1	-2.424088E-1	-6.036987E-1	4.763184E-1
3.467300E+10	-9.194946E-1	7.571411E-2	-1.223602E-1	-2.441483E-1	-1.262360E-1	-2.467575E-1	-6.016235E-1	4.868164E-1
3.489750E+10	-9.183350E-1	8.303833E-2	-1.296463E-1	-2.451248E-1	-1.307220E-1	-2.426910E-1	-5.888672E-1	4.980774E-1
3.512200E+10	-9.181519E-1	9.066772E-2	-1.350327E-1	-2.416763E-1	-1.319199E-1	-2.446671E-1	-5.755615E-1	4.993591E-1
3.534650E+10	-9.163818E-1	9.542847E-2	-1.304092E-1	-2.395706E-1	-1.338196E-1	-2.434235E-1	-5.736389E-1	5.110168E-1
3.557100E+10	-9.179077E-1	9.951782E-2	-1.375580E-1	-2.346725E-1	-1.367340E-1	-2.390900E-1	-5.590210E-1	5.207825E-1
3.579550E+10	-9.149170E-1	1.065369E-1	-1.418686E-1	-2.363968E-1	-1.413574E-1	-2.379456E-1	-5.426941E-1	5.275269E-1
3.602000E+10	-9.193420E-1	1.173401E-1	-1.417465E-1	-2.355042E-1	-1.418915E-1	-2.336731E-1	-5.383606E-1	5.310059E-1
3.624450E+10	-9.123230E-1	1.217651E-1	-1.433716E-1	-2.338638E-1	-1.420364E-1	-2.321548E-1	-5.286560E-1	5.353088E-1
3.646900E+10	-9.165955E-1	1.318359E-1	-1.467361E-1	-2.271423E-1	-1.457520E-1	-2.277985E-1	-5.150452E-1	5.461731E-1
3.669350E+10	-9.111023E-1	1.352844E-1	-1.474991E-1	-2.271500E-1	-1.500931E-1	-2.253036E-1	-5.032349E-1	5.523071E-1
3.691800E+10	-9.106140E-1	1.418152E-1	-1.545715E-1	-2.268066E-1	-1.507111E-1	-2.272263E-1	-4.919128E-1	5.551453E-1
3.714250E+10	-9.111328E-1	1.456604E-1	-1.541367E-1	-2.236023E-1	-1.521149E-1	-2.208862E-1	-4.754944E-1	5.630188E-1
3.736700E+10	-9.085083E-1	1.507263E-1	-1.618805E-1	-2.147522E-1	-1.577301E-1	-2.176590E-1	-4.662781E-1	5.655212E-1
3.759150E+10	-9.058228E-1	1.606140E-1	-1.585236E-1	-2.151184E-1	-1.584320E-1	-2.128754E-1	-4.545898E-1	5.780945E-1
3.781600E+10	-9.058228E-1	1.651611E-1	-1.624985E-1	-2.079544E-1	-1.631088E-1	-2.179642E-1	-4.450073E-1	5.795593E-1
3.804050E+10	-9.032288E-1	1.701050E-1	-1.643295E-1	-2.082367E-1	-1.635361E-1	-2.159424E-1	-4.287109E-1	5.893250E-1
3.826500E+10	-9.025879E-1	1.816711E-1	-1.659622E-1	-2.118988E-1	-1.652451E-1	-2.107697E-1	-4.164734E-1	5.918884E-1
3.848950E+10	-9.027710E-1	1.798096E-1	-1.707993E-1	-2.075500E-1	-1.720810E-1	-2.093964E-1	-4.010620E-1	5.960083E-1
3.871400E+10	-8.986511E-1	1.909485E-1	-1.736908E-1	-2.047424E-1	-1.752548E-1	-2.057266E-1	-3.818054E-1	5.972595E-1
3.893850E+10	-9.020386E-1	1.968994E-1	-1.728363E-1	-2.029343E-1	-1.743164E-1	-2.055740E-1	-3.703918E-1	5.953979E-1
