!Date: 10/28/2005, 12:46 PM

!Vgs = -6.000000E+0
!Vds = 1.750000E+1
!Ig = -1.101000E-4
!Id = 5.506800E-3

# HZ S RI R 50
1.000000E+8	9.900513E-1	-4.196167E-2	-3.918152E-1	1.754761E-3	8.554459E-4	9.892941E-3	9.296265E-1	-1.724243E-2
3.245000E+8	9.763184E-1	-1.159668E-1	-3.991699E-1	5.972290E-2	5.146027E-3	2.766991E-2	9.009399E-1	-8.938599E-2
5.490000E+8	9.597168E-1	-1.884460E-1	-3.905945E-1	1.086884E-1	9.901047E-3	4.519463E-2	8.936462E-1	-1.379700E-1
7.735000E+8	9.382019E-1	-2.590027E-1	-3.742828E-1	1.551208E-1	1.780701E-2	6.076622E-2	8.772888E-1	-1.875916E-1
9.980000E+8	9.131775E-1	-3.238831E-1	-3.516998E-1	1.962891E-1	2.674103E-2	7.556534E-2	8.593140E-1	-2.321472E-1
1.222500E+9	8.830872E-1	-3.868713E-1	-3.268280E-1	2.343445E-1	3.683090E-2	8.870697E-2	8.406982E-1	-2.775269E-1
1.447000E+9	8.497925E-1	-4.466858E-1	-2.991028E-1	2.675934E-1	4.759979E-2	1.005707E-1	8.201294E-1	-3.202820E-1
1.671500E+9	8.128662E-1	-5.021973E-1	-2.692108E-1	2.978058E-1	5.914688E-2	1.121483E-1	7.964783E-1	-3.599854E-1
1.896000E+9	7.729797E-1	-5.524597E-1	-2.371216E-1	3.253326E-1	7.366180E-2	1.225624E-1	7.749939E-1	-3.960876E-1
2.120500E+9	7.316589E-1	-6.000061E-1	-2.030334E-1	3.481750E-1	8.868408E-2	1.300354E-1	7.516785E-1	-4.336548E-1
2.345000E+9	6.860657E-1	-6.437073E-1	-1.675262E-1	3.674774E-1	1.046829E-1	1.351242E-1	7.253723E-1	-4.683228E-1
2.569500E+9	6.420898E-1	-6.800232E-1	-1.304321E-1	3.810272E-1	1.191177E-1	1.387482E-1	6.993713E-1	-5.015564E-1
2.794000E+9	5.960999E-1	-7.149353E-1	-9.588623E-2	3.933868E-1	1.342621E-1	1.406555E-1	6.714478E-1	-5.322571E-1
3.018500E+9	5.503540E-1	-7.448120E-1	-6.069946E-2	3.997650E-1	1.490479E-1	1.414032E-1	6.413879E-1	-5.614624E-1
3.243000E+9	5.038452E-1	-7.717896E-1	-2.645874E-2	4.051971E-1	1.633453E-1	1.403961E-1	6.111450E-1	-5.891418E-1
3.467500E+9	4.577026E-1	-7.953186E-1	6.881714E-3	4.074402E-1	1.765137E-1	1.391602E-1	5.815125E-1	-6.117249E-1
3.692000E+9	4.122620E-1	-8.151245E-1	3.959656E-2	4.066010E-1	1.905823E-1	1.363144E-1	5.501709E-1	-6.365662E-1
3.916500E+9	3.659668E-1	-8.314819E-1	7.148743E-2	4.039154E-1	2.028656E-1	1.321716E-1	5.188293E-1	-6.566467E-1
4.141000E+9	3.231201E-1	-8.457947E-1	1.016998E-1	3.984375E-1	2.153473E-1	1.273727E-1	4.887390E-1	-6.741943E-1
4.365500E+9	2.811584E-1	-8.578491E-1	1.302490E-1	3.905487E-1	2.269592E-1	1.213989E-1	4.593201E-1	-6.927185E-1
4.590000E+9	2.377625E-1	-8.677063E-1	1.568146E-1	3.814392E-1	2.381668E-1	1.153412E-1	4.280396E-1	-7.074280E-1
4.814500E+9	1.973572E-1	-8.744507E-1	1.822205E-1	3.700409E-1	2.483902E-1	1.079178E-1	3.986206E-1	-7.228699E-1
5.039000E+9	1.567383E-1	-8.799438E-1	2.067261E-1	3.584747E-1	2.583008E-1	9.953308E-2	3.679810E-1	-7.376099E-1
5.263500E+9	1.178894E-1	-8.822937E-1	2.288361E-1	3.450317E-1	2.668915E-1	9.146118E-2	3.372192E-1	-7.484436E-1
5.488000E+9	8.135986E-2	-8.839111E-1	2.489929E-1	3.319702E-1	2.748260E-1	8.300781E-2	3.104553E-1	-7.586670E-1
5.712500E+9	4.519653E-2	-8.839417E-1	2.684631E-1	3.158569E-1	2.822418E-1	7.319641E-2	2.812195E-1	-7.684021E-1
5.937000E+9	1.098633E-2	-8.821106E-1	2.863159E-1	2.999878E-1	2.892914E-1	6.343079E-2	2.517395E-1	-7.775879E-1
6.161500E+9	-2.136230E-2	-8.807678E-1	3.015747E-1	2.832794E-1	2.946472E-1	5.377197E-2	2.244568E-1	-7.854919E-1
6.386000E+9	-5.520630E-2	-8.784790E-1	3.153229E-1	2.675476E-1	2.993011E-1	4.345703E-2	1.950073E-1	-7.922058E-1
6.610500E+9	-8.438110E-2	-8.739624E-1	3.289642E-1	2.506409E-1	3.036499E-1	3.363037E-2	1.656189E-1	-7.991028E-1
6.835000E+9	-1.145325E-1	-8.698425E-1	3.408661E-1	2.351074E-1	3.076630E-1	2.383423E-2	1.383057E-1	-8.018494E-1
7.059500E+9	-1.413574E-1	-8.632202E-1	3.502960E-1	2.167664E-1	3.094025E-1	1.423645E-2	1.129456E-1	-8.055115E-1
7.284000E+9	-1.699524E-1	-8.570557E-1	3.598328E-1	1.990051E-1	3.121796E-1	4.531860E-3	8.438110E-2	-8.094482E-1
7.508500E+9	-1.957703E-1	-8.505554E-1	3.683014E-1	1.837463E-1	3.141785E-1	-5.813599E-3	5.761719E-2	-8.090210E-1
7.733000E+9	-2.209167E-1	-8.425293E-1	3.742523E-1	1.646423E-1	3.146515E-1	-1.531982E-2	3.399658E-2	-8.117065E-1
7.957500E+9	-2.454529E-1	-8.354187E-1	3.805084E-1	1.484222E-1	3.159332E-1	-2.394104E-2	6.317139E-3	-8.126221E-1
8.182000E+9	-2.680664E-1	-8.276672E-1	3.852844E-1	1.316681E-1	3.163452E-1	-3.401184E-2	-1.843262E-2	-8.121033E-1
8.406500E+9	-2.909241E-1	-8.199463E-1	3.883209E-1	1.160278E-1	3.153229E-1	-4.290771E-2	-4.370117E-2	-8.103943E-1
8.631000E+9	-3.128967E-1	-8.104858E-1	3.921814E-1	1.006012E-1	3.154297E-1	-5.259705E-2	-6.848145E-2	-8.099365E-1
8.855500E+9	-3.326111E-1	-8.024292E-1	3.942566E-1	8.399963E-2	3.144989E-1	-6.169128E-2	-9.216309E-2	-8.074951E-1
9.080001E+9	-3.519287E-1	-7.947998E-1	3.957214E-1	6.857300E-2	3.126984E-1	-6.968689E-2	-1.142273E-1	-8.037415E-1
9.304500E+9	-3.725586E-1	-7.842407E-1	3.960876E-1	5.361938E-2	3.107605E-1	-7.826233E-2	-1.390076E-1	-8.009644E-1
9.529000E+9	-3.908081E-1	-7.751770E-1	3.964844E-1	3.977966E-2	3.095856E-1	-8.630371E-2	-1.608582E-1	-7.953491E-1
9.753500E+9	-4.095459E-1	-7.669983E-1	3.958740E-1	2.540588E-2	3.070984E-1	-9.400940E-2	-1.816101E-1	-7.908020E-1
9.978000E+9	-4.252319E-1	-7.570496E-1	3.954010E-1	1.351929E-2	3.048096E-1	-1.009369E-1	-2.025146E-1	-7.866821E-1
1.020250E+10	-4.418335E-1	-7.482910E-1	3.936157E-1	-1.449585E-3	3.021393E-1	-1.098328E-1	-2.247925E-1	-7.803650E-1
1.042700E+10	-4.588318E-1	-7.377930E-1	3.920135E-1	-1.510620E-2	2.989655E-1	-1.158752E-1	-2.440796E-1	-7.757568E-1
1.065150E+10	-4.733582E-1	-7.285461E-1	3.885498E-1	-2.622986E-2	2.950439E-1	-1.239777E-1	-2.636414E-1	-7.697449E-1
1.087600E+10	-4.893494E-1	-7.184753E-1	3.856964E-1	-3.831482E-2	2.921448E-1	-1.300201E-1	-2.829895E-1	-7.631531E-1
1.110050E+10	-5.031433E-1	-7.089844E-1	3.826904E-1	-4.981995E-2	2.884521E-1	-1.368256E-1	-3.037720E-1	-7.568054E-1
1.132500E+10	-5.172424E-1	-6.992187E-1	3.793640E-1	-6.155396E-2	2.837219E-1	-1.429596E-1	-3.209229E-1	-7.503967E-1
1.154950E+10	-5.307617E-1	-6.903381E-1	3.744812E-1	-7.243347E-2	2.803192E-1	-1.488953E-1	-3.424072E-1	-7.416382E-1
1.177400E+10	-5.433350E-1	-6.803894E-1	3.710937E-1	-8.247375E-2	2.764740E-1	-1.549530E-1	-3.587646E-1	-7.324219E-1
1.199850E+10	-5.565491E-1	-6.710815E-1	3.677979E-1	-9.387207E-2	2.721558E-1	-1.606598E-1	-3.741150E-1	-7.274475E-1
1.222300E+10	-5.675964E-1	-6.618652E-1	3.628540E-1	-1.027069E-1	2.679291E-1	-1.663818E-1	-3.946838E-1	-7.179565E-1
1.244750E+10	-5.794067E-1	-6.510925E-1	3.574219E-1	-1.120300E-1	2.643433E-1	-1.713715E-1	-4.108582E-1	-7.073975E-1
1.267200E+10	-5.912476E-1	-6.423035E-1	3.532410E-1	-1.204071E-1	2.594604E-1	-1.775208E-1	-4.257202E-1	-7.021790E-1
1.289650E+10	-6.014404E-1	-6.329651E-1	3.473053E-1	-1.291199E-1	2.548370E-1	-1.805573E-1	-4.429932E-1	-6.914978E-1
1.312100E+10	-6.123352E-1	-6.232605E-1	3.419952E-1	-1.381378E-1	2.514191E-1	-1.862946E-1	-4.589233E-1	-6.798706E-1
1.334550E+10	-6.225586E-1	-6.141357E-1	3.372345E-1	-1.455688E-1	2.463913E-1	-1.901627E-1	-4.708252E-1	-6.741028E-1
1.357000E+10	-6.333618E-1	-6.027832E-1	3.315582E-1	-1.535797E-1	2.401428E-1	-1.952286E-1	-4.883728E-1	-6.641541E-1
1.379450E+10	-6.416016E-1	-5.963745E-1	3.253479E-1	-1.606750E-1	2.373734E-1	-1.983871E-1	-5.035095E-1	-6.515198E-1
1.401900E+10	-6.499939E-1	-5.861816E-1	3.207550E-1	-1.670532E-1	2.331314E-1	-2.017593E-1	-5.139160E-1	-6.427612E-1
1.424350E+10	-6.597900E-1	-5.782471E-1	3.134003E-1	-1.742554E-1	2.271652E-1	-2.074890E-1	-5.296936E-1	-6.336365E-1
1.446800E+10	-6.668701E-1	-5.679321E-1	3.082886E-1	-1.820831E-1	2.225189E-1	-2.105179E-1	-5.433350E-1	-6.194458E-1
1.469250E+10	-6.763916E-1	-5.587769E-1	3.023529E-1	-1.859436E-1	2.177734E-1	-2.136536E-1	-5.530396E-1	-6.111755E-1
1.491700E+10	-6.844788E-1	-5.501709E-1	2.962036E-1	-1.936035E-1	2.134171E-1	-2.165375E-1	-5.690308E-1	-6.023865E-1
1.514150E+10	-6.922302E-1	-5.406799E-1	2.891541E-1	-1.983490E-1	2.074585E-1	-2.192078E-1	-5.809021E-1	-5.878601E-1
1.536600E+10	-7.016602E-1	-5.313721E-1	2.829132E-1	-2.036591E-1	2.035217E-1	-2.228470E-1	-5.904541E-1	-5.774536E-1
1.559050E+10	-7.080688E-1	-5.230103E-1	2.770691E-1	-2.082825E-1	1.982040E-1	-2.249832E-1	-6.042480E-1	-5.690002E-1
1.581500E+10	-7.158813E-1	-5.149231E-1	2.706451E-1	-2.137146E-1	1.934357E-1	-2.280350E-1	-6.174011E-1	-5.546265E-1
1.603950E+10	-7.224426E-1	-5.054932E-1	2.653351E-1	-2.188568E-1	1.893845E-1	-2.307587E-1	-6.245422E-1	-5.457764E-1
1.626400E+10	-7.295837E-1	-4.971008E-1	2.584991E-1	-2.221680E-1	1.831512E-1	-2.323303E-1	-6.374817E-1	-5.340271E-1
1.648850E+10	-7.359009E-1	-4.873962E-1	2.524414E-1	-2.272797E-1	1.784058E-1	-2.346802E-1	-6.484070E-1	-5.195007E-1
1.671300E+10	-7.428894E-1	-4.782715E-1	2.461014E-1	-2.302856E-1	1.741791E-1	-2.367401E-1	-6.567078E-1	-5.108337E-1
1.693750E+10	-7.487488E-1	-4.717102E-1	2.403183E-1	-2.343445E-1	1.688004E-1	-2.386627E-1	-6.677856E-1	-4.982300E-1
1.716200E+10	-7.547607E-1	-4.622803E-1	2.338181E-1	-2.368469E-1	1.651993E-1	-2.395935E-1	-6.766052E-1	-4.830017E-1
1.738650E+10	-7.612610E-1	-4.543457E-1	2.273178E-1	-2.419357E-1	1.584702E-1	-2.416077E-1	-6.843262E-1	-4.731140E-1
1.761100E+10	-7.665405E-1	-4.455261E-1	2.210312E-1	-2.436447E-1	1.548691E-1	-2.417908E-1	-6.938782E-1	-4.633484E-1
1.783550E+10	-7.750244E-1	-4.375305E-1	2.161407E-1	-2.460937E-1	1.506653E-1	-2.442398E-1	-7.030334E-1	-4.478149E-1
1.806000E+10	-7.794495E-1	-4.293518E-1	2.093964E-1	-2.498703E-1	1.459122E-1	-2.461014E-1	-7.100525E-1	-4.371338E-1
1.828450E+10	-7.836304E-1	-4.212036E-1	2.035217E-1	-2.522583E-1	1.410141E-1	-2.475281E-1	-7.175598E-1	-4.278870E-1
1.850900E+10	-7.891846E-1	-4.121094E-1	1.985779E-1	-2.535553E-1	1.375122E-1	-2.487640E-1	-7.271729E-1	-4.130554E-1
1.873350E+10	-7.967529E-1	-4.041748E-1	1.917114E-1	-2.570648E-1	1.324844E-1	-2.488251E-1	-7.328186E-1	-3.997498E-1
1.895800E+10	-7.989807E-1	-3.956299E-1	1.868591E-1	-2.594757E-1	1.280823E-1	-2.496719E-1	-7.398376E-1	-3.900146E-1
1.918250E+10	-8.043518E-1	-3.881531E-1	1.798553E-1	-2.600403E-1	1.232758E-1	-2.500916E-1	-7.474670E-1	-3.757324E-1
1.940700E+10	-8.074951E-1	-3.799133E-1	1.725922E-1	-2.635345E-1	1.171417E-1	-2.503510E-1	-7.534180E-1	-3.598938E-1
1.963150E+10	-8.140564E-1	-3.710327E-1	1.677246E-1	-2.649231E-1	1.138916E-1	-2.529297E-1	-7.579651E-1	-3.525696E-1
1.985600E+10	-8.165588E-1	-3.635559E-1	1.631775E-1	-2.652435E-1	1.087036E-1	-2.526855E-1	-7.637024E-1	-3.396301E-1
2.008050E+10	-8.223267E-1	-3.565674E-1	1.576385E-1	-2.688599E-1	1.057892E-1	-2.534180E-1	-7.702942E-1	-3.238220E-1
2.030500E+10	-8.259888E-1	-3.478699E-1	1.531067E-1	-2.681274E-1	1.008606E-1	-2.532959E-1	-7.722168E-1	-3.136902E-1
2.052950E+10	-8.294678E-1	-3.405457E-1	1.455688E-1	-2.688293E-1	9.692383E-2	-2.538605E-1	-7.794189E-1	-3.042603E-1
2.075400E+10	-8.329163E-1	-3.334961E-1	1.418610E-1	-2.701416E-1	9.246826E-2	-2.543945E-1	-7.854004E-1	-2.883606E-1
2.097850E+10	-8.370972E-1	-3.251038E-1	1.339264E-1	-2.709351E-1	8.871460E-2	-2.539825E-1	-7.877502E-1	-2.763672E-1
2.120300E+10	-8.406982E-1	-3.176880E-1	1.293182E-1	-2.708588E-1	8.454895E-2	-2.549896E-1	-7.927551E-1	-2.687988E-1
2.142750E+10	-8.453674E-1	-3.098755E-1	1.260681E-1	-2.697906E-1	8.151245E-2	-2.543182E-1	-7.993774E-1	-2.526245E-1
2.165200E+10	-8.498230E-1	-2.992249E-1	1.180420E-1	-2.726593E-1	7.681274E-2	-2.539520E-1	-8.027649E-1	-2.406311E-1
2.187650E+10	-8.516235E-1	-2.926331E-1	1.163635E-1	-2.721710E-1	7.267761E-2	-2.542114E-1	-8.072510E-1	-2.312012E-1
2.210100E+10	-8.555298E-1	-2.849426E-1	1.098633E-1	-2.737122E-1	6.701660E-2	-2.527771E-1	-8.129272E-1	-2.142029E-1
2.232550E+10	-8.581543E-1	-2.783508E-1	1.045532E-1	-2.755127E-1	6.547546E-2	-2.538757E-1	-8.137512E-1	-1.985779E-1
2.255000E+10	-8.626709E-1	-2.695923E-1	1.005554E-1	-2.746429E-1	6.175232E-2	-2.514496E-1	-8.172913E-1	-1.912231E-1
2.277450E+10	-8.634949E-1	-2.612610E-1	9.637451E-2	-2.734070E-1	5.586243E-2	-2.536011E-1	-8.217468E-1	-1.761475E-1
2.299900E+10	-8.671875E-1	-2.546692E-1	9.226990E-2	-2.745209E-1	5.456543E-2	-2.525940E-1	-8.197327E-1	-1.642151E-1
2.322350E+10	-8.679810E-1	-2.465210E-1	8.630371E-2	-2.742615E-1	5.084229E-2	-2.527466E-1	-8.260193E-1	-1.522522E-1
2.344800E+10	-8.694763E-1	-2.411499E-1	8.299255E-2	-2.738800E-1	4.832458E-2	-2.524261E-1	-8.273621E-1	-1.366577E-1
2.367250E+10	-8.742065E-1	-2.309265E-1	7.641602E-2	-2.734528E-1	4.348755E-2	-2.550049E-1	-8.263245E-1	-1.235962E-1
2.389700E+10	-8.748474E-1	-2.242432E-1	6.983948E-2	-2.747498E-1	3.817749E-2	-2.532959E-1	-8.315125E-1	-1.119080E-1
2.412150E+10	-8.797302E-1	-2.178650E-1	6.695557E-2	-2.736511E-1	3.468323E-2	-2.520142E-1	-8.307495E-1	-9.484863E-2
2.434600E+10	-8.794861E-1	-2.115479E-1	6.268311E-2	-2.733154E-1	3.352356E-2	-2.507019E-1	-8.293152E-1	-8.456421E-2
2.457050E+10	-8.830566E-1	-2.051392E-1	5.998230E-2	-2.723846E-1	2.770996E-2	-2.499542E-1	-8.326416E-1	-7.302856E-2
2.479500E+10	-8.857727E-1	-1.957092E-1	5.386353E-2	-2.731934E-1	2.360535E-2	-2.505646E-1	-8.310547E-1	-5.822754E-2
2.501950E+10	-8.862610E-1	-1.903076E-1	4.949951E-2	-2.736969E-1	2.165222E-2	-2.501526E-1	-8.284912E-1	-4.898071E-2
2.524400E+10	-8.905029E-1	-1.844177E-1	4.170227E-2	-2.727509E-1	1.606750E-2	-2.491302E-1	-8.300781E-1	-3.802490E-2
2.546850E+10	-8.913879E-1	-1.756592E-1	3.939819E-2	-2.720337E-1	1.435852E-2	-2.489090E-1	-8.281555E-1	-2.304077E-2
2.569300E+10	-8.913269E-1	-1.690979E-1	3.865051E-2	-2.697296E-1	1.222992E-2	-2.440948E-1	-8.300171E-1	-1.522827E-2
2.591750E+10	-8.950195E-1	-1.611023E-1	3.176880E-2	-2.704163E-1	8.506775E-3	-2.453232E-1	-8.293762E-1	-2.655029E-3
2.614200E+10	-8.975220E-1	-1.523437E-1	2.896118E-2	-2.673340E-1	4.570007E-3	-2.439728E-1	-8.304443E-1	1.202393E-2
2.636650E+10	-9.013062E-1	-1.478271E-1	2.412415E-2	-2.677612E-1	1.625061E-3	-2.457581E-1	-8.304443E-1	2.542114E-2
2.659100E+10	-8.987427E-1	-1.408081E-1	2.119446E-2	-2.674866E-1	-9.918213E-4	-2.415924E-1	-8.250122E-1	3.579712E-2
2.681550E+10	-9.003906E-1	-1.354980E-1	1.896667E-2	-2.657776E-1	-2.906799E-3	-2.424774E-1	-8.309021E-1	4.684448E-2
2.704000E+10	-9.011230E-1	-1.261902E-1	1.435852E-2	-2.632751E-1	-6.118774E-3	-2.414627E-1	-8.281860E-1	6.646729E-2
2.726450E+10	-9.025269E-1	-1.204224E-1	9.552002E-3	-2.654114E-1	-1.049805E-2	-2.404251E-1	-8.186035E-1	7.684326E-2
2.748900E+10	-9.064941E-1	-1.137390E-1	6.225586E-3	-2.627563E-1	-1.080322E-2	-2.421265E-1	-8.208618E-1	8.511353E-2
2.771350E+10	-9.062805E-1	-1.079407E-1	1.586914E-3	-2.616882E-1	-1.700592E-2	-2.412796E-1	-8.165894E-1	9.524536E-2
2.793800E+10	-9.059143E-1	-1.001587E-1	-1.098633E-3	-2.615662E-1	-1.902008E-2	-2.388535E-1	-8.152466E-1	1.077576E-1
2.816250E+10	-9.084167E-1	-9.307861E-2	-8.087158E-3	-2.616577E-1	-2.188110E-2	-2.378159E-1	-8.143311E-1	1.203918E-1
2.838700E+10	-9.092712E-1	-8.609009E-2	-1.057434E-2	-2.576294E-1	-2.694702E-2	-2.348251E-1	-8.095398E-1	1.310425E-1
2.861150E+10	-9.100647E-1	-8.096313E-2	-1.559448E-2	-2.567749E-1	-2.975464E-2	-2.356720E-1	-8.044128E-1	1.457825E-1
2.883600E+10	-9.114990E-1	-7.122803E-2	-1.446533E-2	-2.581940E-1	-3.169250E-2	-2.337418E-1	-8.029785E-1	1.504517E-1
2.906050E+10	-9.132080E-1	-6.765747E-2	-1.826477E-2	-2.565765E-1	-3.647614E-2	-2.316360E-1	-7.990723E-1	1.635132E-1
2.928500E+10	-9.140015E-1	-6.091309E-2	-2.301025E-2	-2.520142E-1	-3.961945E-2	-2.268829E-1	-7.935791E-1	1.726685E-1
2.950950E+10	-9.146729E-1	-5.239868E-2	-2.597046E-2	-2.502594E-1	-3.929138E-2	-2.275620E-1	-7.951965E-1	1.821594E-1
2.973400E+10	-9.150085E-1	-4.608154E-2	-2.917480E-2	-2.512817E-1	-4.132843E-2	-2.271347E-1	-7.940063E-1	1.967773E-1
2.995850E+10	-9.125061E-1	-3.713989E-2	-3.465271E-2	-2.484818E-1	-4.557800E-2	-2.269363E-1	-7.909546E-1	2.080994E-1
3.018300E+10	-9.142761E-1	-3.240967E-2	-3.396606E-2	-2.503662E-1	-4.594421E-2	-2.268906E-1	-7.861023E-1	2.236633E-1
3.040750E+10	-9.153137E-1	-2.618408E-2	-3.947449E-2	-2.459869E-1	-4.871368E-2	-2.276688E-1	-7.771606E-1	2.337646E-1
3.063200E+10	-9.141235E-1	-1.739502E-2	-4.439545E-2	-2.453156E-1	-5.231476E-2	-2.237473E-1	-7.742920E-1	2.433777E-1
3.085650E+10	-9.138489E-1	-1.190186E-2	-4.490662E-2	-2.471695E-1	-5.422974E-2	-2.219238E-1	-7.675781E-1	2.569580E-1
3.108100E+10	-9.161377E-1	-6.134033E-3	-5.270386E-2	-2.436523E-1	-5.384827E-2	-2.194824E-1	-7.646790E-1	2.667542E-1
3.130550E+10	-9.136658E-1	3.784180E-3	-5.186462E-2	-2.439957E-1	-6.137085E-2	-2.172623E-1	-7.550354E-1	2.808228E-1
3.153000E+10	-9.161987E-1	8.819580E-3	-5.399323E-2	-2.375641E-1	-6.223297E-2	-2.187042E-1	-7.499695E-1	2.884521E-1
3.175450E+10	-9.142456E-1	1.364136E-2	-5.841827E-2	-2.398682E-1	-6.376648E-2	-2.192764E-1	-7.451782E-1	3.033142E-1
3.197900E+10	-9.153748E-1	1.992798E-2	-5.986786E-2	-2.376404E-1	-6.719971E-2	-2.141113E-1	-7.396545E-1	3.138733E-1
3.220350E+10	-9.201660E-1	2.307129E-2	-6.602478E-2	-2.376480E-1	-6.769562E-2	-2.162170E-1	-7.285767E-1	3.219299E-1
3.242800E+10	-9.178162E-1	3.234863E-2	-6.774902E-2	-2.387543E-1	-7.262421E-2	-2.133102E-1	-7.218628E-1	3.323975E-1
3.265250E+10	-9.187927E-1	4.095459E-2	-7.069397E-2	-2.313538E-1	-7.550049E-2	-2.113342E-1	-7.122498E-1	3.377380E-1
3.287700E+10	-9.198608E-1	4.510498E-2	-7.384491E-2	-2.314301E-1	-7.868195E-2	-2.087250E-1	-7.076111E-1	3.469543E-1
3.310150E+10	-9.197083E-1	5.081177E-2	-7.666016E-2	-2.259216E-1	-8.012390E-2	-2.066803E-1	-6.969910E-1	3.544312E-1
3.332600E+10	-9.121399E-1	5.612183E-2	-7.543182E-2	-2.264557E-1	-8.136749E-2	-2.121353E-1	-6.921692E-1	3.643494E-1
3.355050E+10	-9.143066E-1	6.628418E-2	-8.181000E-2	-2.244949E-1	-8.444977E-2	-2.034836E-1	-6.858826E-1	3.719177E-1
3.377500E+10	-9.171143E-1	7.473755E-2	-8.218384E-2	-2.242661E-1	-8.523560E-2	-2.051849E-1	-6.797180E-1	3.751831E-1
3.399950E+10	-9.159851E-1	7.901001E-2	-8.516693E-2	-2.229385E-1	-9.070587E-2	-2.042389E-1	-6.771240E-1	3.900757E-1
3.422400E+10	-9.157410E-1	8.804321E-2	-8.647919E-2	-2.206268E-1	-9.008789E-2	-2.017288E-1	-6.668091E-1	4.056396E-1
3.444850E+10	-9.142151E-1	9.170532E-2	-9.101868E-2	-2.229996E-1	-9.040833E-2	-2.027740E-1	-6.593018E-1	4.119873E-1
3.467300E+10	-9.125671E-1	9.609985E-2	-9.217834E-2	-2.179794E-1	-9.645081E-2	-1.988068E-1	-6.558533E-1	4.174805E-1
3.489750E+10	-9.134216E-1	1.046753E-1	-9.545135E-2	-2.179642E-1	-9.226227E-2	-2.000275E-1	-6.451416E-1	4.332275E-1
3.512200E+10	-9.130249E-1	1.107178E-1	-9.922791E-2	-2.171555E-1	-1.008759E-1	-1.969452E-1	-6.300354E-1	4.399109E-1
3.534650E+10	-9.146423E-1	1.152954E-1	-9.546661E-2	-2.186737E-1	-1.023483E-1	-1.998291E-1	-6.271057E-1	4.503784E-1
3.557100E+10	-9.069824E-1	1.149902E-1	-1.040039E-1	-2.120590E-1	-1.042557E-1	-1.985931E-1	-6.107788E-1	4.634399E-1
3.579550E+10	-9.142456E-1	1.265869E-1	-1.097870E-1	-2.147980E-1	-1.099319E-1	-1.977081E-1	-6.027832E-1	4.670410E-1
3.602000E+10	-9.119568E-1	1.330261E-1	-1.118851E-1	-2.123108E-1	-1.105957E-1	-1.953888E-1	-5.939026E-1	4.695435E-1
3.624450E+10	-9.079285E-1	1.399841E-1	-1.147919E-1	-2.043457E-1	-1.120682E-1	-1.974792E-1	-5.821228E-1	4.827881E-1
3.646900E+10	-9.055786E-1	1.527405E-1	-1.111450E-1	-2.123413E-1	-1.143875E-1	-1.892624E-1	-5.750732E-1	4.938354E-1
3.669350E+10	-9.030151E-1	1.512146E-1	-1.157455E-1	-2.074738E-1	-1.143799E-1	-1.859818E-1	-5.580139E-1	4.996338E-1
3.691800E+10	-9.033203E-1	1.561279E-1	-1.167450E-1	-2.005463E-1	-1.166534E-1	-1.877213E-1	-5.504456E-1	5.072021E-1
3.714250E+10	-9.046021E-1	1.616516E-1	-1.228943E-1	-1.991119E-1	-1.209641E-1	-1.846237E-1	-5.362854E-1	5.107117E-1
3.736700E+10	-8.992920E-1	1.677856E-1	-1.267242E-1	-2.022400E-1	-1.241989E-1	-1.895523E-1	-5.322266E-1	5.101929E-1
3.759150E+10	-8.989868E-1	1.766663E-1	-1.315460E-1	-2.003708E-1	-1.240921E-1	-1.830139E-1	-5.193176E-1	5.268860E-1
3.781600E+10	-8.966675E-1	1.817932E-1	-1.300812E-1	-1.910934E-1	-1.250534E-1	-1.809158E-1	-5.141602E-1	5.326538E-1
3.804050E+10	-8.985901E-1	1.884155E-1	-1.360855E-1	-1.899338E-1	-1.340561E-1	-1.752167E-1	-4.926758E-1	5.374756E-1
3.826500E+10	-8.938293E-1	1.948242E-1	-1.394653E-1	-1.928101E-1	-1.347809E-1	-1.771088E-1	-4.801025E-1	5.474548E-1
3.848950E+10	-8.940430E-1	2.017212E-1	-1.389160E-1	-1.914291E-1	-1.359482E-1	-1.785049E-1	-4.699402E-1	5.578003E-1
3.871400E+10	-8.943176E-1	2.038269E-1	-1.404877E-1	-1.933670E-1	-1.378860E-1	-1.663589E-1	-4.508362E-1	5.568542E-1
3.893850E+10	-8.904724E-1	2.133789E-1	-1.375427E-1	-1.829987E-1	-1.412811E-1	-1.697311E-1	-4.346008E-1	5.580139E-1
