!Date: 10/28/2005, 12:46 PM

!Vgs = -4.000000E+0
!Vds = 2.000000E+1
!Ig = -4.407200E-5
!Id = 1.696800E-1

# HZ S RI R 50
1.000000E+8	9.716187E-1	-1.786499E-1	-1.667578E+1	1.357422E+0	9.121895E-4	8.113861E-3	6.294861E-1	-6.051636E-2
3.245000E+8	8.184204E-1	-5.023193E-1	-1.514404E+1	5.150879E+0	7.197380E-3	1.836586E-2	5.051270E-1	-2.238770E-1
5.490000E+8	5.960388E-1	-7.293396E-1	-1.291406E+1	7.304199E+0	1.604366E-2	2.593803E-2	4.240723E-1	-3.050995E-1
7.735000E+8	3.620605E-1	-8.537903E-1	-1.056787E+1	8.410645E+0	2.469921E-2	2.937889E-2	3.249207E-1	-3.565216E-1
9.980000E+8	1.496582E-1	-9.017639E-1	-8.456543E+0	8.825195E+0	3.277206E-2	2.995300E-2	2.400360E-1	-3.673706E-1
1.222500E+9	-3.097534E-2	-9.063721E-1	-6.708008E+0	8.830078E+0	3.899002E-2	2.863503E-2	1.755219E-1	-3.719788E-1
1.447000E+9	-1.835937E-1	-8.846741E-1	-5.270996E+0	8.604980E+0	4.461288E-2	2.743149E-2	1.215515E-1	-3.689423E-1
1.671500E+9	-3.048096E-1	-8.483276E-1	-4.096191E+0	8.213379E+0	4.882050E-2	2.514648E-2	7.546997E-2	-3.621063E-1
1.896000E+9	-4.039001E-1	-8.027954E-1	-3.191406E+0	7.751465E+0	5.246735E-2	2.257729E-2	3.762817E-2	-3.468781E-1
2.120500E+9	-4.813232E-1	-7.552795E-1	-2.481689E+0	7.318848E+0	5.552864E-2	1.982498E-2	1.004028E-2	-3.345184E-1
2.345000E+9	-5.455017E-1	-7.066040E-1	-1.893555E+0	6.883301E+0	5.743599E-2	1.724434E-2	-1.368713E-2	-3.223877E-1
2.569500E+9	-5.935059E-1	-6.619568E-1	-1.417725E+0	6.471436E+0	5.936813E-2	1.501656E-2	-3.182983E-2	-3.126984E-1
2.794000E+9	-6.348267E-1	-6.228943E-1	-1.040771E+0	6.094482E+0	6.035233E-2	1.280975E-2	-4.586792E-2	-3.035736E-1
3.018500E+9	-6.677551E-1	-5.848694E-1	-7.180176E-1	5.741699E+0	6.074142E-2	1.030350E-2	-5.914307E-2	-2.961731E-1
3.243000E+9	-6.963501E-1	-5.490112E-1	-4.416504E-1	5.416016E+0	6.175804E-2	7.619858E-3	-7.197571E-2	-2.906647E-1
3.467500E+9	-7.213135E-1	-5.178528E-1	-2.172852E-1	5.120605E+0	6.228447E-2	6.336212E-3	-8.209229E-2	-2.851410E-1
3.692000E+9	-7.426147E-1	-4.869080E-1	-2.612305E-2	4.838379E+0	6.306076E-2	4.356384E-3	-9.140015E-2	-2.812805E-1
3.916500E+9	-7.601013E-1	-4.569397E-1	1.398926E-1	4.578613E+0	6.349182E-2	2.235413E-3	-1.020813E-1	-2.783813E-1
4.141000E+9	-7.745667E-1	-4.306946E-1	2.785645E-1	4.338867E+0	6.380463E-2	7.514954E-4	-1.110229E-1	-2.741699E-1
4.365500E+9	-7.866821E-1	-4.070435E-1	3.979492E-1	4.116943E+0	6.371307E-2	-1.178741E-3	-1.185150E-1	-2.714233E-1
4.590000E+9	-7.985840E-1	-3.845825E-1	5.004883E-1	3.907104E+0	6.401062E-2	-2.208710E-3	-1.259308E-1	-2.694550E-1
4.814500E+9	-8.085327E-1	-3.629150E-1	5.864258E-1	3.715698E+0	6.451035E-2	-3.669739E-3	-1.326752E-1	-2.679138E-1
5.039000E+9	-8.165588E-1	-3.431702E-1	6.643066E-1	3.536865E+0	6.410217E-2	-5.538940E-3	-1.396942E-1	-2.669373E-1
5.263500E+9	-8.241882E-1	-3.232117E-1	7.287598E-1	3.367310E+0	6.406403E-2	-7.091522E-3	-1.471100E-1	-2.639923E-1
5.488000E+9	-8.298950E-1	-3.059692E-1	7.836914E-1	3.213501E+0	6.433487E-2	-8.178711E-3	-1.529999E-1	-2.622223E-1
5.712500E+9	-8.363342E-1	-2.897949E-1	8.330078E-1	3.064209E+0	6.376648E-2	-9.399414E-3	-1.587219E-1	-2.622681E-1
5.937000E+9	-8.417053E-1	-2.725220E-1	8.763428E-1	2.928711E+0	6.394196E-2	-1.050949E-2	-1.650085E-1	-2.620239E-1
6.161500E+9	-8.463440E-1	-2.585144E-1	9.155273E-1	2.803955E+0	6.365585E-2	-1.226807E-2	-1.712189E-1	-2.597961E-1
6.386000E+9	-8.502502E-1	-2.435608E-1	9.495850E-1	2.679565E+0	6.341171E-2	-1.394653E-2	-1.756134E-1	-2.608185E-1
6.610500E+9	-8.532104E-1	-2.306519E-1	9.835205E-1	2.566650E+0	6.305695E-2	-1.503372E-2	-1.825714E-1	-2.621765E-1
6.835000E+9	-8.574829E-1	-2.178345E-1	1.008911E+0	2.454102E+0	6.296158E-2	-1.647949E-2	-1.888428E-1	-2.599182E-1
7.059500E+9	-8.591003E-1	-2.062683E-1	1.027588E+0	2.350952E+0	6.223106E-2	-1.773453E-2	-1.915436E-1	-2.615662E-1
7.284000E+9	-8.614502E-1	-1.945190E-1	1.047485E+0	2.248779E+0	6.151581E-2	-1.880264E-2	-2.006073E-1	-2.615204E-1
7.508500E+9	-8.651428E-1	-1.824951E-1	1.064819E+0	2.155518E+0	6.176567E-2	-2.019501E-2	-2.044525E-1	-2.601624E-1
7.733000E+9	-8.661499E-1	-1.713562E-1	1.076172E+0	2.067383E+0	6.170464E-2	-2.065086E-2	-2.102051E-1	-2.622681E-1
7.957500E+9	-8.687439E-1	-1.607361E-1	1.090393E+0	1.982971E+0	6.103897E-2	-2.237892E-2	-2.175140E-1	-2.620850E-1
8.182000E+9	-8.696899E-1	-1.500244E-1	1.101929E+0	1.902771E+0	6.030846E-2	-2.268982E-2	-2.229004E-1	-2.623901E-1
8.406500E+9	-8.696289E-1	-1.413574E-1	1.108643E+0	1.823242E+0	5.994606E-2	-2.412033E-2	-2.290344E-1	-2.610474E-1
8.631000E+9	-8.721924E-1	-1.309204E-1	1.117493E+0	1.747437E+0	5.975342E-2	-2.541733E-2	-2.366943E-1	-2.624054E-1
8.855500E+9	-8.728943E-1	-1.213989E-1	1.121765E+0	1.674805E+0	5.887032E-2	-2.667618E-2	-2.428741E-1	-2.606964E-1
9.080001E+9	-8.741760E-1	-1.135559E-1	1.126282E+0	1.607605E+0	5.873108E-2	-2.711487E-2	-2.473755E-1	-2.601929E-1
9.304500E+9	-8.751221E-1	-1.030884E-1	1.126526E+0	1.540161E+0	5.760574E-2	-2.864265E-2	-2.536163E-1	-2.608185E-1
9.529000E+9	-8.750305E-1	-9.667969E-2	1.127747E+0	1.476685E+0	5.680656E-2	-2.974510E-2	-2.612000E-1	-2.585602E-1
9.753500E+9	-8.759155E-1	-8.843994E-2	1.126709E+0	1.416321E+0	5.622292E-2	-3.087616E-2	-2.652435E-1	-2.590790E-1
9.978000E+9	-8.757629E-1	-7.998657E-2	1.125061E+0	1.359741E+0	5.523300E-2	-3.092194E-2	-2.702942E-1	-2.588501E-1
1.020250E+10	-8.768921E-1	-7.360840E-2	1.123230E+0	1.303711E+0	5.481148E-2	-3.212166E-2	-2.775116E-1	-2.569122E-1
1.042700E+10	-8.775330E-1	-6.549072E-2	1.121765E+0	1.251221E+0	5.378342E-2	-3.313446E-2	-2.819214E-1	-2.563019E-1
1.065150E+10	-8.769531E-1	-5.816650E-2	1.116760E+0	1.200012E+0	5.310249E-2	-3.382301E-2	-2.875214E-1	-2.572784E-1
1.087600E+10	-8.785095E-1	-5.151367E-2	1.113586E+0	1.151123E+0	5.265617E-2	-3.460503E-2	-2.945404E-1	-2.558746E-1
1.110050E+10	-8.774109E-1	-4.312134E-2	1.109619E+0	1.103149E+0	5.193138E-2	-3.530121E-2	-2.990112E-1	-2.549438E-1
1.132500E+10	-8.769836E-1	-3.747559E-2	1.105347E+0	1.056641E+0	5.133820E-2	-3.649139E-2	-3.040161E-1	-2.550507E-1
1.154950E+10	-8.770752E-1	-2.993774E-2	1.099365E+0	1.011780E+0	4.999924E-2	-3.659821E-2	-3.127136E-1	-2.529602E-1
1.177400E+10	-8.767090E-1	-2.362061E-2	1.092957E+0	9.703369E-1	4.887962E-2	-3.783417E-2	-3.177185E-1	-2.495880E-1
1.199850E+10	-8.764038E-1	-1.791382E-2	1.087769E+0	9.300537E-1	4.829025E-2	-3.814507E-2	-3.218079E-1	-2.509766E-1
1.222300E+10	-8.771057E-1	-1.202393E-2	1.079834E+0	8.883057E-1	4.852486E-2	-3.851318E-2	-3.288727E-1	-2.493439E-1
1.244750E+10	-8.761292E-1	-6.561279E-3	1.071899E+0	8.487549E-1	4.700851E-2	-3.983116E-2	-3.337250E-1	-2.466583E-1
1.267200E+10	-8.765259E-1	3.967285E-4	1.063293E+0	8.126831E-1	4.577255E-2	-4.073906E-2	-3.380737E-1	-2.487183E-1
1.289650E+10	-8.748474E-1	5.554199E-3	1.054138E+0	7.775879E-1	4.533768E-2	-4.110146E-2	-3.471985E-1	-2.460175E-1
1.312100E+10	-8.751526E-1	1.062012E-2	1.044922E+0	7.429199E-1	4.544449E-2	-4.180336E-2	-3.523865E-1	-2.413635E-1
1.334550E+10	-8.748779E-1	1.708984E-2	1.037109E+0	7.102661E-1	4.403496E-2	-4.233932E-2	-3.564758E-1	-2.428741E-1
1.357000E+10	-8.730469E-1	2.142334E-2	1.028687E+0	6.772461E-1	4.361916E-2	-4.286003E-2	-3.636780E-1	-2.419739E-1
1.379450E+10	-8.737793E-1	2.694702E-2	1.019470E+0	6.483154E-1	4.257202E-2	-4.383659E-2	-3.699341E-1	-2.354584E-1
1.401900E+10	-8.729248E-1	3.179932E-2	1.011230E+0	6.216431E-1	4.129410E-2	-4.398727E-2	-3.708801E-1	-2.353668E-1
1.424350E+10	-8.727417E-1	3.765869E-2	1.001282E+0	5.902710E-1	4.023170E-2	-4.543686E-2	-3.800812E-1	-2.336884E-1
1.446800E+10	-8.714905E-1	4.220581E-2	9.931946E-1	5.620728E-1	3.864098E-2	-4.597664E-2	-3.842926E-1	-2.279510E-1
1.469250E+10	-8.706665E-1	4.882812E-2	9.845276E-1	5.361938E-1	3.852081E-2	-4.595566E-2	-3.867798E-1	-2.273560E-1
1.491700E+10	-8.704224E-1	5.276489E-2	9.740601E-1	5.092468E-1	3.720474E-2	-4.564476E-2	-3.950348E-1	-2.273560E-1
1.514150E+10	-8.689880E-1	5.758667E-2	9.637756E-1	4.825134E-1	3.732491E-2	-4.596710E-2	-3.999481E-1	-2.200775E-1
1.536600E+10	-8.674622E-1	6.237793E-2	9.542847E-1	4.563904E-1	3.623772E-2	-4.733658E-2	-4.023285E-1	-2.197723E-1
1.559050E+10	-8.674927E-1	6.835937E-2	9.436035E-1	4.340210E-1	3.433800E-2	-4.663086E-2	-4.092560E-1	-2.189789E-1
1.581500E+10	-8.667908E-1	7.324219E-2	9.307556E-1	4.104004E-1	3.387833E-2	-4.759979E-2	-4.154816E-1	-2.138367E-1
1.603950E+10	-8.657837E-1	7.757568E-2	9.229736E-1	3.882141E-1	3.290749E-2	-4.826546E-2	-4.182129E-1	-2.133179E-1
1.626400E+10	-8.644104E-1	8.190918E-2	9.118042E-1	3.669434E-1	3.170395E-2	-4.828262E-2	-4.260254E-1	-2.111053E-1
1.648850E+10	-8.644104E-1	8.630371E-2	9.012451E-1	3.460999E-1	3.123856E-2	-4.808807E-2	-4.304199E-1	-2.051697E-1
1.671300E+10	-8.631287E-1	9.127808E-2	8.891296E-1	3.256226E-1	2.932167E-2	-5.005074E-2	-4.346771E-1	-2.029724E-1
1.693750E+10	-8.637085E-1	9.512329E-2	8.810425E-1	3.083191E-1	2.849579E-2	-4.961014E-2	-4.420471E-1	-1.996918E-1
1.716200E+10	-8.616638E-1	9.881592E-2	8.704834E-1	2.883606E-1	2.778053E-2	-4.965973E-2	-4.459534E-1	-1.942749E-1
1.738650E+10	-8.604431E-1	1.059265E-1	8.611145E-1	2.723999E-1	2.593613E-2	-5.021858E-2	-4.475098E-1	-1.906738E-1
1.761100E+10	-8.593140E-1	1.080627E-1	8.493347E-1	2.550354E-1	2.536964E-2	-5.027199E-2	-4.554596E-1	-1.899109E-1
1.783550E+10	-8.588562E-1	1.133118E-1	8.383789E-1	2.381287E-1	2.469254E-2	-5.018997E-2	-4.600525E-1	-1.820984E-1
1.806000E+10	-8.580627E-1	1.176758E-1	8.309937E-1	2.222290E-1	2.355957E-2	-5.037880E-2	-4.622498E-1	-1.794586E-1
1.828450E+10	-8.558960E-1	1.219177E-1	8.220520E-1	2.064209E-1	2.325630E-2	-5.055618E-2	-4.663849E-1	-1.778107E-1
1.850900E+10	-8.556213E-1	1.256714E-1	8.117981E-1	1.911621E-1	2.285194E-2	-5.062103E-2	-4.722137E-1	-1.726074E-1
1.873350E+10	-8.556519E-1	1.297607E-1	8.009949E-1	1.737671E-1	2.091408E-2	-5.165482E-2	-4.732361E-1	-1.662750E-1
1.895800E+10	-8.529663E-1	1.340637E-1	7.894287E-1	1.601868E-1	1.888084E-2	-5.247688E-2	-4.777985E-1	-1.661377E-1
1.918250E+10	-8.514099E-1	1.364441E-1	7.801208E-1	1.448669E-1	1.857185E-2	-5.070686E-2	-4.851990E-1	-1.617889E-1
1.940700E+10	-8.514404E-1	1.430664E-1	7.692566E-1	1.318665E-1	1.733589E-2	-5.222893E-2	-4.855499E-1	-1.552734E-1
1.963150E+10	-8.493652E-1	1.458130E-1	7.558899E-1	1.187134E-1	1.712036E-2	-5.336380E-2	-4.884949E-1	-1.542053E-1
1.985600E+10	-8.481750E-1	1.480713E-1	7.484741E-1	1.076050E-1	1.514626E-2	-5.290031E-2	-4.950714E-1	-1.501617E-1
2.008050E+10	-8.460388E-1	1.506348E-1	7.381287E-1	9.524536E-2	1.445389E-2	-5.270767E-2	-4.994965E-1	-1.410370E-1
2.030500E+10	-8.457336E-1	1.550293E-1	7.271729E-1	8.422852E-2	1.346779E-2	-5.015755E-2	-5.021362E-1	-1.400757E-1
2.052950E+10	-8.437805E-1	1.589966E-1	7.192078E-1	7.296753E-2	1.125526E-2	-5.210304E-2	-5.044250E-1	-1.351318E-1
2.075400E+10	-8.431091E-1	1.619568E-1	7.105713E-1	6.207275E-2	9.557724E-3	-5.173302E-2	-5.097961E-1	-1.302795E-1
2.097850E+10	-8.423157E-1	1.659546E-1	7.008057E-1	5.316162E-2	8.783340E-3	-5.362892E-2	-5.119629E-1	-1.265869E-1
2.120300E+10	-8.408508E-1	1.690369E-1	6.884460E-1	4.193115E-2	7.799149E-3	-5.029106E-2	-5.150146E-1	-1.247864E-1
2.142750E+10	-8.405457E-1	1.747742E-1	6.812439E-1	3.250122E-2	8.752823E-3	-5.148125E-2	-5.207825E-1	-1.189575E-1
2.165200E+10	-8.383789E-1	1.774597E-1	6.733704E-1	2.133179E-2	4.777908E-3	-4.974556E-2	-5.215149E-1	-1.119385E-1
2.187650E+10	-8.381653E-1	1.794739E-1	6.623535E-1	1.382446E-2	5.119324E-3	-5.127907E-2	-5.244446E-1	-1.071472E-1
2.210100E+10	-8.355103E-1	1.870117E-1	6.537170E-1	2.441406E-3	4.835129E-3	-5.027962E-2	-5.316162E-1	-1.022034E-1
2.232550E+10	-8.342285E-1	1.876831E-1	6.445618E-1	-3.753662E-3	2.449036E-3	-5.095673E-2	-5.324707E-1	-9.680176E-2
2.255000E+10	-8.329773E-1	1.921082E-1	6.343079E-1	-1.147461E-2	1.028061E-3	-5.006790E-2	-5.344543E-1	-9.426880E-2
2.277450E+10	-8.315430E-1	1.943359E-1	6.257324E-1	-2.029419E-2	7.991791E-4	-4.997635E-2	-5.381470E-1	-8.737183E-2
2.299900E+10	-8.321228E-1	1.987610E-1	6.180725E-1	-2.996826E-2	-1.718521E-3	-4.946709E-2	-5.373840E-1	-8.169556E-2
2.322350E+10	-8.305359E-1	2.017212E-1	6.112366E-1	-3.866577E-2	-6.999969E-4	-4.848671E-2	-5.449524E-1	-7.894897E-2
2.344800E+10	-8.292542E-1	2.041016E-1	6.007385E-1	-4.248047E-2	-1.325607E-3	-4.993248E-2	-5.462952E-1	-7.086182E-2
2.367250E+10	-8.277893E-1	2.096252E-1	5.909119E-1	-5.099487E-2	-3.339767E-3	-4.907227E-2	-5.452576E-1	-6.570435E-2
2.389700E+10	-8.248596E-1	2.116394E-1	5.820923E-1	-5.813599E-2	-5.895615E-3	-4.944611E-2	-5.496216E-1	-6.188965E-2
2.412150E+10	-8.254700E-1	2.156372E-1	5.744629E-1	-6.536865E-2	-5.348206E-3	-4.912376E-2	-5.499878E-1	-5.743408E-2
2.434600E+10	-8.227844E-1	2.189941E-1	5.664673E-1	-6.933594E-2	-7.472992E-3	-4.763222E-2	-5.529480E-1	-5.004883E-2
2.457050E+10	-8.208618E-1	2.249451E-1	5.573120E-1	-7.669067E-2	-7.886887E-3	-4.686546E-2	-5.554504E-1	-4.675293E-2
2.479500E+10	-8.200378E-1	2.258606E-1	5.499268E-1	-8.273315E-2	-1.005936E-2	-4.762840E-2	-5.569153E-1	-3.662109E-2
2.501950E+10	-8.169250E-1	2.290649E-1	5.408936E-1	-8.651733E-2	-1.194382E-2	-4.625893E-2	-5.534668E-1	-3.591919E-2
2.524400E+10	-8.145142E-1	2.313538E-1	5.315552E-1	-9.432983E-2	-1.209450E-2	-4.520607E-2	-5.556030E-1	-3.295898E-2
2.546850E+10	-8.147278E-1	2.358398E-1	5.234680E-1	-9.701538E-2	-1.183510E-2	-4.537773E-2	-5.595703E-1	-2.502441E-2
2.569300E+10	-8.093567E-1	2.357178E-1	5.172119E-1	-1.008911E-1	-1.420212E-2	-4.403687E-2	-5.620422E-1	-2.151489E-2
2.591750E+10	-8.117676E-1	2.427673E-1	5.091858E-1	-1.073608E-1	-1.717758E-2	-4.209900E-2	-5.663757E-1	-1.556396E-2
2.614200E+10	-8.098145E-1	2.453003E-1	5.015869E-1	-1.087036E-1	-1.708984E-2	-4.178429E-2	-5.703735E-1	-9.826660E-3
2.636650E+10	-8.075256E-1	2.469788E-1	4.953918E-1	-1.134033E-1	-1.672554E-2	-4.223251E-2	-5.700989E-1	-3.112793E-3
2.659100E+10	-8.056335E-1	2.506104E-1	4.885254E-1	-1.194916E-1	-1.961327E-2	-4.143906E-2	-5.671082E-1	2.746582E-4
2.681550E+10	-8.040161E-1	2.504883E-1	4.819946E-1	-1.216888E-1	-1.912117E-2	-4.121971E-2	-5.726624E-1	4.089355E-3
2.704000E+10	-8.031616E-1	2.563171E-1	4.733124E-1	-1.235352E-1	-1.868629E-2	-3.807259E-2	-5.727539E-1	1.818848E-2
2.726450E+10	-7.996521E-1	2.595825E-1	4.700470E-1	-1.282043E-1	-2.264786E-2	-3.877258E-2	-5.675964E-1	1.611328E-2
2.748900E+10	-8.005371E-1	2.589111E-1	4.634399E-1	-1.326294E-1	-2.162170E-2	-3.891945E-2	-5.743408E-1	2.124023E-2
2.771350E+10	-7.961121E-1	2.658081E-1	4.520416E-1	-1.379700E-1	-2.163506E-2	-3.715515E-2	-5.735474E-1	2.822876E-2
2.793800E+10	-7.962952E-1	2.669678E-1	4.473877E-1	-1.405945E-1	-2.261925E-2	-3.698730E-2	-5.734863E-1	3.677368E-2
2.816250E+10	-7.937622E-1	2.672729E-1	4.416046E-1	-1.430511E-1	-2.466202E-2	-3.633118E-2	-5.755005E-1	3.613281E-2
2.838700E+10	-7.916260E-1	2.711487E-1	4.346008E-1	-1.446228E-1	-2.695847E-2	-3.310013E-2	-5.781250E-1	4.312134E-2
2.861150E+10	-7.917786E-1	2.763062E-1	4.282837E-1	-1.498566E-1	-2.787018E-2	-3.463936E-2	-5.785828E-1	5.120850E-2
2.883600E+10	-7.881775E-1	2.786560E-1	4.230652E-1	-1.508636E-1	-2.973652E-2	-3.121567E-2	-5.796204E-1	5.151367E-2
2.906050E+10	-7.870483E-1	2.810059E-1	4.176331E-1	-1.514435E-1	-2.549648E-2	-3.076744E-2	-5.782166E-1	6.140137E-2
2.928500E+10	-7.879944E-1	2.837830E-1	4.117126E-1	-1.528015E-1	-2.980328E-2	-2.954292E-2	-5.796204E-1	6.231689E-2
2.950950E+10	-7.844238E-1	2.879944E-1	4.083099E-1	-1.543427E-1	-2.766418E-2	-3.018951E-2	-5.820007E-1	6.845093E-2
2.973400E+10	-7.835693E-1	2.873535E-1	4.028931E-1	-1.597900E-1	-3.067017E-2	-2.679253E-2	-5.828552E-1	7.501221E-2
2.995850E+10	-7.786865E-1	2.905579E-1	3.942566E-1	-1.625519E-1	-3.102207E-2	-2.531624E-2	-5.829163E-1	8.483887E-2
3.018300E+10	-7.788391E-1	2.933655E-1	3.907318E-1	-1.624298E-1	-3.075981E-2	-2.660370E-2	-5.841370E-1	9.207153E-2
3.040750E+10	-7.747498E-1	2.982178E-1	3.850555E-1	-1.680908E-1	-3.515053E-2	-2.031517E-2	-5.828857E-1	9.909058E-2
3.063200E+10	-7.767029E-1	2.957458E-1	3.821259E-1	-1.679687E-1	-3.494072E-2	-2.458191E-2	-5.837097E-1	1.049805E-1
3.085650E+10	-7.724915E-1	2.994995E-1	3.772736E-1	-1.715698E-1	-3.479576E-2	-1.932907E-2	-5.870361E-1	1.110840E-1
3.108100E+10	-7.681885E-1	3.040466E-1	3.715210E-1	-1.710358E-1	-3.394699E-2	-2.171326E-2	-5.773010E-1	1.198120E-1
3.130550E+10	-7.668457E-1	3.049622E-1	3.664398E-1	-1.741333E-1	-3.582382E-2	-2.245712E-2	-5.829468E-1	1.232910E-1
3.153000E+10	-7.691650E-1	3.078003E-1	3.642578E-1	-1.745453E-1	-3.658104E-2	-1.739311E-2	-5.843201E-1	1.276245E-1
3.175450E+10	-7.642822E-1	3.087463E-1	3.559723E-1	-1.788940E-1	-3.494835E-2	-1.604843E-2	-5.810547E-1	1.389160E-1
3.197900E+10	-7.638550E-1	3.135071E-1	3.545837E-1	-1.766968E-1	-3.716087E-2	-1.660728E-2	-5.771484E-1	1.388550E-1
3.220350E+10	-7.624817E-1	3.166199E-1	3.490295E-1	-1.802216E-1	-3.621674E-2	-1.553154E-2	-5.754089E-1	1.450500E-1
3.242800E+10	-7.629700E-1	3.193054E-1	3.423767E-1	-1.825256E-1	-4.220581E-2	-1.166725E-2	-5.802917E-1	1.545410E-1
3.265250E+10	-7.603149E-1	3.236389E-1	3.379059E-1	-1.872253E-1	-3.532791E-2	-5.876541E-3	-5.751953E-1	1.590881E-1
3.287700E+10	-7.585144E-1	3.254700E-1	3.390198E-1	-1.894379E-1	-3.615189E-2	-9.700775E-3	-5.789185E-1	1.616516E-1
3.310150E+10	-7.572632E-1	3.234863E-1	3.302307E-1	-1.875610E-1	-3.831863E-2	-7.598877E-3	-5.749817E-1	1.708679E-1
3.332600E+10	-7.532959E-1	3.265686E-1	3.227081E-1	-1.902771E-1	-3.876114E-2	-8.342743E-3	-5.745850E-1	1.744690E-1
3.355050E+10	-7.533264E-1	3.286438E-1	3.252716E-1	-1.925049E-1	-3.868103E-2	-7.564545E-3	-5.714417E-1	1.813354E-1
3.377500E+10	-7.533569E-1	3.326416E-1	3.187866E-1	-1.891022E-1	-3.651237E-2	-3.124237E-3	-5.713196E-1	1.874084E-1
3.399950E+10	-7.481995E-1	3.313599E-1	3.141785E-1	-1.952820E-1	-3.504181E-2	-2.922058E-3	-5.734863E-1	1.920776E-1
3.422400E+10	-7.473755E-1	3.357544E-1	3.142548E-1	-1.989441E-1	-4.092789E-2	-1.529694E-3	-5.713196E-1	2.061157E-1
3.444850E+10	-7.460937E-1	3.375854E-1	3.096313E-1	-2.004089E-1	-3.812599E-2	6.198883E-4	-5.695801E-1	2.073669E-1
3.467300E+10	-7.406311E-1	3.400269E-1	3.167114E-1	-1.976166E-1	-4.016304E-2	5.893707E-3	-5.661926E-1	2.157288E-1
3.489750E+10	-7.410889E-1	3.443604E-1	3.009796E-1	-2.036133E-1	-4.059410E-2	5.285263E-3	-5.658875E-1	2.251282E-1
3.512200E+10	-7.412109E-1	3.409119E-1	2.983246E-1	-2.036743E-1	-3.645325E-2	4.552841E-3	-5.626221E-1	2.291870E-1
3.534650E+10	-7.382507E-1	3.471375E-1	2.950897E-1	-2.008972E-1	-3.695297E-2	2.334595E-3	-5.661316E-1	2.348328E-1
3.557100E+10	-7.365112E-1	3.432007E-1	2.918854E-1	-2.085419E-1	-3.447342E-2	6.444931E-3	-5.585937E-1	2.478943E-1
3.579550E+10	-7.348938E-1	3.529968E-1	2.918854E-1	-2.088776E-1	-4.011917E-2	9.494781E-3	-5.523987E-1	2.488708E-1
3.602000E+10	-7.339783E-1	3.573303E-1	2.800293E-1	-2.147980E-1	-4.084206E-2	1.339912E-2	-5.538330E-1	2.558594E-1
3.624450E+10	-7.282715E-1	3.567810E-1	2.854919E-1	-2.077332E-1	-4.219818E-2	1.199150E-2	-5.592041E-1	2.581787E-1
3.646900E+10	-7.308350E-1	3.577271E-1	2.782135E-1	-2.152710E-1	-3.835106E-2	1.319695E-2	-5.497742E-1	2.741089E-1
3.669350E+10	-7.294312E-1	3.587646E-1	2.726898E-1	-2.140198E-1	-3.795052E-2	1.702881E-2	-5.442810E-1	2.756958E-1
3.691800E+10	-7.257080E-1	3.615417E-1	2.746277E-1	-2.156067E-1	-4.147339E-2	1.503944E-2	-5.428467E-1	2.842712E-1
3.714250E+10	-7.232056E-1	3.599243E-1	2.701721E-1	-2.141113E-1	-3.587532E-2	2.177238E-2	-5.347900E-1	2.905579E-1
3.736700E+10	-7.235107E-1	3.603516E-1	2.639771E-1	-2.217407E-1	-4.089928E-2	2.130508E-2	-5.375061E-1	2.948608E-1
3.759150E+10	-7.216187E-1	3.667603E-1	2.595062E-1	-2.198029E-1	-3.111267E-2	2.175617E-2	-5.345764E-1	3.055420E-1
3.781600E+10	-7.210083E-1	3.704224E-1	2.599487E-1	-2.246704E-1	-3.515625E-2	2.025795E-2	-5.284729E-1	3.117676E-1
3.804050E+10	-7.205200E-1	3.626099E-1	2.573700E-1	-2.235107E-1	-3.574562E-2	2.291870E-2	-5.213928E-1	3.162537E-1
3.826500E+10	-7.166443E-1	3.720093E-1	2.527161E-1	-2.278900E-1	-3.598785E-2	2.268791E-2	-5.168457E-1	3.287048E-1
3.848950E+10	-7.143555E-1	3.777161E-1	2.488327E-1	-2.266922E-1	-3.420830E-2	2.884102E-2	-5.194702E-1	3.330383E-1
3.871400E+10	-7.102356E-1	3.713379E-1	2.502441E-1	-2.289734E-1	-3.440285E-2	2.761650E-2	-5.116882E-1	3.406372E-1
3.893850E+10	-7.065430E-1	3.738708E-1	2.458344E-1	-2.310104E-1	-3.053474E-2	3.273964E-2	-5.006104E-1	3.380737E-1
3.916300E+10	-7.097168E-1	3.819275E-1	2.362442E-1	-2.267075E-1	-3.023911E-2	3.260231E-2	-4.990234E-1	3.484192E-1
