!Date: 10/28/2005, 12:46 PM

!Vgs = -8.000000E+0
!Vds = 1.750000E+1
!Ig = -1.740400E-4
!Id = 2.393700E-3

# HZ S RI R 50
1.000000E+8	9.886169E-1	-3.543091E-2	-3.237343E-2	7.400513E-3	2.312660E-3	9.718418E-3	9.803467E-1	-5.859375E-3
3.245000E+8	9.794922E-1	-9.826660E-2	-2.913475E-2	3.163910E-2	5.863190E-3	2.886963E-2	9.630432E-1	-8.248901E-2
5.490000E+8	9.663391E-1	-1.583862E-1	-2.337074E-2	5.248070E-2	1.045418E-2	4.743767E-2	9.577942E-1	-1.333313E-1
7.735000E+8	9.506226E-1	-2.187195E-1	-1.528931E-2	7.201385E-2	1.769257E-2	6.396103E-2	9.436035E-1	-1.853638E-1
9.980000E+8	9.323425E-1	-2.742310E-1	-5.554199E-3	8.988571E-2	2.663040E-2	7.967377E-2	9.279785E-1	-2.312012E-1
1.222500E+9	9.107056E-1	-3.297119E-1	5.275726E-3	1.062012E-1	3.654099E-2	9.388351E-2	9.108582E-1	-2.788391E-1
1.447000E+9	8.858337E-1	-3.826294E-1	1.740646E-2	1.212273E-1	4.723740E-2	1.074257E-1	8.907471E-1	-3.239136E-1
1.671500E+9	8.581543E-1	-4.331360E-1	3.051758E-2	1.358109E-1	5.890274E-2	1.204376E-1	8.680420E-1	-3.652649E-1
1.896000E+9	8.283997E-1	-4.795532E-1	4.621124E-2	1.494751E-1	7.331848E-2	1.322250E-1	8.478699E-1	-4.036255E-1
2.120500E+9	7.975769E-1	-5.241699E-1	6.370544E-2	1.599045E-1	8.871460E-2	1.412964E-1	8.252869E-1	-4.442444E-1
2.345000E+9	7.621460E-1	-5.677185E-1	8.137512E-2	1.682663E-1	1.056900E-1	1.484604E-1	7.986450E-1	-4.821777E-1
2.569500E+9	7.278442E-1	-6.044617E-1	9.899139E-2	1.744919E-1	1.210861E-1	1.532440E-1	7.736511E-1	-5.173035E-1
2.794000E+9	6.909485E-1	-6.408081E-1	1.158066E-1	1.789932E-1	1.365128E-1	1.573868E-1	7.454529E-1	-5.503845E-1
3.018500E+9	6.537170E-1	-6.740417E-1	1.333084E-1	1.815033E-1	1.523132E-1	1.592560E-1	7.159729E-1	-5.827637E-1
3.243000E+9	6.154480E-1	-7.041016E-1	1.508942E-1	1.829376E-1	1.682739E-1	1.596451E-1	6.853638E-1	-6.147766E-1
3.467500E+9	5.776062E-1	-7.315979E-1	1.678314E-1	1.832123E-1	1.829987E-1	1.597366E-1	6.546021E-1	-6.416321E-1
3.692000E+9	5.381775E-1	-7.567139E-1	1.844025E-1	1.821899E-1	1.982040E-1	1.580429E-1	6.240234E-1	-6.689148E-1
3.916500E+9	4.987183E-1	-7.789307E-1	2.014389E-1	1.787186E-1	2.129745E-1	1.550674E-1	5.892639E-1	-6.922302E-1
4.141000E+9	4.606018E-1	-7.986755E-1	2.175751E-1	1.754913E-1	2.275772E-1	1.515579E-1	5.592346E-1	-7.124329E-1
4.365500E+9	4.234619E-1	-8.172913E-1	2.321396E-1	1.704865E-1	2.410965E-1	1.460419E-1	5.278015E-1	-7.358093E-1
4.590000E+9	3.838806E-1	-8.343506E-1	2.469711E-1	1.640549E-1	2.539825E-1	1.403503E-1	4.925232E-1	-7.534180E-1
4.814500E+9	3.461609E-1	-8.468323E-1	2.602844E-1	1.567841E-1	2.664948E-1	1.335449E-1	4.618225E-1	-7.693481E-1
5.039000E+9	3.092651E-1	-8.591614E-1	2.742615E-1	1.484985E-1	2.790527E-1	1.252594E-1	4.294128E-1	-7.875977E-1
5.263500E+9	2.717590E-1	-8.675842E-1	2.862549E-1	1.395111E-1	2.895813E-1	1.168213E-1	3.957825E-1	-8.001404E-1
5.488000E+9	2.370911E-1	-8.756104E-1	2.975159E-1	1.298523E-1	2.994080E-1	1.076355E-1	3.656311E-1	-8.121948E-1
5.712500E+9	2.006836E-1	-8.827209E-1	3.081207E-1	1.194458E-1	3.093567E-1	9.774780E-2	3.337708E-1	-8.255920E-1
5.937000E+9	1.672058E-1	-8.863831E-1	3.172760E-1	1.089325E-1	3.177795E-1	8.718872E-2	3.014526E-1	-8.350525E-1
6.161500E+9	1.353455E-1	-8.910522E-1	3.256531E-1	9.753418E-2	3.251038E-1	7.627869E-2	2.713623E-1	-8.446655E-1
6.386000E+9	1.011963E-1	-8.939209E-1	3.332214E-1	8.604431E-2	3.315735E-1	6.558228E-2	2.397156E-1	-8.532104E-1
6.610500E+9	7.180786E-2	-8.960876E-1	3.394165E-1	7.421875E-2	3.369751E-1	5.490112E-2	2.065430E-1	-8.602600E-1
6.835000E+9	4.031372E-2	-8.966675E-1	3.457336E-1	6.303406E-2	3.425140E-1	4.415894E-2	1.772156E-1	-8.645935E-1
7.059500E+9	1.205444E-2	-8.952026E-1	3.508148E-1	5.194092E-2	3.466797E-1	3.390503E-2	1.489868E-1	-8.673096E-1
7.284000E+9	-1.785278E-2	-8.948059E-1	3.546143E-1	3.919983E-2	3.501740E-1	2.200317E-2	1.177063E-1	-8.715515E-1
7.508500E+9	-4.629517E-2	-8.927612E-1	3.583679E-1	2.745056E-2	3.535767E-1	1.074219E-2	8.862305E-2	-8.721313E-1
7.733000E+9	-7.305908E-2	-8.888550E-1	3.613586E-1	1.562500E-2	3.556824E-1	1.068115E-4	6.149292E-2	-8.742981E-1
7.957500E+9	-9.970093E-2	-8.857117E-1	3.638916E-1	4.516602E-3	3.572388E-1	-1.124573E-2	3.240967E-2	-8.758240E-1
8.182000E+9	-1.239929E-1	-8.819580E-1	3.651428E-1	-6.637573E-3	3.588867E-1	-2.146912E-2	6.805420E-3	-8.752747E-1
8.406500E+9	-1.497498E-1	-8.773193E-1	3.654938E-1	-1.878357E-2	3.589783E-1	-3.327942E-2	-2.218628E-2	-8.730774E-1
8.631000E+9	-1.747742E-1	-8.723755E-1	3.661652E-1	-2.981567E-2	3.589783E-1	-4.289246E-2	-4.879761E-2	-8.720703E-1
8.855500E+9	-1.972046E-1	-8.674622E-1	3.661957E-1	-4.011536E-2	3.592377E-1	-5.383301E-2	-7.443237E-2	-8.686829E-1
9.080001E+9	-2.179871E-1	-8.618774E-1	3.660736E-1	-5.064392E-2	3.582611E-1	-6.292725E-2	-9.951782E-2	-8.647156E-1
9.304500E+9	-2.421570E-1	-8.550415E-1	3.646545E-1	-6.105042E-2	3.567505E-1	-7.348633E-2	-1.252441E-1	-8.602600E-1
9.529000E+9	-2.617798E-1	-8.493042E-1	3.638153E-1	-7.168579E-2	3.552399E-1	-8.358765E-2	-1.501770E-1	-8.555603E-1
9.753500E+9	-2.833557E-1	-8.416138E-1	3.613129E-1	-8.154297E-2	3.530731E-1	-9.342957E-2	-1.716919E-1	-8.499756E-1
9.978000E+9	-3.021545E-1	-8.351746E-1	3.591919E-1	-9.095764E-2	3.509369E-1	-1.017761E-1	-1.946411E-1	-8.465271E-1
1.020250E+10	-3.220215E-1	-8.278198E-1	3.569489E-1	-1.015778E-1	3.493500E-1	-1.110992E-1	-2.177734E-1	-8.385010E-1
1.042700E+10	-3.412170E-1	-8.200378E-1	3.538361E-1	-1.102600E-1	3.452911E-1	-1.190491E-1	-2.397766E-1	-8.322144E-1
1.065150E+10	-3.581238E-1	-8.121643E-1	3.506165E-1	-1.192169E-1	3.417816E-1	-1.278229E-1	-2.601929E-1	-8.256531E-1
1.087600E+10	-3.754272E-1	-8.038025E-1	3.471680E-1	-1.280365E-1	3.381042E-1	-1.361084E-1	-2.827759E-1	-8.187256E-1
1.110050E+10	-3.934021E-1	-7.957153E-1	3.442688E-1	-1.369934E-1	3.347626E-1	-1.442261E-1	-3.037109E-1	-8.106079E-1
1.132500E+10	-4.096375E-1	-7.880249E-1	3.400421E-1	-1.444397E-1	3.304596E-1	-1.517334E-1	-3.223877E-1	-8.029785E-1
1.154950E+10	-4.258728E-1	-7.794495E-1	3.351746E-1	-1.515808E-1	3.259735E-1	-1.586609E-1	-3.451233E-1	-7.934265E-1
1.177400E+10	-4.413757E-1	-7.713928E-1	3.319855E-1	-1.589050E-1	3.225861E-1	-1.657562E-1	-3.619690E-1	-7.840271E-1
1.199850E+10	-4.571838E-1	-7.626953E-1	3.274994E-1	-1.669159E-1	3.177338E-1	-1.728210E-1	-3.800964E-1	-7.771606E-1
1.222300E+10	-4.702759E-1	-7.537842E-1	3.217926E-1	-1.738739E-1	3.133240E-1	-1.808014E-1	-3.995056E-1	-7.672119E-1
1.244750E+10	-4.861145E-1	-7.452698E-1	3.168030E-1	-1.806793E-1	3.091431E-1	-1.864777E-1	-4.179993E-1	-7.560425E-1
1.267200E+10	-4.993896E-1	-7.363281E-1	3.129883E-1	-1.865692E-1	3.039856E-1	-1.922760E-1	-4.342041E-1	-7.486572E-1
1.289650E+10	-5.112610E-1	-7.274170E-1	3.079071E-1	-1.929779E-1	2.984924E-1	-1.969910E-1	-4.517517E-1	-7.373657E-1
1.312100E+10	-5.248718E-1	-7.191467E-1	3.029785E-1	-2.002869E-1	2.938843E-1	-2.036896E-1	-4.682617E-1	-7.254944E-1
1.334550E+10	-5.379333E-1	-7.105408E-1	2.968292E-1	-2.048950E-1	2.891693E-1	-2.084656E-1	-4.822998E-1	-7.167969E-1
1.357000E+10	-5.510559E-1	-7.000427E-1	2.912140E-1	-2.109528E-1	2.828827E-1	-2.138824E-1	-4.995728E-1	-7.078247E-1
1.379450E+10	-5.598145E-1	-6.932983E-1	2.857971E-1	-2.155762E-1	2.760773E-1	-2.199707E-1	-5.154114E-1	-6.927185E-1
1.401900E+10	-5.712891E-1	-6.842346E-1	2.815247E-1	-2.209015E-1	2.738800E-1	-2.232666E-1	-5.249939E-1	-6.847229E-1
1.424350E+10	-5.833435E-1	-6.749878E-1	2.751617E-1	-2.259064E-1	2.666168E-1	-2.273712E-1	-5.439453E-1	-6.723022E-1
1.446800E+10	-5.928040E-1	-6.663818E-1	2.688599E-1	-2.303467E-1	2.625580E-1	-2.323914E-1	-5.574036E-1	-6.576538E-1
1.469250E+10	-6.033630E-1	-6.577454E-1	2.637177E-1	-2.341461E-1	2.566376E-1	-2.369232E-1	-5.673523E-1	-6.486816E-1
1.491700E+10	-6.135559E-1	-6.489868E-1	2.582855E-1	-2.386932E-1	2.516937E-1	-2.408600E-1	-5.816040E-1	-6.392517E-1
1.514150E+10	-6.239929E-1	-6.403503E-1	2.522430E-1	-2.430725E-1	2.443466E-1	-2.437668E-1	-5.958557E-1	-6.235046E-1
1.536600E+10	-6.345520E-1	-6.304321E-1	2.462921E-1	-2.473221E-1	2.394485E-1	-2.485886E-1	-6.041565E-1	-6.124878E-1
1.559050E+10	-6.448364E-1	-6.220398E-1	2.421265E-1	-2.501831E-1	2.341003E-1	-2.514648E-1	-6.193848E-1	-6.010742E-1
1.581500E+10	-6.528625E-1	-6.128845E-1	2.354889E-1	-2.537384E-1	2.278442E-1	-2.536621E-1	-6.318054E-1	-5.872192E-1
1.603950E+10	-6.632996E-1	-6.044312E-1	2.290955E-1	-2.565308E-1	2.240448E-1	-2.583771E-1	-6.410522E-1	-5.761414E-1
1.626400E+10	-6.706848E-1	-5.957336E-1	2.232513E-1	-2.599945E-1	2.167358E-1	-2.608490E-1	-6.543274E-1	-5.643311E-1
1.648850E+10	-6.803894E-1	-5.866394E-1	2.171326E-1	-2.617798E-1	2.123718E-1	-2.620697E-1	-6.645508E-1	-5.500183E-1
1.671300E+10	-6.880798E-1	-5.774841E-1	2.113495E-1	-2.645264E-1	2.059631E-1	-2.655945E-1	-6.721191E-1	-5.384216E-1
1.693750E+10	-6.943054E-1	-5.707703E-1	2.068176E-1	-2.680511E-1	2.000885E-1	-2.672424E-1	-6.828308E-1	-5.277710E-1
1.716200E+10	-7.029419E-1	-5.609741E-1	2.013245E-1	-2.696381E-1	1.959229E-1	-2.706451E-1	-6.933899E-1	-5.119324E-1
1.738650E+10	-7.097778E-1	-5.523682E-1	1.958313E-1	-2.714386E-1	1.889648E-1	-2.713776E-1	-7.005615E-1	-5.000305E-1
1.761100E+10	-7.178040E-1	-5.450745E-1	1.900330E-1	-2.735138E-1	1.832428E-1	-2.737579E-1	-7.096558E-1	-4.895020E-1
1.783550E+10	-7.261963E-1	-5.336609E-1	1.837158E-1	-2.766266E-1	1.782684E-1	-2.746582E-1	-7.196045E-1	-4.730530E-1
1.806000E+10	-7.324219E-1	-5.280457E-1	1.793823E-1	-2.774506E-1	1.736603E-1	-2.781372E-1	-7.268372E-1	-4.638672E-1
1.828450E+10	-7.387390E-1	-5.174561E-1	1.745148E-1	-2.779694E-1	1.689758E-1	-2.790375E-1	-7.327576E-1	-4.518127E-1
1.850900E+10	-7.454224E-1	-5.095520E-1	1.691742E-1	-2.791748E-1	1.633911E-1	-2.801819E-1	-7.426147E-1	-4.382935E-1
1.873350E+10	-7.536011E-1	-5.007935E-1	1.645966E-1	-2.821808E-1	1.586456E-1	-2.821503E-1	-7.497559E-1	-4.239197E-1
1.895800E+10	-7.595520E-1	-4.918213E-1	1.584625E-1	-2.828674E-1	1.515961E-1	-2.830200E-1	-7.554321E-1	-4.135437E-1
1.918250E+10	-7.654724E-1	-4.849243E-1	1.526642E-1	-2.854614E-1	1.463623E-1	-2.819214E-1	-7.640076E-1	-4.007263E-1
1.940700E+10	-7.710876E-1	-4.754944E-1	1.470795E-1	-2.853699E-1	1.422119E-1	-2.848663E-1	-7.691345E-1	-3.819885E-1
1.963150E+10	-7.784729E-1	-4.685974E-1	1.405029E-1	-2.867126E-1	1.347809E-1	-2.875671E-1	-7.725220E-1	-3.740540E-1
1.985600E+10	-7.810669E-1	-4.598083E-1	1.373901E-1	-2.878418E-1	1.320038E-1	-2.862396E-1	-7.817993E-1	-3.611145E-1
2.008050E+10	-7.866516E-1	-4.531860E-1	1.324921E-1	-2.878265E-1	1.264496E-1	-2.871704E-1	-7.850037E-1	-3.453369E-1
2.030500E+10	-7.917175E-1	-4.440002E-1	1.267395E-1	-2.869110E-1	1.220551E-1	-2.871704E-1	-7.875977E-1	-3.349609E-1
2.052950E+10	-7.983704E-1	-4.358215E-1	1.228943E-1	-2.880402E-1	1.173859E-1	-2.884064E-1	-7.975159E-1	-3.209229E-1
2.075400E+10	-8.031616E-1	-4.287415E-1	1.177673E-1	-2.887421E-1	1.131592E-1	-2.875824E-1	-8.027039E-1	-3.083801E-1
2.097850E+10	-8.065186E-1	-4.201965E-1	1.112823E-1	-2.898865E-1	1.074982E-1	-2.872772E-1	-8.011780E-1	-2.961426E-1
2.120300E+10	-8.124695E-1	-4.100037E-1	1.080170E-1	-2.892609E-1	1.030121E-1	-2.872009E-1	-8.100891E-1	-2.870178E-1
2.142750E+10	-8.197021E-1	-4.035645E-1	1.046295E-1	-2.888489E-1	9.913635E-2	-2.887878E-1	-8.155518E-1	-2.701416E-1
2.165200E+10	-8.229065E-1	-3.935547E-1	9.779358E-2	-2.887268E-1	9.431458E-2	-2.874451E-1	-8.178101E-1	-2.586975E-1
2.187650E+10	-8.252869E-1	-3.845215E-1	9.420776E-2	-2.894592E-1	9.022522E-2	-2.877045E-1	-8.237305E-1	-2.471313E-1
2.210100E+10	-8.331909E-1	-3.777161E-1	9.153748E-2	-2.900238E-1	8.557129E-2	-2.880096E-1	-8.297424E-1	-2.320557E-1
2.232550E+10	-8.340149E-1	-3.679199E-1	8.515930E-2	-2.905121E-1	8.056641E-2	-2.874603E-1	-8.274841E-1	-2.166138E-1
2.255000E+10	-8.422241E-1	-3.616028E-1	8.013916E-2	-2.896729E-1	7.725525E-2	-2.898407E-1	-8.330383E-1	-2.051697E-1
2.277450E+10	-8.439331E-1	-3.518372E-1	7.812500E-2	-2.905579E-1	7.344055E-2	-2.878418E-1	-8.383179E-1	-1.915283E-1
2.299900E+10	-8.474426E-1	-3.439331E-1	7.160950E-2	-2.902374E-1	6.909180E-2	-2.884216E-1	-8.336792E-1	-1.809998E-1
2.322350E+10	-8.496399E-1	-3.355713E-1	6.607056E-2	-2.900085E-1	6.280518E-2	-2.888947E-1	-8.413086E-1	-1.667786E-1
2.344800E+10	-8.526917E-1	-3.281555E-1	6.457520E-2	-2.878723E-1	6.060791E-2	-2.873993E-1	-8.437805E-1	-1.537170E-1
2.367250E+10	-8.581848E-1	-3.181152E-1	5.769348E-2	-2.876740E-1	5.432129E-2	-2.873993E-1	-8.413696E-1	-1.386108E-1
2.389700E+10	-8.573914E-1	-3.121948E-1	5.430603E-2	-2.893219E-1	4.920959E-2	-2.857819E-1	-8.460999E-1	-1.292725E-1
2.412150E+10	-8.603821E-1	-3.044128E-1	4.899597E-2	-2.864227E-1	4.669189E-2	-2.857208E-1	-8.455200E-1	-1.117554E-1
2.434600E+10	-8.614807E-1	-2.976685E-1	4.605103E-2	-2.848816E-1	4.144287E-2	-2.847137E-1	-8.436890E-1	-9.878540E-2
2.457050E+10	-8.659058E-1	-2.931824E-1	4.187012E-2	-2.853699E-1	3.814697E-2	-2.837982E-1	-8.472900E-1	-8.798218E-2
2.479500E+10	-8.704224E-1	-2.847290E-1	3.768921E-2	-2.860565E-1	3.439331E-2	-2.841339E-1	-8.470154E-1	-7.220459E-2
2.501950E+10	-8.704529E-1	-2.791748E-1	3.314209E-2	-2.838287E-1	2.886963E-2	-2.832184E-1	-8.435669E-1	-6.524658E-2
2.524400E+10	-8.777771E-1	-2.718811E-1	2.833557E-2	-2.847595E-1	2.543640E-2	-2.801056E-1	-8.449402E-1	-4.986572E-2
2.546850E+10	-8.783264E-1	-2.624207E-1	2.409363E-2	-2.803497E-1	2.290344E-2	-2.798462E-1	-8.430786E-1	-3.677368E-2
2.569300E+10	-8.805847E-1	-2.560120E-1	2.299500E-2	-2.804871E-1	1.870728E-2	-2.796478E-1	-8.443298E-1	-2.899170E-2
2.591750E+10	-8.871155E-1	-2.481689E-1	1.860046E-2	-2.804413E-1	1.440430E-2	-2.781982E-1	-8.442688E-1	-1.458740E-2
2.614200E+10	-8.878479E-1	-2.399292E-1	1.643372E-2	-2.771759E-1	1.206970E-2	-2.770691E-1	-8.445129E-1	-2.105713E-3
2.636650E+10	-8.899841E-1	-2.331238E-1	1.268005E-2	-2.791901E-1	8.728027E-3	-2.778015E-1	-8.460388E-1	1.330566E-2
2.659100E+10	-8.926392E-1	-2.258606E-1	9.094238E-3	-2.776489E-1	6.469727E-3	-2.763519E-1	-8.404236E-1	2.343750E-2
2.681550E+10	-8.923035E-1	-2.208557E-1	6.286621E-3	-2.770081E-1	3.692627E-3	-2.744293E-1	-8.410034E-1	3.311157E-2
2.704000E+10	-8.940430E-1	-2.101440E-1	4.119873E-4	-2.754211E-1	-1.296997E-3	-2.726288E-1	-8.424988E-1	5.401611E-2
2.726450E+10	-8.950806E-1	-2.068481E-1	-1.937866E-3	-2.750092E-1	-3.463745E-3	-2.751465E-1	-8.320312E-1	6.167603E-2
2.748900E+10	-9.017639E-1	-1.989441E-1	-6.561279E-3	-2.734375E-1	-7.888794E-3	-2.705536E-1	-8.342285E-1	7.208252E-2
2.771350E+10	-9.016113E-1	-1.912231E-1	-1.087952E-2	-2.733002E-1	-1.155090E-2	-2.700195E-1	-8.350830E-1	8.511353E-2
2.793800E+10	-9.040833E-1	-1.838684E-1	-1.373291E-2	-2.711334E-1	-1.583862E-2	-2.696533E-1	-8.327332E-1	9.506226E-2
2.816250E+10	-9.067688E-1	-1.761169E-1	-1.496887E-2	-2.716980E-1	-1.867676E-2	-2.685242E-1	-8.267517E-1	1.039429E-1
2.838700E+10	-9.067688E-1	-1.690369E-1	-2.122498E-2	-2.700195E-1	-2.261353E-2	-2.665405E-1	-8.245239E-1	1.239929E-1
2.861150E+10	-9.091797E-1	-1.642151E-1	-2.394104E-2	-2.675934E-1	-2.717590E-2	-2.672119E-1	-8.175964E-1	1.314392E-1
2.883600E+10	-9.115601E-1	-1.538086E-1	-2.914429E-2	-2.661438E-1	-3.073120E-2	-2.644196E-1	-8.172913E-1	1.391296E-1
2.906050E+10	-9.158325E-1	-1.483765E-1	-2.958679E-2	-2.627716E-1	-3.010559E-2	-2.619934E-1	-8.131104E-1	1.524658E-1
2.928500E+10	-9.145508E-1	-1.402893E-1	-3.089905E-2	-2.622375E-1	-3.349304E-2	-2.613220E-1	-8.114929E-1	1.634827E-1
2.950950E+10	-9.121094E-1	-1.329346E-1	-3.613281E-2	-2.617798E-1	-4.013062E-2	-2.582703E-1	-8.077698E-1	1.680603E-1
2.973400E+10	-9.183655E-1	-1.266174E-1	-3.903198E-2	-2.597504E-1	-4.000854E-2	-2.578583E-1	-8.049622E-1	1.866455E-1
2.995850E+10	-9.173279E-1	-1.164551E-1	-3.974915E-2	-2.608490E-1	-4.232788E-2	-2.542419E-1	-8.008423E-1	1.972046E-1
3.018300E+10	-9.181824E-1	-1.107178E-1	-4.475403E-2	-2.600708E-1	-4.840088E-2	-2.565460E-1	-7.993469E-1	2.149048E-1
3.040750E+10	-9.180298E-1	-1.047974E-1	-4.635620E-2	-2.571716E-1	-4.994202E-2	-2.544708E-1	-7.932129E-1	2.216492E-1
3.063200E+10	-9.186707E-1	-9.799194E-2	-4.881287E-2	-2.560272E-1	-4.983521E-2	-2.522736E-1	-7.876587E-1	2.317810E-1
3.085650E+10	-9.224548E-1	-8.987427E-2	-5.436707E-2	-2.522583E-1	-5.479431E-2	-2.546997E-1	-7.835693E-1	2.447815E-1
3.108100E+10	-9.225769E-1	-8.316040E-2	-5.694580E-2	-2.531433E-1	-5.581665E-2	-2.520752E-1	-7.793884E-1	2.544861E-1
3.130550E+10	-9.185181E-1	-7.846069E-2	-6.027222E-2	-2.513885E-1	-6.247711E-2	-2.477036E-1	-7.706909E-1	2.684631E-1
3.153000E+10	-9.256592E-1	-7.516479E-2	-6.252289E-2	-2.471848E-1	-6.304932E-2	-2.550964E-1	-7.669067E-1	2.741699E-1
3.175450E+10	-9.237061E-1	-6.344604E-2	-6.309509E-2	-2.495880E-1	-6.595612E-2	-2.423630E-1	-7.600708E-1	2.920532E-1
3.197900E+10	-9.256592E-1	-5.743408E-2	-7.115936E-2	-2.447052E-1	-6.853485E-2	-2.433777E-1	-7.480469E-1	3.061829E-1
3.220350E+10	-9.241943E-1	-4.998779E-2	-7.090759E-2	-2.464523E-1	-7.504272E-2	-2.502899E-1	-7.467041E-1	3.099976E-1
3.242800E+10	-9.268799E-1	-4.400635E-2	-7.333374E-2	-2.456970E-1	-7.282257E-2	-2.435837E-1	-7.385559E-1	3.258057E-1
3.265250E+10	-9.309082E-1	-3.384399E-2	-7.690430E-2	-2.410965E-1	-8.258820E-2	-2.420425E-1	-7.276306E-1	3.291931E-1
3.287700E+10	-9.295044E-1	-2.975464E-2	-7.978058E-2	-2.364578E-1	-8.086395E-2	-2.378235E-1	-7.251892E-1	3.382874E-1
3.310150E+10	-9.294434E-1	-2.319336E-2	-8.378601E-2	-2.385635E-1	-8.274841E-2	-2.361603E-1	-7.138672E-1	3.499146E-1
3.332600E+10	-9.264526E-1	-1.739502E-2	-8.586884E-2	-2.365723E-1	-8.436584E-2	-2.345428E-1	-7.096558E-1	3.529358E-1
3.355050E+10	-9.285278E-1	-9.521484E-3	-8.364105E-2	-2.323914E-1	-8.580017E-2	-2.293167E-1	-6.976624E-1	3.654175E-1
3.377500E+10	-9.287720E-1	-6.408691E-4	-8.851624E-2	-2.331696E-1	-8.792877E-2	-2.318039E-1	-6.945190E-1	3.682251E-1
3.399950E+10	-9.261475E-1	5.523682E-3	-9.061432E-2	-2.310562E-1	-9.040070E-2	-2.320709E-1	-6.909485E-1	3.833313E-1
3.422400E+10	-9.283142E-1	1.104736E-2	-9.719849E-2	-2.306137E-1	-9.534454E-2	-2.290649E-1	-6.838989E-1	4.016113E-1
3.444850E+10	-9.307251E-1	1.870728E-2	-9.645844E-2	-2.308044E-1	-9.598541E-2	-2.279053E-1	-6.717529E-1	4.020386E-1
3.467300E+10	-9.282532E-1	2.313232E-2	-9.864044E-2	-2.324295E-1	-9.761047E-2	-2.272644E-1	-6.724548E-1	4.092407E-1
3.489750E+10	-9.289246E-1	3.259277E-2	-9.782410E-2	-2.247314E-1	-1.027145E-1	-2.246780E-1	-6.607666E-1	4.279480E-1
3.512200E+10	-9.286499E-1	3.631592E-2	-1.033020E-1	-2.250366E-1	-1.040192E-1	-2.226028E-1	-6.518250E-1	4.289551E-1
3.534650E+10	-9.269409E-1	4.409790E-2	-1.084747E-1	-2.248459E-1	-1.023560E-1	-2.283936E-1	-6.416626E-1	4.464111E-1
3.557100E+10	-9.320068E-1	4.156494E-2	-1.053314E-1	-2.212753E-1	-1.074753E-1	-2.218781E-1	-6.293945E-1	4.537964E-1
3.579550E+10	-9.259644E-1	5.349731E-2	-1.138306E-1	-2.240982E-1	-1.108093E-1	-2.229691E-1	-6.143494E-1	4.627075E-1
3.602000E+10	-9.291992E-1	6.326294E-2	-1.126480E-1	-2.212830E-1	-1.124878E-1	-2.191162E-1	-6.112976E-1	4.664001E-1
3.624450E+10	-9.242859E-1	6.793213E-2	-1.183014E-1	-2.186966E-1	-1.155701E-1	-2.194977E-1	-6.028442E-1	4.750977E-1
3.646900E+10	-9.297180E-1	7.946777E-2	-1.159897E-1	-2.180023E-1	-1.213684E-1	-2.171173E-1	-5.916138E-1	4.833069E-1
3.669350E+10	-9.258423E-1	8.020020E-2	-1.216660E-1	-2.153854E-1	-1.211624E-1	-2.163315E-1	-5.798340E-1	4.962769E-1
3.691800E+10	-9.233093E-1	8.520508E-2	-1.235886E-1	-2.097168E-1	-1.235123E-1	-2.132874E-1	-5.691833E-1	5.013733E-1
3.714250E+10	-9.243774E-1	9.350586E-2	-1.234207E-1	-2.138672E-1	-1.264343E-1	-2.087631E-1	-5.546570E-1	5.098267E-1
3.736700E+10	-9.225769E-1	9.695435E-2	-1.303635E-1	-2.104645E-1	-1.347961E-1	-2.090836E-1	-5.513611E-1	5.144958E-1
3.759150E+10	-9.193115E-1	1.083984E-1	-1.347733E-1	-2.033539E-1	-1.313629E-1	-2.071533E-1	-5.371399E-1	5.216675E-1
3.781600E+10	-9.196167E-1	1.131592E-1	-1.341629E-1	-2.010345E-1	-1.308517E-1	-2.025528E-1	-5.276794E-1	5.282288E-1
3.804050E+10	-9.201355E-1	1.187744E-1	-1.346130E-1	-2.048111E-1	-1.352539E-1	-1.973877E-1	-5.144958E-1	5.373230E-1
3.826500E+10	-9.189453E-1	1.247253E-1	-1.340179E-1	-2.027664E-1	-1.419373E-1	-2.044296E-1	-4.996033E-1	5.432434E-1
3.848950E+10	-9.125061E-1	1.285095E-1	-1.410980E-1	-2.067032E-1	-1.395264E-1	-2.016144E-1	-4.826965E-1	5.506287E-1
3.871400E+10	-9.152527E-1	1.331177E-1	-1.417389E-1	-1.940231E-1	-1.443100E-1	-1.999207E-1	-4.739380E-1	5.510254E-1
3.893850E+10	-9.233398E-1	1.421509E-1	-1.445007E-1	-1.879501E-1	-1.458206E-1	-1.857529E-1	-4.593201E-1	5.588989E-1
