!Date: 10/28/2005, 12:46 PM

!Vgs = -1.000000E+0
!Vds = 2.000000E+1
!Ig = -4.234600E-5
!Id = 6.951100E-1

# HZ S RI R 50
1.000000E+8	9.618530E-1	-1.617432E-1	-1.326074E+1	9.179687E-2	1.819134E-4	6.813049E-3	6.129456E-1	5.798340E-4
3.245000E+8	8.150024E-1	-4.854736E-1	-1.238135E+1	4.060059E+0	8.996964E-3	2.171993E-2	4.093018E-1	-2.194214E-1
5.490000E+8	5.997925E-1	-7.131958E-1	-1.060596E+1	5.884766E+0	1.878452E-2	3.051949E-2	3.530731E-1	-2.881775E-1
7.735000E+8	3.736877E-1	-8.379211E-1	-8.662109E+0	6.786133E+0	2.953720E-2	3.507805E-2	2.469940E-1	-3.515472E-1
9.980000E+8	1.673279E-1	-8.850403E-1	-6.928223E+0	7.129883E+0	3.879738E-2	3.578377E-2	1.603699E-1	-3.523712E-1
1.222500E+9	-1.156616E-2	-8.898315E-1	-5.500977E+0	7.141602E+0	4.625130E-2	3.453064E-2	1.014099E-1	-3.597260E-1
1.447000E+9	-1.606445E-1	-8.698425E-1	-4.329102E+0	6.939453E+0	5.287361E-2	3.284836E-2	4.220581E-2	-3.519440E-1
1.671500E+9	-2.799988E-1	-8.359985E-1	-3.400146E+0	6.634277E+0	5.756760E-2	3.049278E-2	1.831055E-4	-3.428192E-1
1.896000E+9	-3.780823E-1	-7.920837E-1	-2.673340E+0	6.277588E+0	6.195831E-2	2.730942E-2	-3.572083E-2	-3.273315E-1
2.120500E+9	-4.545898E-1	-7.464905E-1	-2.090332E+0	5.935547E+0	6.560135E-2	2.503967E-2	-6.208801E-2	-3.170776E-1
2.345000E+9	-5.171509E-1	-6.991577E-1	-1.604004E+0	5.593994E+0	6.806946E-2	2.177811E-2	-8.738708E-2	-3.026886E-1
2.569500E+9	-5.648499E-1	-6.557312E-1	-1.216553E+0	5.258789E+0	7.019806E-2	1.852798E-2	-1.036530E-1	-2.908936E-1
2.794000E+9	-6.061096E-1	-6.172791E-1	-9.062500E-1	4.960937E+0	7.178116E-2	1.554871E-2	-1.199493E-1	-2.823334E-1
3.018500E+9	-6.402893E-1	-5.801697E-1	-6.433105E-1	4.673828E+0	7.279968E-2	1.299667E-2	-1.318665E-1	-2.704773E-1
3.243000E+9	-6.678467E-1	-5.461731E-1	-4.199219E-1	4.417236E+0	7.347870E-2	1.067352E-2	-1.427917E-1	-2.662506E-1
3.467500E+9	-6.933289E-1	-5.156860E-1	-2.326660E-1	4.177979E+0	7.434464E-2	8.552551E-3	-1.542206E-1	-2.581787E-1
3.692000E+9	-7.149658E-1	-4.853821E-1	-7.495117E-2	3.952637E+0	7.531357E-2	6.694794E-3	-1.610260E-1	-2.537994E-1
3.916500E+9	-7.317505E-1	-4.574585E-1	6.127930E-2	3.741455E+0	7.569504E-2	4.341125E-3	-1.730042E-1	-2.501984E-1
4.141000E+9	-7.472839E-1	-4.315186E-1	1.760254E-1	3.551147E+0	7.553101E-2	2.529144E-3	-1.791763E-1	-2.427368E-1
4.365500E+9	-7.600098E-1	-4.082031E-1	2.763672E-1	3.371826E+0	7.602310E-2	4.196167E-4	-1.860046E-1	-2.412872E-1
4.590000E+9	-7.713013E-1	-3.858337E-1	3.602295E-1	3.202271E+0	7.618332E-2	-1.132965E-3	-1.942978E-1	-2.361755E-1
4.814500E+9	-7.812195E-1	-3.649902E-1	4.312744E-1	3.049561E+0	7.670975E-2	-3.143311E-3	-1.985626E-1	-2.329407E-1
5.039000E+9	-7.896729E-1	-3.453674E-1	4.958496E-1	2.904907E+0	7.627487E-2	-4.966736E-3	-2.057343E-1	-2.314453E-1
5.263500E+9	-7.977905E-1	-3.268127E-1	5.526123E-1	2.770752E+0	7.653809E-2	-6.565094E-3	-2.115479E-1	-2.284927E-1
5.488000E+9	-8.036804E-1	-3.098145E-1	6.004639E-1	2.645386E+0	7.638168E-2	-7.949829E-3	-2.170410E-1	-2.261581E-1
5.712500E+9	-8.106079E-1	-2.937012E-1	6.416016E-1	2.525146E+0	7.637024E-2	-9.563446E-3	-2.218170E-1	-2.239456E-1
5.937000E+9	-8.151245E-1	-2.767944E-1	6.796875E-1	2.414551E+0	7.655716E-2	-1.076508E-2	-2.270889E-1	-2.235336E-1
6.161500E+9	-8.204651E-1	-2.637024E-1	7.137451E-1	2.313232E+0	7.589340E-2	-1.290894E-2	-2.320938E-1	-2.202911E-1
6.386000E+9	-8.252563E-1	-2.489014E-1	7.443848E-1	2.213135E+0	7.570267E-2	-1.428986E-2	-2.343750E-1	-2.198486E-1
6.610500E+9	-8.279114E-1	-2.363586E-1	7.707520E-1	2.118408E+0	7.564926E-2	-1.560211E-2	-2.427521E-1	-2.207565E-1
6.835000E+9	-8.320923E-1	-2.241516E-1	7.932129E-1	2.028564E+0	7.530975E-2	-1.707458E-2	-2.461319E-1	-2.150345E-1
7.059500E+9	-8.340759E-1	-2.124023E-1	8.081665E-1	1.946472E+0	7.477188E-2	-1.836395E-2	-2.470627E-1	-2.189636E-1
7.284000E+9	-8.367615E-1	-2.009888E-1	8.250122E-1	1.864441E+0	7.450867E-2	-1.956940E-2	-2.568359E-1	-2.164764E-1
7.508500E+9	-8.398743E-1	-1.894836E-1	8.386841E-1	1.789001E+0	7.383347E-2	-2.091980E-2	-2.556458E-1	-2.147827E-1
7.733000E+9	-8.414307E-1	-1.787720E-1	8.504028E-1	1.719116E+0	7.339859E-2	-2.170944E-2	-2.654266E-1	-2.171173E-1
7.957500E+9	-8.439331E-1	-1.677551E-1	8.641968E-1	1.652405E+0	7.349777E-2	-2.316666E-2	-2.670441E-1	-2.150879E-1
8.182000E+9	-8.453979E-1	-1.573792E-1	8.757324E-1	1.587219E+0	7.321930E-2	-2.503586E-2	-2.744904E-1	-2.166138E-1
8.406500E+9	-8.464966E-1	-1.494751E-1	8.832397E-1	1.521179E+0	7.239532E-2	-2.557373E-2	-2.784729E-1	-2.122498E-1
8.631000E+9	-8.488159E-1	-1.391602E-1	8.905029E-1	1.459839E+0	7.201004E-2	-2.705765E-2	-2.831726E-1	-2.137909E-1
8.855500E+9	-8.491516E-1	-1.307983E-1	8.963013E-1	1.402344E+0	7.080078E-2	-2.777481E-2	-2.890930E-1	-2.123871E-1
9.080001E+9	-8.511963E-1	-1.229858E-1	8.998413E-1	1.346924E+0	7.103729E-2	-2.936172E-2	-2.923431E-1	-2.100372E-1
9.304500E+9	-8.510132E-1	-1.121521E-1	9.017944E-1	1.293701E+0	7.013702E-2	-3.038406E-2	-2.965546E-1	-2.110596E-1
9.529000E+9	-8.523865E-1	-1.054382E-1	9.043579E-1	1.242310E+0	6.960678E-2	-3.144073E-2	-3.032990E-1	-2.091217E-1
9.753500E+9	-8.523254E-1	-9.783936E-2	9.039917E-1	1.192322E+0	6.912613E-2	-3.257370E-2	-3.065491E-1	-2.070770E-1
9.978000E+9	-8.522644E-1	-9.066772E-2	9.047241E-1	1.146667E+0	6.820297E-2	-3.388596E-2	-3.102264E-1	-2.080688E-1
1.020250E+10	-8.539429E-1	-8.319092E-2	9.052734E-1	1.101807E+0	6.726456E-2	-3.448868E-2	-3.162994E-1	-2.058868E-1
1.042700E+10	-8.549805E-1	-7.473755E-2	9.050903E-1	1.058533E+0	6.713104E-2	-3.569412E-2	-3.189087E-1	-2.056427E-1
1.065150E+10	-8.536377E-1	-6.784058E-2	9.027100E-1	1.016846E+0	6.610489E-2	-3.626633E-2	-3.242950E-1	-2.052917E-1
1.087600E+10	-8.543396E-1	-6.149292E-2	9.010925E-1	9.766235E-1	6.494904E-2	-3.757477E-2	-3.295593E-1	-2.030792E-1
1.110050E+10	-8.554077E-1	-5.398560E-2	8.997803E-1	9.363708E-1	6.446838E-2	-3.808212E-2	-3.329163E-1	-2.014008E-1
1.132500E+10	-8.541260E-1	-4.815674E-2	8.965149E-1	8.990173E-1	6.294632E-2	-3.900528E-2	-3.377380E-1	-2.019653E-1
1.154950E+10	-8.550720E-1	-4.058838E-2	8.924561E-1	8.614807E-1	6.326675E-2	-3.944778E-2	-3.445282E-1	-1.994324E-1
1.177400E+10	-8.538513E-1	-3.533936E-2	8.875427E-1	8.275452E-1	6.100845E-2	-4.060173E-2	-3.484497E-1	-1.964264E-1
1.199850E+10	-8.546448E-1	-2.798462E-2	8.852539E-1	7.944641E-1	6.113815E-2	-4.174232E-2	-3.514099E-1	-1.970367E-1
1.222300E+10	-8.540039E-1	-2.285767E-2	8.802795E-1	7.625122E-1	6.056786E-2	-4.207993E-2	-3.559570E-1	-1.953888E-1
1.244750E+10	-8.541870E-1	-1.751709E-2	8.736877E-1	7.296143E-1	5.907440E-2	-4.301262E-2	-3.620148E-1	-1.919250E-1
1.267200E+10	-8.546143E-1	-1.147461E-2	8.690491E-1	6.986694E-1	5.849838E-2	-4.319954E-2	-3.660889E-1	-1.935425E-1
1.289650E+10	-8.533630E-1	-5.859375E-3	8.617859E-1	6.700439E-1	5.813026E-2	-4.452133E-2	-3.725433E-1	-1.914520E-1
1.312100E+10	-8.530884E-1	-1.068115E-3	8.567505E-1	6.413574E-1	5.664444E-2	-4.530144E-2	-3.759918E-1	-1.867523E-1
1.334550E+10	-8.536987E-1	4.943848E-3	8.504333E-1	6.148987E-1	5.592346E-2	-4.618645E-2	-3.795929E-1	-1.866455E-1
1.357000E+10	-8.520813E-1	1.010132E-2	8.450012E-1	5.876770E-1	5.569649E-2	-4.626465E-2	-3.853912E-1	-1.863861E-1
1.379450E+10	-8.535767E-1	1.556396E-2	8.378601E-1	5.626831E-1	5.421257E-2	-4.666710E-2	-3.912201E-1	-1.819611E-1
1.401900E+10	-8.521423E-1	2.053833E-2	8.327942E-1	5.410461E-1	5.443001E-2	-4.772758E-2	-3.909149E-1	-1.820679E-1
1.424350E+10	-8.510132E-1	2.560425E-2	8.246460E-1	5.141907E-1	5.169296E-2	-4.775810E-2	-3.979187E-1	-1.790466E-1
1.446800E+10	-8.498840E-1	3.012085E-2	8.192749E-1	4.921875E-1	5.146408E-2	-4.914665E-2	-4.034576E-1	-1.741333E-1
1.469250E+10	-8.500977E-1	3.533936E-2	8.117981E-1	4.695129E-1	5.045700E-2	-5.032349E-2	-4.041748E-1	-1.719513E-1
1.491700E+10	-8.491211E-1	3.985596E-2	8.034058E-1	4.469299E-1	4.979897E-2	-5.035782E-2	-4.104004E-1	-1.736450E-1
1.514150E+10	-8.480835E-1	4.452515E-2	7.958374E-1	4.249268E-1	4.758263E-2	-5.060959E-2	-4.144135E-1	-1.669922E-1
1.536600E+10	-8.472900E-1	5.084229E-2	7.882690E-1	4.039307E-1	4.780579E-2	-5.132866E-2	-4.158478E-1	-1.657715E-1
1.559050E+10	-8.466187E-1	5.447388E-2	7.824707E-1	3.847656E-1	4.690552E-2	-5.165100E-2	-4.235382E-1	-1.651917E-1
1.581500E+10	-8.455200E-1	5.914307E-2	7.722168E-1	3.659363E-1	4.575729E-2	-5.280495E-2	-4.286499E-1	-1.607666E-1
1.603950E+10	-8.449707E-1	6.546021E-2	7.660828E-1	3.468628E-1	4.496193E-2	-5.194283E-2	-4.301758E-1	-1.589050E-1
1.626400E+10	-8.452454E-1	6.823730E-2	7.579956E-1	3.298035E-1	4.558563E-2	-5.318069E-2	-4.356232E-1	-1.563721E-1
1.648850E+10	-8.439026E-1	7.238770E-2	7.493591E-1	3.117981E-1	4.289627E-2	-5.323601E-2	-4.398651E-1	-1.513519E-1
1.671300E+10	-8.428345E-1	7.705688E-2	7.427063E-1	2.943115E-1	4.174423E-2	-5.432129E-2	-4.421844E-1	-1.491699E-1
1.693750E+10	-8.430481E-1	8.148193E-2	7.354431E-1	2.795410E-1	4.096603E-2	-5.488014E-2	-4.458008E-1	-1.484070E-1
1.716200E+10	-8.414307E-1	8.566284E-2	7.265930E-1	2.634583E-1	4.034805E-2	-5.502892E-2	-4.526825E-1	-1.424408E-1
1.738650E+10	-8.409424E-1	9.020996E-2	7.200623E-1	2.481689E-1	3.844452E-2	-5.553627E-2	-4.521179E-1	-1.396027E-1
1.761100E+10	-8.393555E-1	9.393311E-2	7.123108E-1	2.348022E-1	3.904915E-2	-5.637741E-2	-4.579315E-1	-1.376801E-1
1.783550E+10	-8.377075E-1	9.863281E-2	7.025146E-1	2.188721E-1	3.665733E-2	-5.524635E-2	-4.649353E-1	-1.315918E-1
1.806000E+10	-8.395081E-1	1.021729E-1	6.962585E-1	2.063904E-1	3.631210E-2	-5.497169E-2	-4.634552E-1	-1.271973E-1
1.828450E+10	-8.370972E-1	1.064758E-1	6.875916E-1	1.920166E-1	3.505898E-2	-5.603027E-2	-4.679718E-1	-1.269379E-1
1.850900E+10	-8.371277E-1	1.095581E-1	6.802063E-1	1.795959E-1	3.374863E-2	-5.621529E-2	-4.738464E-1	-1.224976E-1
1.873350E+10	-8.351440E-1	1.138306E-1	6.725464E-1	1.661377E-1	3.266907E-2	-5.706024E-2	-4.746399E-1	-1.171875E-1
1.895800E+10	-8.338928E-1	1.181030E-1	6.618958E-1	1.544800E-1	3.332710E-2	-5.607605E-2	-4.784546E-1	-1.170349E-1
1.918250E+10	-8.318481E-1	1.196594E-1	6.574097E-1	1.414185E-1	3.084755E-2	-5.741692E-2	-4.835815E-1	-1.138611E-1
1.940700E+10	-8.316345E-1	1.250000E-1	6.484375E-1	1.316528E-1	3.001404E-2	-5.666161E-2	-4.849854E-1	-1.035461E-1
1.963150E+10	-8.300781E-1	1.281738E-1	6.405029E-1	1.186829E-1	2.791023E-2	-5.859566E-2	-4.852448E-1	-1.044922E-1
1.985600E+10	-8.281860E-1	1.324463E-1	6.329041E-1	1.103516E-1	2.619362E-2	-5.806923E-2	-4.923553E-1	-1.006012E-1
2.008050E+10	-8.280334E-1	1.343384E-1	6.251831E-1	9.790039E-2	2.677536E-2	-5.850792E-2	-4.968414E-1	-9.159851E-2
2.030500E+10	-8.266602E-1	1.389465E-1	6.186218E-1	9.011841E-2	2.777290E-2	-5.915260E-2	-4.935608E-1	-9.208679E-2
2.052950E+10	-8.260498E-1	1.418152E-1	6.102295E-1	7.797241E-2	2.375603E-2	-5.755424E-2	-5.008240E-1	-8.813477E-2
2.075400E+10	-8.249817E-1	1.445618E-1	6.021729E-1	6.973267E-2	2.356339E-2	-5.812836E-2	-5.030518E-1	-8.053589E-2
2.097850E+10	-8.245544E-1	1.486206E-1	5.961304E-1	6.079102E-2	2.190971E-2	-5.770111E-2	-5.033264E-1	-7.855225E-2
2.120300E+10	-8.214417E-1	1.524658E-1	5.851746E-1	4.910278E-2	2.126503E-2	-5.796432E-2	-5.084229E-1	-7.809448E-2
2.142750E+10	-8.219910E-1	1.558533E-1	5.795288E-1	4.351807E-2	1.948357E-2	-5.836868E-2	-5.127563E-1	-6.930542E-2
2.165200E+10	-8.212891E-1	1.593933E-1	5.718689E-1	3.475952E-2	1.933479E-2	-5.769157E-2	-5.122986E-1	-6.869507E-2
2.187650E+10	-8.190308E-1	1.628723E-1	5.651855E-1	2.618408E-2	1.649666E-2	-5.904961E-2	-5.159302E-1	-6.521606E-2
2.210100E+10	-8.202209E-1	1.670532E-1	5.581055E-1	1.733398E-2	1.794624E-2	-5.716705E-2	-5.204163E-1	-5.514526E-2
2.232550E+10	-8.174744E-1	1.701050E-1	5.509338E-1	1.129150E-2	1.516533E-2	-5.787659E-2	-5.199890E-1	-5.123901E-2
2.255000E+10	-8.166199E-1	1.721802E-1	5.442200E-1	4.638672E-3	1.595879E-2	-5.880547E-2	-5.231018E-1	-4.995728E-2
2.277450E+10	-8.147888E-1	1.763306E-1	5.366516E-1	-4.394531E-3	1.282692E-2	-5.857468E-2	-5.269165E-1	-4.180908E-2
2.299900E+10	-8.138733E-1	1.785889E-1	5.299683E-1	-1.095581E-2	1.264572E-2	-5.731773E-2	-5.229187E-1	-3.753662E-2
2.322350E+10	-8.127136E-1	1.817932E-1	5.262451E-1	-1.876831E-2	1.239777E-2	-5.753517E-2	-5.303955E-1	-3.622437E-2
2.344800E+10	-8.105164E-1	1.838074E-1	5.159912E-1	-2.261353E-2	1.067162E-2	-5.820656E-2	-5.329285E-1	-2.777100E-2
2.367250E+10	-8.119202E-1	1.908264E-1	5.091858E-1	-3.207397E-2	1.004219E-2	-5.838394E-2	-5.299377E-1	-2.304077E-2
2.389700E+10	-8.112183E-1	1.928406E-1	5.023499E-1	-3.561401E-2	7.875443E-3	-5.765724E-2	-5.355835E-1	-2.078247E-2
2.412150E+10	-8.068848E-1	1.963806E-1	4.965668E-1	-4.469299E-2	6.864548E-3	-5.727577E-2	-5.358582E-1	-1.165771E-2
2.434600E+10	-8.053894E-1	1.987915E-1	4.876251E-1	-4.859924E-2	5.281448E-3	-5.670166E-2	-5.329285E-1	-8.636475E-3
2.457050E+10	-8.038940E-1	2.020264E-1	4.825287E-1	-5.473328E-2	1.726151E-3	-5.586433E-2	-5.404968E-1	-5.035400E-3
2.479500E+10	-8.039551E-1	2.054138E-1	4.741821E-1	-5.924988E-2	1.125336E-3	-5.578804E-2	-5.388184E-1	5.371094E-3
2.501950E+10	-8.014526E-1	2.085266E-1	4.672699E-1	-6.388855E-2	2.685547E-3	-5.480766E-2	-5.369873E-1	5.767822E-3
2.524400E+10	-8.009949E-1	2.115173E-1	4.616241E-1	-6.822205E-2	1.522064E-3	-5.260658E-2	-5.401917E-1	9.277344E-3
2.546850E+10	-7.983398E-1	2.148132E-1	4.554596E-1	-7.148743E-2	3.032684E-4	-5.406380E-2	-5.399475E-1	1.773071E-2
2.569300E+10	-7.969666E-1	2.163391E-1	4.488983E-1	-7.640076E-2	-1.344681E-3	-5.307579E-2	-5.401306E-1	1.754761E-2
2.591750E+10	-7.962646E-1	2.216797E-1	4.441681E-1	-8.164978E-2	-1.205444E-3	-5.335808E-2	-5.432434E-1	2.230835E-2
2.614200E+10	-7.955627E-1	2.257690E-1	4.390717E-1	-8.468628E-2	-3.417969E-3	-5.261612E-2	-5.455933E-1	2.975464E-2
2.636650E+10	-7.944031E-1	2.254333E-1	4.326019E-1	-8.876038E-2	-2.904892E-3	-4.985237E-2	-5.476074E-1	3.683472E-2
2.659100E+10	-7.913208E-1	2.286072E-1	4.250793E-1	-9.432983E-2	-3.734589E-3	-5.107117E-2	-5.446777E-1	4.132080E-2
2.681550E+10	-7.898865E-1	2.317505E-1	4.203491E-1	-9.678650E-2	-3.870010E-3	-5.174828E-2	-5.474548E-1	4.418945E-2
2.704000E+10	-7.897034E-1	2.359619E-1	4.116516E-1	-1.008453E-1	-5.344391E-3	-5.211067E-2	-5.475464E-1	5.676270E-2
2.726450E+10	-7.856750E-1	2.362366E-1	4.067230E-1	-1.042938E-1	-8.094788E-3	-5.144501E-2	-5.411377E-1	5.349731E-2
2.748900E+10	-7.844849E-1	2.398987E-1	4.023590E-1	-1.071167E-1	-9.460449E-3	-4.796791E-2	-5.435486E-1	5.718994E-2
2.771350E+10	-7.827759E-1	2.421570E-1	3.970184E-1	-1.114197E-1	-9.759903E-3	-4.922676E-2	-5.464783E-1	6.475830E-2
2.793800E+10	-7.835999E-1	2.449036E-1	3.921814E-1	-1.161194E-1	-9.746552E-3	-4.737663E-2	-5.473938E-1	6.887817E-2
2.816250E+10	-7.808228E-1	2.498169E-1	3.854370E-1	-1.183929E-1	-1.321793E-2	-4.705811E-2	-5.498657E-1	7.775879E-2
2.838700E+10	-7.792053E-1	2.474976E-1	3.804474E-1	-1.206818E-1	-1.213646E-2	-4.634666E-2	-5.465088E-1	8.261108E-2
2.861150E+10	-7.783813E-1	2.550964E-1	3.748322E-1	-1.241455E-1	-1.164627E-2	-4.479599E-2	-5.462952E-1	8.618164E-2
2.883600E+10	-7.779236E-1	2.569580E-1	3.712006E-1	-1.260834E-1	-1.239014E-2	-4.640579E-2	-5.481262E-1	9.265137E-2
2.906050E+10	-7.763062E-1	2.603760E-1	3.661652E-1	-1.295166E-1	-1.528358E-2	-4.345894E-2	-5.449219E-1	9.707642E-2
2.928500E+10	-7.743835E-1	2.617187E-1	3.601227E-1	-1.281433E-1	-1.511765E-2	-4.307556E-2	-5.442505E-1	1.015320E-1
2.950950E+10	-7.713623E-1	2.666931E-1	3.567810E-1	-1.336975E-1	-1.605606E-2	-4.180717E-2	-5.513611E-1	1.042175E-1
2.973400E+10	-7.709351E-1	2.677002E-1	3.529816E-1	-1.345673E-1	-1.658249E-2	-3.934479E-2	-5.493164E-1	1.108704E-1
2.995850E+10	-7.674561E-1	2.698364E-1	3.419342E-1	-1.372070E-1	-1.819992E-2	-3.866386E-2	-5.482788E-1	1.188354E-1
3.018300E+10	-7.663269E-1	2.711487E-1	3.431854E-1	-1.386108E-1	-1.921272E-2	-4.116631E-2	-5.503845E-1	1.286316E-1
3.040750E+10	-7.644653E-1	2.733765E-1	3.367462E-1	-1.438293E-1	-1.692009E-2	-3.860855E-2	-5.470886E-1	1.297913E-1
3.063200E+10	-7.645264E-1	2.762146E-1	3.329010E-1	-1.449890E-1	-1.799583E-2	-3.758049E-2	-5.481873E-1	1.406860E-1
3.085650E+10	-7.607727E-1	2.816467E-1	3.263702E-1	-1.447144E-1	-1.901436E-2	-3.805351E-2	-5.459900E-1	1.421204E-1
3.108100E+10	-7.587585E-1	2.849426E-1	3.259430E-1	-1.470642E-1	-1.910591E-2	-3.686714E-2	-5.445557E-1	1.497498E-1
3.130550E+10	-7.593689E-1	2.841187E-1	3.222351E-1	-1.482086E-1	-1.896095E-2	-3.223801E-2	-5.386353E-1	1.520996E-1
3.153000E+10	-7.594299E-1	2.875061E-1	3.149872E-1	-1.548157E-1	-2.270889E-2	-3.394890E-2	-5.459595E-1	1.535034E-1
3.175450E+10	-7.581482E-1	2.920837E-1	3.068542E-1	-1.596222E-1	-2.360916E-2	-3.297997E-2	-5.397034E-1	1.687622E-1
3.197900E+10	-7.520752E-1	2.918091E-1	3.075714E-1	-1.557312E-1	-2.122974E-2	-2.959251E-2	-5.300293E-1	1.676941E-1
3.220350E+10	-7.504272E-1	2.963867E-1	3.048096E-1	-1.588898E-1	-2.213287E-2	-3.310776E-2	-5.346375E-1	1.805420E-1
3.242800E+10	-7.573547E-1	2.981262E-1	3.021698E-1	-1.565094E-1	-2.248859E-2	-2.932930E-2	-5.361023E-1	1.832275E-1
3.265250E+10	-7.492676E-1	2.984009E-1	2.967224E-1	-1.600952E-1	-2.500153E-2	-2.671814E-2	-5.302734E-1	1.834717E-1
3.287700E+10	-7.450256E-1	3.049011E-1	2.913818E-1	-1.629639E-1	-2.107620E-2	-2.673912E-2	-5.317383E-1	1.913452E-1
3.310150E+10	-7.475281E-1	3.052368E-1	2.872314E-1	-1.601562E-1	-2.480125E-2	-2.819920E-2	-5.241394E-1	1.982422E-1
3.332600E+10	-7.438660E-1	3.058472E-1	2.789917E-1	-1.644745E-1	-2.899647E-2	-2.712917E-2	-5.274963E-1	1.990356E-1
3.355050E+10	-7.409973E-1	3.104248E-1	2.817078E-1	-1.674805E-1	-2.463722E-2	-2.264023E-2	-5.276489E-1	2.104797E-1
3.377500E+10	-7.412415E-1	3.111572E-1	2.758789E-1	-1.649170E-1	-2.318859E-2	-2.241611E-2	-5.219421E-1	2.116699E-1
3.399950E+10	-7.367554E-1	3.133240E-1	2.738647E-1	-1.679840E-1	-2.711582E-2	-2.334976E-2	-5.244751E-1	2.145691E-1
3.422400E+10	-7.383728E-1	3.178406E-1	2.672424E-1	-1.693115E-1	-2.458286E-2	-2.148437E-2	-5.234680E-1	2.293091E-1
3.444850E+10	-7.354736E-1	3.201904E-1	2.655334E-1	-1.763306E-1	-2.943516E-2	-1.714516E-2	-5.165405E-1	2.259521E-1
3.467300E+10	-7.357178E-1	3.203735E-1	2.731781E-1	-1.700592E-1	-2.724361E-2	-1.803493E-2	-5.214844E-1	2.338562E-1
3.489750E+10	-7.342224E-1	3.225403E-1	2.590790E-1	-1.736298E-1	-2.649307E-2	-1.716518E-2	-5.102539E-1	2.458801E-1
3.512200E+10	-7.292786E-1	3.239441E-1	2.561188E-1	-1.773224E-1	-2.666759E-2	-1.687813E-2	-5.057983E-1	2.415161E-1
3.534650E+10	-7.291565E-1	3.264771E-1	2.521057E-1	-1.804352E-1	-2.757931E-2	-1.732254E-2	-5.090332E-1	2.540283E-1
3.557100E+10	-7.276611E-1	3.287964E-1	2.531281E-1	-1.802826E-1	-2.727509E-2	-1.811504E-2	-5.022278E-1	2.669983E-1
3.579550E+10	-7.230530E-1	3.311768E-1	2.467422E-1	-1.764755E-1	-2.976894E-2	-1.447105E-2	-4.945831E-1	2.618866E-1
3.602000E+10	-7.281494E-1	3.334045E-1	2.437897E-1	-1.841736E-1	-2.981663E-2	-1.346207E-2	-4.937897E-1	2.688751E-1
3.624450E+10	-7.193604E-1	3.318176E-1	2.454681E-1	-1.794891E-1	-3.127480E-2	-1.139259E-2	-4.913177E-1	2.670441E-1
3.646900E+10	-7.187805E-1	3.399963E-1	2.390671E-1	-1.864548E-1	-2.787018E-2	-8.534431E-3	-4.907990E-1	2.815857E-1
3.669350E+10	-7.170715E-1	3.391724E-1	2.314987E-1	-1.885681E-1	-2.794266E-2	-8.040428E-3	-4.787140E-1	2.859955E-1
3.691800E+10	-7.143860E-1	3.386230E-1	2.311249E-1	-1.909409E-1	-3.099346E-2	-5.154610E-3	-4.766846E-1	2.908630E-1
3.714250E+10	-7.136230E-1	3.418274E-1	2.224121E-1	-1.925659E-1	-2.856922E-2	-3.978729E-3	-4.752655E-1	3.014069E-1
3.736700E+10	-7.121887E-1	3.435364E-1	2.271881E-1	-1.915131E-1	-2.974606E-2	-3.019333E-3	-4.748840E-1	2.964172E-1
3.759150E+10	-7.109680E-1	3.438110E-1	2.239151E-1	-1.898041E-1	-2.641869E-2	-6.763458E-3	-4.726868E-1	3.096466E-1
3.781600E+10	-7.071838E-1	3.513184E-1	2.189407E-1	-1.904221E-1	-2.736187E-2	-4.154205E-3	-4.637604E-1	3.126221E-1
3.804050E+10	-7.087097E-1	3.467102E-1	2.118301E-1	-1.877899E-1	-3.050327E-2	2.674103E-3	-4.509735E-1	3.240356E-1
3.826500E+10	-7.102661E-1	3.523560E-1	2.129669E-1	-1.923218E-1	-2.602673E-2	-5.229950E-3	-4.537354E-1	3.268738E-1
3.848950E+10	-7.008057E-1	3.531494E-1	2.080002E-1	-1.946869E-1	-2.357483E-2	-1.842499E-3	-4.404755E-1	3.252258E-1
3.871400E+10	-7.020264E-1	3.554077E-1	2.054062E-1	-1.965942E-1	-2.717781E-2	1.238823E-3	-4.435272E-1	3.344269E-1
3.893850E+10	-6.998291E-1	3.576965E-1	2.085114E-1	-1.930618E-1	-2.421570E-2	4.713058E-3	-4.340210E-1	3.443756E-1
3.916300E+10	-6.997070E-1	3.541870E-1	2.031708E-1	-2.037888E-1	-2.787685E-2	1.152992E-3	-4.275513E-1	3.390503E-1
