!Date: 10/28/2005, 12:46 PM

!Vgs = -1.000000E+0
!Vds = 5.000000E+0
!Ig = -1.173500E-5
!Id = 7.679400E-1

# HZ S RI R 50
1.000000E+8	9.607544E-1	-2.216492E-1	-9.163086E+0	3.559570E-1	1.197338E-3	1.311207E-2	7.077408E-2	-9.700394E-2
3.245000E+8	7.254028E-1	-6.156921E-1	-7.784180E+0	3.102295E+0	1.307487E-2	3.039360E-2	-1.581421E-1	-1.875916E-1
5.490000E+8	4.139404E-1	-8.381958E-1	-6.098877E+0	4.337402E+0	2.924347E-2	3.989983E-2	-2.052841E-1	-2.089996E-1
7.735000E+8	1.297607E-1	-9.117737E-1	-4.606689E+0	4.718262E+0	4.377556E-2	4.195976E-2	-2.916565E-1	-2.423096E-1
9.980000E+8	-9.738159E-2	-9.014893E-1	-3.427734E+0	4.639404E+0	5.526161E-2	4.010201E-2	-3.517456E-1	-2.193298E-1
1.222500E+9	-2.723999E-1	-8.568115E-1	-2.539795E+0	4.397949E+0	6.330109E-2	3.657913E-2	-3.854065E-1	-2.104340E-1
1.447000E+9	-4.026794E-1	-7.999268E-1	-1.883057E+0	4.095947E+0	6.940460E-2	3.310013E-2	-4.212952E-1	-1.910400E-1
1.671500E+9	-4.996033E-1	-7.401123E-1	-1.402466E+0	3.790405E+0	7.382202E-2	2.897644E-2	-4.431915E-1	-1.761780E-1
1.896000E+9	-5.743408E-1	-6.814270E-1	-1.044312E+0	3.499756E+0	7.743454E-2	2.520752E-2	-4.617004E-1	-1.587830E-1
2.120500E+9	-6.301880E-1	-6.280212E-1	-7.718506E-1	3.248413E+0	8.023453E-2	2.188873E-2	-4.752808E-1	-1.459198E-1
2.345000E+9	-6.743774E-1	-5.768433E-1	-5.523682E-1	3.008667E+0	8.192825E-2	1.834869E-2	-4.877625E-1	-1.296844E-1
2.569500E+9	-7.060547E-1	-5.321350E-1	-3.829346E-1	2.789185E+0	8.324814E-2	1.520157E-2	-4.929352E-1	-1.179199E-1
2.794000E+9	-7.338562E-1	-4.946594E-1	-2.503662E-1	2.603760E+0	8.446121E-2	1.185608E-2	-5.018005E-1	-1.076355E-1
3.018500E+9	-7.553406E-1	-4.584961E-1	-1.424561E-1	2.428833E+0	8.568192E-2	9.353638E-3	-5.057068E-1	-9.445190E-2
3.243000E+9	-7.735291E-1	-4.253235E-1	-5.383301E-2	2.277588E+0	8.553314E-2	7.007599E-3	-5.086060E-1	-8.810425E-2
3.467500E+9	-7.887268E-1	-3.966980E-1	2.185059E-2	2.140015E+0	8.650589E-2	4.634857E-3	-5.149231E-1	-7.742310E-2
3.692000E+9	-8.014221E-1	-3.705139E-1	8.532715E-2	2.016479E+0	8.644485E-2	2.490997E-3	-5.147400E-1	-7.107544E-2
3.916500E+9	-8.122864E-1	-3.447266E-1	1.356812E-1	1.901855E+0	8.679199E-2	1.182556E-4	-5.207214E-1	-6.500244E-2
4.141000E+9	-8.216553E-1	-3.222656E-1	1.801758E-1	1.800049E+0	8.723831E-2	-1.811981E-3	-5.220337E-1	-5.541992E-2
4.365500E+9	-8.276062E-1	-3.017578E-1	2.183228E-1	1.705017E+0	8.679962E-2	-3.574371E-3	-5.230103E-1	-5.169678E-2
4.590000E+9	-8.346558E-1	-2.832947E-1	2.510986E-1	1.616272E+0	8.703232E-2	-5.329132E-3	-5.270691E-1	-4.385376E-2
4.814500E+9	-8.406067E-1	-2.654724E-1	2.770386E-1	1.534302E+0	8.723068E-2	-7.526398E-3	-5.270691E-1	-3.784180E-2
5.039000E+9	-8.453064E-1	-2.482910E-1	3.001099E-1	1.461731E+0	8.726883E-2	-8.769989E-3	-5.289612E-1	-3.427124E-2
5.263500E+9	-8.494873E-1	-2.314453E-1	3.213501E-1	1.393738E+0	8.661652E-2	-1.087952E-2	-5.298462E-1	-2.725220E-2
5.488000E+9	-8.525085E-1	-2.175598E-1	3.394165E-1	1.331848E+0	8.663559E-2	-1.209259E-2	-5.305176E-1	-2.273560E-2
5.712500E+9	-8.559875E-1	-2.044373E-1	3.559570E-1	1.271118E+0	8.602905E-2	-1.367569E-2	-5.315857E-1	-1.791382E-2
5.937000E+9	-8.588867E-1	-1.901550E-1	3.688965E-1	1.213806E+0	8.620453E-2	-1.553345E-2	-5.325623E-1	-1.373291E-2
6.161500E+9	-8.613281E-1	-1.790161E-1	3.815918E-1	1.162537E+0	8.616257E-2	-1.694489E-2	-5.335083E-1	-6.439209E-3
6.386000E+9	-8.642883E-1	-1.661682E-1	3.923340E-1	1.113342E+0	8.566284E-2	-1.849747E-2	-5.313416E-1	-2.929687E-3
6.610500E+9	-8.652954E-1	-1.553955E-1	4.025879E-1	1.067871E+0	8.538055E-2	-2.013016E-2	-5.342102E-1	-1.159668E-3
6.835000E+9	-8.679199E-1	-1.452942E-1	4.104614E-1	1.022339E+0	8.490372E-2	-2.173615E-2	-5.338440E-1	7.873535E-3
7.059500E+9	-8.696594E-1	-1.355896E-1	4.152527E-1	9.817505E-1	8.385086E-2	-2.300262E-2	-5.303040E-1	6.317139E-3
7.284000E+9	-8.703308E-1	-1.258240E-1	4.200745E-1	9.433594E-1	8.352661E-2	-2.419662E-2	-5.350342E-1	1.104736E-2
7.508500E+9	-8.720703E-1	-1.150208E-1	4.243164E-1	9.060364E-1	8.329391E-2	-2.523422E-2	-5.294189E-1	1.452637E-2
7.733000E+9	-8.721619E-1	-1.069031E-1	4.288330E-1	8.718567E-1	8.243179E-2	-2.605057E-2	-5.354614E-1	1.513672E-2
7.957500E+9	-8.731384E-1	-9.722900E-2	4.346924E-1	8.390198E-1	8.193588E-2	-2.787399E-2	-5.340271E-1	2.224731E-2
8.182000E+9	-8.736877E-1	-8.865356E-2	4.399719E-1	8.082275E-1	8.258820E-2	-2.925110E-2	-5.367737E-1	2.267456E-2
8.406500E+9	-8.739319E-1	-8.200073E-2	4.407959E-1	7.775269E-1	8.118820E-2	-3.016663E-2	-5.350647E-1	3.067017E-2
8.631000E+9	-8.751831E-1	-7.305908E-2	4.437256E-1	7.471619E-1	7.982254E-2	-3.170013E-2	-5.340881E-1	3.213501E-2
8.855500E+9	-8.749084E-1	-6.546021E-2	4.453125E-1	7.191772E-1	8.029938E-2	-3.254700E-2	-5.361328E-1	3.686523E-2
9.080001E+9	-8.759766E-1	-5.926514E-2	4.461670E-1	6.932678E-1	7.901764E-2	-3.434372E-2	-5.334778E-1	4.107666E-2
9.304500E+9	-8.751526E-1	-4.974365E-2	4.466553E-1	6.683960E-1	7.806015E-2	-3.503036E-2	-5.315552E-1	4.165649E-2
9.529000E+9	-8.760986E-1	-4.385376E-2	4.481201E-1	6.430359E-1	7.728577E-2	-3.592300E-2	-5.351257E-1	4.644775E-2
9.753500E+9	-8.764343E-1	-3.741455E-2	4.476929E-1	6.192932E-1	7.693481E-2	-3.752899E-2	-5.327454E-1	5.166626E-2
9.978000E+9	-8.757935E-1	-3.036499E-2	4.480286E-1	5.967407E-1	7.540894E-2	-3.846359E-2	-5.332642E-1	5.294800E-2
1.020250E+10	-8.766174E-1	-2.447510E-2	4.479675E-1	5.759583E-1	7.572556E-2	-3.934097E-2	-5.343323E-1	5.703735E-2
1.042700E+10	-8.769531E-1	-1.760864E-2	4.472656E-1	5.560303E-1	7.464981E-2	-4.093170E-2	-5.308533E-1	6.066895E-2
1.065150E+10	-8.757935E-1	-1.150513E-2	4.467163E-1	5.358276E-1	7.406616E-2	-4.092789E-2	-5.321045E-1	6.204224E-2
1.087600E+10	-8.761597E-1	-5.401611E-3	4.461670E-1	5.167236E-1	7.283783E-2	-4.245758E-2	-5.322571E-1	6.552124E-2
1.110050E+10	-8.762817E-1	1.617432E-3	4.455719E-1	4.969635E-1	7.173538E-2	-4.345703E-2	-5.313110E-1	7.037354E-2
1.132500E+10	-8.759155E-1	6.103516E-3	4.435730E-1	4.800262E-1	7.078934E-2	-4.403687E-2	-5.314636E-1	7.086182E-2
1.154950E+10	-8.757935E-1	1.330566E-2	4.425659E-1	4.621429E-1	7.030869E-2	-4.503632E-2	-5.331726E-1	7.495117E-2
1.177400E+10	-8.741150E-1	1.846313E-2	4.410858E-1	4.460144E-1	6.905746E-2	-4.622650E-2	-5.305176E-1	7.943726E-2
1.199850E+10	-8.738403E-1	2.310181E-2	4.399414E-1	4.299011E-1	6.834030E-2	-4.658890E-2	-5.298767E-1	8.020020E-2
1.222300E+10	-8.742981E-1	2.902222E-2	4.374542E-1	4.151917E-1	6.732559E-2	-4.755020E-2	-5.300903E-1	8.288574E-2
1.244750E+10	-8.731384E-1	3.341675E-2	4.347839E-1	3.980103E-1	6.591797E-2	-4.721832E-2	-5.303955E-1	8.670044E-2
1.267200E+10	-8.733826E-1	3.994751E-2	4.336090E-1	3.837280E-1	6.520081E-2	-4.917145E-2	-5.285950E-1	8.831787E-2
1.289650E+10	-8.717651E-1	4.394531E-2	4.299622E-1	3.700104E-1	6.498337E-2	-4.898453E-2	-5.305786E-1	9.103394E-2
1.312100E+10	-8.713989E-1	4.898071E-2	4.289551E-1	3.567352E-1	6.340408E-2	-5.036163E-2	-5.303040E-1	9.561157E-2
1.334550E+10	-8.712158E-1	5.404663E-2	4.266357E-1	3.438721E-1	6.303787E-2	-5.051041E-2	-5.267334E-1	9.689331E-2
1.357000E+10	-8.707275E-1	5.789185E-2	4.234009E-1	3.308411E-1	6.190300E-2	-5.116844E-2	-5.285034E-1	9.689331E-2
1.379450E+10	-8.703003E-1	6.320190E-2	4.195557E-1	3.167267E-1	6.122398E-2	-5.280876E-2	-5.291443E-1	1.025696E-1
1.401900E+10	-8.693237E-1	6.814575E-2	4.186707E-1	3.078156E-1	6.087494E-2	-5.311775E-2	-5.261230E-1	1.047363E-1
1.424350E+10	-8.683167E-1	7.238770E-2	4.142609E-1	2.945557E-1	5.843544E-2	-5.353546E-2	-5.277710E-1	1.070557E-1
1.446800E+10	-8.675842E-1	7.763672E-2	4.136963E-1	2.838745E-1	5.791283E-2	-5.410385E-2	-5.274658E-1	1.121826E-1
1.469250E+10	-8.665161E-1	8.242798E-2	4.089813E-1	2.725067E-1	5.718422E-2	-5.462837E-2	-5.226440E-1	1.145630E-1
1.491700E+10	-8.654175E-1	8.706665E-2	4.071350E-1	2.620850E-1	5.616570E-2	-5.443764E-2	-5.250854E-1	1.145325E-1
1.514150E+10	-8.647766E-1	9.121704E-2	4.036407E-1	2.524414E-1	5.514145E-2	-5.551338E-2	-5.252075E-1	1.201782E-1
1.536600E+10	-8.639526E-1	9.585571E-2	4.011078E-1	2.418365E-1	5.383110E-2	-5.476189E-2	-5.223083E-1	1.217041E-1
1.559050E+10	-8.630066E-1	1.005249E-1	3.977966E-1	2.317963E-1	5.318069E-2	-5.505371E-2	-5.236206E-1	1.225281E-1
1.581500E+10	-8.608704E-1	1.052246E-1	3.956757E-1	2.234802E-1	5.307579E-2	-5.612373E-2	-5.233459E-1	1.274414E-1
1.603950E+10	-8.624878E-1	1.080627E-1	3.926697E-1	2.138519E-1	5.105019E-2	-5.838966E-2	-5.214233E-1	1.285095E-1
1.626400E+10	-8.591309E-1	1.140137E-1	3.883972E-1	2.054749E-1	4.964828E-2	-5.743408E-2	-5.234070E-1	1.300049E-1
1.648850E+10	-8.595581E-1	1.164246E-1	3.851776E-1	1.958313E-1	4.874611E-2	-5.781555E-2	-5.225525E-1	1.341858E-1
1.671300E+10	-8.577881E-1	1.220093E-1	3.821259E-1	1.870270E-1	4.817772E-2	-5.866814E-2	-5.206909E-1	1.370850E-1
1.693750E+10	-8.580322E-1	1.255493E-1	3.797302E-1	1.795197E-1	4.728127E-2	-5.928612E-2	-5.203552E-1	1.386414E-1
1.716200E+10	-8.570862E-1	1.306458E-1	3.758240E-1	1.721954E-1	4.601860E-2	-6.008911E-2	-5.215149E-1	1.437378E-1
1.738650E+10	-8.552856E-1	1.337280E-1	3.732452E-1	1.648102E-1	4.461861E-2	-5.911255E-2	-5.192566E-1	1.457825E-1
1.761100E+10	-8.534851E-1	1.383667E-1	3.694916E-1	1.585846E-1	4.470062E-2	-5.950737E-2	-5.211792E-1	1.468506E-1
1.783550E+10	-8.524780E-1	1.438599E-1	3.674927E-1	1.504974E-1	4.249763E-2	-6.016159E-2	-5.202942E-1	1.517029E-1
1.806000E+10	-8.520813E-1	1.467285E-1	3.626862E-1	1.442871E-1	4.096222E-2	-6.074142E-2	-5.186157E-1	1.548157E-1
1.828450E+10	-8.488770E-1	1.497192E-1	3.591309E-1	1.379242E-1	4.096222E-2	-5.960274E-2	-5.167542E-1	1.554871E-1
1.850900E+10	-8.488159E-1	1.546631E-1	3.577423E-1	1.302643E-1	3.992844E-2	-6.141853E-2	-5.195923E-1	1.598816E-1
1.873350E+10	-8.488464E-1	1.580505E-1	3.540497E-1	1.249237E-1	3.875351E-2	-5.998039E-2	-5.153198E-1	1.654968E-1
1.895800E+10	-8.440552E-1	1.613159E-1	3.506165E-1	1.174011E-1	3.666496E-2	-6.096458E-2	-5.151062E-1	1.649780E-1
1.918250E+10	-8.462830E-1	1.651611E-1	3.463593E-1	1.115265E-1	3.613663E-2	-6.022263E-2	-5.172424E-1	1.678162E-1
1.940700E+10	-8.446350E-1	1.688538E-1	3.444519E-1	1.070404E-1	3.490448E-2	-6.261826E-2	-5.137939E-1	1.755066E-1
1.963150E+10	-8.427429E-1	1.726990E-1	3.404236E-1	9.910583E-2	3.343201E-2	-6.133080E-2	-5.110474E-1	1.736145E-1
1.985600E+10	-8.422546E-1	1.752319E-1	3.377686E-1	9.533691E-2	3.187370E-2	-6.231117E-2	-5.123291E-1	1.759338E-1
2.008050E+10	-8.393250E-1	1.788025E-1	3.324432E-1	9.034729E-2	3.162003E-2	-6.348419E-2	-5.121155E-1	1.830139E-1
2.030500E+10	-8.392334E-1	1.820068E-1	3.305664E-1	8.488464E-2	3.029251E-2	-6.217575E-2	-5.094299E-1	1.822205E-1
2.052950E+10	-8.378601E-1	1.860046E-1	3.270416E-1	8.059692E-2	3.021622E-2	-6.297302E-2	-5.100403E-1	1.851501E-1
2.075400E+10	-8.358154E-1	1.889038E-1	3.266602E-1	7.525635E-2	2.879715E-2	-6.143379E-2	-5.115967E-1	1.903381E-1
2.097850E+10	-8.356323E-1	1.923523E-1	3.223572E-1	7.182312E-2	2.685165E-2	-6.312943E-2	-5.059814E-1	1.924438E-1
2.120300E+10	-8.325195E-1	1.954041E-1	3.191071E-1	6.800842E-2	2.652359E-2	-6.249237E-2	-5.059204E-1	1.914368E-1
2.142750E+10	-8.332520E-1	1.976929E-1	3.169708E-1	6.369019E-2	2.624893E-2	-6.143379E-2	-5.073242E-1	1.998291E-1
2.165200E+10	-8.312988E-1	2.034302E-1	3.160706E-1	5.760193E-2	2.420998E-2	-6.001854E-2	-5.061340E-1	2.010498E-1
2.187650E+10	-8.273315E-1	2.071533E-1	3.106537E-1	5.433655E-2	2.363777E-2	-6.166267E-2	-5.068665E-1	2.034607E-1
2.210100E+10	-8.283081E-1	2.094727E-1	3.077698E-1	4.809570E-2	2.153015E-2	-6.210327E-2	-5.063782E-1	2.103577E-1
2.232550E+10	-8.255920E-1	2.116089E-1	3.057251E-1	4.582214E-2	2.225876E-2	-6.269073E-2	-5.010986E-1	2.146912E-1
2.255000E+10	-8.268433E-1	2.160645E-1	3.009033E-1	4.290771E-2	1.955414E-2	-6.236839E-2	-5.018616E-1	2.155762E-1
2.277450E+10	-8.235474E-1	2.206116E-1	2.992706E-1	3.771973E-2	1.936722E-2	-6.166840E-2	-5.008240E-1	2.214050E-1
2.299900E+10	-8.220825E-1	2.215271E-1	2.974854E-1	3.454590E-2	1.806259E-2	-6.171608E-2	-4.975281E-1	2.190704E-1
2.322350E+10	-8.206177E-1	2.265930E-1	2.954559E-1	3.152466E-2	1.505661E-2	-6.093597E-2	-5.002747E-1	2.220459E-1
2.344800E+10	-8.184814E-1	2.271423E-1	2.919617E-1	2.896118E-2	1.467514E-2	-6.127739E-2	-4.976654E-1	2.294464E-1
2.367250E+10	-8.171692E-1	2.317505E-1	2.891388E-1	2.513123E-2	1.369095E-2	-6.129265E-2	-4.922485E-1	2.303619E-1
2.389700E+10	-8.139954E-1	2.343140E-1	2.863312E-1	2.136230E-2	9.923935E-3	-6.137848E-2	-4.962463E-1	2.325897E-1
2.412150E+10	-8.137512E-1	2.372131E-1	2.828827E-1	1.860046E-2	1.175690E-2	-5.868721E-2	-4.915619E-1	2.383728E-1
2.434600E+10	-8.116760E-1	2.411804E-1	2.791748E-1	1.675415E-2	1.089478E-2	-5.908394E-2	-4.882355E-1	2.415771E-1
2.457050E+10	-8.105774E-1	2.435303E-1	2.787933E-1	1.197815E-2	1.015663E-2	-5.894089E-2	-4.891663E-1	2.437592E-1
2.479500E+10	-8.078918E-1	2.472534E-1	2.764587E-1	1.089478E-2	6.874084E-3	-5.864906E-2	-4.854889E-1	2.483978E-1
2.501950E+10	-8.050232E-1	2.502136E-1	2.725983E-1	8.834839E-3	5.294800E-3	-5.736732E-2	-4.815826E-1	2.502747E-1
2.524400E+10	-8.056030E-1	2.511292E-1	2.702942E-1	3.814697E-3	4.272461E-3	-5.630493E-2	-4.786682E-1	2.486877E-1
2.546850E+10	-8.032532E-1	2.569885E-1	2.677155E-1	2.655029E-3	2.906799E-3	-5.438423E-2	-4.785461E-1	2.557068E-1
2.569300E+10	-7.995911E-1	2.580872E-1	2.677002E-1	1.541138E-3	2.632141E-3	-5.414391E-2	-4.782867E-1	2.547302E-1
2.591750E+10	-7.992554E-1	2.629395E-1	2.660828E-1	-1.068115E-3	3.124237E-3	-5.382156E-2	-4.778290E-1	2.549896E-1
2.614200E+10	-7.954102E-1	2.644043E-1	2.626038E-1	-1.831055E-4	4.642487E-3	-5.439377E-2	-4.768066E-1	2.630615E-1
2.636650E+10	-7.953186E-1	2.645874E-1	2.616577E-1	-4.653931E-3	1.031876E-3	-5.399323E-2	-4.754028E-1	2.685089E-1
2.659100E+10	-7.937927E-1	2.691040E-1	2.583466E-1	-9.017944E-3	-6.961823E-4	-5.383110E-2	-4.698639E-1	2.717133E-1
2.681550E+10	-7.904053E-1	2.691650E-1	2.584991E-1	-1.159668E-2	-3.814697E-6	-5.273819E-2	-4.704895E-1	2.722168E-1
2.704000E+10	-7.910156E-1	2.734680E-1	2.553864E-1	-1.356506E-2	-1.785278E-3	-5.113602E-2	-4.706268E-1	2.802887E-1
2.726450E+10	-7.870178E-1	2.784119E-1	2.547913E-1	-1.387024E-2	-1.068115E-4	-5.351257E-2	-4.629974E-1	2.798920E-1
2.748900E+10	-7.868652E-1	2.779236E-1	2.533264E-1	-1.789856E-2	-1.192093E-3	-4.888535E-2	-4.601898E-1	2.806244E-1
2.771350E+10	-7.846680E-1	2.824097E-1	2.507935E-1	-1.986694E-2	-2.809525E-3	-4.789352E-2	-4.590454E-1	2.863617E-1
2.793800E+10	-7.838440E-1	2.831421E-1	2.478409E-1	-1.937103E-2	-2.946854E-3	-4.973793E-2	-4.581604E-1	2.862396E-1
2.816250E+10	-7.763367E-1	2.838440E-1	2.441788E-1	-2.198792E-2	-6.635666E-3	-4.915047E-2	-4.564209E-1	2.887268E-1
2.838700E+10	-7.774658E-1	2.895813E-1	2.455292E-1	-2.577972E-2	-1.000977E-2	-4.709816E-2	-4.517059E-1	2.963409E-1
2.861150E+10	-7.751465E-1	2.901306E-1	2.447739E-1	-2.824402E-2	-7.349014E-3	-4.407310E-2	-4.469757E-1	2.986298E-1
2.883600E+10	-7.747803E-1	2.962646E-1	2.429504E-1	-2.991486E-2	-9.254456E-3	-4.460716E-2	-4.495087E-1	2.980804E-1
2.906050E+10	-7.743530E-1	2.963867E-1	2.417297E-1	-3.092957E-2	-9.853363E-3	-4.219055E-2	-4.472351E-1	3.007812E-1
2.928500E+10	-7.709656E-1	2.985535E-1	2.419510E-1	-3.397369E-2	-9.235382E-3	-4.327774E-2	-4.423523E-1	3.046265E-1
2.950950E+10	-7.689514E-1	3.028564E-1	2.411728E-1	-3.382111E-2	-9.418488E-3	-3.852844E-2	-4.442444E-1	3.073273E-1
2.973400E+10	-7.684021E-1	3.016968E-1	2.417984E-1	-3.730774E-2	-9.601593E-3	-3.911781E-2	-4.424896E-1	3.148956E-1
2.995850E+10	-7.634888E-1	3.057861E-1	2.379303E-1	-3.454590E-2	-1.159286E-2	-3.860474E-2	-4.412994E-1	3.166351E-1
3.018300E+10	-7.598877E-1	3.040466E-1	2.368393E-1	-4.117584E-2	-1.150703E-2	-3.970528E-2	-4.381866E-1	3.238068E-1
3.040750E+10	-7.601318E-1	3.072815E-1	2.360916E-1	-4.286957E-2	-1.155090E-2	-3.861046E-2	-4.345093E-1	3.287659E-1
3.063200E+10	-7.569885E-1	3.118286E-1	2.337418E-1	-4.618835E-2	-1.467514E-2	-3.829002E-2	-4.307861E-1	3.309479E-1
3.085650E+10	-7.583313E-1	3.121643E-1	2.324753E-1	-4.925537E-2	-1.323128E-2	-3.974342E-2	-4.276886E-1	3.355255E-1
3.108100E+10	-7.552490E-1	3.159180E-1	2.319107E-1	-4.909515E-2	-1.350594E-2	-3.396416E-2	-4.219055E-1	3.363800E-1
3.130550E+10	-7.535400E-1	3.158569E-1	2.322388E-1	-5.246735E-2	-1.648712E-2	-3.036499E-2	-4.128723E-1	3.417358E-1
3.153000E+10	-7.526855E-1	3.168030E-1	2.304916E-1	-5.266571E-2	-1.402855E-2	-3.573036E-2	-4.127808E-1	3.400269E-1
3.175450E+10	-7.510681E-1	3.215332E-1	2.277756E-1	-5.532837E-2	-1.164246E-2	-3.432083E-2	-4.128418E-1	3.501587E-1
3.197900E+10	-7.463074E-1	3.192139E-1	2.307358E-1	-5.883789E-2	-1.626205E-2	-2.929115E-2	-4.027405E-1	3.460846E-1
3.220350E+10	-7.478027E-1	3.251648E-1	2.295227E-1	-6.311798E-2	-1.359844E-2	-2.894402E-2	-4.035950E-1	3.512573E-1
3.242800E+10	-7.455139E-1	3.229675E-1	2.309418E-1	-6.240845E-2	-1.543617E-2	-2.519798E-2	-4.002686E-1	3.558044E-1
3.265250E+10	-7.445679E-1	3.280640E-1	2.273254E-1	-6.721497E-2	-1.251507E-2	-2.796936E-2	-3.957520E-1	3.570557E-1
3.287700E+10	-7.430115E-1	3.303223E-1	2.293625E-1	-6.925964E-2	-1.777077E-2	-2.502728E-2	-3.936920E-1	3.610535E-1
3.310150E+10	-7.434082E-1	3.284607E-1	2.235718E-1	-6.902313E-2	-1.157761E-2	-2.258015E-2	-3.895416E-1	3.615723E-1
3.332600E+10	-7.413330E-1	3.351135E-1	2.219315E-1	-7.260132E-2	-1.412582E-2	-2.145481E-2	-3.813629E-1	3.637085E-1
3.355050E+10	-7.391663E-1	3.346863E-1	2.182922E-1	-7.803345E-2	-1.446915E-2	-2.192688E-2	-3.827057E-1	3.644104E-1
3.377500E+10	-7.353516E-1	3.381653E-1	2.239914E-1	-8.092499E-2	-1.034832E-2	-1.963043E-2	-3.771057E-1	3.701019E-1
3.399950E+10	-7.340698E-1	3.397827E-1	2.197647E-1	-8.622742E-2	-1.451397E-2	-2.081013E-2	-3.759918E-1	3.709412E-1
3.422400E+10	-7.322693E-1	3.421326E-1	2.185745E-1	-8.398437E-2	-1.072693E-2	-1.915932E-2	-3.754120E-1	3.825684E-1
3.444850E+10	-7.319031E-1	3.407593E-1	2.193375E-1	-8.633423E-2	-1.309967E-2	-1.797199E-2	-3.605347E-1	3.814850E-1
3.467300E+10	-7.251587E-1	3.425293E-1	2.223969E-1	-8.744049E-2	-8.777618E-3	-1.680470E-2	-3.677979E-1	3.806458E-1
3.489750E+10	-7.269592E-1	3.453064E-1	2.134552E-1	-9.016418E-2	-1.339054E-2	-1.716518E-2	-3.610840E-1	3.880768E-1
3.512200E+10	-7.252808E-1	3.472595E-1	2.154999E-1	-9.825897E-2	-1.218176E-2	-1.427937E-2	-3.505096E-1	3.860168E-1
3.534650E+10	-7.293701E-1	3.453674E-1	2.114182E-1	-1.024246E-1	-1.404333E-2	-1.458168E-2	-3.556824E-1	3.935547E-1
3.557100E+10	-7.264709E-1	3.457947E-1	2.115707E-1	-9.973145E-2	-9.676933E-3	-1.520300E-2	-3.371735E-1	4.005432E-1
3.579550E+10	-7.218933E-1	3.528748E-1	2.141724E-1	-1.021423E-1	-5.622864E-3	-1.521683E-2	-3.313446E-1	3.970184E-1
3.602000E+10	-7.190247E-1	3.493652E-1	2.129135E-1	-1.104813E-1	-8.001328E-3	-1.362133E-2	-3.288422E-1	4.002686E-1
3.624450E+10	-7.210693E-1	3.528748E-1	2.075958E-1	-1.141586E-1	-8.401871E-3	-1.727009E-2	-3.246002E-1	3.977966E-1
3.646900E+10	-7.196350E-1	3.602600E-1	2.070160E-1	-1.161804E-1	-7.062435E-3	-6.897926E-3	-3.163910E-1	4.004517E-1
3.669350E+10	-7.178650E-1	3.609009E-1	2.098236E-1	-1.189423E-1	-9.675503E-3	-1.010466E-2	-3.064575E-1	4.038696E-1
3.691800E+10	-7.166138E-1	3.588867E-1	2.030640E-1	-1.254883E-1	-5.396366E-3	-6.899834E-3	-3.095093E-1	4.076843E-1
3.714250E+10	-7.151184E-1	3.617859E-1	2.000885E-1	-1.190109E-1	-7.535696E-3	-6.590843E-3	-3.036499E-1	4.084930E-1
3.736700E+10	-7.089539E-1	3.632202E-1	2.021408E-1	-1.250763E-1	-7.651806E-3	-9.912014E-3	-2.958679E-1	4.131927E-1
3.759150E+10	-7.117310E-1	3.706665E-1	1.983185E-1	-1.279602E-1	-1.826763E-3	-3.125906E-3	-2.950287E-1	4.179077E-1
3.781600E+10	-7.073364E-1	3.660278E-1	1.947327E-1	-1.300278E-1	-3.889322E-3	-1.854658E-3	-2.840118E-1	4.181671E-1
3.804050E+10	-7.063904E-1	3.633423E-1	1.939926E-1	-1.372528E-1	-2.373457E-3	-3.518105E-3	-2.779541E-1	4.153442E-1
3.826500E+10	-7.112427E-1	3.686218E-1	1.911011E-1	-1.388092E-1	-1.143456E-3	-2.940416E-3	-2.696075E-1	4.228973E-1
3.848950E+10	-7.072754E-1	3.725281E-1	1.917114E-1	-1.417236E-1	-3.565550E-3	-5.042553E-3	-2.603455E-1	4.205017E-1
3.871400E+10	-7.015991E-1	3.743286E-1	1.900177E-1	-1.480179E-1	-1.406670E-4	-9.269714E-3	-2.569122E-1	4.148865E-1
3.893850E+10	-7.069702E-1	3.775024E-1	1.818390E-1	-1.448975E-1	3.744006E-3	3.768086E-3	-2.532806E-1	4.157257E-1
3.916300E+10	-7.109375E-1	3.748474E-1	1.776810E-1	-1.504517E-1	-5.007505E-3	-6.287098E-4	-2.531891E-1	4.173889E-1
3.938750E+10	-7.066345E-1	3.771973E-1	1.814194E-1	-1.511230E-1	5.260944E-3	-1.370430E-3	-2.485657E-1	4.138031E-1
