!Date: 10/28/2005, 12:46 PM

!Vgs = -1.000000E+0
!Vds = 1.000000E+1
!Ig = -1.708200E-5
!Id = 7.562000E-1

# HZ S RI R 50
1.000000E+8	9.624329E-1	-1.925659E-1	-1.277686E+1	2.485352E-1	1.209259E-3	9.062290E-3	4.427338E-1	-3.691101E-2
3.245000E+8	7.721863E-1	-5.538635E-1	-1.151855E+1	4.198730E+0	1.042175E-2	2.544212E-2	2.104874E-1	-2.309113E-1
5.490000E+8	5.085144E-1	-7.822571E-1	-9.462891E+0	5.989258E+0	2.390862E-2	3.521729E-2	1.432190E-1	-2.914886E-1
7.735000E+8	2.513733E-1	-8.831482E-1	-7.436768E+0	6.686523E+0	3.620338E-2	3.832054E-2	3.070068E-2	-3.442230E-1
9.980000E+8	3.134155E-2	-9.004822E-1	-5.727539E+0	6.776611E+0	4.646111E-2	3.815079E-2	-5.496216E-2	-3.307190E-1
1.222500E+9	-1.483459E-1	-8.797302E-1	-4.392822E+0	6.596680E+0	5.470276E-2	3.559303E-2	-1.103363E-1	-3.266296E-1
1.447000E+9	-2.897949E-1	-8.397217E-1	-3.356201E+0	6.268799E+0	6.105614E-2	3.271675E-2	-1.638641E-1	-3.099060E-1
1.671500E+9	-3.987732E-1	-7.912598E-1	-2.567139E+0	5.887207E+0	6.578064E-2	2.971268E-2	-2.001801E-1	-2.941284E-1
1.896000E+9	-4.853821E-1	-7.380981E-1	-1.967773E+0	5.495850E+0	6.922150E-2	2.610397E-2	-2.305145E-1	-2.744141E-1
2.120500E+9	-5.504150E-1	-6.873779E-1	-1.500732E+0	5.139648E+0	7.255173E-2	2.320099E-2	-2.516785E-1	-2.606964E-1
2.345000E+9	-6.037292E-1	-6.365051E-1	-1.118164E+0	4.795898E+0	7.497787E-2	1.975250E-2	-2.729797E-1	-2.429504E-1
2.569500E+9	-6.427307E-1	-5.917358E-1	-8.164062E-1	4.476318E+0	7.645035E-2	1.655197E-2	-2.849731E-1	-2.290344E-1
2.794000E+9	-6.770935E-1	-5.538025E-1	-5.795898E-1	4.198242E+0	7.754517E-2	1.381683E-2	-2.985687E-1	-2.186584E-1
3.018500E+9	-7.039795E-1	-5.166626E-1	-3.833008E-1	3.930420E+0	7.876968E-2	1.100159E-2	-3.068848E-1	-2.038422E-1
3.243000E+9	-7.263489E-1	-4.823303E-1	-2.196045E-1	3.699097E+0	7.897568E-2	8.277893E-3	-3.142853E-1	-1.972656E-1
3.467500E+9	-7.461243E-1	-4.527893E-1	-8.093262E-2	3.487549E+0	7.981491E-2	6.107330E-3	-3.236389E-1	-1.869354E-1
3.692000E+9	-7.629089E-1	-4.248962E-1	3.796387E-2	3.291138E+0	8.033371E-2	4.417419E-3	-3.269806E-1	-1.810913E-1
3.916500E+9	-7.763977E-1	-3.970337E-1	1.320801E-1	3.109009E+0	8.087921E-2	2.040863E-3	-3.371582E-1	-1.751862E-1
4.141000E+9	-7.876892E-1	-3.732910E-1	2.150879E-1	2.944336E+0	8.096695E-2	-3.318787E-4	-3.405457E-1	-1.649170E-1
4.365500E+9	-7.963257E-1	-3.514709E-1	2.882080E-1	2.791870E+0	8.137894E-2	-1.979828E-3	-3.450470E-1	-1.619873E-1
4.590000E+9	-8.056641E-1	-3.310547E-1	3.488770E-1	2.649902E+0	8.115768E-2	-3.906250E-3	-3.509979E-1	-1.553802E-1
4.814500E+9	-8.142395E-1	-3.117371E-1	3.981934E-1	2.519043E+0	8.147049E-2	-5.565643E-3	-3.527222E-1	-1.508942E-1
5.039000E+9	-8.200073E-1	-2.929077E-1	4.438477E-1	2.399902E+0	8.156586E-2	-7.461548E-3	-3.575745E-1	-1.471252E-1
5.263500E+9	-8.261108E-1	-2.755127E-1	4.841309E-1	2.288086E+0	8.128738E-2	-9.128571E-3	-3.613892E-1	-1.415863E-1
5.488000E+9	-8.294983E-1	-2.610168E-1	5.191650E-1	2.184937E+0	8.099365E-2	-1.036835E-2	-3.641815E-1	-1.382141E-1
5.712500E+9	-8.348999E-1	-2.458191E-1	5.483398E-1	2.083984E+0	8.074570E-2	-1.218414E-2	-3.674316E-1	-1.341553E-1
5.937000E+9	-8.392944E-1	-2.304382E-1	5.739136E-1	1.993164E+0	8.045197E-2	-1.391220E-2	-3.711243E-1	-1.305695E-1
6.161500E+9	-8.423157E-1	-2.181396E-1	5.987549E-1	1.910461E+0	8.028030E-2	-1.542282E-2	-3.739014E-1	-1.260834E-1
6.386000E+9	-8.457031E-1	-2.043152E-1	6.187134E-1	1.828247E+0	8.012772E-2	-1.667404E-2	-3.743744E-1	-1.242523E-1
6.610500E+9	-8.477783E-1	-1.927490E-1	6.387329E-1	1.751770E+0	7.976151E-2	-1.826096E-2	-3.798828E-1	-1.232300E-1
6.835000E+9	-8.514709E-1	-1.811829E-1	6.535034E-1	1.676270E+0	7.923889E-2	-1.970291E-2	-3.808136E-1	-1.157684E-1
7.059500E+9	-8.525696E-1	-1.706543E-1	6.630249E-1	1.609985E+0	7.932663E-2	-2.143478E-2	-3.794708E-1	-1.172333E-1
7.284000E+9	-8.546143E-1	-1.600342E-1	6.750488E-1	1.546021E+0	7.808685E-2	-2.216721E-2	-3.877411E-1	-1.125336E-1
7.508500E+9	-8.575439E-1	-1.493530E-1	6.827393E-1	1.482910E+0	7.783127E-2	-2.350235E-2	-3.829651E-1	-1.113586E-1
7.733000E+9	-8.569946E-1	-1.395264E-1	6.921997E-1	1.426086E+0	7.752991E-2	-2.458572E-2	-3.908997E-1	-1.117554E-1
7.957500E+9	-8.588562E-1	-1.298218E-1	7.017822E-1	1.372498E+0	7.710266E-2	-2.641296E-2	-3.917999E-1	-1.069946E-1
8.182000E+9	-8.605347E-1	-1.206970E-1	7.108765E-1	1.321045E+0	7.702255E-2	-2.758789E-2	-3.967438E-1	-1.084137E-1
8.406500E+9	-8.606262E-1	-1.133728E-1	7.148437E-1	1.268005E+0	7.597733E-2	-2.834320E-2	-3.976593E-1	-1.014557E-1
8.631000E+9	-8.620911E-1	-1.036072E-1	7.205200E-1	1.217224E+0	7.482147E-2	-3.019714E-2	-4.000854E-1	-1.021881E-1
8.855500E+9	-8.625488E-1	-9.533691E-2	7.234497E-1	1.170288E+0	7.454681E-2	-3.121567E-2	-4.029236E-1	-9.861755E-2
9.080001E+9	-8.638916E-1	-8.837891E-2	7.257690E-1	1.127075E+0	7.355499E-2	-3.188324E-2	-4.035797E-1	-9.550476E-2
9.304500E+9	-8.639221E-1	-7.897949E-2	7.268677E-1	1.084167E+0	7.353592E-2	-3.261185E-2	-4.057159E-1	-9.591675E-2
9.529000E+9	-8.642578E-1	-7.287598E-2	7.288208E-1	1.043396E+0	7.246017E-2	-3.419495E-2	-4.109192E-1	-9.169006E-2
9.753500E+9	-8.648376E-1	-6.558228E-2	7.297974E-1	1.003052E+0	7.217026E-2	-3.563309E-2	-4.112854E-1	-8.879089E-2
9.978000E+9	-8.640137E-1	-5.795288E-2	7.291870E-1	9.665222E-1	7.137680E-2	-3.728867E-2	-4.140015E-1	-8.888245E-2
1.020250E+10	-8.662415E-1	-5.172729E-2	7.294006E-1	9.302673E-1	7.048416E-2	-3.733826E-2	-4.163666E-1	-8.436584E-2
1.042700E+10	-8.656616E-1	-4.510498E-2	7.299194E-1	8.954773E-1	6.897736E-2	-3.833771E-2	-4.171448E-1	-8.247375E-2
1.065150E+10	-8.658752E-1	-3.796387E-2	7.276306E-1	8.619690E-1	6.889725E-2	-3.967667E-2	-4.202728E-1	-8.177185E-2
1.087600E+10	-8.657837E-1	-3.198242E-2	7.265930E-1	8.302917E-1	6.781006E-2	-4.034424E-2	-4.225159E-1	-7.911682E-2
1.110050E+10	-8.651428E-1	-2.502441E-2	7.253723E-1	7.982178E-1	6.659698E-2	-4.088593E-2	-4.246216E-1	-7.653809E-2
1.132500E+10	-8.649902E-1	-1.931763E-2	7.232666E-1	7.680664E-1	6.621170E-2	-4.194641E-2	-4.263611E-1	-7.695007E-2
1.154950E+10	-8.657532E-1	-1.177979E-2	7.207642E-1	7.387695E-1	6.565475E-2	-4.228592E-2	-4.313965E-1	-7.437134E-2
1.177400E+10	-8.641968E-1	-6.835937E-3	7.175903E-1	7.114258E-1	6.511688E-2	-4.388428E-2	-4.311829E-1	-6.977844E-2
1.199850E+10	-8.647766E-1	-1.373291E-3	7.149963E-1	6.847839E-1	6.393433E-2	-4.440689E-2	-4.334412E-1	-6.935120E-2
1.222300E+10	-8.639221E-1	5.126953E-3	7.120361E-1	6.580200E-1	6.254578E-2	-4.486465E-2	-4.354706E-1	-6.713867E-2
1.244750E+10	-8.630676E-1	9.735107E-3	7.068481E-1	6.312256E-1	6.164551E-2	-4.640961E-2	-4.374542E-1	-6.361389E-2
1.267200E+10	-8.641968E-1	1.596069E-2	7.038879E-1	6.072998E-1	6.062698E-2	-4.644203E-2	-4.394226E-1	-6.307983E-2
1.289650E+10	-8.626099E-1	2.056885E-2	6.979980E-1	5.837402E-1	6.029892E-2	-4.740906E-2	-4.434509E-1	-6.239319E-2
1.312100E+10	-8.628540E-1	2.529907E-2	6.938782E-1	5.606995E-1	5.937958E-2	-4.837036E-2	-4.453278E-1	-5.635071E-2
1.334550E+10	-8.628845E-1	3.112793E-2	6.896973E-1	5.389709E-1	5.774307E-2	-4.883003E-2	-4.470215E-1	-5.654907E-2
1.357000E+10	-8.610535E-1	3.503418E-2	6.856079E-1	5.179443E-1	5.749130E-2	-4.900742E-2	-4.489441E-1	-5.598450E-2
1.379450E+10	-8.608704E-1	3.976440E-2	6.785278E-1	4.969482E-1	5.658722E-2	-4.921532E-2	-4.546051E-1	-5.049133E-2
1.401900E+10	-8.607788E-1	4.504395E-2	6.755676E-1	4.796753E-1	5.579567E-2	-5.053329E-2	-4.527283E-1	-5.101013E-2
1.424350E+10	-8.600159E-1	4.986572E-2	6.699219E-1	4.588623E-1	5.485725E-2	-5.150032E-2	-4.570007E-1	-4.766846E-2
1.446800E+10	-8.600464E-1	5.484009E-2	6.663513E-1	4.395447E-1	5.374527E-2	-5.221558E-2	-4.592285E-1	-4.151917E-2
1.469250E+10	-8.586121E-1	6.027222E-2	6.607666E-1	4.213257E-1	5.162239E-2	-5.168533E-2	-4.565125E-1	-4.011536E-2
1.491700E+10	-8.568420E-1	6.530762E-2	6.559753E-1	4.039612E-1	5.128860E-2	-5.316925E-2	-4.613342E-1	-4.103088E-2
1.514150E+10	-8.565674E-1	6.921387E-2	6.483765E-1	3.858948E-1	4.978943E-2	-5.367851E-2	-4.644470E-1	-3.521729E-2
1.536600E+10	-8.557129E-1	7.369995E-2	6.441040E-1	3.689575E-1	4.904556E-2	-5.392838E-2	-4.630585E-1	-3.260803E-2
1.559050E+10	-8.559875E-1	7.965088E-2	6.383667E-1	3.539429E-1	4.876900E-2	-5.398178E-2	-4.670868E-1	-3.370667E-2
1.581500E+10	-8.526917E-1	8.276367E-2	6.334229E-1	3.367004E-1	4.744530E-2	-5.468369E-2	-4.699707E-1	-2.961731E-2
1.603950E+10	-8.533936E-1	8.798218E-2	6.273499E-1	3.221130E-1	4.768753E-2	-5.613518E-2	-4.706116E-1	-2.679443E-2
1.626400E+10	-8.522644E-1	9.207153E-2	6.216736E-1	3.080139E-1	4.595184E-2	-5.573082E-2	-4.748383E-1	-2.671814E-2
1.648850E+10	-8.517151E-1	9.478760E-2	6.146545E-1	2.941589E-1	4.510498E-2	-5.592537E-2	-4.763641E-1	-2.137756E-2
1.671300E+10	-8.507690E-1	1.004333E-1	6.087646E-1	2.796936E-1	4.417419E-2	-5.677032E-2	-4.771118E-1	-1.829529E-2
1.693750E+10	-8.516846E-1	1.039429E-1	6.037598E-1	2.669678E-1	4.412651E-2	-5.746078E-2	-4.788513E-1	-1.640320E-2
1.716200E+10	-8.492432E-1	1.087341E-1	5.978088E-1	2.535400E-1	4.186821E-2	-5.863380E-2	-4.831696E-1	-1.268005E-2
1.738650E+10	-8.486328E-1	1.121216E-1	5.919495E-1	2.431946E-1	4.065514E-2	-5.896378E-2	-4.815063E-1	-8.819580E-3
1.761100E+10	-8.458557E-1	1.163635E-1	5.859985E-1	2.297974E-1	3.889465E-2	-5.837250E-2	-4.852600E-1	-9.094238E-3
1.783550E+10	-8.472595E-1	1.211853E-1	5.787048E-1	2.179565E-1	3.863716E-2	-5.848312E-2	-4.882507E-1	-2.441406E-3
1.806000E+10	-8.473206E-1	1.248169E-1	5.738220E-1	2.061768E-1	3.646660E-2	-5.765915E-2	-4.872437E-1	4.882813E-4
1.828450E+10	-8.440552E-1	1.290588E-1	5.710754E-1	1.951599E-1	3.651428E-2	-5.815697E-2	-4.879761E-1	2.334595E-3
1.850900E+10	-8.428040E-1	1.332397E-1	5.623779E-1	1.860352E-1	3.454971E-2	-5.914116E-2	-4.922333E-1	5.020142E-3
1.873350E+10	-8.423767E-1	1.367493E-1	5.574951E-1	1.739502E-1	3.442001E-2	-5.964470E-2	-4.913483E-1	1.214600E-2
1.895800E+10	-8.404541E-1	1.399536E-1	5.511780E-1	1.642456E-1	3.299141E-2	-6.039429E-2	-4.920502E-1	1.156616E-2
1.918250E+10	-8.393555E-1	1.429138E-1	5.449829E-1	1.539612E-1	3.123474E-2	-5.935860E-2	-4.977264E-1	1.470947E-2
1.940700E+10	-8.378601E-1	1.470032E-1	5.377808E-1	1.455383E-1	3.028107E-2	-6.041336E-2	-4.933777E-1	2.351379E-2
1.963150E+10	-8.395691E-1	1.515198E-1	5.345764E-1	1.341553E-1	3.068924E-2	-5.881500E-2	-4.957428E-1	2.038574E-2
1.985600E+10	-8.372803E-1	1.539917E-1	5.285950E-1	1.278687E-1	2.921295E-2	-6.050301E-2	-4.996338E-1	2.499390E-2
2.008050E+10	-8.352051E-1	1.566772E-1	5.231018E-1	1.169434E-1	2.750587E-2	-6.045723E-2	-5.032043E-1	3.176880E-2
2.030500E+10	-8.328857E-1	1.621094E-1	5.146484E-1	1.118469E-1	2.641487E-2	-6.085587E-2	-5.000610E-1	3.210449E-2
2.052950E+10	-8.326721E-1	1.640625E-1	5.100403E-1	1.015320E-1	2.486038E-2	-6.084633E-2	-5.035706E-1	3.497314E-2
2.075400E+10	-8.302612E-1	1.683655E-1	5.054626E-1	9.512329E-2	2.345085E-2	-6.106186E-2	-5.026855E-1	4.177856E-2
2.097850E+10	-8.315430E-1	1.717834E-1	4.992065E-1	8.729553E-2	2.469063E-2	-6.051826E-2	-5.018005E-1	4.406738E-2
2.120300E+10	-8.280029E-1	1.754456E-1	4.930115E-1	7.911682E-2	2.231216E-2	-5.887413E-2	-5.048828E-1	4.177856E-2
2.142750E+10	-8.280945E-1	1.777649E-1	4.869690E-1	7.180786E-2	2.090454E-2	-6.138992E-2	-5.094299E-1	5.197144E-2
2.165200E+10	-8.267822E-1	1.821289E-1	4.827423E-1	6.565857E-2	2.056694E-2	-6.076050E-2	-5.073547E-1	5.203247E-2
2.187650E+10	-8.243408E-1	1.858826E-1	4.762268E-1	5.842590E-2	1.904297E-2	-5.932426E-2	-5.104065E-1	5.932617E-2
2.210100E+10	-8.258362E-1	1.883850E-1	4.707489E-1	5.017090E-2	1.873779E-2	-5.978394E-2	-5.117493E-1	6.399536E-2
2.232550E+10	-8.226624E-1	1.921997E-1	4.672241E-1	4.615784E-2	1.711655E-2	-5.976868E-2	-5.101318E-1	6.826782E-2
2.255000E+10	-8.222351E-1	1.947632E-1	4.594727E-1	4.110718E-2	1.535988E-2	-6.188774E-2	-5.122986E-1	7.031250E-2
2.277450E+10	-8.204956E-1	1.990051E-1	4.557495E-1	3.369141E-2	1.420403E-2	-5.951118E-2	-5.128784E-1	7.723999E-2
2.299900E+10	-8.188782E-1	2.026062E-1	4.508209E-1	2.723694E-2	1.376343E-2	-5.976105E-2	-5.103455E-1	7.641602E-2
2.322350E+10	-8.191833E-1	2.062988E-1	4.448395E-1	2.059937E-2	1.196098E-2	-5.897141E-2	-5.137939E-1	8.084106E-2
2.344800E+10	-8.177185E-1	2.063293E-1	4.402466E-1	1.759338E-2	1.196289E-2	-5.910110E-2	-5.149536E-1	8.923340E-2
2.367250E+10	-8.166809E-1	2.116089E-1	4.338684E-1	1.155090E-2	8.594513E-3	-5.961609E-2	-5.115967E-1	9.146118E-2
2.389700E+10	-8.127441E-1	2.141724E-1	4.293365E-1	4.608154E-3	7.783890E-3	-6.117439E-2	-5.136414E-1	9.371948E-2
2.412150E+10	-8.132019E-1	2.202454E-1	4.244080E-1	9.460449E-4	8.022308E-3	-5.854034E-2	-5.130920E-1	1.021729E-1
2.434600E+10	-8.114929E-1	2.221680E-1	4.184113E-1	-3.616333E-3	5.886078E-3	-5.833435E-2	-5.117187E-1	1.018982E-1
2.457050E+10	-8.094177E-1	2.252197E-1	4.122162E-1	-7.751465E-3	4.930496E-3	-5.761337E-2	-5.162964E-1	1.051636E-1
2.479500E+10	-8.078003E-1	2.295837E-1	4.076843E-1	-1.089478E-2	3.171921E-3	-5.860901E-2	-5.112610E-1	1.143188E-1
2.501950E+10	-8.045959E-1	2.310791E-1	4.035034E-1	-1.736450E-2	3.089905E-4	-5.699348E-2	-5.073242E-1	1.152039E-1
2.524400E+10	-8.065796E-1	2.339478E-1	3.992004E-1	-2.117920E-2	2.065659E-3	-5.735016E-2	-5.104675E-1	1.175842E-1
2.546850E+10	-8.039551E-1	2.364502E-1	3.945312E-1	-2.183533E-2	-6.427765E-4	-5.523491E-2	-5.099487E-1	1.233215E-1
2.569300E+10	-8.019714E-1	2.383423E-1	3.894806E-1	-2.630615E-2	-5.149841E-4	-5.363274E-2	-5.086975E-1	1.225281E-1
2.591750E+10	-8.021851E-1	2.417603E-1	3.857727E-1	-3.140259E-2	-1.201630E-3	-5.297279E-2	-5.114136E-1	1.254578E-1
2.614200E+10	-7.966003E-1	2.458801E-1	3.807983E-1	-3.431702E-2	-1.558304E-3	-5.306816E-2	-5.123901E-1	1.328430E-1
2.636650E+10	-7.980957E-1	2.466736E-1	3.787842E-1	-3.807068E-2	-4.499435E-3	-5.303001E-2	-5.150757E-1	1.386108E-1
2.659100E+10	-7.938232E-1	2.520447E-1	3.717499E-1	-4.263306E-2	-5.699158E-3	-5.271530E-2	-5.097656E-1	1.432495E-1
2.681550E+10	-7.937012E-1	2.544861E-1	3.693848E-1	-4.568481E-2	-5.838394E-3	-5.118561E-2	-5.103149E-1	1.462097E-1
2.704000E+10	-7.926331E-1	2.554321E-1	3.646240E-1	-4.753113E-2	-6.425858E-3	-5.117035E-2	-5.141907E-1	1.543579E-1
2.726450E+10	-7.920227E-1	2.600708E-1	3.621216E-1	-4.971313E-2	-9.052277E-3	-5.097389E-2	-5.048523E-1	1.549072E-1
2.748900E+10	-7.887878E-1	2.617187E-1	3.571930E-1	-5.168152E-2	-7.595062E-3	-5.035019E-2	-5.047302E-1	1.565552E-1
2.771350E+10	-7.863770E-1	2.631531E-1	3.533478E-1	-5.900574E-2	-9.654999E-3	-4.831696E-2	-5.043335E-1	1.635437E-1
2.793800E+10	-7.870178E-1	2.655945E-1	3.474274E-1	-5.943298E-2	-1.042175E-2	-4.802132E-2	-5.060120E-1	1.608276E-1
2.816250E+10	-7.817078E-1	2.707214E-1	3.452454E-1	-6.491089E-2	-9.025574E-3	-5.071449E-2	-5.057373E-1	1.681824E-1
2.838700E+10	-7.806396E-1	2.708435E-1	3.399048E-1	-6.632996E-2	-1.459122E-2	-4.787827E-2	-5.068359E-1	1.768799E-1
2.861150E+10	-7.809448E-1	2.737122E-1	3.382874E-1	-6.837463E-2	-1.388741E-2	-4.452705E-2	-4.988098E-1	1.784668E-1
2.883600E+10	-7.778931E-1	2.794189E-1	3.331299E-1	-7.038879E-2	-1.334572E-2	-4.351425E-2	-5.035706E-1	1.806030E-1
2.906050E+10	-7.754211E-1	2.791443E-1	3.305969E-1	-7.153320E-2	-1.463509E-2	-4.205132E-2	-5.000610E-1	1.865234E-1
2.928500E+10	-7.764893E-1	2.831116E-1	3.289490E-1	-7.408142E-2	-1.659775E-2	-4.107094E-2	-4.990387E-1	1.890106E-1
2.950950E+10	-7.726135E-1	2.862244E-1	3.242950E-1	-7.446289E-2	-1.610374E-2	-4.094505E-2	-5.016174E-1	1.957397E-1
2.973400E+10	-7.752686E-1	2.875061E-1	3.226166E-1	-7.774353E-2	-1.643944E-2	-4.073334E-2	-5.000000E-1	1.992645E-1
2.995850E+10	-7.711487E-1	2.899475E-1	3.203735E-1	-7.926941E-2	-1.769638E-2	-3.914261E-2	-4.996338E-1	2.064056E-1
3.018300E+10	-7.665100E-1	2.925415E-1	3.145447E-1	-8.280945E-2	-1.791763E-2	-4.030991E-2	-4.970856E-1	2.133636E-1
3.040750E+10	-7.678223E-1	2.964172E-1	3.171234E-1	-8.523560E-2	-2.020454E-2	-3.956223E-2	-4.980927E-1	2.144623E-1
3.063200E+10	-7.647705E-1	2.964478E-1	3.088684E-1	-8.885193E-2	-1.920700E-2	-3.588295E-2	-4.942780E-1	2.236481E-1
3.085650E+10	-7.611389E-1	3.006897E-1	3.056946E-1	-8.920288E-2	-1.947212E-2	-3.715134E-2	-4.927063E-1	2.237549E-1
3.108100E+10	-7.640686E-1	3.033142E-1	3.038330E-1	-9.390259E-2	-2.203369E-2	-3.210640E-2	-4.924927E-1	2.308502E-1
3.130550E+10	-7.565918E-1	3.069153E-1	2.988129E-1	-9.370422E-2	-2.235794E-2	-3.395844E-2	-4.869232E-1	2.352600E-1
3.153000E+10	-7.582397E-1	3.048706E-1	2.971039E-1	-9.532166E-2	-2.187920E-2	-3.388786E-2	-4.862366E-1	2.350464E-1
3.175450E+10	-7.521973E-1	3.048096E-1	2.925568E-1	-9.849548E-2	-2.752018E-2	-3.081703E-2	-4.874268E-1	2.437592E-1
3.197900E+10	-7.534485E-1	3.122559E-1	2.908478E-1	-1.022186E-1	-2.553368E-2	-3.126526E-2	-4.763641E-1	2.439117E-1
3.220350E+10	-7.545776E-1	3.163452E-1	2.900238E-1	-1.079254E-1	-2.519131E-2	-3.008842E-2	-4.783020E-1	2.535400E-1
3.242800E+10	-7.525330E-1	3.118591E-1	2.895508E-1	-1.054840E-1	-2.186203E-2	-3.175735E-2	-4.801788E-1	2.557220E-1
3.265250E+10	-7.490845E-1	3.172607E-1	2.822876E-1	-1.028748E-1	-2.236080E-2	-2.481842E-2	-4.731293E-1	2.587128E-1
3.287700E+10	-7.495117E-1	3.232117E-1	2.838287E-1	-1.055145E-1	-2.214050E-2	-2.415943E-2	-4.747467E-1	2.642975E-1
3.310150E+10	-7.450562E-1	3.215637E-1	2.802582E-1	-1.091003E-1	-2.674103E-2	-2.270889E-2	-4.698029E-1	2.657166E-1
3.332600E+10	-7.466125E-1	3.252258E-1	2.793884E-1	-1.111298E-1	-2.121830E-2	-2.204990E-2	-4.695892E-1	2.718048E-1
3.355050E+10	-7.420044E-1	3.283997E-1	2.783813E-1	-1.112213E-1	-2.395058E-2	-2.046204E-2	-4.623718E-1	2.733002E-1
3.377500E+10	-7.380676E-1	3.306580E-1	2.730713E-1	-1.157532E-1	-2.303123E-2	-2.023315E-2	-4.595795E-1	2.759399E-1
3.399950E+10	-7.373047E-1	3.312988E-1	2.727051E-1	-1.164398E-1	-2.481556E-2	-2.109814E-2	-4.684448E-1	2.840424E-1
3.422400E+10	-7.364807E-1	3.365173E-1	2.676239E-1	-1.208496E-1	-2.185345E-2	-1.913643E-2	-4.593658E-1	2.959595E-1
3.444850E+10	-7.350159E-1	3.366089E-1	2.657623E-1	-1.234589E-1	-2.465534E-2	-1.704311E-2	-4.564972E-1	2.978210E-1
3.467300E+10	-7.337341E-1	3.365784E-1	2.726288E-1	-1.202393E-1	-2.519321E-2	-1.754856E-2	-4.550323E-1	2.937775E-1
3.489750E+10	-7.327271E-1	3.399048E-1	2.639313E-1	-1.261749E-1	-2.324390E-2	-1.778412E-2	-4.500580E-1	3.065338E-1
3.512200E+10	-7.301941E-1	3.417053E-1	2.648468E-1	-1.277466E-1	-2.311897E-2	-1.402664E-2	-4.425201E-1	3.100891E-1
3.534650E+10	-7.290039E-1	3.421021E-1	2.610016E-1	-1.287231E-1	-2.439880E-2	-1.265907E-2	-4.497681E-1	3.121185E-1
3.557100E+10	-7.285461E-1	3.450623E-1	2.564697E-1	-1.320038E-1	-2.581501E-2	-1.330948E-2	-4.361267E-1	3.239899E-1
3.579550E+10	-7.245483E-1	3.460999E-1	2.591248E-1	-1.339111E-1	-2.450562E-2	-1.203918E-2	-4.309998E-1	3.238525E-1
3.602000E+10	-7.244568E-1	3.493958E-1	2.521210E-1	-1.402435E-1	-2.284050E-2	-1.018333E-2	-4.361877E-1	3.250122E-1
3.624450E+10	-7.181396E-1	3.502808E-1	2.565308E-1	-1.366882E-1	-2.219963E-2	-9.704590E-3	-4.300232E-1	3.315277E-1
3.646900E+10	-7.208252E-1	3.529663E-1	2.503967E-1	-1.389465E-1	-2.320385E-2	-5.197525E-3	-4.290619E-1	3.412933E-1
3.669350E+10	-7.142944E-1	3.526917E-1	2.470932E-1	-1.399307E-1	-2.394485E-2	-9.132385E-3	-4.145203E-1	3.373108E-1
3.691800E+10	-7.166138E-1	3.602905E-1	2.456284E-1	-1.442337E-1	-2.623367E-2	-6.406784E-3	-4.142761E-1	3.466492E-1
3.714250E+10	-7.140808E-1	3.575439E-1	2.394867E-1	-1.456299E-1	-2.350140E-2	-4.863739E-4	-4.090118E-1	3.563385E-1
3.736700E+10	-7.117310E-1	3.612061E-1	2.452316E-1	-1.463318E-1	-2.470207E-2	-2.965927E-3	-4.017181E-1	3.503723E-1
3.759150E+10	-7.100830E-1	3.600159E-1	2.411728E-1	-1.431732E-1	-1.862049E-2	9.813309E-4	-4.017487E-1	3.645782E-1
3.781600E+10	-7.078857E-1	3.621521E-1	2.396545E-1	-1.475220E-1	-2.564526E-2	-3.535271E-3	-3.916016E-1	3.657532E-1
3.804050E+10	-7.102966E-1	3.657227E-1	2.326126E-1	-1.538086E-1	-2.277565E-2	1.028061E-3	-3.909607E-1	3.694305E-1
3.826500E+10	-7.075500E-1	3.710022E-1	2.319641E-1	-1.479187E-1	-2.288818E-2	2.569199E-3	-3.816833E-1	3.763580E-1
3.848950E+10	-7.083130E-1	3.693542E-1	2.289810E-1	-1.635284E-1	-2.001572E-2	3.170013E-3	-3.725586E-1	3.779449E-1
3.871400E+10	-7.032166E-1	3.655396E-1	2.294998E-1	-1.609802E-1	-1.367664E-2	8.895874E-3	-3.691711E-1	3.760071E-1
3.893850E+10	-6.994934E-1	3.740540E-1	2.298584E-1	-1.592026E-1	-1.572132E-2	9.077072E-3	-3.599243E-1	3.884277E-1
3.916300E+10	-6.994019E-1	3.787842E-1	2.247162E-1	-1.653824E-1	-1.564598E-2	6.949425E-3	-3.635406E-1	3.865509E-1
