!Date: 10/28/2005, 12:46 PM

!Vgs = 0.000000E+0
!Vds = 5.000000E+0
!Ig = -2.947400E-6
!Id = 9.293800E-1

# HZ S RI R 50
1.000000E+8	9.594727E-1	-2.075195E-1	-5.009766E+0	8.227539E-2	8.120537E-4	1.185274E-2	-2.135696E-1	-1.387939E-1
3.245000E+8	7.540283E-1	-5.898132E-1	-4.217041E+0	1.532227E+0	1.207542E-2	3.228188E-2	-4.293060E-1	-1.295319E-1
5.490000E+8	4.645691E-1	-8.184509E-1	-3.331177E+0	2.239746E+0	2.865791E-2	4.272079E-2	-4.234467E-1	-1.075897E-1
7.735000E+8	1.858215E-1	-9.078979E-1	-2.550049E+0	2.498169E+0	4.447174E-2	4.558182E-2	-4.774933E-1	-1.348724E-1
9.980000E+8	-4.354858E-2	-9.114990E-1	-1.922241E+0	2.489014E+0	5.687332E-2	4.513550E-2	-5.119934E-1	-1.125488E-1
1.222500E+9	-2.243652E-1	-8.762817E-1	-1.435547E+0	2.380859E+0	6.581879E-2	4.146576E-2	-5.245056E-1	-1.100464E-1
1.447000E+9	-3.606873E-1	-8.233948E-1	-1.071045E+0	2.233521E+0	7.296753E-2	3.712845E-2	-5.476074E-1	-9.661865E-2
1.671500E+9	-4.634094E-1	-7.659912E-1	-8.016357E-1	2.078491E+0	7.781982E-2	3.401566E-2	-5.589905E-1	-8.715820E-2
1.896000E+9	-5.425720E-1	-7.089844E-1	-5.979614E-1	1.930237E+0	8.231735E-2	2.980042E-2	-5.709839E-1	-7.434082E-2
2.120500E+9	-6.023865E-1	-6.556396E-1	-4.402466E-1	1.792419E+0	8.577728E-2	2.610397E-2	-5.793457E-1	-6.607056E-2
2.345000E+9	-6.509705E-1	-6.038513E-1	-3.150635E-1	1.665588E+0	8.793640E-2	2.173615E-2	-5.882263E-1	-5.255127E-2
2.569500E+9	-6.856995E-1	-5.589294E-1	-2.169800E-1	1.546631E+0	8.942795E-2	1.902390E-2	-5.891113E-1	-4.351807E-2
2.794000E+9	-7.162476E-1	-5.198059E-1	-1.394043E-1	1.443909E+0	9.140778E-2	1.572418E-2	-5.955505E-1	-3.558350E-2
3.018500E+9	-7.398071E-1	-4.828796E-1	-7.788086E-2	1.349731E+0	9.181976E-2	1.273727E-2	-5.964966E-1	-2.447510E-2
3.243000E+9	-7.597046E-1	-4.488525E-1	-2.618408E-2	1.266663E+0	9.295273E-2	1.029968E-2	-5.974426E-1	-2.117920E-2
3.467500E+9	-7.772827E-1	-4.192505E-1	1.733398E-2	1.192322E+0	9.302902E-2	7.205963E-3	-6.027222E-1	-1.040649E-2
3.692000E+9	-7.904663E-1	-3.920898E-1	5.444336E-2	1.123596E+0	9.380341E-2	5.096436E-3	-5.999146E-1	-4.211426E-3
3.916500E+9	-8.020630E-1	-3.654175E-1	8.404541E-2	1.059998E+0	9.424973E-2	2.712250E-3	-6.063232E-1	-3.967285E-4
4.141000E+9	-8.125305E-1	-3.415222E-1	1.097412E-1	1.002075E+0	9.420013E-2	7.286072E-4	-6.049500E-1	9.918213E-3
4.365500E+9	-8.193665E-1	-3.203735E-1	1.322327E-1	9.508057E-1	9.467316E-2	-1.403809E-3	-6.047974E-1	1.214600E-2
4.590000E+9	-8.269958E-1	-3.008118E-1	1.506348E-1	9.018555E-1	9.437943E-2	-3.566742E-3	-6.083374E-1	2.111816E-2
4.814500E+9	-8.337097E-1	-2.826843E-1	1.663513E-1	8.580627E-1	9.477234E-2	-5.416870E-3	-6.061707E-1	2.612305E-2
5.039000E+9	-8.386536E-1	-2.648010E-1	1.798706E-1	8.161011E-1	9.480667E-2	-6.874084E-3	-6.071472E-1	3.036499E-2
5.263500E+9	-8.438110E-1	-2.477112E-1	1.922607E-1	7.781372E-1	9.474945E-2	-8.735657E-3	-6.074219E-1	3.707886E-2
5.488000E+9	-8.467407E-1	-2.328796E-1	2.029724E-1	7.427979E-1	9.483337E-2	-1.049423E-2	-6.067810E-1	4.266357E-2
5.712500E+9	-8.511047E-1	-2.188721E-1	2.127075E-1	7.096863E-1	9.400940E-2	-1.246262E-2	-6.062317E-1	4.669189E-2
5.937000E+9	-8.542786E-1	-2.044678E-1	2.207336E-1	6.790161E-1	9.396744E-2	-1.398087E-2	-6.063843E-1	5.172729E-2
6.161500E+9	-8.567810E-1	-1.924438E-1	2.280884E-1	6.498718E-1	9.394836E-2	-1.581955E-2	-6.068115E-1	5.953979E-2
6.386000E+9	-8.600159E-1	-1.802673E-1	2.345886E-1	6.221924E-1	9.337234E-2	-1.755905E-2	-6.024780E-1	6.262207E-2
6.610500E+9	-8.614197E-1	-1.683960E-1	2.401428E-1	5.960999E-1	9.371948E-2	-1.861954E-2	-6.050720E-1	6.533813E-2
6.835000E+9	-8.639526E-1	-1.577759E-1	2.450256E-1	5.704651E-1	9.319305E-2	-2.070236E-2	-6.020508E-1	7.525635E-2
7.059500E+9	-8.652039E-1	-1.481018E-1	2.486572E-1	5.480347E-1	9.188080E-2	-2.213287E-2	-5.968323E-1	7.363892E-2
7.284000E+9	-8.662720E-1	-1.372986E-1	2.511292E-1	5.273132E-1	9.184265E-2	-2.314377E-2	-6.022644E-1	7.937622E-2
7.508500E+9	-8.686829E-1	-1.271362E-1	2.530823E-1	5.063477E-1	9.122849E-2	-2.447891E-2	-5.940857E-1	8.053589E-2
7.733000E+9	-8.679504E-1	-1.177368E-1	2.554321E-1	4.873047E-1	9.075928E-2	-2.594376E-2	-6.011658E-1	8.264160E-2
7.957500E+9	-8.701782E-1	-1.083069E-1	2.599487E-1	4.689636E-1	9.034348E-2	-2.725983E-2	-5.964661E-1	9.213257E-2
8.182000E+9	-8.704224E-1	-9.893799E-2	2.638550E-1	4.520874E-1	9.009171E-2	-2.915955E-2	-6.005859E-1	9.310913E-2
8.406500E+9	-8.708191E-1	-9.109497E-2	2.639160E-1	4.346161E-1	8.992386E-2	-2.941132E-2	-5.957947E-1	1.009216E-1
8.631000E+9	-8.719482E-1	-8.273315E-2	2.655792E-1	4.174500E-1	8.839798E-2	-3.153610E-2	-5.940552E-1	1.028137E-1
8.855500E+9	-8.722534E-1	-7.559204E-2	2.666321E-1	4.015350E-1	8.810425E-2	-3.247070E-2	-5.942688E-1	1.079102E-1
9.080001E+9	-8.732605E-1	-6.854248E-2	2.677155E-1	3.866882E-1	8.767319E-2	-3.400803E-2	-5.915527E-1	1.133423E-1
9.304500E+9	-8.726807E-1	-5.853271E-2	2.677307E-1	3.731079E-1	8.681488E-2	-3.505325E-2	-5.893860E-1	1.163025E-1
9.529000E+9	-8.727722E-1	-5.349731E-2	2.683716E-1	3.593292E-1	8.608246E-2	-3.591919E-2	-5.912476E-1	1.189575E-1
9.753500E+9	-8.732910E-1	-4.629517E-2	2.694550E-1	3.466034E-1	8.557510E-2	-3.759766E-2	-5.871582E-1	1.243591E-1
9.978000E+9	-8.726501E-1	-3.909302E-2	2.686462E-1	3.343506E-1	8.394241E-2	-3.802490E-2	-5.863953E-1	1.260986E-1
1.020250E+10	-8.739929E-1	-3.262329E-2	2.688293E-1	3.211670E-1	8.354950E-2	-3.916550E-2	-5.851440E-1	1.315613E-1
1.042700E+10	-8.742065E-1	-2.593994E-2	2.691803E-1	3.097839E-1	8.279037E-2	-4.000473E-2	-5.816650E-1	1.351929E-1
1.065150E+10	-8.733215E-1	-1.901245E-2	2.689362E-1	2.994080E-1	8.210373E-2	-4.161072E-2	-5.824585E-1	1.372986E-1
1.087600E+10	-8.743286E-1	-1.327515E-2	2.694855E-1	2.888641E-1	8.127594E-2	-4.200363E-2	-5.811768E-1	1.413269E-1
1.110050E+10	-8.738708E-1	-7.019043E-3	2.681885E-1	2.780304E-1	8.062744E-2	-4.301071E-2	-5.779724E-1	1.455383E-1
1.132500E+10	-8.732605E-1	-4.577637E-4	2.679749E-1	2.681427E-1	7.966614E-2	-4.445648E-2	-5.761414E-1	1.477661E-1
1.154950E+10	-8.721313E-1	6.988525E-3	2.672882E-1	2.575684E-1	7.886124E-2	-4.476547E-2	-5.773315E-1	1.526794E-1
1.177400E+10	-8.718262E-1	1.153564E-2	2.666626E-1	2.497406E-1	7.825089E-2	-4.575348E-2	-5.737610E-1	1.564636E-1
1.199850E+10	-8.721619E-1	1.693726E-2	2.660370E-1	2.397919E-1	7.761002E-2	-4.653931E-2	-5.723877E-1	1.585388E-1
1.222300E+10	-8.713379E-1	2.273560E-2	2.653656E-1	2.313538E-1	7.595062E-2	-4.815292E-2	-5.702515E-1	1.618958E-1
1.244750E+10	-8.708191E-1	2.816772E-2	2.637939E-1	2.221985E-1	7.528687E-2	-4.755402E-2	-5.686340E-1	1.654968E-1
1.267200E+10	-8.714600E-1	3.265381E-2	2.627411E-1	2.139587E-1	7.506943E-2	-4.901886E-2	-5.667114E-1	1.671143E-1
1.289650E+10	-8.698120E-1	3.799438E-2	2.608490E-1	2.064972E-1	7.367325E-2	-5.018234E-2	-5.661316E-1	1.702271E-1
1.312100E+10	-8.692932E-1	4.296875E-2	2.596283E-1	1.985016E-1	7.269287E-2	-5.126953E-2	-5.648193E-1	1.751404E-1
1.334550E+10	-8.693848E-1	4.895020E-2	2.604828E-1	1.911774E-1	7.199860E-2	-5.123138E-2	-5.622253E-1	1.762390E-1
1.357000E+10	-8.671570E-1	5.276489E-2	2.591553E-1	1.833954E-1	7.080078E-2	-5.231476E-2	-5.608215E-1	1.783142E-1
1.379450E+10	-8.674927E-1	5.798340E-2	2.555542E-1	1.759186E-1	6.985474E-2	-5.256271E-2	-5.604553E-1	1.822205E-1
1.401900E+10	-8.665771E-1	6.369019E-2	2.549744E-1	1.709442E-1	7.036209E-2	-5.351257E-2	-5.574951E-1	1.843262E-1
1.424350E+10	-8.666077E-1	6.744385E-2	2.542114E-1	1.626434E-1	6.731415E-2	-5.358505E-2	-5.565796E-1	1.875305E-1
1.446800E+10	-8.663025E-1	7.388306E-2	2.527618E-1	1.572723E-1	6.746674E-2	-5.459595E-2	-5.544434E-1	1.926575E-1
1.469250E+10	-8.643188E-1	7.788086E-2	2.502136E-1	1.521912E-1	6.700897E-2	-5.517578E-2	-5.490112E-1	1.973877E-1
1.491700E+10	-8.642883E-1	8.200073E-2	2.499390E-1	1.455765E-1	6.539917E-2	-5.625916E-2	-5.509338E-1	1.946411E-1
1.514150E+10	-8.626404E-1	8.691406E-2	2.473907E-1	1.391983E-1	6.406784E-2	-5.712509E-2	-5.487976E-1	2.009277E-1
1.536600E+10	-8.608093E-1	9.219360E-2	2.453766E-1	1.331940E-1	6.291962E-2	-5.691528E-2	-5.442810E-1	2.036743E-1
1.559050E+10	-8.607178E-1	9.609985E-2	2.456131E-1	1.291885E-1	6.245613E-2	-5.722237E-2	-5.433960E-1	2.041016E-1
1.581500E+10	-8.586121E-1	9.973145E-2	2.427673E-1	1.227646E-1	6.117630E-2	-5.794144E-2	-5.446777E-1	2.076416E-1
1.603950E+10	-8.588562E-1	1.056519E-1	2.418213E-1	1.165390E-1	6.064224E-2	-5.897713E-2	-5.399780E-1	2.113953E-1
1.626400E+10	-8.574524E-1	1.099548E-1	2.403641E-1	1.138153E-1	6.045341E-2	-5.936432E-2	-5.401306E-1	2.119141E-1
1.648850E+10	-8.566284E-1	1.129150E-1	2.385635E-1	1.072845E-1	5.860138E-2	-5.877113E-2	-5.378723E-1	2.158508E-1
1.671300E+10	-8.552551E-1	1.176453E-1	2.369156E-1	1.016006E-1	5.777550E-2	-5.975342E-2	-5.346375E-1	2.192993E-1
1.693750E+10	-8.549500E-1	1.218262E-1	2.356873E-1	9.732819E-2	5.721092E-2	-6.068611E-2	-5.331726E-1	2.187805E-1
1.716200E+10	-8.532104E-1	1.263733E-1	2.335434E-1	9.303284E-2	5.629921E-2	-6.145477E-2	-5.333862E-1	2.239990E-1
1.738650E+10	-8.528137E-1	1.307068E-1	2.320099E-1	8.994293E-2	5.412865E-2	-6.146240E-2	-5.293274E-1	2.263489E-1
1.761100E+10	-8.505554E-1	1.352234E-1	2.313766E-1	8.608246E-2	5.371284E-2	-6.098938E-2	-5.286255E-1	2.268982E-1
1.783550E+10	-8.482056E-1	1.400146E-1	2.267151E-1	8.088684E-2	5.303192E-2	-6.165314E-2	-5.287476E-1	2.315063E-1
1.806000E+10	-8.493347E-1	1.439209E-1	2.266922E-1	7.717133E-2	5.168152E-2	-6.308365E-2	-5.243530E-1	2.370911E-1
1.828450E+10	-8.474426E-1	1.464233E-1	2.261124E-1	7.252502E-2	5.145264E-2	-6.222153E-2	-5.216064E-1	2.348328E-1
1.850900E+10	-8.463745E-1	1.510010E-1	2.232132E-1	7.128143E-2	4.957199E-2	-6.290817E-2	-5.225525E-1	2.400208E-1
1.873350E+10	-8.456726E-1	1.558228E-1	2.224197E-1	6.658173E-2	4.910660E-2	-6.309509E-2	-5.184021E-1	2.451782E-1
1.895800E+10	-8.424988E-1	1.583252E-1	2.200928E-1	6.149292E-2	4.889297E-2	-6.345749E-2	-5.149841E-1	2.445679E-1
1.918250E+10	-8.416138E-1	1.618042E-1	2.191010E-1	5.865479E-2	4.649734E-2	-6.337357E-2	-5.167542E-1	2.457275E-1
1.940700E+10	-8.409729E-1	1.659851E-1	2.163544E-1	5.548859E-2	4.596710E-2	-6.415939E-2	-5.131836E-1	2.528992E-1
1.963150E+10	-8.396912E-1	1.681519E-1	2.169266E-1	5.280304E-2	4.426193E-2	-6.452560E-2	-5.076599E-1	2.522583E-1
1.985600E+10	-8.378296E-1	1.724243E-1	2.140503E-1	4.867554E-2	4.349518E-2	-6.490326E-2	-5.103455E-1	2.542419E-1
2.008050E+10	-8.358765E-1	1.756287E-1	2.108154E-1	4.587555E-2	4.214859E-2	-6.469727E-2	-5.071411E-1	2.608948E-1
2.030500E+10	-8.347473E-1	1.813965E-1	2.107086E-1	4.251099E-2	4.195404E-2	-6.425858E-2	-5.031433E-1	2.623291E-1
2.052950E+10	-8.327942E-1	1.842957E-1	2.082825E-1	4.058075E-2	4.103851E-2	-6.570435E-2	-5.037842E-1	2.612305E-1
2.075400E+10	-8.314819E-1	1.868591E-1	2.075043E-1	3.778076E-2	3.874207E-2	-6.568909E-2	-5.013428E-1	2.688293E-1
2.097850E+10	-8.302917E-1	1.893921E-1	2.070923E-1	3.440857E-2	3.848648E-2	-6.547165E-2	-4.950867E-1	2.695923E-1
2.120300E+10	-8.298950E-1	1.929321E-1	2.043228E-1	3.308105E-2	3.659439E-2	-6.449890E-2	-4.960785E-1	2.685242E-1
2.142750E+10	-8.282471E-1	1.973877E-1	2.025375E-1	2.925110E-2	3.763580E-2	-6.483078E-2	-4.965363E-1	2.743988E-1
2.165200E+10	-8.265381E-1	1.998291E-1	2.018585E-1	2.723694E-2	3.417969E-2	-6.395721E-2	-4.930420E-1	2.779999E-1
2.187650E+10	-8.250732E-1	2.028198E-1	1.992645E-1	2.391052E-2	3.586960E-2	-6.707764E-2	-4.927979E-1	2.776794E-1
2.210100E+10	-8.222961E-1	2.058716E-1	1.979523E-1	2.167511E-2	3.297424E-2	-6.614304E-2	-4.917297E-1	2.850342E-1
2.232550E+10	-8.207092E-1	2.096863E-1	1.967392E-1	1.821899E-2	3.269958E-2	-6.533051E-2	-4.821777E-1	2.872009E-1
2.255000E+10	-8.194275E-1	2.130127E-1	1.965561E-1	1.576233E-2	2.992630E-2	-6.557846E-2	-4.836273E-1	2.880249E-1
2.277450E+10	-8.183289E-1	2.163086E-1	1.954422E-1	1.297760E-2	2.997971E-2	-6.597137E-2	-4.821930E-1	2.936859E-1
2.299900E+10	-8.164062E-1	2.195435E-1	1.929932E-1	1.128387E-2	2.947235E-2	-6.572723E-2	-4.762115E-1	2.955170E-1
2.322350E+10	-8.148499E-1	2.237244E-1	1.909943E-1	8.209229E-3	2.930450E-2	-6.566238E-2	-4.775238E-1	2.956848E-1
2.344800E+10	-8.119812E-1	2.255859E-1	1.913834E-1	6.690979E-3	2.927399E-2	-6.491089E-2	-4.757080E-1	3.030853E-1
2.367250E+10	-8.115845E-1	2.288513E-1	1.889572E-1	5.203247E-3	2.588654E-2	-6.546783E-2	-4.678497E-1	3.048248E-1
2.389700E+10	-8.093262E-1	2.317200E-1	1.871490E-1	2.799988E-3	2.459335E-2	-6.427383E-2	-4.677277E-1	3.016968E-1
2.412150E+10	-8.081665E-1	2.346802E-1	1.855698E-1	1.441956E-3	2.406693E-2	-6.473923E-2	-4.646454E-1	3.114624E-1
2.434600E+10	-8.051758E-1	2.411194E-1	1.853790E-1	-5.874634E-4	2.253342E-2	-6.518555E-2	-4.585114E-1	3.105469E-1
2.457050E+10	-8.030396E-1	2.412415E-1	1.827393E-1	-2.456665E-3	2.027893E-2	-6.465149E-2	-4.594879E-1	3.121033E-1
2.479500E+10	-8.019714E-1	2.451782E-1	1.827774E-1	-4.158020E-3	2.041245E-2	-6.518555E-2	-4.557800E-1	3.189240E-1
2.501950E+10	-7.998352E-1	2.462769E-1	1.792679E-1	-6.805420E-3	2.093124E-2	-6.378174E-2	-4.478912E-1	3.162231E-1
2.524400E+10	-7.973633E-1	2.480469E-1	1.794891E-1	-8.438110E-3	1.795959E-2	-6.197548E-2	-4.482574E-1	3.186493E-1
2.546850E+10	-7.957153E-1	2.524109E-1	1.773071E-1	-1.033783E-2	1.551437E-2	-6.272507E-2	-4.436035E-1	3.220673E-1
2.569300E+10	-7.950745E-1	2.552185E-1	1.790619E-1	-1.011658E-2	1.728439E-2	-6.244087E-2	-4.421387E-1	3.213959E-1
2.591750E+10	-7.929993E-1	2.598572E-1	1.755905E-1	-1.357269E-2	1.461029E-2	-6.208801E-2	-4.418793E-1	3.248901E-1
2.614200E+10	-7.891235E-1	2.612000E-1	1.754990E-1	-1.345062E-2	1.429176E-2	-5.969048E-2	-4.403992E-1	3.299255E-1
2.636650E+10	-7.879944E-1	2.628784E-1	1.757812E-1	-1.606750E-2	1.411629E-2	-6.030655E-2	-4.377899E-1	3.319855E-1
2.659100E+10	-7.862244E-1	2.657166E-1	1.723404E-1	-1.729584E-2	1.397896E-2	-6.043434E-2	-4.312897E-1	3.340759E-1
2.681550E+10	-7.852783E-1	2.672119E-1	1.724396E-1	-2.128601E-2	1.152420E-2	-5.907631E-2	-4.301910E-1	3.351440E-1
2.704000E+10	-7.852173E-1	2.697144E-1	1.705246E-1	-2.233887E-2	1.219940E-2	-6.073952E-2	-4.283905E-1	3.429260E-1
2.726450E+10	-7.810669E-1	2.759094E-1	1.729813E-1	-2.328491E-2	9.979248E-3	-5.658340E-2	-4.161835E-1	3.413849E-1
2.748900E+10	-7.788696E-1	2.749939E-1	1.714783E-1	-2.521515E-2	1.132965E-2	-5.570602E-2	-4.161987E-1	3.411560E-1
2.771350E+10	-7.785034E-1	2.759705E-1	1.673813E-1	-2.822876E-2	7.020950E-3	-5.713272E-2	-4.123688E-1	3.447723E-1
2.793800E+10	-7.758484E-1	2.780762E-1	1.694641E-1	-2.951813E-2	1.008034E-2	-5.857468E-2	-4.112396E-1	3.424377E-1
2.816250E+10	-7.746277E-1	2.809143E-1	1.645584E-1	-3.211975E-2	1.045799E-2	-5.653763E-2	-4.072418E-1	3.478546E-1
2.838700E+10	-7.703247E-1	2.807922E-1	1.648102E-1	-3.083801E-2	4.558563E-3	-5.391884E-2	-4.019928E-1	3.530579E-1
2.861150E+10	-7.707520E-1	2.864380E-1	1.649628E-1	-3.490448E-2	4.564285E-3	-5.324936E-2	-3.973083E-1	3.536530E-1
2.883600E+10	-7.689209E-1	2.890930E-1	1.645584E-1	-3.681946E-2	5.594254E-3	-5.222702E-2	-3.951874E-1	3.521576E-1
2.906050E+10	-7.642822E-1	2.914124E-1	1.643677E-1	-3.694916E-2	4.503250E-3	-5.344963E-2	-3.930206E-1	3.574524E-1
2.928500E+10	-7.658386E-1	2.911072E-1	1.623993E-1	-3.743744E-2	4.116058E-3	-5.152321E-2	-3.895111E-1	3.566284E-1
2.950950E+10	-7.614136E-1	2.949829E-1	1.608887E-1	-3.942871E-2	5.805969E-3	-5.039215E-2	-3.926544E-1	3.602753E-1
2.973400E+10	-7.608948E-1	2.975159E-1	1.616287E-1	-4.059601E-2	5.695343E-3	-5.100822E-2	-3.867187E-1	3.650818E-1
2.995850E+10	-7.549133E-1	2.969360E-1	1.593018E-1	-4.668427E-2	2.197266E-3	-4.953194E-2	-3.798218E-1	3.599854E-1
3.018300E+10	-7.563782E-1	2.989197E-1	1.601105E-1	-4.682922E-2	2.941132E-3	-5.018044E-2	-3.803864E-1	3.708496E-1
3.040750E+10	-7.539978E-1	3.045654E-1	1.579514E-1	-4.984283E-2	4.390717E-3	-5.084991E-2	-3.779449E-1	3.681183E-1
3.063200E+10	-7.533875E-1	3.040466E-1	1.573029E-1	-4.740143E-2	4.085541E-3	-5.077553E-2	-3.709412E-1	3.748932E-1
3.085650E+10	-7.528381E-1	3.041382E-1	1.560974E-1	-5.299377E-2	9.651184E-4	-4.866791E-2	-3.663483E-1	3.769531E-1
3.108100E+10	-7.493896E-1	3.085327E-1	1.581039E-1	-5.233765E-2	1.617432E-3	-4.599380E-2	-3.639679E-1	3.796387E-1
3.130550E+10	-7.473755E-1	3.057861E-1	1.552353E-1	-5.325317E-2	-2.384186E-3	-4.566956E-2	-3.518982E-1	3.765259E-1
3.153000E+10	-7.515869E-1	3.096619E-1	1.542816E-1	-5.703735E-2	-4.367828E-4	-4.551506E-2	-3.526306E-1	3.762512E-1
3.175450E+10	-7.459412E-1	3.120728E-1	1.500092E-1	-5.838013E-2	-3.452301E-4	-4.427338E-2	-3.513489E-1	3.834991E-1
3.197900E+10	-7.442017E-1	3.114624E-1	1.520004E-1	-5.989075E-2	3.030777E-3	-4.498672E-2	-3.382416E-1	3.768158E-1
3.220350E+10	-7.423401E-1	3.169556E-1	1.473389E-1	-6.153107E-2	-7.457733E-4	-4.712677E-2	-3.358459E-1	3.883362E-1
3.242800E+10	-7.425842E-1	3.182068E-1	1.477890E-1	-6.557465E-2	-1.907349E-6	-4.277611E-2	-3.356628E-1	3.883362E-1
3.265250E+10	-7.433472E-1	3.222046E-1	1.445541E-1	-6.489563E-2	-2.929687E-3	-4.194450E-2	-3.285065E-1	3.847351E-1
3.287700E+10	-7.434082E-1	3.233032E-1	1.470413E-1	-6.571198E-2	-6.980896E-4	-3.829193E-2	-3.268127E-1	3.888092E-1
3.310150E+10	-7.386475E-1	3.253174E-1	1.422958E-1	-6.826782E-2	1.728058E-3	-3.879547E-2	-3.219299E-1	3.825531E-1
3.332600E+10	-7.375793E-1	3.304749E-1	1.431351E-1	-7.087708E-2	-1.621246E-3	-4.032898E-2	-3.186798E-1	3.862610E-1
3.355050E+10	-7.357483E-1	3.259277E-1	1.408081E-1	-7.441711E-2	-1.665115E-3	-3.505707E-2	-3.186798E-1	3.851166E-1
3.377500E+10	-7.334900E-1	3.339233E-1	1.461411E-1	-7.335663E-2	1.579285E-3	-3.768349E-2	-3.104553E-1	3.872986E-1
3.399950E+10	-7.315369E-1	3.326111E-1	1.435699E-1	-7.662964E-2	6.599426E-4	-3.594017E-2	-3.086853E-1	3.902588E-1
3.422400E+10	-7.276917E-1	3.346252E-1	1.411362E-1	-7.914734E-2	1.989365E-3	-3.862190E-2	-3.039856E-1	3.979340E-1
3.444850E+10	-7.298279E-1	3.323669E-1	1.402893E-1	-8.379364E-2	-1.300812E-3	-3.989220E-2	-2.980499E-1	3.900757E-1
3.467300E+10	-7.301331E-1	3.392944E-1	1.429672E-1	-8.037567E-2	7.610321E-4	-3.495598E-2	-2.956085E-1	3.905334E-1
3.489750E+10	-7.279663E-1	3.354797E-1	1.361465E-1	-8.484650E-2	2.017975E-3	-3.408241E-2	-2.893677E-1	3.981628E-1
3.512200E+10	-7.314148E-1	3.380432E-1	1.378250E-1	-8.593750E-2	-1.001358E-3	-3.565216E-2	-2.847748E-1	3.924866E-1
3.534650E+10	-7.260132E-1	3.423462E-1	1.332321E-1	-8.779144E-2	-6.317139E-3	-3.577232E-2	-2.840271E-1	3.912201E-1
3.557100E+10	-7.259216E-1	3.451538E-1	1.318893E-1	-9.037018E-2	-1.272202E-3	-3.555107E-2	-2.710876E-1	4.003296E-1
3.579550E+10	-7.234192E-1	3.468628E-1	1.302338E-1	-9.114075E-2	8.220673E-4	-3.500557E-2	-2.696381E-1	3.993378E-1
3.602000E+10	-7.228088E-1	3.479309E-1	1.312103E-1	-9.569550E-2	6.484985E-4	-3.258324E-2	-2.650757E-1	3.951721E-1
3.624450E+10	-7.203674E-1	3.492432E-1	1.315155E-1	-9.368896E-2	-2.421379E-3	-3.052616E-2	-2.640533E-1	3.879089E-1
3.646900E+10	-7.203979E-1	3.542480E-1	1.244736E-1	-9.664154E-2	2.841949E-4	-3.105640E-2	-2.601471E-1	3.990784E-1
3.669350E+10	-7.159729E-1	3.543701E-1	1.183624E-1	-9.856796E-2	3.901482E-3	-3.019905E-2	-2.482758E-1	4.006653E-1
3.691800E+10	-7.174072E-1	3.558044E-1	1.203346E-1	-1.028786E-1	-2.759933E-3	-3.594971E-2	-2.457733E-1	3.969727E-1
3.714250E+10	-7.166138E-1	3.568726E-1	1.202354E-1	-1.028709E-1	-2.125740E-3	-2.831268E-2	-2.386017E-1	4.018707E-1
3.736700E+10	-7.134705E-1	3.553467E-1	1.165695E-1	-9.952545E-2	2.477646E-3	-3.412628E-2	-2.362823E-1	3.919067E-1
3.759150E+10	-7.151184E-1	3.593140E-1	1.157951E-1	-1.021576E-1	-1.948357E-3	-2.539825E-2	-2.337036E-1	3.990479E-1
3.781600E+10	-7.096863E-1	3.645325E-1	1.141701E-1	-1.069298E-1	4.269600E-3	-2.664280E-2	-2.276917E-1	3.914337E-1
3.804050E+10	-7.109375E-1	3.620911E-1	1.132660E-1	-1.066628E-1	1.119614E-3	-3.084278E-2	-2.230835E-1	3.942413E-1
3.826500E+10	-7.088928E-1	3.673706E-1	1.105728E-1	-1.059952E-1	-3.242493E-4	-3.187561E-2	-2.111359E-1	3.992157E-1
3.848950E+10	-7.058105E-1	3.683472E-1	1.131439E-1	-1.156769E-1	3.239632E-3	-3.008270E-2	-2.083588E-1	3.954163E-1
3.871400E+10	-7.039185E-1	3.711243E-1	1.080971E-1	-1.093941E-1	4.696846E-3	-2.867031E-2	-2.088776E-1	3.910675E-1
3.893850E+10	-7.106628E-1	3.761902E-1	1.023560E-1	-1.115227E-1	1.225471E-3	-2.854919E-2	-1.999817E-1	3.992920E-1
3.916300E+10	-7.059326E-1	3.735046E-1	9.628296E-2	-1.068497E-1	7.102966E-3	-2.862930E-2	-1.935577E-1	3.817902E-1
3.938750E+10	-7.090454E-1	3.782043E-1	9.711838E-2	-1.124001E-1	-9.613037E-4	-2.402592E-2	-2.032776E-1	3.908844E-1
