!Date: 10/28/2005, 12:46 PM

!Vgs = -4.000000E+0
!Vds = 5.000000E+0
!Ig = -2.407400E-5
!Id = 1.428100E-1

# HZ S RI R 50
1.000000E+8	9.597778E-1	-2.058411E-1	-1.499902E+1	1.544434E+0	2.205372E-3	8.507729E-3	4.637299E-1	-8.964539E-2
3.245000E+8	7.659302E-1	-5.734863E-1	-1.313477E+1	5.061035E+0	1.140785E-2	2.425766E-2	3.127441E-1	-2.526855E-1
5.490000E+8	4.927368E-1	-7.944336E-1	-1.074707E+1	6.963867E+0	2.372932E-2	3.411293E-2	2.076721E-1	-3.326111E-1
7.735000E+8	2.261658E-1	-8.902588E-1	-8.426270E+0	7.745605E+0	3.609657E-2	3.668213E-2	9.576416E-2	-3.708038E-1
9.980000E+8	2.624512E-3	-9.060669E-1	-6.484375E+0	7.848633E+0	4.578781E-2	3.612900E-2	6.179810E-3	-3.698425E-1
1.222500E+9	-1.753235E-1	-8.821106E-1	-4.959717E+0	7.633057E+0	5.380440E-2	3.386116E-2	-6.002808E-2	-3.624573E-1
1.447000E+9	-3.159485E-1	-8.391113E-1	-3.764648E+0	7.243652E+0	5.950546E-2	3.085327E-2	-1.144714E-1	-3.467712E-1
1.671500E+9	-4.243164E-1	-7.884521E-1	-2.843262E+0	6.788086E+0	6.443405E-2	2.767563E-2	-1.569672E-1	-3.306885E-1
1.896000E+9	-5.094910E-1	-7.335510E-1	-2.154785E+0	6.321777E+0	6.814194E-2	2.442169E-2	-1.898804E-1	-3.103485E-1
2.120500E+9	-5.741882E-1	-6.811829E-1	-1.619629E+0	5.896240E+0	7.094193E-2	2.096176E-2	-2.149963E-1	-2.928619E-1
2.345000E+9	-6.261292E-1	-6.303406E-1	-1.189209E+0	5.490967E+0	7.287598E-2	1.779175E-2	-2.354736E-1	-2.753448E-1
2.569500E+9	-6.636658E-1	-5.852356E-1	-8.522949E-1	5.116211E+0	7.425308E-2	1.441574E-2	-2.512207E-1	-2.618561E-1
2.794000E+9	-6.971436E-1	-5.472107E-1	-5.898437E-1	4.789307E+0	7.596970E-2	1.200867E-2	-2.632294E-1	-2.482910E-1
3.018500E+9	-7.230530E-1	-5.092163E-1	-3.637695E-1	4.485840E+0	7.648087E-2	9.571075E-3	-2.740173E-1	-2.373199E-1
3.243000E+9	-7.452087E-1	-4.755249E-1	-1.789551E-1	4.213867E+0	7.720947E-2	6.530762E-3	-2.835846E-1	-2.271271E-1
3.467500E+9	-7.637634E-1	-4.463196E-1	-2.636719E-2	3.970703E+0	7.756424E-2	4.409790E-3	-2.915802E-1	-2.181091E-1
3.692000E+9	-7.800598E-1	-4.181213E-1	1.052246E-1	3.741699E+0	7.781219E-2	2.281189E-3	-2.984161E-1	-2.120361E-1
3.916500E+9	-7.939453E-1	-3.904114E-1	2.125244E-1	3.531006E+0	7.854843E-2	3.166199E-4	-3.063965E-1	-2.046967E-1
4.141000E+9	-8.050842E-1	-3.663025E-1	3.044434E-1	3.342041E+0	7.846069E-2	-1.861572E-3	-3.120422E-1	-1.974792E-1
4.365500E+9	-8.132324E-1	-3.441772E-1	3.846436E-1	3.166870E+0	7.837677E-2	-3.822327E-3	-3.173065E-1	-1.927185E-1
4.590000E+9	-8.219604E-1	-3.241882E-1	4.523926E-1	3.000244E+0	7.852554E-2	-5.470276E-3	-3.230438E-1	-1.869354E-1
4.814500E+9	-8.299255E-1	-3.051453E-1	5.065918E-1	2.849854E+0	7.890701E-2	-7.427216E-3	-3.273773E-1	-1.819305E-1
5.039000E+9	-8.353271E-1	-2.859497E-1	5.566406E-1	2.711182E+0	7.833481E-2	-9.368896E-3	-3.327026E-1	-1.780853E-1
5.263500E+9	-8.410645E-1	-2.684937E-1	5.993652E-1	2.581909E+0	7.847214E-2	-1.139069E-2	-3.375854E-1	-1.734772E-1
5.488000E+9	-8.442993E-1	-2.543030E-1	6.365967E-1	2.463745E+0	7.822800E-2	-1.259613E-2	-3.402863E-1	-1.691742E-1
5.712500E+9	-8.498840E-1	-2.394104E-1	6.690674E-1	2.348145E+0	7.842255E-2	-1.406860E-2	-3.445435E-1	-1.665344E-1
5.937000E+9	-8.530273E-1	-2.232971E-1	6.961670E-1	2.242432E+0	7.780075E-2	-1.600266E-2	-3.492279E-1	-1.627350E-1
6.161500E+9	-8.565674E-1	-2.115479E-1	7.219238E-1	2.147461E+0	7.777023E-2	-1.684189E-2	-3.530731E-1	-1.582489E-1
6.386000E+9	-8.603516E-1	-1.982422E-1	7.448730E-1	2.052612E+0	7.707977E-2	-1.838684E-2	-3.553009E-1	-1.564484E-1
6.610500E+9	-8.618774E-1	-1.858826E-1	7.654419E-1	1.965881E+0	7.700729E-2	-2.022552E-2	-3.598480E-1	-1.551361E-1
6.835000E+9	-8.650513E-1	-1.748962E-1	7.819824E-1	1.880249E+0	7.651901E-2	-2.137756E-2	-3.637390E-1	-1.504974E-1
7.059500E+9	-8.666382E-1	-1.642151E-1	7.919312E-1	1.801514E+0	7.601547E-2	-2.289200E-2	-3.647919E-1	-1.489410E-1
7.284000E+9	-8.675232E-1	-1.539001E-1	8.039551E-1	1.727112E+0	7.548523E-2	-2.467346E-2	-3.703918E-1	-1.477661E-1
7.508500E+9	-8.708801E-1	-1.430359E-1	8.154297E-1	1.656494E+0	7.476425E-2	-2.566147E-2	-3.723145E-1	-1.433258E-1
7.733000E+9	-8.705139E-1	-1.329651E-1	8.230591E-1	1.588440E+0	7.348251E-2	-2.651978E-2	-3.750000E-1	-1.430054E-1
7.957500E+9	-8.727417E-1	-1.239319E-1	8.317871E-1	1.525024E+0	7.395935E-2	-2.834702E-2	-3.800507E-1	-1.406708E-1
8.182000E+9	-8.736572E-1	-1.142883E-1	8.378906E-1	1.464905E+0	7.289124E-2	-2.983093E-2	-3.836365E-1	-1.395111E-1
8.406500E+9	-8.736877E-1	-1.068115E-1	8.416748E-1	1.405396E+0	7.247162E-2	-3.044510E-2	-3.865051E-1	-1.368256E-1
8.631000E+9	-8.752136E-1	-9.689331E-2	8.471069E-1	1.348633E+0	7.176590E-2	-3.212738E-2	-3.906708E-1	-1.350098E-1
8.855500E+9	-8.761292E-1	-8.938599E-2	8.497314E-1	1.294373E+0	7.106400E-2	-3.328323E-2	-3.948364E-1	-1.321716E-1
9.080001E+9	-8.765869E-1	-8.221436E-2	8.516235E-1	1.243591E+0	7.014847E-2	-3.457642E-2	-3.957977E-1	-1.292572E-1
9.304500E+9	-8.750916E-1	-7.217407E-2	8.511963E-1	1.194702E+0	6.921768E-2	-3.611374E-2	-3.993530E-1	-1.289368E-1
9.529000E+9	-8.768005E-1	-6.695557E-2	8.520508E-1	1.146057E+0	6.826782E-2	-3.655624E-2	-4.039154E-1	-1.247101E-1
9.753500E+9	-8.775024E-1	-5.920410E-2	8.509521E-1	1.101379E+0	6.821442E-2	-3.764343E-2	-4.053650E-1	-1.217957E-1
9.978000E+9	-8.778687E-1	-5.203247E-2	8.497925E-1	1.059692E+0	6.664658E-2	-3.887177E-2	-4.093018E-1	-1.213684E-1
1.020250E+10	-8.781433E-1	-4.574585E-2	8.483276E-1	1.016235E+0	6.579971E-2	-3.979874E-2	-4.122314E-1	-1.183777E-1
1.042700E+10	-8.781433E-1	-3.863525E-2	8.462219E-1	9.771423E-1	6.520462E-2	-4.129410E-2	-4.148254E-1	-1.160736E-1
1.065150E+10	-8.778076E-1	-3.292847E-2	8.434143E-1	9.402161E-1	6.404495E-2	-4.260635E-2	-4.177551E-1	-1.148682E-1
1.087600E+10	-8.784485E-1	-2.554321E-2	8.409729E-1	9.027710E-1	6.345749E-2	-4.299545E-2	-4.216003E-1	-1.129303E-1
1.110050E+10	-8.785706E-1	-1.873779E-2	8.388062E-1	8.663025E-1	6.246567E-2	-4.339409E-2	-4.246063E-1	-1.099854E-1
1.132500E+10	-8.790283E-1	-1.330566E-2	8.345032E-1	8.316956E-1	6.093216E-2	-4.423332E-2	-4.257202E-1	-1.091156E-1
1.154950E+10	-8.779907E-1	-5.950928E-3	8.310852E-1	7.979431E-1	6.104088E-2	-4.478645E-2	-4.319305E-1	-1.062927E-1
1.177400E+10	-8.773193E-1	-1.220703E-4	8.254089E-1	7.673035E-1	5.918694E-2	-4.561234E-2	-4.328766E-1	-1.023407E-1
1.199850E+10	-8.768616E-1	5.310059E-3	8.216858E-1	7.362061E-1	5.799675E-2	-4.684639E-2	-4.360962E-1	-1.021423E-1
1.222300E+10	-8.775940E-1	1.083374E-2	8.158875E-1	7.048645E-1	5.809784E-2	-4.776764E-2	-4.395447E-1	-9.992981E-2
1.244750E+10	-8.767395E-1	1.513672E-2	8.100891E-1	6.758728E-1	5.611229E-2	-4.840088E-2	-4.425812E-1	-9.512329E-2
1.267200E+10	-8.764343E-1	2.145386E-2	8.045044E-1	6.482544E-1	5.573845E-2	-4.949570E-2	-4.436951E-1	-9.600830E-2
1.289650E+10	-8.753662E-1	2.639771E-2	7.966003E-1	6.217346E-1	5.475998E-2	-4.946327E-2	-4.503937E-1	-9.289551E-2
1.312100E+10	-8.756714E-1	3.195190E-2	7.913208E-1	5.957642E-1	5.329132E-2	-5.039406E-2	-4.515076E-1	-8.782959E-2
1.334550E+10	-8.758545E-1	3.701782E-2	7.854614E-1	5.718079E-1	5.274963E-2	-5.140114E-2	-4.532013E-1	-8.784485E-2
1.357000E+10	-8.734436E-1	4.071045E-2	7.785645E-1	5.464783E-1	5.212212E-2	-5.179405E-2	-4.588776E-1	-8.729553E-2
1.379450E+10	-8.742065E-1	4.608154E-2	7.735291E-1	5.251465E-1	5.044365E-2	-5.319405E-2	-4.617310E-1	-7.917786E-2
1.401900E+10	-8.728943E-1	5.194092E-2	7.662659E-1	5.050659E-1	4.962349E-2	-5.254936E-2	-4.621735E-1	-8.033752E-2
1.424350E+10	-8.724976E-1	5.709839E-2	7.582703E-1	4.800415E-1	4.917336E-2	-5.354118E-2	-4.672089E-1	-7.609558E-2
1.446800E+10	-8.733826E-1	6.207275E-2	7.526550E-1	4.597473E-1	4.751396E-2	-5.384827E-2	-4.694824E-1	-7.112122E-2
1.469250E+10	-8.711243E-1	6.677246E-2	7.462769E-1	4.398804E-1	4.632950E-2	-5.380630E-2	-4.687500E-1	-6.956482E-2
1.491700E+10	-8.694458E-1	7.104492E-2	7.387085E-1	4.193420E-1	4.557037E-2	-5.562782E-2	-4.741058E-1	-6.867981E-2
1.514150E+10	-8.698425E-1	7.562256E-2	7.326965E-1	3.983459E-1	4.436111E-2	-5.513191E-2	-4.760742E-1	-6.341553E-2
1.536600E+10	-8.685913E-1	8.166504E-2	7.245789E-1	3.797302E-1	4.307938E-2	-5.617714E-2	-4.766693E-1	-6.036377E-2
1.559050E+10	-8.678589E-1	8.502197E-2	7.168274E-1	3.630981E-1	4.142189E-2	-5.575180E-2	-4.808044E-1	-6.037903E-2
1.581500E+10	-8.665161E-1	8.999634E-2	7.095337E-1	3.442688E-1	4.162979E-2	-5.629921E-2	-4.853821E-1	-5.448914E-2
1.603950E+10	-8.671265E-1	9.439087E-2	7.032166E-1	3.288574E-1	4.032135E-2	-5.714607E-2	-4.851227E-1	-5.371094E-2
1.626400E+10	-8.659668E-1	9.863281E-2	6.955566E-1	3.131714E-1	3.908348E-2	-5.738831E-2	-4.898376E-1	-5.055237E-2
1.648850E+10	-8.652344E-1	1.033325E-1	6.882019E-1	2.973633E-1	3.772545E-2	-5.803871E-2	-4.919281E-1	-4.608154E-2
1.671300E+10	-8.634949E-1	1.070862E-1	6.795044E-1	2.808838E-1	3.607559E-2	-5.938339E-2	-4.930115E-1	-4.429626E-2
1.693750E+10	-8.639832E-1	1.112366E-1	6.711426E-1	2.665710E-1	3.456879E-2	-5.887413E-2	-4.973602E-1	-4.035950E-2
1.716200E+10	-8.622131E-1	1.148376E-1	6.639099E-1	2.521057E-1	3.458786E-2	-5.864334E-2	-4.992523E-1	-3.421021E-2
1.738650E+10	-8.609924E-1	1.202393E-1	6.583252E-1	2.409668E-1	3.200150E-2	-5.866432E-2	-5.005493E-1	-3.210449E-2
1.761100E+10	-8.590088E-1	1.241760E-1	6.499939E-1	2.275085E-1	3.209114E-2	-5.909348E-2	-5.035095E-1	-2.990723E-2
1.783550E+10	-8.592834E-1	1.294556E-1	6.418457E-1	2.130432E-1	3.040123E-2	-6.067085E-2	-5.081482E-1	-2.264404E-2
1.806000E+10	-8.586426E-1	1.319275E-1	6.366882E-1	2.017212E-1	2.964211E-2	-6.060791E-2	-5.075684E-1	-1.837158E-2
1.828450E+10	-8.569336E-1	1.380310E-1	6.290283E-1	1.897278E-1	2.927780E-2	-5.995178E-2	-5.103455E-1	-1.748657E-2
1.850900E+10	-8.570557E-1	1.408386E-1	6.213684E-1	1.766663E-1	2.798843E-2	-6.004333E-2	-5.118408E-1	-1.327515E-2
1.873350E+10	-8.568115E-1	1.442566E-1	6.135559E-1	1.650696E-1	2.600098E-2	-5.883026E-2	-5.126953E-1	-8.758545E-3
1.895800E+10	-8.526306E-1	1.473389E-1	6.063538E-1	1.557617E-1	2.513695E-2	-5.939293E-2	-5.140991E-1	-7.934570E-3
1.918250E+10	-8.535156E-1	1.529236E-1	5.990906E-1	1.421509E-1	2.413177E-2	-6.058311E-2	-5.183716E-1	-2.441406E-3
1.940700E+10	-8.507690E-1	1.563721E-1	5.900574E-1	1.341553E-1	2.244186E-2	-6.082916E-2	-5.182495E-1	4.730225E-3
1.963150E+10	-8.502197E-1	1.594238E-1	5.822754E-1	1.241455E-1	2.230072E-2	-6.078529E-2	-5.167236E-1	3.845215E-3
1.985600E+10	-8.484497E-1	1.632080E-1	5.778198E-1	1.152649E-1	2.038765E-2	-6.072044E-2	-5.227356E-1	8.514404E-3
2.008050E+10	-8.486633E-1	1.665039E-1	5.688782E-1	1.051941E-1	1.865768E-2	-6.040001E-2	-5.237427E-1	1.623535E-2
2.030500E+10	-8.461304E-1	1.702576E-1	5.614014E-1	9.771729E-2	1.911926E-2	-6.209755E-2	-5.227051E-1	1.882935E-2
2.052950E+10	-8.462830E-1	1.736145E-1	5.540161E-1	8.734131E-2	1.604652E-2	-6.132317E-2	-5.264282E-1	2.047729E-2
2.075400E+10	-8.463745E-1	1.780090E-1	5.471497E-1	8.215332E-2	1.472282E-2	-6.127357E-2	-5.281982E-1	2.661133E-2
2.097850E+10	-8.426819E-1	1.810303E-1	5.417786E-1	7.415771E-2	1.266861E-2	-6.080437E-2	-5.260010E-1	3.146362E-2
2.120300E+10	-8.419800E-1	1.835632E-1	5.322876E-1	6.585693E-2	1.304245E-2	-5.990410E-2	-5.310669E-1	3.045654E-2
2.142750E+10	-8.414307E-1	1.893616E-1	5.273437E-1	5.697632E-2	1.118279E-2	-6.083679E-2	-5.332642E-1	3.649902E-2
2.165200E+10	-8.392029E-1	1.921387E-1	5.224609E-1	5.020142E-2	1.058197E-2	-6.059647E-2	-5.341492E-1	4.165649E-2
2.187650E+10	-8.374634E-1	1.962891E-1	5.126648E-1	4.254150E-2	9.645462E-3	-6.015778E-2	-5.347290E-1	4.629517E-2
2.210100E+10	-8.378601E-1	1.994019E-1	5.080872E-1	3.427124E-2	7.335663E-3	-5.991173E-2	-5.387573E-1	5.383301E-2
2.232550E+10	-8.352966E-1	2.009583E-1	4.998016E-1	2.954102E-2	7.385254E-3	-5.881500E-2	-5.357971E-1	5.822754E-2
2.255000E+10	-8.340149E-1	2.068787E-1	4.929504E-1	2.464294E-2	5.567551E-3	-5.848503E-2	-5.399475E-1	5.862427E-2
2.277450E+10	-8.333435E-1	2.112732E-1	4.879761E-1	1.783752E-2	4.821777E-3	-5.833817E-2	-5.389099E-1	6.521606E-2
2.299900E+10	-8.318176E-1	2.129211E-1	4.814606E-1	1.240540E-2	4.196167E-3	-5.973244E-2	-5.370178E-1	6.985474E-2
2.322350E+10	-8.312683E-1	2.181091E-1	4.767761E-1	6.469727E-3	6.313324E-4	-5.869675E-2	-5.399780E-1	7.257080E-2
2.344800E+10	-8.292847E-1	2.184753E-1	4.693451E-1	1.174927E-3	1.525879E-5	-5.807495E-2	-5.424500E-1	7.965088E-2
2.367250E+10	-8.289795E-1	2.257996E-1	4.608002E-1	-4.364014E-3	1.136780E-3	-5.888557E-2	-5.379944E-1	8.425903E-2
2.389700E+10	-8.252563E-1	2.264404E-1	4.589844E-1	-9.719849E-3	-5.817413E-4	-5.874825E-2	-5.415039E-1	8.493042E-2
2.412150E+10	-8.252869E-1	2.294617E-1	4.501495E-1	-1.473999E-2	-4.278183E-3	-5.746078E-2	-5.398865E-1	9.344482E-2
2.434600E+10	-8.229980E-1	2.325439E-1	4.439850E-1	-1.943970E-2	-3.526688E-3	-5.572891E-2	-5.382690E-1	9.680176E-2
2.457050E+10	-8.204346E-1	2.358093E-1	4.391327E-1	-2.416992E-2	-7.682800E-3	-5.491257E-2	-5.403137E-1	1.015625E-1
2.479500E+10	-8.202820E-1	2.380981E-1	4.321442E-1	-2.770996E-2	-8.699417E-3	-5.521584E-2	-5.409241E-1	1.093445E-1
2.501950E+10	-8.192749E-1	2.440186E-1	4.257355E-1	-3.115845E-2	-7.505417E-3	-5.467987E-2	-5.373230E-1	1.105042E-1
2.524400E+10	-8.164978E-1	2.449036E-1	4.207306E-1	-3.410339E-2	-9.819031E-3	-5.264854E-2	-5.380859E-1	1.124268E-1
2.546850E+10	-8.151245E-1	2.503357E-1	4.152069E-1	-3.773499E-2	-1.175690E-2	-5.075836E-2	-5.386047E-1	1.195374E-1
2.569300E+10	-8.126221E-1	2.492676E-1	4.096985E-1	-4.080200E-2	-1.267242E-2	-5.196190E-2	-5.387878E-1	1.211853E-1
2.591750E+10	-8.106995E-1	2.572021E-1	4.050446E-1	-4.483032E-2	-1.259422E-2	-5.132103E-2	-5.409851E-1	1.247559E-1
2.614200E+10	-8.103943E-1	2.590637E-1	3.995514E-1	-4.597473E-2	-1.383018E-2	-5.091858E-2	-5.415039E-1	1.308594E-1
2.636650E+10	-8.073425E-1	2.609863E-1	3.937225E-1	-5.143738E-2	-1.530266E-2	-5.101967E-2	-5.438538E-1	1.391602E-1
2.659100E+10	-8.053894E-1	2.640686E-1	3.897247E-1	-5.343628E-2	-1.656723E-2	-4.934692E-2	-5.390015E-1	1.407776E-1
2.681550E+10	-8.041382E-1	2.667542E-1	3.862152E-1	-5.450439E-2	-1.967621E-2	-4.782104E-2	-5.409546E-1	1.416016E-1
2.704000E+10	-8.040466E-1	2.696533E-1	3.765564E-1	-5.839539E-2	-1.727104E-2	-4.786110E-2	-5.425415E-1	1.515198E-1
2.726450E+10	-7.991638E-1	2.734070E-1	3.754883E-1	-6.272888E-2	-1.869202E-2	-4.797935E-2	-5.330505E-1	1.544495E-1
2.748900E+10	-7.978516E-1	2.731323E-1	3.711090E-1	-6.448364E-2	-2.297401E-2	-4.527855E-2	-5.356750E-1	1.557922E-1
2.771350E+10	-7.933960E-1	2.783508E-1	3.679657E-1	-6.796265E-2	-2.358246E-2	-4.547501E-2	-5.406799E-1	1.614075E-1
2.793800E+10	-7.958984E-1	2.820129E-1	3.649139E-1	-7.075500E-2	-2.226448E-2	-4.543114E-2	-5.392761E-1	1.659851E-1
2.816250E+10	-7.923279E-1	2.836914E-1	3.595886E-1	-7.180786E-2	-2.506447E-2	-4.106712E-2	-5.363770E-1	1.700134E-1
2.838700E+10	-7.875061E-1	2.807007E-1	3.551331E-1	-7.199097E-2	-2.346611E-2	-4.130554E-2	-5.357971E-1	1.770325E-1
2.861150E+10	-7.899170E-1	2.868958E-1	3.508301E-1	-7.429504E-2	-2.644348E-2	-4.045296E-2	-5.296631E-1	1.809082E-1
2.883600E+10	-7.897339E-1	2.921448E-1	3.468628E-1	-7.534790E-2	-2.640915E-2	-3.799820E-2	-5.315857E-1	1.809387E-1
2.906050E+10	-7.852478E-1	2.941895E-1	3.429108E-1	-7.986450E-2	-2.492523E-2	-3.793144E-2	-5.304260E-1	1.887207E-1
2.928500E+10	-7.854004E-1	2.960815E-1	3.404999E-1	-7.733154E-2	-2.788734E-2	-3.193092E-2	-5.323181E-1	1.921387E-1
2.950950E+10	-7.814941E-1	2.995911E-1	3.372498E-1	-8.090210E-2	-2.797127E-2	-3.184319E-2	-5.333252E-1	1.927185E-1
2.973400E+10	-7.819214E-1	3.009033E-1	3.349152E-1	-7.994080E-2	-2.864838E-2	-3.437233E-2	-5.311890E-1	2.030945E-1
2.995850E+10	-7.763977E-1	3.046875E-1	3.319397E-1	-8.436584E-2	-2.861214E-2	-3.159142E-2	-5.325623E-1	2.073669E-1
3.018300E+10	-7.768250E-1	3.051758E-1	3.288269E-1	-8.770752E-2	-3.187180E-2	-3.426170E-2	-5.333252E-1	2.155151E-1
3.040750E+10	-7.754822E-1	3.086243E-1	3.253174E-1	-8.985901E-2	-2.998161E-2	-3.161049E-2	-5.314636E-1	2.199402E-1
3.063200E+10	-7.706604E-1	3.080444E-1	3.213043E-1	-9.085083E-2	-3.290749E-2	-2.933502E-2	-5.325928E-1	2.290344E-1
3.085650E+10	-7.701416E-1	3.137512E-1	3.199615E-1	-9.428406E-2	-3.419495E-2	-2.689552E-2	-5.310669E-1	2.297058E-1
3.108100E+10	-7.701416E-1	3.168640E-1	3.176117E-1	-9.379578E-2	-3.179169E-2	-2.837944E-2	-5.251465E-1	2.388916E-1
3.130550E+10	-7.661743E-1	3.166504E-1	3.148804E-1	-9.223938E-2	-3.324890E-2	-2.674675E-2	-5.242920E-1	2.425842E-1
3.153000E+10	-7.673035E-1	3.194275E-1	3.114777E-1	-9.948730E-2	-3.486443E-2	-1.965904E-2	-5.226440E-1	2.433167E-1
3.175450E+10	-7.666016E-1	3.200684E-1	3.065948E-1	-9.924316E-2	-3.892517E-2	-1.993370E-2	-5.201111E-1	2.538147E-1
3.197900E+10	-7.633057E-1	3.259583E-1	3.037567E-1	-1.026154E-1	-3.845215E-2	-2.278328E-2	-5.159302E-1	2.518616E-1
3.220350E+10	-7.581787E-1	3.317871E-1	3.036194E-1	-1.021118E-1	-3.480148E-2	-1.865387E-2	-5.123291E-1	2.593384E-1
3.242800E+10	-7.617187E-1	3.283081E-1	3.016968E-1	-1.038513E-1	-3.809738E-2	-1.593208E-2	-5.148315E-1	2.644958E-1
3.265250E+10	-7.576294E-1	3.334961E-1	2.985077E-1	-1.047668E-1	-3.824806E-2	-1.608086E-2	-5.092773E-1	2.695618E-1
3.287700E+10	-7.543640E-1	3.362122E-1	2.989807E-1	-1.023102E-1	-3.224945E-2	-1.311111E-2	-5.111389E-1	2.733154E-1
3.310150E+10	-7.554016E-1	3.359680E-1	2.962952E-1	-1.073914E-1	-3.783035E-2	-8.058548E-3	-5.031128E-1	2.781677E-1
3.332600E+10	-7.514038E-1	3.405762E-1	2.883911E-1	-1.095886E-1	-3.553581E-2	-7.907867E-3	-5.023193E-1	2.833862E-1
3.355050E+10	-7.488098E-1	3.402405E-1	2.933044E-1	-1.146240E-1	-3.634453E-2	-7.040024E-3	-5.062866E-1	2.884216E-1
3.377500E+10	-7.526855E-1	3.474121E-1	2.916565E-1	-1.100616E-1	-3.220177E-2	-3.890991E-3	-5.016174E-1	2.935791E-1
3.399950E+10	-7.475891E-1	3.437500E-1	2.870636E-1	-1.122589E-1	-3.284645E-2	-6.460190E-3	-5.056152E-1	2.997437E-1
3.422400E+10	-7.439575E-1	3.471069E-1	2.873688E-1	-1.163177E-1	-3.490448E-2	-5.645752E-3	-5.022583E-1	3.026733E-1
3.444850E+10	-7.406006E-1	3.486938E-1	2.882996E-1	-1.196136E-1	-3.583717E-2	-1.646042E-3	-4.963684E-1	3.096161E-1
3.467300E+10	-7.384033E-1	3.515930E-1	2.911072E-1	-1.206818E-1	-3.428650E-2	-5.645752E-4	-4.957275E-1	3.166504E-1
3.489750E+10	-7.356262E-1	3.531799E-1	2.850952E-1	-1.243134E-1	-3.285599E-2	1.520157E-3	-4.860077E-1	3.262939E-1
3.512200E+10	-7.371826E-1	3.516541E-1	2.789459E-1	-1.241150E-1	-3.400803E-2	2.597809E-3	-4.868927E-1	3.271790E-1
3.534650E+10	-7.342834E-1	3.537903E-1	2.813721E-1	-1.261292E-1	-3.401566E-2	3.356934E-4	-4.857941E-1	3.353882E-1
3.557100E+10	-7.330627E-1	3.591614E-1	2.816010E-1	-1.294098E-1	-3.331184E-2	7.341385E-3	-4.773712E-1	3.455811E-1
3.579550E+10	-7.297668E-1	3.608093E-1	2.822266E-1	-1.306610E-1	-3.377724E-2	1.502991E-3	-4.718475E-1	3.482971E-1
3.602000E+10	-7.298584E-1	3.643188E-1	2.762756E-1	-1.349182E-1	-3.460312E-2	5.115509E-3	-4.669189E-1	3.482056E-1
3.624450E+10	-7.306213E-1	3.623962E-1	2.744751E-1	-1.331635E-1	-3.173447E-2	7.835388E-3	-4.672394E-1	3.556671E-1
3.646900E+10	-7.289124E-1	3.648682E-1	2.749176E-1	-1.350403E-1	-3.408051E-2	9.925842E-3	-4.656525E-1	3.646088E-1
3.669350E+10	-7.256165E-1	3.660278E-1	2.738800E-1	-1.380768E-1	-3.107548E-2	1.505280E-2	-4.615936E-1	3.750000E-1
3.691800E+10	-7.236023E-1	3.677368E-1	2.715759E-1	-1.436768E-1	-3.121281E-2	1.272392E-2	-4.546356E-1	3.730927E-1
3.714250E+10	-7.224731E-1	3.701477E-1	2.689819E-1	-1.421204E-1	-3.045177E-2	1.338005E-2	-4.545135E-1	3.840027E-1
3.736700E+10	-7.198792E-1	3.716736E-1	2.648773E-1	-1.481171E-1	-3.084373E-2	2.106285E-2	-4.501038E-1	3.854218E-1
3.759150E+10	-7.166748E-1	3.746948E-1	2.600250E-1	-1.477051E-1	-2.877140E-2	1.491261E-2	-4.428558E-1	3.945160E-1
3.781600E+10	-7.167969E-1	3.769226E-1	2.689819E-1	-1.575470E-1	-3.135300E-2	2.034950E-2	-4.329987E-1	3.988800E-1
3.804050E+10	-7.196045E-1	3.766479E-1	2.635803E-1	-1.494141E-1	-2.813911E-2	2.365017E-2	-4.278717E-1	4.086456E-1
3.826500E+10	-7.138062E-1	3.793640E-1	2.629700E-1	-1.560211E-1	-2.799797E-2	1.926899E-2	-4.164276E-1	4.116669E-1
3.848950E+10	-7.124329E-1	3.813782E-1	2.593536E-1	-1.643677E-1	-3.093815E-2	2.310181E-2	-4.154816E-1	4.134064E-1
3.871400E+10	-7.082520E-1	3.732300E-1	2.630615E-1	-1.603699E-1	-2.320480E-2	2.306557E-2	-4.114685E-1	4.234772E-1
3.893850E+10	-7.088623E-1	3.836975E-1	2.594452E-1	-1.652527E-1	-2.528381E-2	3.121281E-2	-4.039154E-1	4.191132E-1
3.916300E+10	-7.096558E-1	3.872070E-1	2.586670E-1	-1.747742E-1	-2.620697E-2	2.905750E-2	-4.015808E-1	4.239502E-1
