!Date: 10/28/2005, 12:46 PM

!Vgs = -1.000000E+0
!Vds = 1.750000E+1
!Ig = -3.409300E-5
!Id = 7.128300E-1

# HZ S RI R 50
1.000000E+8	9.677124E-1	-1.696472E-1	-1.348584E+1	1.176758E-1	3.962517E-4	8.531570E-3	5.980835E-1	-5.523682E-3
3.245000E+8	8.081665E-1	-4.963379E-1	-1.251123E+1	4.180176E+0	8.372307E-3	2.209377E-2	3.847504E-1	-2.243805E-1
5.490000E+8	5.855103E-1	-7.266846E-1	-1.065039E+1	6.044922E+0	1.898956E-2	3.152657E-2	3.247833E-1	-2.925720E-1
7.735000E+8	3.556213E-1	-8.471375E-1	-8.654785E+0	6.929687E+0	3.004265E-2	3.534126E-2	2.169800E-1	-3.553925E-1
9.980000E+8	1.459961E-1	-8.898926E-1	-6.880127E+0	7.233643E+0	3.976250E-2	3.622055E-2	1.288910E-1	-3.536835E-1
1.222500E+9	-3.387451E-2	-8.905640E-1	-5.433350E+0	7.214111E+0	4.697990E-2	3.461075E-2	6.893921E-2	-3.590088E-1
1.447000E+9	-1.821899E-1	-8.671875E-1	-4.258545E+0	6.984863E+0	5.343437E-2	3.282738E-2	1.014709E-2	-3.494720E-1
1.671500E+9	-2.999878E-1	-8.305054E-1	-3.331787E+0	6.657227E+0	5.839729E-2	3.031349E-2	-3.152466E-2	-3.387756E-1
1.896000E+9	-3.963928E-1	-7.847290E-1	-2.610596E+0	6.284668E+0	6.307602E-2	2.716064E-2	-6.698608E-2	-3.226166E-1
2.120500E+9	-4.713440E-1	-7.382812E-1	-2.035156E+0	5.934814E+0	6.649780E-2	2.427673E-2	-9.269714E-2	-3.117218E-1
2.345000E+9	-5.326843E-1	-6.906738E-1	-1.555420E+0	5.582031E+0	6.876755E-2	2.114487E-2	-1.177521E-1	-2.959137E-1
2.569500E+9	-5.791321E-1	-6.466064E-1	-1.174561E+0	5.241943E+0	7.046509E-2	1.797104E-2	-1.329803E-1	-2.838135E-1
2.794000E+9	-6.200867E-1	-6.085815E-1	-8.718262E-1	4.940674E+0	7.199097E-2	1.523972E-2	-1.493988E-1	-2.743073E-1
3.018500E+9	-6.528625E-1	-5.707092E-1	-6.140137E-1	4.650879E+0	7.332611E-2	1.295471E-2	-1.606903E-1	-2.621765E-1
3.243000E+9	-6.790466E-1	-5.362549E-1	-3.957520E-1	4.391357E+0	7.405090E-2	1.004791E-2	-1.709290E-1	-2.565308E-1
3.467500E+9	-7.039185E-1	-5.062561E-1	-2.138672E-1	4.151123E+0	7.438278E-2	8.171082E-3	-1.823578E-1	-2.489548E-1
3.692000E+9	-7.246399E-1	-4.763489E-1	-5.908203E-2	3.925171E+0	7.547760E-2	6.206512E-3	-1.884766E-1	-2.434769E-1
3.916500E+9	-7.405090E-1	-4.478455E-1	7.250977E-2	3.716553E+0	7.575989E-2	3.498077E-3	-2.002716E-1	-2.390366E-1
4.141000E+9	-7.554016E-1	-4.229431E-1	1.839600E-1	3.524902E+0	7.642365E-2	1.976013E-3	-2.058868E-1	-2.316971E-1
4.365500E+9	-7.673035E-1	-3.999329E-1	2.810059E-1	3.345337E+0	7.594299E-2	-3.814697E-6	-2.126083E-1	-2.295303E-1
4.590000E+9	-7.793884E-1	-3.779602E-1	3.642578E-1	3.178223E+0	7.632446E-2	-1.335144E-3	-2.200546E-1	-2.244263E-1
4.814500E+9	-7.888489E-1	-3.565063E-1	4.309082E-1	3.025146E+0	7.695389E-2	-3.513336E-3	-2.244110E-1	-2.207947E-1
5.039000E+9	-7.962036E-1	-3.373108E-1	4.942627E-1	2.882446E+0	7.675552E-2	-4.856110E-3	-2.311020E-1	-2.189713E-1
5.263500E+9	-8.043213E-1	-3.182068E-1	5.488281E-1	2.749390E+0	7.631683E-2	-6.923676E-3	-2.368698E-1	-2.155304E-1
5.488000E+9	-8.099670E-1	-3.017578E-1	5.943604E-1	2.625122E+0	7.662964E-2	-8.335114E-3	-2.418671E-1	-2.126312E-1
5.712500E+9	-8.162842E-1	-2.868042E-1	6.351318E-1	2.503906E+0	7.637024E-2	-9.971619E-3	-2.464142E-1	-2.101974E-1
5.937000E+9	-8.207092E-1	-2.695007E-1	6.715088E-1	2.395264E+0	7.666779E-2	-1.136017E-2	-2.514648E-1	-2.088623E-1
6.161500E+9	-8.262329E-1	-2.564392E-1	7.042236E-1	2.295044E+0	7.604218E-2	-1.308823E-2	-2.562714E-1	-2.049866E-1
6.386000E+9	-8.304443E-1	-2.416077E-1	7.335205E-1	2.195923E+0	7.635880E-2	-1.430130E-2	-2.579193E-1	-2.045746E-1
6.610500E+9	-8.334351E-1	-2.290955E-1	7.603760E-1	2.103149E+0	7.568359E-2	-1.605606E-2	-2.655334E-1	-2.051544E-1
6.835000E+9	-8.370056E-1	-2.168274E-1	7.806396E-1	2.013428E+0	7.567596E-2	-1.747513E-2	-2.689972E-1	-1.995392E-1
7.059500E+9	-8.396606E-1	-2.056885E-1	7.954712E-1	1.931213E+0	7.519531E-2	-1.882553E-2	-2.695007E-1	-2.022400E-1
7.284000E+9	-8.419189E-1	-1.947327E-1	8.118286E-1	1.852966E+0	7.421112E-2	-1.968384E-2	-2.782593E-1	-1.999054E-1
7.508500E+9	-8.438110E-1	-1.826172E-1	8.238525E-1	1.777283E+0	7.399750E-2	-2.084351E-2	-2.770233E-1	-1.985321E-1
7.733000E+9	-8.453979E-1	-1.715698E-1	8.355103E-1	1.708252E+0	7.398987E-2	-2.229309E-2	-2.861023E-1	-1.999054E-1
7.957500E+9	-8.473816E-1	-1.618042E-1	8.497925E-1	1.642334E+0	7.275391E-2	-2.398300E-2	-2.884521E-1	-1.974335E-1
8.182000E+9	-8.497620E-1	-1.515503E-1	8.608398E-1	1.578369E+0	7.270432E-2	-2.516937E-2	-2.946014E-1	-1.998749E-1
8.406500E+9	-8.508301E-1	-1.428833E-1	8.681030E-1	1.514099E+0	7.284927E-2	-2.642441E-2	-2.977753E-1	-1.946564E-1
8.631000E+9	-8.523865E-1	-1.329651E-1	8.756714E-1	1.453308E+0	7.160950E-2	-2.775192E-2	-3.026886E-1	-1.964111E-1
8.855500E+9	-8.525085E-1	-1.242981E-1	8.796387E-1	1.394470E+0	7.129288E-2	-2.899933E-2	-3.088684E-1	-1.931152E-1
9.080001E+9	-8.547974E-1	-1.173401E-1	8.845825E-1	1.341614E+0	7.045746E-2	-2.936935E-2	-3.107452E-1	-1.914825E-1
9.304500E+9	-8.553162E-1	-1.060181E-1	8.859253E-1	1.289062E+0	6.968689E-2	-3.089142E-2	-3.157349E-1	-1.920471E-1
9.529000E+9	-8.555603E-1	-1.002197E-1	8.881226E-1	1.238037E+0	6.916046E-2	-3.192520E-2	-3.209381E-1	-1.901093E-1
9.753500E+9	-8.560181E-1	-9.191895E-2	8.900757E-1	1.189880E+0	6.839752E-2	-3.325272E-2	-3.230286E-1	-1.877136E-1
9.978000E+9	-8.562012E-1	-8.444214E-2	8.897095E-1	1.144470E+0	6.765366E-2	-3.432083E-2	-3.279266E-1	-1.886444E-1
1.020250E+10	-8.577881E-1	-7.769775E-2	8.900146E-1	1.099609E+0	6.687546E-2	-3.475571E-2	-3.328552E-1	-1.855774E-1
1.042700E+10	-8.582153E-1	-6.979370E-2	8.900146E-1	1.057251E+0	6.636047E-2	-3.553009E-2	-3.348236E-1	-1.845551E-1
1.065150E+10	-8.570251E-1	-6.301880E-2	8.878174E-1	1.016541E+0	6.505203E-2	-3.667450E-2	-3.399658E-1	-1.841736E-1
1.087600E+10	-8.587036E-1	-5.642700E-2	8.861084E-1	9.768982E-1	6.509781E-2	-3.725052E-2	-3.445282E-1	-1.820526E-1
1.110050E+10	-8.587646E-1	-4.940796E-2	8.851929E-1	9.375916E-1	6.418228E-2	-3.814697E-2	-3.484802E-1	-1.812592E-1
1.132500E+10	-8.580627E-1	-4.244995E-2	8.817444E-1	9.010315E-1	6.331635E-2	-3.942871E-2	-3.517914E-1	-1.813354E-1
1.154950E+10	-8.580627E-1	-3.576660E-2	8.786011E-1	8.634644E-1	6.265259E-2	-4.039383E-2	-3.585968E-1	-1.783752E-1
1.177400E+10	-8.574829E-1	-2.999878E-2	8.743896E-1	8.307495E-1	6.165504E-2	-4.110718E-2	-3.609161E-1	-1.760254E-1
1.199850E+10	-8.583069E-1	-2.423096E-2	8.719177E-1	7.974243E-1	6.073952E-2	-4.163742E-2	-3.648987E-1	-1.760254E-1
1.222300E+10	-8.576355E-1	-1.684570E-2	8.654175E-1	7.646179E-1	5.966187E-2	-4.265022E-2	-3.692627E-1	-1.744232E-1
1.244750E+10	-8.580322E-1	-1.239014E-2	8.604736E-1	7.330017E-1	5.916977E-2	-4.292870E-2	-3.741608E-1	-1.712494E-1
1.267200E+10	-8.576355E-1	-6.378174E-3	8.556519E-1	7.034607E-1	5.865097E-2	-4.442406E-2	-3.769684E-1	-1.714020E-1
1.289650E+10	-8.571472E-1	-1.159668E-3	8.492737E-1	6.737671E-1	5.754280E-2	-4.446793E-2	-3.842163E-1	-1.703796E-1
1.312100E+10	-8.571777E-1	4.241943E-3	8.435974E-1	6.463623E-1	5.649185E-2	-4.479790E-2	-3.869934E-1	-1.645203E-1
1.334550E+10	-8.562317E-1	1.016235E-2	8.383484E-1	6.204834E-1	5.596924E-2	-4.642487E-2	-3.894958E-1	-1.648712E-1
1.357000E+10	-8.556824E-1	1.473999E-2	8.327026E-1	5.926208E-1	5.488396E-2	-4.703331E-2	-3.949585E-1	-1.656952E-1
1.379450E+10	-8.552551E-1	2.017212E-2	8.257141E-1	5.694275E-1	5.418587E-2	-4.810143E-2	-4.014740E-1	-1.601715E-1
1.401900E+10	-8.549805E-1	2.508545E-2	8.207703E-1	5.466309E-1	5.343056E-2	-4.862213E-2	-4.013214E-1	-1.608124E-1
1.424350E+10	-8.539734E-1	3.057861E-2	8.118896E-1	5.205383E-1	5.195808E-2	-4.863548E-2	-4.088593E-1	-1.572418E-1
1.446800E+10	-8.547363E-1	3.451538E-2	8.064575E-1	4.978943E-1	5.144882E-2	-4.962730E-2	-4.118805E-1	-1.517487E-1
1.469250E+10	-8.518066E-1	4.043579E-2	7.998047E-1	4.756165E-1	4.908180E-2	-5.027962E-2	-4.121246E-1	-1.510925E-1
1.491700E+10	-8.529358E-1	4.342651E-2	7.929077E-1	4.548950E-1	4.969406E-2	-5.081558E-2	-4.185181E-1	-1.514130E-1
1.514150E+10	-8.524780E-1	4.931641E-2	7.855530E-1	4.329224E-1	4.759407E-2	-5.026436E-2	-4.230042E-1	-1.447906E-1
1.536600E+10	-8.502808E-1	5.487061E-2	7.777100E-1	4.118347E-1	4.799461E-2	-5.194473E-2	-4.235382E-1	-1.435089E-1
1.559050E+10	-8.499756E-1	5.920410E-2	7.702637E-1	3.933716E-1	4.600716E-2	-5.184555E-2	-4.287262E-1	-1.433258E-1
1.581500E+10	-8.488464E-1	6.298828E-2	7.620544E-1	3.729553E-1	4.523659E-2	-5.252457E-2	-4.349518E-1	-1.397247E-1
1.603950E+10	-8.493042E-1	6.994629E-2	7.569275E-1	3.558960E-1	4.488564E-2	-5.263901E-2	-4.363098E-1	-1.361542E-1
1.626400E+10	-8.472595E-1	7.394409E-2	7.478638E-1	3.379822E-1	4.349518E-2	-5.336952E-2	-4.404297E-1	-1.361237E-1
1.648850E+10	-8.457031E-1	7.699585E-2	7.405701E-1	3.206482E-1	4.238319E-2	-5.402565E-2	-4.451294E-1	-1.309967E-1
1.671300E+10	-8.464966E-1	8.126831E-2	7.324524E-1	3.027039E-1	4.211426E-2	-5.488014E-2	-4.476318E-1	-1.277771E-1
1.693750E+10	-8.445435E-1	8.566284E-2	7.259827E-1	2.882690E-1	4.091835E-2	-5.452347E-2	-4.526215E-1	-1.265869E-1
1.716200E+10	-8.442078E-1	9.036255E-2	7.170715E-1	2.737732E-1	3.942490E-2	-5.534744E-2	-4.569550E-1	-1.216888E-1
1.738650E+10	-8.436890E-1	9.411621E-2	7.113037E-1	2.588501E-1	3.836250E-2	-5.474854E-2	-4.580688E-1	-1.188202E-1
1.761100E+10	-8.423157E-1	9.884644E-2	7.036133E-1	2.435303E-1	3.809166E-2	-5.484009E-2	-4.631195E-1	-1.176605E-1
1.783550E+10	-8.416443E-1	1.041260E-1	6.943054E-1	2.291565E-1	3.706741E-2	-5.561447E-2	-4.666595E-1	-1.096649E-1
1.806000E+10	-8.413391E-1	1.065674E-1	6.878357E-1	2.161865E-1	3.530693E-2	-5.560875E-2	-4.670563E-1	-1.074219E-1
1.828450E+10	-8.389282E-1	1.109924E-1	6.801147E-1	2.018127E-1	3.389740E-2	-5.663490E-2	-4.715881E-1	-1.076202E-1
1.850900E+10	-8.386841E-1	1.138306E-1	6.736145E-1	1.897278E-1	3.318787E-2	-5.716133E-2	-4.763336E-1	-1.028290E-1
1.873350E+10	-8.388367E-1	1.195374E-1	6.650391E-1	1.756287E-1	3.192902E-2	-5.665398E-2	-4.764557E-1	-9.545898E-2
1.895800E+10	-8.359070E-1	1.232300E-1	6.563721E-1	1.642151E-1	3.250313E-2	-5.755234E-2	-4.796448E-1	-9.567261E-2
1.918250E+10	-8.362427E-1	1.251526E-1	6.502686E-1	1.523437E-1	3.020287E-2	-5.767632E-2	-4.842224E-1	-9.202576E-2
1.940700E+10	-8.336182E-1	1.304016E-1	6.404114E-1	1.410217E-1	2.939606E-2	-5.955315E-2	-4.846344E-1	-8.209229E-2
1.963150E+10	-8.324585E-1	1.334534E-1	6.345825E-1	1.291199E-1	2.926826E-2	-5.784035E-2	-4.865570E-1	-8.381653E-2
1.985600E+10	-8.318481E-1	1.369629E-1	6.273499E-1	1.184387E-1	2.794075E-2	-5.679893E-2	-4.941559E-1	-8.163452E-2
2.008050E+10	-8.305359E-1	1.414185E-1	6.195984E-1	1.095886E-1	2.648354E-2	-5.861473E-2	-4.950714E-1	-7.118225E-2
2.030500E+10	-8.298340E-1	1.426697E-1	6.121216E-1	1.009827E-1	2.621460E-2	-5.853271E-2	-4.938354E-1	-7.228088E-2
2.052950E+10	-8.287354E-1	1.463318E-1	6.029968E-1	9.063721E-2	2.335548E-2	-5.822182E-2	-5.000000E-1	-6.884766E-2
2.075400E+10	-8.286133E-1	1.507263E-1	5.978394E-1	7.986450E-2	2.357292E-2	-5.937576E-2	-5.013123E-1	-6.323242E-2
2.097850E+10	-8.275452E-1	1.528320E-1	5.903931E-1	7.058716E-2	2.226830E-2	-5.849838E-2	-5.018005E-1	-5.923462E-2
2.120300E+10	-8.249512E-1	1.558228E-1	5.817261E-1	6.155396E-2	2.062798E-2	-5.732155E-2	-5.066223E-1	-5.856323E-2
2.142750E+10	-8.253479E-1	1.600037E-1	5.769958E-1	5.300903E-2	1.807404E-2	-5.800438E-2	-5.112915E-1	-5.102539E-2
2.165200E+10	-8.237000E-1	1.650696E-1	5.671082E-1	4.418945E-2	1.907921E-2	-5.802727E-2	-5.104370E-1	-4.675293E-2
2.187650E+10	-8.225708E-1	1.673279E-1	5.608215E-1	3.802490E-2	1.619530E-2	-5.665970E-2	-5.152588E-1	-4.397583E-2
2.210100E+10	-8.223877E-1	1.712036E-1	5.541382E-1	2.868652E-2	1.576805E-2	-5.751038E-2	-5.203552E-1	-3.625488E-2
2.232550E+10	-8.193665E-1	1.739502E-1	5.487061E-1	2.346802E-2	1.677895E-2	-5.701447E-2	-5.179749E-1	-3.128052E-2
2.255000E+10	-8.200378E-1	1.795349E-1	5.406799E-1	1.574707E-2	1.466179E-2	-5.736732E-2	-5.202332E-1	-2.923584E-2
2.277450E+10	-8.195801E-1	1.812439E-1	5.331726E-1	5.706787E-3	1.339149E-2	-5.788231E-2	-5.235291E-1	-2.438354E-2
2.299900E+10	-8.176575E-1	1.840820E-1	5.267029E-1	1.159668E-3	1.185989E-2	-5.789948E-2	-5.232239E-1	-1.849365E-2
2.322350E+10	-8.161621E-1	1.876526E-1	5.231934E-1	-6.988525E-3	1.043320E-2	-5.681038E-2	-5.249634E-1	-1.559448E-2
2.344800E+10	-8.140869E-1	1.902161E-1	5.154114E-1	-1.031494E-2	9.803772E-3	-5.698586E-2	-5.286255E-1	-8.422852E-3
2.367250E+10	-8.127441E-1	1.961670E-1	5.065613E-1	-1.828003E-2	7.665634E-3	-5.690765E-2	-5.269470E-1	-4.638672E-3
2.389700E+10	-8.108826E-1	1.968079E-1	5.002136E-1	-2.453613E-2	7.511139E-3	-5.674362E-2	-5.323486E-1	-2.746582E-3
2.412150E+10	-8.106384E-1	2.013855E-1	4.931030E-1	-3.163147E-2	6.870270E-3	-5.682564E-2	-5.323486E-1	6.744385E-3
2.434600E+10	-8.093567E-1	2.053223E-1	4.874878E-1	-3.640747E-2	6.122589E-3	-5.500221E-2	-5.298462E-1	6.408691E-3
2.457050E+10	-8.068848E-1	2.075500E-1	4.809875E-1	-4.266357E-2	4.278183E-3	-5.706406E-2	-5.335999E-1	1.339722E-2
2.479500E+10	-8.055115E-1	2.106323E-1	4.725952E-1	-4.721069E-2	3.412247E-3	-5.587769E-2	-5.328369E-1	2.011108E-2
2.501950E+10	-8.049316E-1	2.140198E-1	4.679565E-1	-5.236816E-2	2.096176E-3	-5.547333E-2	-5.319824E-1	2.243042E-2
2.524400E+10	-8.031311E-1	2.174072E-1	4.606934E-1	-5.665588E-2	3.738403E-4	-5.409813E-2	-5.346069E-1	2.673340E-2
2.546850E+10	-8.006897E-1	2.207642E-1	4.544830E-1	-5.899048E-2	-1.821518E-3	-5.558014E-2	-5.335388E-1	3.338623E-2
2.569300E+10	-7.981873E-1	2.221985E-1	4.490509E-1	-6.362915E-2	-1.501083E-3	-5.278206E-2	-5.357971E-1	3.561401E-2
2.591750E+10	-8.001099E-1	2.282715E-1	4.461060E-1	-6.982422E-2	-2.729416E-3	-5.319595E-2	-5.382690E-1	3.924561E-2
2.614200E+10	-7.973022E-1	2.294006E-1	4.373016E-1	-7.142639E-2	-2.637863E-3	-5.107307E-2	-5.402832E-1	4.626465E-2
2.636650E+10	-7.961426E-1	2.306213E-1	4.325867E-1	-7.760620E-2	-2.288818E-3	-5.150604E-2	-5.410767E-1	5.291748E-2
2.659100E+10	-7.947693E-1	2.350769E-1	4.247131E-1	-8.276367E-2	-4.285812E-3	-5.039787E-2	-5.385132E-1	5.731201E-2
2.681550E+10	-7.925415E-1	2.379456E-1	4.200287E-1	-8.654785E-2	-4.339218E-3	-5.172729E-2	-5.407715E-1	5.972290E-2
2.704000E+10	-7.896423E-1	2.403564E-1	4.129028E-1	-8.692932E-2	-4.592896E-3	-4.987717E-2	-5.440979E-1	7.003784E-2
2.726450E+10	-7.887878E-1	2.436523E-1	4.107361E-1	-9.361267E-2	-9.632111E-3	-4.829216E-2	-5.375061E-1	7.223511E-2
2.748900E+10	-7.888184E-1	2.443848E-1	4.035645E-1	-9.536743E-2	-9.748459E-3	-4.777336E-2	-5.404968E-1	7.608032E-2
2.771350E+10	-7.882385E-1	2.484741E-1	3.955536E-1	-9.745789E-2	-1.150513E-2	-4.981995E-2	-5.386047E-1	8.270264E-2
2.793800E+10	-7.837219E-1	2.507629E-1	3.928528E-1	-1.027374E-1	-6.198883E-3	-5.074883E-2	-5.380859E-1	8.364868E-2
2.816250E+10	-7.826233E-1	2.508240E-1	3.870392E-1	-1.053314E-1	-1.244926E-2	-4.539108E-2	-5.418701E-1	8.892822E-2
2.838700E+10	-7.813416E-1	2.552185E-1	3.812866E-1	-1.082306E-1	-1.148987E-2	-4.446220E-2	-5.389709E-1	9.500122E-2
2.861150E+10	-7.789612E-1	2.592468E-1	3.784790E-1	-1.114349E-1	-1.188469E-2	-4.452515E-2	-5.395508E-1	1.005859E-1
2.883600E+10	-7.790527E-1	2.603760E-1	3.728485E-1	-1.146393E-1	-1.551819E-2	-4.571533E-2	-5.381775E-1	1.016846E-1
2.906050E+10	-7.790222E-1	2.640381E-1	3.676910E-1	-1.167603E-1	-1.625252E-2	-4.278374E-2	-5.398865E-1	1.093750E-1
2.928500E+10	-7.767334E-1	2.677307E-1	3.657684E-1	-1.200256E-1	-1.520729E-2	-4.083824E-2	-5.391541E-1	1.156311E-1
2.950950E+10	-7.746277E-1	2.710876E-1	3.612213E-1	-1.212158E-1	-1.497269E-2	-4.035759E-2	-5.403137E-1	1.166077E-1
2.973400E+10	-7.718506E-1	2.709961E-1	3.536224E-1	-1.235199E-1	-1.573944E-2	-4.091454E-2	-5.423584E-1	1.224060E-1
2.995850E+10	-7.698059E-1	2.749023E-1	3.487091E-1	-1.274109E-1	-1.856041E-2	-3.770828E-2	-5.408325E-1	1.348877E-1
3.018300E+10	-7.644043E-1	2.779236E-1	3.426056E-1	-1.292572E-1	-1.861763E-2	-3.823280E-2	-5.392151E-1	1.391602E-1
3.040750E+10	-7.657471E-1	2.805481E-1	3.424683E-1	-1.314545E-1	-1.757240E-2	-3.683472E-2	-5.418396E-1	1.440430E-1
3.063200E+10	-7.638245E-1	2.826538E-1	3.378143E-1	-1.336212E-1	-1.837730E-2	-3.858757E-2	-5.424194E-1	1.491089E-1
3.085650E+10	-7.640991E-1	2.861938E-1	3.300934E-1	-1.359863E-1	-1.807404E-2	-3.881073E-2	-5.361633E-1	1.559448E-1
3.108100E+10	-7.598267E-1	2.850952E-1	3.288269E-1	-1.370850E-1	-2.111244E-2	-3.311729E-2	-5.346375E-1	1.610718E-1
3.130550E+10	-7.590027E-1	2.899475E-1	3.211823E-1	-1.375427E-1	-2.259254E-2	-3.186417E-2	-5.304260E-1	1.697083E-1
3.153000E+10	-7.625427E-1	2.926941E-1	3.203583E-1	-1.416168E-1	-2.131653E-2	-3.137589E-2	-5.299377E-1	1.708984E-1
3.175450E+10	-7.557983E-1	2.906494E-1	3.151398E-1	-1.432190E-1	-2.234459E-2	-3.184319E-2	-5.296631E-1	1.820068E-1
3.197900E+10	-7.557068E-1	2.922668E-1	3.103180E-1	-1.493530E-1	-1.988316E-2	-2.952385E-2	-5.229797E-1	1.796265E-1
3.220350E+10	-7.542725E-1	3.002014E-1	3.095093E-1	-1.504517E-1	-2.230072E-2	-3.581619E-2	-5.247192E-1	1.894836E-1
3.242800E+10	-7.548828E-1	3.008423E-1	3.030701E-1	-1.504059E-1	-2.698898E-2	-2.906132E-2	-5.271606E-1	1.942749E-1
3.265250E+10	-7.511292E-1	3.058167E-1	2.987823E-1	-1.497345E-1	-2.917385E-2	-2.641773E-2	-5.227966E-1	1.975708E-1
3.287700E+10	-7.504272E-1	3.110962E-1	2.969818E-1	-1.518860E-1	-2.866650E-2	-2.572823E-2	-5.194397E-1	1.984863E-1
3.310150E+10	-7.452393E-1	3.102722E-1	2.905579E-1	-1.511841E-1	-2.626991E-2	-2.496147E-2	-5.198669E-1	2.045898E-1
3.332600E+10	-7.440186E-1	3.110046E-1	2.871857E-1	-1.524200E-1	-2.452183E-2	-2.321625E-2	-5.175476E-1	2.133789E-1
3.355050E+10	-7.416077E-1	3.160706E-1	2.830658E-1	-1.600189E-1	-2.264977E-2	-2.235985E-2	-5.176392E-1	2.178040E-1
3.377500E+10	-7.429199E-1	3.168945E-1	2.864227E-1	-1.552124E-1	-2.430916E-2	-2.420425E-2	-5.136414E-1	2.174072E-1
3.399950E+10	-7.390442E-1	3.199463E-1	2.775726E-1	-1.608429E-1	-2.862358E-2	-2.232552E-2	-5.151672E-1	2.233276E-1
3.422400E+10	-7.378845E-1	3.260193E-1	2.755127E-1	-1.614990E-1	-2.741337E-2	-1.807117E-2	-5.134888E-1	2.391357E-1
3.444850E+10	-7.367249E-1	3.222046E-1	2.717590E-1	-1.651001E-1	-2.536488E-2	-1.752758E-2	-5.050659E-1	2.367554E-1
3.467300E+10	-7.363892E-1	3.275146E-1	2.783508E-1	-1.628265E-1	-2.469635E-2	-1.566601E-2	-5.136719E-1	2.457275E-1
3.489750E+10	-7.371826E-1	3.287354E-1	2.655182E-1	-1.638184E-1	-2.895641E-2	-1.874924E-2	-5.045776E-1	2.542114E-1
3.512200E+10	-7.310181E-1	3.312378E-1	2.660980E-1	-1.660919E-1	-2.605820E-2	-1.581097E-2	-4.973145E-1	2.531586E-1
3.534650E+10	-7.290039E-1	3.310852E-1	2.641907E-1	-1.675720E-1	-2.737904E-2	-1.173115E-2	-5.019531E-1	2.598877E-1
3.557100E+10	-7.305908E-1	3.323059E-1	2.613220E-1	-1.746216E-1	-2.428913E-2	-1.302719E-2	-4.934235E-1	2.725220E-1
3.579550E+10	-7.277832E-1	3.333740E-1	2.566223E-1	-1.747894E-1	-2.787685E-2	-1.168442E-2	-4.887695E-1	2.670135E-1
3.602000E+10	-7.291870E-1	3.367310E-1	2.517090E-1	-1.726685E-1	-3.128052E-2	-1.334190E-2	-4.825134E-1	2.739105E-1
3.624450E+10	-7.260437E-1	3.402710E-1	2.473145E-1	-1.758804E-1	-2.743816E-2	-7.398605E-3	-4.840698E-1	2.831421E-1
3.646900E+10	-7.224426E-1	3.447876E-1	2.460785E-1	-1.744461E-1	-3.045845E-2	-9.798050E-3	-4.815826E-1	2.920074E-1
3.669350E+10	-7.184448E-1	3.438416E-1	2.453766E-1	-1.826859E-1	-2.576542E-2	-3.781319E-3	-4.696960E-1	2.945709E-1
3.691800E+10	-7.194519E-1	3.464355E-1	2.400513E-1	-1.797409E-1	-2.868366E-2	-5.780220E-3	-4.747620E-1	2.991486E-1
3.714250E+10	-7.154236E-1	3.450317E-1	2.386093E-1	-1.834946E-1	-2.743149E-2	-3.288269E-3	-4.685211E-1	3.066711E-1
3.736700E+10	-7.125244E-1	3.525085E-1	2.318497E-1	-1.826096E-1	-3.041077E-2	-5.026817E-3	-4.622345E-1	3.062744E-1
3.759150E+10	-7.114868E-1	3.531799E-1	2.308884E-1	-1.824722E-1	-2.487278E-2	-5.079269E-3	-4.638214E-1	3.212891E-1
3.781600E+10	-7.094727E-1	3.553162E-1	2.281876E-1	-1.803360E-1	-2.527905E-2	-5.451202E-3	-4.590454E-1	3.198090E-1
3.804050E+10	-7.065430E-1	3.598022E-1	2.231293E-1	-1.893539E-1	-2.565384E-2	3.965378E-3	-4.492798E-1	3.238678E-1
3.826500E+10	-7.076111E-1	3.639221E-1	2.302399E-1	-1.880264E-1	-2.737617E-2	2.240181E-3	-4.442291E-1	3.357697E-1
3.848950E+10	-7.012939E-1	3.603821E-1	2.200546E-1	-1.879807E-1	-2.791882E-2	-7.247925E-5	-4.388580E-1	3.378906E-1
3.871400E+10	-6.997070E-1	3.569641E-1	2.147598E-1	-1.877441E-1	-2.737617E-2	4.464149E-3	-4.320526E-1	3.362579E-1
3.893850E+10	-7.019653E-1	3.622131E-1	2.148361E-1	-1.918640E-1	-2.530766E-2	6.540298E-3	-4.214783E-1	3.445740E-1
3.916300E+10	-7.059631E-1	3.687744E-1	2.121048E-1	-1.939316E-1	-2.545357E-2	9.407997E-3	-4.255829E-1	3.440247E-1
