!Date: 10/28/2005, 12:46 PM

!Vgs = -3.000000E+0
!Vds = 5.000000E+0
!Ig = -1.744400E-5
!Id = 3.593900E-1

# HZ S RI R 50
1.000000E+8	9.605103E-1	-2.179871E-1	-1.481641E+1	1.247070E+0	9.860992E-4	9.393692E-3	3.335724E-1	-8.274841E-2
3.245000E+8	7.311707E-1	-6.069641E-1	-1.277393E+1	5.211914E+0	1.095486E-2	2.547264E-2	1.467590E-1	-2.445450E-1
5.490000E+8	4.290771E-1	-8.292236E-1	-1.017432E+1	7.081543E+0	2.486801E-2	3.333664E-2	5.096436E-2	-3.062134E-1
7.735000E+8	1.487732E-1	-9.071655E-1	-7.768311E+0	7.696289E+0	3.676033E-2	3.513908E-2	-5.895996E-2	-3.396912E-1
9.980000E+8	-7.644653E-2	-9.040833E-1	-5.847412E+0	7.634033E+0	4.639435E-2	3.408813E-2	-1.415710E-1	-3.257294E-1
1.222500E+9	-2.523804E-1	-8.653870E-1	-4.392578E+0	7.300537E+0	5.311394E-2	3.094482E-2	-1.977234E-1	-3.132477E-1
1.447000E+9	-3.858948E-1	-8.121033E-1	-3.286377E+0	6.837158E+0	5.868912E-2	2.764511E-2	-2.462158E-1	-2.929840E-1
1.671500E+9	-4.863892E-1	-7.548828E-1	-2.460449E+0	6.351807E+0	6.243134E-2	2.485847E-2	-2.801514E-1	-2.747498E-1
1.896000E+9	-5.642700E-1	-6.970520E-1	-1.850098E+0	5.877441E+0	6.623077E-2	2.155304E-2	-3.070374E-1	-2.531586E-1
2.120500E+9	-6.223145E-1	-6.436462E-1	-1.380859E+0	5.455811E+0	6.819916E-2	1.818085E-2	-3.271942E-1	-2.366791E-1
2.345000E+9	-6.689758E-1	-5.920715E-1	-1.006104E+0	5.062744E+0	7.002258E-2	1.515579E-2	-3.435211E-1	-2.191315E-1
2.569500E+9	-7.022095E-1	-5.473633E-1	-7.136230E-1	4.702881E+0	7.053757E-2	1.243591E-2	-3.557739E-1	-2.042694E-1
2.794000E+9	-7.317810E-1	-5.102234E-1	-4.882812E-1	4.393311E+0	7.225037E-2	9.895325E-3	-3.654633E-1	-1.917725E-1
3.018500E+9	-7.542114E-1	-4.732971E-1	-2.956543E-1	4.105957E+0	7.225418E-2	7.564545E-3	-3.730316E-1	-1.796112E-1
3.243000E+9	-7.737427E-1	-4.392700E-1	-1.397705E-1	3.853027E+0	7.305527E-2	5.203247E-3	-3.804321E-1	-1.699371E-1
3.467500E+9	-7.898865E-1	-4.111328E-1	-9.765625E-3	3.627197E+0	7.363892E-2	2.647400E-3	-3.859406E-1	-1.607971E-1
3.692000E+9	-8.036804E-1	-3.846130E-1	1.037598E-1	3.414062E+0	7.345200E-2	1.293182E-3	-3.910522E-1	-1.537170E-1
3.916500E+9	-8.160400E-1	-3.577881E-1	1.932373E-1	3.221680E+0	7.406235E-2	-5.760193E-4	-3.978119E-1	-1.461792E-1
4.141000E+9	-8.254395E-1	-3.346863E-1	2.706299E-1	3.049072E+0	7.425308E-2	-2.479553E-3	-4.012756E-1	-1.386108E-1
4.365500E+9	-8.323059E-1	-3.138733E-1	3.391113E-1	2.888916E+0	7.400513E-2	-4.467010E-3	-4.043884E-1	-1.332703E-1
4.590000E+9	-8.394470E-1	-2.946472E-1	3.952637E-1	2.738159E+0	7.363129E-2	-5.943298E-3	-4.085693E-1	-1.262360E-1
4.814500E+9	-8.465881E-1	-2.761536E-1	4.414062E-1	2.600464E+0	7.430267E-2	-7.488251E-3	-4.113159E-1	-1.210632E-1
5.039000E+9	-8.508911E-1	-2.580872E-1	4.831543E-1	2.476074E+0	7.381821E-2	-9.490967E-3	-4.144135E-1	-1.165924E-1
5.263500E+9	-8.559570E-1	-2.413025E-1	5.194092E-1	2.360474E+0	7.393265E-2	-1.081848E-2	-4.178772E-1	-1.111603E-1
5.488000E+9	-8.590393E-1	-2.278442E-1	5.512695E-1	2.254150E+0	7.365036E-2	-1.200104E-2	-4.197388E-1	-1.067810E-1
5.712500E+9	-8.635254E-1	-2.136536E-1	5.795898E-1	2.150024E+0	7.326508E-2	-1.344299E-2	-4.225922E-1	-1.028137E-1
5.937000E+9	-8.662720E-1	-1.987610E-1	6.022949E-1	2.054077E+0	7.263184E-2	-1.488113E-2	-4.254303E-1	-9.864807E-2
6.161500E+9	-8.690491E-1	-1.868896E-1	6.242676E-1	1.968323E+0	7.295990E-2	-1.618195E-2	-4.275360E-1	-9.309387E-2
6.386000E+9	-8.721008E-1	-1.745911E-1	6.427612E-1	1.883789E+0	7.258606E-2	-1.769638E-2	-4.280701E-1	-9.049988E-2
6.610500E+9	-8.726196E-1	-1.632996E-1	6.614380E-1	1.805969E+0	7.199860E-2	-1.897812E-2	-4.316559E-1	-8.856201E-2
6.835000E+9	-8.759766E-1	-1.522217E-1	6.749878E-1	1.729248E+0	7.177353E-2	-2.039337E-2	-4.340363E-1	-8.230591E-2
7.059500E+9	-8.776245E-1	-1.424561E-1	6.837769E-1	1.660156E+0	7.139206E-2	-2.184677E-2	-4.324951E-1	-8.168030E-2
7.284000E+9	-8.785400E-1	-1.319885E-1	6.934814E-1	1.593262E+0	7.064438E-2	-2.334595E-2	-4.375916E-1	-7.853699E-2
7.508500E+9	-8.803711E-1	-1.224976E-1	7.022705E-1	1.529297E+0	6.987000E-2	-2.416992E-2	-4.359894E-1	-7.426453E-2
7.733000E+9	-8.809204E-1	-1.118774E-1	7.097168E-1	1.470215E+0	7.006454E-2	-2.561569E-2	-4.394989E-1	-7.530212E-2
7.957500E+9	-8.823547E-1	-1.023865E-1	7.182617E-1	1.414551E+0	6.924820E-2	-2.608109E-2	-4.426575E-1	-7.031250E-2
8.182000E+9	-8.820801E-1	-9.350586E-2	7.250366E-1	1.360779E+0	6.862640E-2	-2.761078E-2	-4.447174E-1	-6.927490E-2
8.406500E+9	-8.822327E-1	-8.642578E-2	7.269287E-1	1.307495E+0	6.795120E-2	-2.863312E-2	-4.457397E-1	-6.437683E-2
8.631000E+9	-8.832397E-1	-7.745361E-2	7.329712E-1	1.256226E+0	6.723022E-2	-2.954865E-2	-4.486084E-1	-6.283569E-2
8.855500E+9	-8.841553E-1	-7.037354E-2	7.355957E-1	1.209167E+0	6.671143E-2	-3.108215E-2	-4.498901E-1	-5.877686E-2
9.080001E+9	-8.842773E-1	-6.326294E-2	7.373047E-1	1.163574E+0	6.627274E-2	-3.212738E-2	-4.502258E-1	-5.509949E-2
9.304500E+9	-8.835754E-1	-5.603027E-2	7.377930E-1	1.120728E+0	6.492615E-2	-3.283691E-2	-4.531403E-1	-5.407715E-2
9.529000E+9	-8.840027E-1	-4.812622E-2	7.382202E-1	1.078003E+0	6.467056E-2	-3.377533E-2	-4.554138E-1	-5.050659E-2
9.753500E+9	-8.847351E-1	-4.168701E-2	7.389526E-1	1.037781E+0	6.387711E-2	-3.530502E-2	-4.553070E-1	-4.769897E-2
9.978000E+9	-8.845520E-1	-3.411865E-2	7.377930E-1	1.000305E+0	6.350327E-2	-3.601074E-2	-4.566345E-1	-4.679871E-2
1.020250E+10	-8.855896E-1	-2.746582E-2	7.372437E-1	9.630432E-1	6.173706E-2	-3.695107E-2	-4.590454E-1	-4.299927E-2
1.042700E+10	-8.851318E-1	-2.139282E-2	7.370300E-1	9.276428E-1	6.183815E-2	-3.791046E-2	-4.592438E-1	-4.057312E-2
1.065150E+10	-8.848572E-1	-1.525879E-2	7.343445E-1	8.946228E-1	6.043434E-2	-3.870773E-2	-4.604034E-1	-3.968811E-2
1.087600E+10	-8.848267E-1	-8.666992E-3	7.335510E-1	8.619690E-1	6.002045E-2	-3.907204E-2	-4.635162E-1	-3.674316E-2
1.110050E+10	-8.841553E-1	-1.281738E-3	7.306213E-1	8.296204E-1	5.803108E-2	-3.955460E-2	-4.642792E-1	-3.309631E-2
1.132500E+10	-8.832397E-1	2.929687E-3	7.282715E-1	7.994385E-1	5.718803E-2	-4.064178E-2	-4.640350E-1	-3.244019E-2
1.154950E+10	-8.835144E-1	1.086426E-2	7.257385E-1	7.682190E-1	5.722809E-2	-4.110527E-2	-4.682922E-1	-2.926636E-2
1.177400E+10	-8.826294E-1	1.602173E-2	7.226868E-1	7.417297E-1	5.549240E-2	-4.247665E-2	-4.696960E-1	-2.572632E-2
1.199850E+10	-8.829346E-1	2.117920E-2	7.200317E-1	7.137451E-1	5.467606E-2	-4.187965E-2	-4.698334E-1	-2.558899E-2
1.222300E+10	-8.822632E-1	2.688599E-2	7.140198E-1	6.861877E-1	5.448341E-2	-4.321480E-2	-4.722443E-1	-2.381897E-2
1.244750E+10	-8.809509E-1	3.179932E-2	7.103271E-1	6.603088E-1	5.415344E-2	-4.409599E-2	-4.734039E-1	-1.754761E-2
1.267200E+10	-8.818970E-1	3.704834E-2	7.071838E-1	6.367493E-1	5.246544E-2	-4.518890E-2	-4.731445E-1	-1.875305E-2
1.289650E+10	-8.806763E-1	4.205322E-2	7.012634E-1	6.124268E-1	5.167580E-2	-4.607391E-2	-4.775391E-1	-1.603699E-2
1.312100E+10	-8.800659E-1	4.684448E-2	6.967163E-1	5.888367E-1	5.142593E-2	-4.634666E-2	-4.782715E-1	-1.144409E-2
1.334550E+10	-8.804321E-1	5.249023E-2	6.927185E-1	5.675049E-1	4.977798E-2	-4.635239E-2	-4.782410E-1	-1.098633E-2
1.357000E+10	-8.786316E-1	5.578613E-2	6.880798E-1	5.440369E-1	4.927254E-2	-4.694939E-2	-4.810028E-1	-9.582520E-3
1.379450E+10	-8.789673E-1	6.179810E-2	6.815796E-1	5.242310E-1	4.814339E-2	-4.786491E-2	-4.826965E-1	-3.616333E-3
1.401900E+10	-8.776855E-1	6.634521E-2	6.774292E-1	5.071716E-1	4.760551E-2	-4.919434E-2	-4.823914E-1	-3.494263E-3
1.424350E+10	-8.763428E-1	7.131958E-2	6.708984E-1	4.853210E-1	4.562569E-2	-4.950905E-2	-4.858246E-1	-4.882813E-4
1.446800E+10	-8.766785E-1	7.608032E-2	6.673584E-1	4.665222E-1	4.433441E-2	-4.923439E-2	-4.875031E-1	5.340576E-3
1.469250E+10	-8.753662E-1	8.157349E-2	6.617737E-1	4.485168E-1	4.429626E-2	-5.035591E-2	-4.848022E-1	5.859375E-3
1.491700E+10	-8.738708E-1	8.499146E-2	6.556396E-1	4.302368E-1	4.302788E-2	-5.002403E-2	-4.884338E-1	6.515503E-3
1.514150E+10	-8.735962E-1	9.069824E-2	6.512451E-1	4.143677E-1	4.330826E-2	-5.026627E-2	-4.900513E-1	1.312256E-2
1.536600E+10	-8.715515E-1	9.472656E-2	6.448364E-1	3.960266E-1	4.161072E-2	-5.163383E-2	-4.884033E-1	1.361084E-2
1.559050E+10	-8.706970E-1	1.001587E-1	6.388550E-1	3.814392E-1	4.034996E-2	-5.037880E-2	-4.919891E-1	1.461792E-2
1.581500E+10	-8.692932E-1	1.030884E-1	6.324158E-1	3.626709E-1	3.890038E-2	-5.207062E-2	-4.933929E-1	1.919556E-2
1.603950E+10	-8.703613E-1	1.076965E-1	6.268311E-1	3.495789E-1	3.849411E-2	-5.276680E-2	-4.939880E-1	2.120972E-2
1.626400E+10	-8.677673E-1	1.124268E-1	6.218567E-1	3.339844E-1	3.705978E-2	-5.260849E-2	-4.967651E-1	2.151489E-2
1.648850E+10	-8.678284E-1	1.156311E-1	6.157532E-1	3.200684E-1	3.654289E-2	-5.303574E-2	-4.981384E-1	2.606201E-2
1.671300E+10	-8.661194E-1	1.215515E-1	6.099243E-1	3.060608E-1	3.508568E-2	-5.340767E-2	-4.980927E-1	2.772522E-2
1.693750E+10	-8.660278E-1	1.246338E-1	6.051331E-1	2.937012E-1	3.386688E-2	-5.370522E-2	-4.999695E-1	2.966309E-2
1.716200E+10	-8.643494E-1	1.289062E-1	5.984802E-1	2.802429E-1	3.427505E-2	-5.327415E-2	-5.024109E-1	3.634644E-2
1.738650E+10	-8.633118E-1	1.334839E-1	5.922546E-1	2.696533E-1	3.195763E-2	-5.390739E-2	-5.011902E-1	3.738403E-2
1.761100E+10	-8.617554E-1	1.380005E-1	5.858765E-1	2.560425E-1	3.110313E-2	-5.407524E-2	-5.032654E-1	4.006958E-2
1.783550E+10	-8.611145E-1	1.414490E-1	5.814209E-1	2.447205E-1	2.932167E-2	-5.392838E-2	-5.074768E-1	4.501343E-2
1.806000E+10	-8.605957E-1	1.462097E-1	5.758057E-1	2.339172E-1	2.808380E-2	-5.417061E-2	-5.037537E-1	4.837036E-2
1.828450E+10	-8.570251E-1	1.491394E-1	5.681763E-1	2.229919E-1	2.788162E-2	-5.416679E-2	-5.047302E-1	4.931641E-2
1.850900E+10	-8.582153E-1	1.532593E-1	5.637817E-1	2.113953E-1	2.655029E-2	-5.540466E-2	-5.086365E-1	5.453491E-2
1.873350E+10	-8.567505E-1	1.571960E-1	5.570068E-1	2.007751E-1	2.578354E-2	-5.508232E-2	-5.056763E-1	5.834961E-2
1.895800E+10	-8.544006E-1	1.611938E-1	5.515442E-1	1.903687E-1	2.486420E-2	-5.472183E-2	-5.080872E-1	5.944824E-2
1.918250E+10	-8.551941E-1	1.629639E-1	5.449829E-1	1.811829E-1	2.273560E-2	-5.598640E-2	-5.093079E-1	6.240845E-2
1.940700E+10	-8.525391E-1	1.674500E-1	5.383606E-1	1.718750E-1	2.264023E-2	-5.549622E-2	-5.101624E-1	7.006836E-2
1.963150E+10	-8.505859E-1	1.723633E-1	5.328064E-1	1.618652E-1	2.091026E-2	-5.566788E-2	-5.098877E-1	6.884766E-2
1.985600E+10	-8.504028E-1	1.750488E-1	5.266113E-1	1.545410E-1	1.981735E-2	-5.578995E-2	-5.141602E-1	7.238770E-2
2.008050E+10	-8.497009E-1	1.774597E-1	5.204468E-1	1.462708E-1	1.830482E-2	-5.626297E-2	-5.117493E-1	8.059692E-2
2.030500E+10	-8.475342E-1	1.811523E-1	5.171509E-1	1.380310E-1	1.826668E-2	-5.529976E-2	-5.129395E-1	7.958984E-2
2.052950E+10	-8.453064E-1	1.846313E-1	5.099182E-1	1.311340E-1	1.663399E-2	-5.607033E-2	-5.145264E-1	8.178711E-2
2.075400E+10	-8.460693E-1	1.890869E-1	5.050659E-1	1.229858E-1	1.630020E-2	-5.591393E-2	-5.147095E-1	8.789062E-2
2.097850E+10	-8.431396E-1	1.914368E-1	4.996643E-1	1.158600E-1	1.444817E-2	-5.545044E-2	-5.124817E-1	9.036255E-2
2.120300E+10	-8.416138E-1	1.955261E-1	4.932709E-1	1.077881E-1	1.442719E-2	-5.414009E-2	-5.122681E-1	8.941650E-2
2.142750E+10	-8.414307E-1	1.978149E-1	4.880829E-1	1.015778E-1	1.143837E-2	-5.355263E-2	-5.187073E-1	9.616089E-2
2.165200E+10	-8.413391E-1	2.024841E-1	4.832153E-1	9.631348E-2	1.198196E-2	-5.341530E-2	-5.175781E-1	9.881592E-2
2.187650E+10	-8.393860E-1	2.055359E-1	4.793091E-1	8.834839E-2	9.735107E-3	-5.356407E-2	-5.183105E-1	1.011658E-1
2.210100E+10	-8.374329E-1	2.100220E-1	4.731293E-1	7.812500E-2	8.743286E-3	-5.314255E-2	-5.195312E-1	1.099243E-1
2.232550E+10	-8.348389E-1	2.128296E-1	4.675598E-1	7.571411E-2	7.537842E-3	-5.423164E-2	-5.153809E-1	1.125183E-1
2.255000E+10	-8.352966E-1	2.155762E-1	4.617004E-1	7.052612E-2	6.292343E-3	-5.412483E-2	-5.207825E-1	1.132202E-1
2.277450E+10	-8.315735E-1	2.198181E-1	4.572144E-1	6.320190E-2	5.498886E-3	-5.331421E-2	-5.192261E-1	1.206970E-1
2.299900E+10	-8.317871E-1	2.228088E-1	4.525909E-1	5.857849E-2	3.742218E-3	-5.335045E-2	-5.168152E-1	1.228638E-1
2.322350E+10	-8.309937E-1	2.256470E-1	4.490662E-1	5.131531E-2	2.939224E-3	-5.395889E-2	-5.183105E-1	1.230774E-1
2.344800E+10	-8.282471E-1	2.278137E-1	4.421692E-1	4.838562E-2	2.313614E-3	-5.315208E-2	-5.200195E-1	1.315002E-1
2.367250E+10	-8.290710E-1	2.321167E-1	4.363098E-1	4.228210E-2	4.463196E-4	-5.289650E-2	-5.159607E-1	1.361694E-1
2.389700E+10	-8.257446E-1	2.363586E-1	4.315796E-1	3.715515E-2	-1.434326E-3	-5.180359E-2	-5.191956E-1	1.367493E-1
2.412150E+10	-8.244019E-1	2.378235E-1	4.271851E-1	3.308105E-2	-2.639771E-3	-5.125809E-2	-5.177307E-1	1.441345E-1
2.434600E+10	-8.213501E-1	2.424927E-1	4.217987E-1	2.967834E-2	-1.762390E-3	-5.105019E-2	-5.142212E-1	1.452026E-1
2.457050E+10	-8.200073E-1	2.462769E-1	4.178009E-1	2.644348E-2	-3.511429E-3	-5.055618E-2	-5.170593E-1	1.470337E-1
2.479500E+10	-8.188782E-1	2.477417E-1	4.121552E-1	2.084351E-2	-5.098343E-3	-5.018234E-2	-5.163574E-1	1.554565E-1
2.501950E+10	-8.175354E-1	2.523499E-1	4.098816E-1	1.615906E-2	-6.837845E-3	-4.962730E-2	-5.097961E-1	1.561279E-1
2.524400E+10	-8.167419E-1	2.521667E-1	4.060364E-1	1.165771E-2	-8.728027E-3	-4.599190E-2	-5.152893E-1	1.571655E-1
2.546850E+10	-8.127747E-1	2.582397E-1	4.013519E-1	1.033020E-2	-9.441376E-3	-4.696083E-2	-5.136719E-1	1.640625E-1
2.569300E+10	-8.098145E-1	2.586975E-1	3.975983E-1	6.805420E-3	-9.572983E-3	-4.419136E-2	-5.122681E-1	1.632690E-1
2.591750E+10	-8.106384E-1	2.644653E-1	3.936005E-1	4.180908E-3	-9.679794E-3	-4.430771E-2	-5.146179E-1	1.685486E-1
2.614200E+10	-8.084412E-1	2.663574E-1	3.889771E-1	8.239746E-4	-1.069641E-2	-4.504776E-2	-5.156250E-1	1.734924E-1
2.636650E+10	-8.069763E-1	2.676392E-1	3.850250E-1	-1.525879E-3	-1.311493E-2	-4.300690E-2	-5.153198E-1	1.789246E-1
2.659100E+10	-8.039551E-1	2.715759E-1	3.812103E-1	-5.493164E-3	-1.182938E-2	-4.287720E-2	-5.122986E-1	1.825256E-1
2.681550E+10	-8.023071E-1	2.715759E-1	3.767853E-1	-8.697510E-3	-1.411438E-2	-4.176521E-2	-5.138550E-1	1.813354E-1
2.704000E+10	-8.021240E-1	2.774048E-1	3.752594E-1	-1.271057E-2	-1.465225E-2	-3.968811E-2	-5.140381E-1	1.919556E-1
2.726450E+10	-7.991943E-1	2.783203E-1	3.733368E-1	-1.536560E-2	-1.572800E-2	-3.999710E-2	-5.059204E-1	1.927490E-1
2.748900E+10	-7.977295E-1	2.808533E-1	3.678436E-1	-1.588440E-2	-1.480484E-2	-3.866768E-2	-5.089722E-1	1.960144E-1
2.771350E+10	-7.941284E-1	2.827759E-1	3.648376E-1	-1.898193E-2	-1.771545E-2	-3.862190E-2	-5.098877E-1	1.983948E-1
2.793800E+10	-7.943115E-1	2.848816E-1	3.606567E-1	-2.363586E-2	-1.891708E-2	-3.915977E-2	-5.082397E-1	2.035828E-1
2.816250E+10	-7.911987E-1	2.893066E-1	3.569794E-1	-2.403259E-2	-1.679230E-2	-3.807640E-2	-5.073547E-1	2.059326E-1
2.838700E+10	-7.922363E-1	2.922058E-1	3.543854E-1	-2.760315E-2	-2.169037E-2	-3.671646E-2	-5.062256E-1	2.116699E-1
2.861150E+10	-7.875671E-1	2.968140E-1	3.525848E-1	-2.999878E-2	-1.992989E-2	-3.273392E-2	-5.029602E-1	2.155151E-1
2.883600E+10	-7.874146E-1	2.964478E-1	3.505249E-1	-3.504944E-2	-2.009106E-2	-3.100777E-2	-5.057068E-1	2.127686E-1
2.906050E+10	-7.866821E-1	2.996826E-1	3.442535E-1	-3.279114E-2	-2.248192E-2	-3.278351E-2	-5.031433E-1	2.230530E-1
2.928500E+10	-7.852173E-1	3.031311E-1	3.467712E-1	-3.475952E-2	-2.275944E-2	-2.783966E-2	-4.994965E-1	2.262421E-1
2.950950E+10	-7.810974E-1	3.088684E-1	3.444977E-1	-3.781128E-2	-2.282619E-2	-2.877426E-2	-5.027161E-1	2.285767E-1
2.973400E+10	-7.820740E-1	3.078308E-1	3.411560E-1	-4.121399E-2	-2.460194E-2	-2.749252E-2	-5.046997E-1	2.363281E-1
2.995850E+10	-7.775269E-1	3.099060E-1	3.383331E-1	-4.071045E-2	-2.374554E-2	-2.981758E-2	-5.034790E-1	2.393799E-1
3.018300E+10	-7.724915E-1	3.114929E-1	3.381348E-1	-4.702759E-2	-2.579403E-2	-2.252579E-2	-5.007935E-1	2.480469E-1
3.040750E+10	-7.736816E-1	3.146973E-1	3.342133E-1	-4.714966E-2	-2.253819E-2	-2.468967E-2	-5.025940E-1	2.516479E-1
3.063200E+10	-7.735901E-1	3.179321E-1	3.317413E-1	-4.649353E-2	-2.655983E-2	-2.558136E-2	-5.028076E-1	2.591553E-1
3.085650E+10	-7.704773E-1	3.182373E-1	3.301849E-1	-5.158997E-2	-2.730465E-2	-2.127647E-2	-4.947662E-1	2.576294E-1
3.108100E+10	-7.689819E-1	3.213501E-1	3.326874E-1	-5.644226E-2	-2.776623E-2	-1.949120E-2	-4.957581E-1	2.652893E-1
3.130550E+10	-7.643433E-1	3.216553E-1	3.261414E-1	-5.519104E-2	-2.800465E-2	-2.196026E-2	-4.865112E-1	2.633514E-1
3.153000E+10	-7.673645E-1	3.218689E-1	3.275146E-1	-5.316162E-2	-2.894115E-2	-1.779652E-2	-4.947357E-1	2.758942E-1
3.175450E+10	-7.634277E-1	3.268433E-1	3.205261E-1	-5.816650E-2	-2.766800E-2	-1.084709E-2	-4.899445E-1	2.796326E-1
3.197900E+10	-7.624207E-1	3.307495E-1	3.183746E-1	-6.170654E-2	-2.945328E-2	-1.333237E-2	-4.848938E-1	2.837830E-1
3.220350E+10	-7.559509E-1	3.331299E-1	3.202667E-1	-6.799316E-2	-2.959538E-2	-1.354408E-2	-4.900360E-1	2.898407E-1
3.242800E+10	-7.549438E-1	3.343811E-1	3.178101E-1	-6.593323E-2	-3.000736E-2	-7.589340E-3	-4.830017E-1	2.947845E-1
3.265250E+10	-7.595520E-1	3.372803E-1	3.176880E-1	-6.665039E-2	-3.133774E-2	-9.082794E-3	-4.745789E-1	2.936096E-1
3.287700E+10	-7.569885E-1	3.355713E-1	3.164215E-1	-7.261658E-2	-2.743530E-2	-7.722855E-3	-4.791260E-1	2.986755E-1
3.310150E+10	-7.518616E-1	3.415527E-1	3.142700E-1	-7.319641E-2	-2.974129E-2	-8.010864E-3	-4.720306E-1	3.016052E-1
3.332600E+10	-7.500305E-1	3.421631E-1	3.126984E-1	-7.792664E-2	-2.480125E-2	-5.347252E-3	-4.723663E-1	3.082275E-1
3.355050E+10	-7.479858E-1	3.453674E-1	3.096161E-1	-8.415222E-2	-2.945423E-2	-4.858017E-3	-4.732361E-1	3.160400E-1
3.377500E+10	-7.482910E-1	3.441467E-1	3.123932E-1	-8.293152E-2	-2.655029E-2	-4.385948E-3	-4.711456E-1	3.148193E-1
3.399950E+10	-7.446899E-1	3.468323E-1	3.084564E-1	-8.570862E-2	-2.739906E-2	-3.161430E-3	-4.706116E-1	3.221893E-1
3.422400E+10	-7.431030E-1	3.513794E-1	3.083954E-1	-8.782959E-2	-3.011990E-2	-2.391815E-3	-4.651337E-1	3.331604E-1
3.444850E+10	-7.425537E-1	3.557739E-1	3.092499E-1	-9.532166E-2	-2.531528E-2	-1.230240E-3	-4.626923E-1	3.331451E-1
3.467300E+10	-7.389526E-1	3.540344E-1	3.176422E-1	-9.202576E-2	-2.722454E-2	-1.726151E-3	-4.674835E-1	3.388062E-1
3.489750E+10	-7.384033E-1	3.547058E-1	3.111877E-1	-9.512329E-2	-2.577305E-2	2.347946E-3	-4.568634E-1	3.475189E-1
3.512200E+10	-7.357483E-1	3.567505E-1	3.054657E-1	-1.010590E-1	-2.297592E-2	2.398491E-3	-4.506989E-1	3.480682E-1
3.534650E+10	-7.355652E-1	3.590088E-1	3.056030E-1	-9.614563E-2	-2.772617E-2	4.754066E-3	-4.510651E-1	3.556671E-1
3.557100E+10	-7.344360E-1	3.587036E-1	2.993622E-1	-1.045990E-1	-2.546692E-2	5.737305E-3	-4.378815E-1	3.639679E-1
3.579550E+10	-7.290955E-1	3.614807E-1	3.016357E-1	-1.068268E-1	-2.040482E-2	1.028919E-2	-4.401245E-1	3.670807E-1
3.602000E+10	-7.304993E-1	3.644104E-1	3.011475E-1	-1.117249E-1	-2.954769E-2	1.152229E-2	-4.347229E-1	3.678741E-1
3.624450E+10	-7.307129E-1	3.639221E-1	3.070831E-1	-1.137390E-1	-2.526283E-2	9.997368E-3	-4.350891E-1	3.724365E-1
3.646900E+10	-7.285461E-1	3.689575E-1	3.021698E-1	-1.158447E-1	-2.691555E-2	1.054478E-2	-4.290771E-1	3.821716E-1
3.669350E+10	-7.253418E-1	3.726501E-1	2.992554E-1	-1.240692E-1	-1.948357E-2	1.484680E-2	-4.180756E-1	3.854675E-1
3.691800E+10	-7.247620E-1	3.707886E-1	2.974091E-1	-1.267395E-1	-2.263260E-2	1.292324E-2	-4.195251E-1	3.932190E-1
3.714250E+10	-7.234802E-1	3.724365E-1	2.942200E-1	-1.308441E-1	-2.470303E-2	1.292896E-2	-4.080658E-1	4.017487E-1
3.736700E+10	-7.200012E-1	3.720703E-1	2.969666E-1	-1.331940E-1	-2.065086E-2	1.479626E-2	-4.082031E-1	3.991089E-1
3.759150E+10	-7.168579E-1	3.762207E-1	2.990875E-1	-1.348419E-1	-1.745033E-2	1.797199E-2	-3.991699E-1	4.050598E-1
3.781600E+10	-7.142944E-1	3.795776E-1	2.931519E-1	-1.372375E-1	-1.592064E-2	2.087784E-2	-4.033051E-1	4.088593E-1
3.804050E+10	-7.171021E-1	3.796082E-1	2.932129E-1	-1.387634E-1	-1.795101E-2	2.241421E-2	-3.942719E-1	4.157715E-1
3.826500E+10	-7.078247E-1	3.850098E-1	2.935486E-1	-1.434326E-1	-1.620007E-2	1.875877E-2	-3.804474E-1	4.261169E-1
3.848950E+10	-7.070312E-1	3.891602E-1	2.919617E-1	-1.519623E-1	-1.226425E-2	1.930618E-2	-3.809357E-1	4.261169E-1
3.871400E+10	-7.052612E-1	3.826599E-1	2.897186E-1	-1.494751E-1	-1.937771E-2	2.274036E-2	-3.739624E-1	4.275970E-1
3.893850E+10	-7.070007E-1	3.933716E-1	2.838745E-1	-1.597443E-1	-1.255417E-2	2.663708E-2	-3.573303E-1	4.328003E-1
3.916300E+10	-7.124329E-1	3.905640E-1	2.840118E-1	-1.608276E-1	-9.510040E-3	2.423096E-2	-3.599701E-1	4.334106E-1
