!Date: 10/28/2005, 12:46 PM

!Vgs = -8.000000E+0
!Vds = 1.250000E+1
!Ig = -1.572300E-4
!Id = 2.017000E-3

# HZ S RI R 50
1.000000E+8	9.897156E-1	-3.622437E-2	-1.804829E-2	1.038456E-2	3.108978E-3	1.128674E-2	9.821167E-1	-6.927490E-3
3.245000E+8	9.791565E-1	-9.973145E-2	-1.542091E-2	3.393555E-2	5.869865E-3	3.112888E-2	9.663391E-1	-8.377075E-2
5.490000E+8	9.654236E-1	-1.609192E-1	-8.958817E-3	5.491638E-2	1.181412E-2	5.097389E-2	9.612732E-1	-1.381531E-1
7.735000E+8	9.492187E-1	-2.221375E-1	-1.945496E-4	7.424927E-2	1.997757E-2	6.970215E-2	9.448853E-1	-1.910400E-1
9.980000E+8	9.306641E-1	-2.784729E-1	1.001740E-2	9.280396E-2	2.944946E-2	8.665848E-2	9.288940E-1	-2.385254E-1
1.222500E+9	9.078674E-1	-3.346252E-1	2.190399E-2	1.090965E-1	4.066849E-2	1.018295E-1	9.110413E-1	-2.880859E-1
1.447000E+9	8.820801E-1	-3.881531E-1	3.498840E-2	1.243782E-1	5.278778E-2	1.160545E-1	8.893738E-1	-3.341370E-1
1.671500E+9	8.536987E-1	-4.388733E-1	4.808044E-2	1.394806E-1	6.569672E-2	1.299362E-1	8.651123E-1	-3.768921E-1
1.896000E+9	8.230286E-1	-4.854126E-1	6.485748E-2	1.529007E-1	8.153534E-2	1.427917E-1	8.436279E-1	-4.164734E-1
2.120500E+9	7.909546E-1	-5.301514E-1	8.390045E-2	1.630249E-1	9.842682E-2	1.520996E-1	8.192749E-1	-4.579163E-1
2.345000E+9	7.547302E-1	-5.729675E-1	1.019440E-1	1.707382E-1	1.165848E-1	1.589813E-1	7.909851E-1	-4.967346E-1
2.569500E+9	7.187195E-1	-6.097412E-1	1.202469E-1	1.759949E-1	1.332550E-1	1.638718E-1	7.645264E-1	-5.322571E-1
2.794000E+9	6.814270E-1	-6.460571E-1	1.387939E-1	1.806717E-1	1.501007E-1	1.676559E-1	7.348328E-1	-5.652466E-1
3.018500E+9	6.434326E-1	-6.782532E-1	1.565628E-1	1.822968E-1	1.678009E-1	1.691589E-1	7.030945E-1	-5.969238E-1
3.243000E+9	6.044617E-1	-7.079468E-1	1.745987E-1	1.828308E-1	1.848526E-1	1.692047E-1	6.716003E-1	-6.286621E-1
3.467500E+9	5.655823E-1	-7.351074E-1	1.918869E-1	1.826248E-1	2.010117E-1	1.683807E-1	6.391907E-1	-6.546021E-1
3.692000E+9	5.267334E-1	-7.592468E-1	2.086487E-1	1.802673E-1	2.175522E-1	1.665039E-1	6.072998E-1	-6.818542E-1
3.916500E+9	4.868469E-1	-7.807922E-1	2.257385E-1	1.760864E-1	2.328568E-1	1.619034E-1	5.713196E-1	-7.045288E-1
4.141000E+9	4.486084E-1	-7.992249E-1	2.420044E-1	1.716080E-1	2.479630E-1	1.583481E-1	5.400085E-1	-7.248230E-1
4.365500E+9	4.106445E-1	-8.170776E-1	2.570801E-1	1.658020E-1	2.627869E-1	1.517181E-1	5.073853E-1	-7.468262E-1
4.590000E+9	3.713989E-1	-8.331604E-1	2.720184E-1	1.580811E-1	2.762299E-1	1.445465E-1	4.709473E-1	-7.633362E-1
4.814500E+9	3.335266E-1	-8.447876E-1	2.857361E-1	1.501312E-1	2.890320E-1	1.366119E-1	4.397583E-1	-7.793579E-1
5.039000E+9	2.963257E-1	-8.568726E-1	2.987518E-1	1.409912E-1	3.019104E-1	1.272888E-1	4.063721E-1	-7.962036E-1
5.263500E+9	2.595215E-1	-8.645325E-1	3.110046E-1	1.309814E-1	3.132629E-1	1.176758E-1	3.724060E-1	-8.081055E-1
5.488000E+9	2.245789E-1	-8.721313E-1	3.220215E-1	1.205750E-1	3.227234E-1	1.075592E-1	3.412781E-1	-8.190613E-1
5.712500E+9	1.887207E-1	-8.781433E-1	3.316498E-1	1.094818E-1	3.330078E-1	9.663391E-2	3.088684E-1	-8.307190E-1
5.937000E+9	1.557617E-1	-8.813782E-1	3.408051E-1	9.744263E-2	3.411865E-1	8.535767E-2	2.756348E-1	-8.399963E-1
6.161500E+9	1.240540E-1	-8.860474E-1	3.482971E-1	8.592224E-2	3.490143E-1	7.376099E-2	2.455444E-1	-8.473206E-1
6.386000E+9	8.938599E-2	-8.884277E-1	3.559570E-1	7.383728E-2	3.551331E-1	6.176758E-2	2.129517E-1	-8.553772E-1
6.610500E+9	6.082153E-2	-8.896790E-1	3.616791E-1	6.127930E-2	3.607025E-1	4.981995E-2	1.802368E-1	-8.615417E-1
6.835000E+9	2.960205E-2	-8.903198E-1	3.667297E-1	4.986572E-2	3.661346E-1	3.831482E-2	1.509094E-1	-8.644714E-1
7.059500E+9	1.403809E-3	-8.881531E-1	3.715973E-1	3.704834E-2	3.696594E-1	2.746582E-2	1.230164E-1	-8.666992E-1
7.284000E+9	-2.822876E-2	-8.867187E-1	3.753357E-1	2.429199E-2	3.728790E-1	1.454163E-2	9.088135E-2	-8.700256E-1
7.508500E+9	-5.557251E-2	-8.851318E-1	3.782654E-1	1.197815E-2	3.760223E-1	2.639771E-3	6.259155E-2	-8.695679E-1
7.733000E+9	-8.236694E-2	-8.809509E-1	3.802643E-1	3.051758E-5	3.777466E-1	-9.353638E-3	3.530884E-2	-8.704834E-1
7.957500E+9	-1.087341E-1	-8.772583E-1	3.818512E-1	-1.203918E-2	3.789062E-1	-2.128601E-2	6.072998E-3	-8.705750E-1
8.182000E+9	-1.329041E-1	-8.726501E-1	3.833160E-1	-2.265930E-2	3.800201E-1	-3.210449E-2	-1.989746E-2	-8.703918E-1
8.406500E+9	-1.572571E-1	-8.682251E-1	3.826294E-1	-3.530884E-2	3.796234E-1	-4.367065E-2	-4.800415E-2	-8.669739E-1
8.631000E+9	-1.826172E-1	-8.631287E-1	3.834991E-1	-4.655457E-2	3.794098E-1	-5.561829E-2	-7.504272E-2	-8.650513E-1
8.855500E+9	-2.037048E-1	-8.578186E-1	3.825226E-1	-5.802917E-2	3.782959E-1	-6.643677E-2	-1.011047E-1	-8.608093E-1
9.080001E+9	-2.258606E-1	-8.526001E-1	3.810730E-1	-6.889343E-2	3.773651E-1	-7.618713E-2	-1.251526E-1	-8.551331E-1
9.304500E+9	-2.478638E-1	-8.450928E-1	3.792419E-1	-7.945251E-2	3.758545E-1	-8.691406E-2	-1.496277E-1	-8.521729E-1
9.529000E+9	-2.679749E-1	-8.397522E-1	3.786926E-1	-8.963013E-2	3.737640E-1	-9.701538E-2	-1.757812E-1	-8.456726E-1
9.753500E+9	-2.897339E-1	-8.316345E-1	3.761902E-1	-9.957886E-2	3.713989E-1	-1.069946E-1	-1.962585E-1	-8.388367E-1
9.978000E+9	-3.077087E-1	-8.241882E-1	3.727722E-1	-1.096497E-1	3.678436E-1	-1.157837E-1	-2.190247E-1	-8.343506E-1
1.020250E+10	-3.271179E-1	-8.182068E-1	3.697662E-1	-1.192169E-1	3.652649E-1	-1.255798E-1	-2.428589E-1	-8.262329E-1
1.042700E+10	-3.460999E-1	-8.104248E-1	3.664856E-1	-1.281281E-1	3.615875E-1	-1.343536E-1	-2.628784E-1	-8.198547E-1
1.065150E+10	-3.628845E-1	-8.020325E-1	3.614502E-1	-1.372528E-1	3.570709E-1	-1.431427E-1	-2.839661E-1	-8.130188E-1
1.087600E+10	-3.806763E-1	-7.937927E-1	3.587036E-1	-1.463776E-1	3.533783E-1	-1.515961E-1	-3.050537E-1	-8.047485E-1
1.110050E+10	-3.979187E-1	-7.861633E-1	3.538971E-1	-1.550751E-1	3.495026E-1	-1.602325E-1	-3.266602E-1	-7.967529E-1
1.132500E+10	-4.133301E-1	-7.782288E-1	3.496399E-1	-1.631775E-1	3.444824E-1	-1.672974E-1	-3.457947E-1	-7.896729E-1
1.154950E+10	-4.299622E-1	-7.693176E-1	3.442535E-1	-1.704407E-1	3.394775E-1	-1.753235E-1	-3.671875E-1	-7.786255E-1
1.177400E+10	-4.442749E-1	-7.621765E-1	3.407898E-1	-1.778870E-1	3.359528E-1	-1.828918E-1	-3.842163E-1	-7.682800E-1
1.199850E+10	-4.609070E-1	-7.532654E-1	3.359680E-1	-1.850891E-1	3.308105E-1	-1.900940E-1	-4.006958E-1	-7.601624E-1
1.222300E+10	-4.732971E-1	-7.453003E-1	3.291779E-1	-1.917572E-1	3.260193E-1	-1.961060E-1	-4.200439E-1	-7.513428E-1
1.244750E+10	-4.885559E-1	-7.359619E-1	3.242493E-1	-1.989899E-1	3.195801E-1	-2.027435E-1	-4.382019E-1	-7.390747E-1
1.267200E+10	-5.020142E-1	-7.271118E-1	3.201447E-1	-2.052307E-1	3.140717E-1	-2.085876E-1	-4.530640E-1	-7.323608E-1
1.289650E+10	-5.139771E-1	-7.184448E-1	3.135681E-1	-2.114105E-1	3.095703E-1	-2.143402E-1	-4.710693E-1	-7.201538E-1
1.312100E+10	-5.270691E-1	-7.103577E-1	3.086243E-1	-2.180023E-1	3.037262E-1	-2.209015E-1	-4.864502E-1	-7.066650E-1
1.334550E+10	-5.393066E-1	-7.018433E-1	3.029785E-1	-2.230835E-1	2.982025E-1	-2.254486E-1	-4.998474E-1	-6.981506E-1
1.357000E+10	-5.528259E-1	-6.915588E-1	2.974548E-1	-2.292938E-1	2.907867E-1	-2.316742E-1	-5.168152E-1	-6.898499E-1
1.379450E+10	-5.614624E-1	-6.847534E-1	2.912598E-1	-2.335052E-1	2.871246E-1	-2.354431E-1	-5.329590E-1	-6.750488E-1
1.401900E+10	-5.726624E-1	-6.751404E-1	2.869720E-1	-2.378693E-1	2.821808E-1	-2.404022E-1	-5.422668E-1	-6.651611E-1
1.424350E+10	-5.840759E-1	-6.664124E-1	2.784271E-1	-2.425842E-1	2.759399E-1	-2.452698E-1	-5.601807E-1	-6.529236E-1
1.446800E+10	-5.953674E-1	-6.587219E-1	2.741241E-1	-2.475739E-1	2.688599E-1	-2.503357E-1	-5.720215E-1	-6.386719E-1
1.469250E+10	-6.058044E-1	-6.493225E-1	2.684479E-1	-2.516022E-1	2.630310E-1	-2.529907E-1	-5.826721E-1	-6.295166E-1
1.491700E+10	-6.156006E-1	-6.408386E-1	2.621002E-1	-2.556763E-1	2.573395E-1	-2.574005E-1	-5.969849E-1	-6.192627E-1
1.514150E+10	-6.246643E-1	-6.320801E-1	2.546387E-1	-2.601166E-1	2.519073E-1	-2.611084E-1	-6.105042E-1	-6.028748E-1
1.536600E+10	-6.352234E-1	-6.223450E-1	2.489471E-1	-2.622986E-1	2.446899E-1	-2.642517E-1	-6.194458E-1	-5.931702E-1
1.559050E+10	-6.447754E-1	-6.148987E-1	2.429352E-1	-2.662354E-1	2.395935E-1	-2.672882E-1	-6.332703E-1	-5.822754E-1
1.581500E+10	-6.532593E-1	-6.059265E-1	2.370453E-1	-2.709808E-1	2.333221E-1	-2.718506E-1	-6.452026E-1	-5.667114E-1
1.603950E+10	-6.622925E-1	-5.974426E-1	2.316742E-1	-2.727051E-1	2.271423E-1	-2.732697E-1	-6.526184E-1	-5.566711E-1
1.626400E+10	-6.719055E-1	-5.889282E-1	2.262726E-1	-2.744751E-1	2.211151E-1	-2.774811E-1	-6.643372E-1	-5.435791E-1
1.648850E+10	-6.803284E-1	-5.801697E-1	2.206726E-1	-2.782898E-1	2.168121E-1	-2.785339E-1	-6.759033E-1	-5.291748E-1
1.671300E+10	-6.877441E-1	-5.690613E-1	2.137604E-1	-2.801056E-1	2.110291E-1	-2.826538E-1	-6.839905E-1	-5.180664E-1
1.693750E+10	-6.955261E-1	-5.634155E-1	2.080841E-1	-2.829285E-1	2.056580E-1	-2.830048E-1	-6.946106E-1	-5.053711E-1
1.716200E+10	-7.030029E-1	-5.540771E-1	2.026062E-1	-2.851410E-1	1.986389E-1	-2.859192E-1	-7.034912E-1	-4.892578E-1
1.738650E+10	-7.109680E-1	-5.455627E-1	1.965332E-1	-2.856903E-1	1.928406E-1	-2.879944E-1	-7.101135E-1	-4.787903E-1
1.761100E+10	-7.184753E-1	-5.370483E-1	1.902466E-1	-2.893677E-1	1.865387E-1	-2.888336E-1	-7.214355E-1	-4.688416E-1
1.783550E+10	-7.266846E-1	-5.284119E-1	1.846771E-1	-2.897644E-1	1.802368E-1	-2.920227E-1	-7.293701E-1	-4.535828E-1
1.806000E+10	-7.319641E-1	-5.213928E-1	1.792908E-1	-2.929687E-1	1.754608E-1	-2.926331E-1	-7.342834E-1	-4.411926E-1
1.828450E+10	-7.392883E-1	-5.100098E-1	1.749115E-1	-2.933655E-1	1.704407E-1	-2.936401E-1	-7.423096E-1	-4.317932E-1
1.850900E+10	-7.452087E-1	-5.034485E-1	1.675568E-1	-2.948456E-1	1.661224E-1	-2.944946E-1	-7.507935E-1	-4.161377E-1
1.873350E+10	-7.535400E-1	-4.940491E-1	1.641541E-1	-2.955017E-1	1.600494E-1	-2.961426E-1	-7.566833E-1	-4.014282E-1
1.895800E+10	-7.591553E-1	-4.862061E-1	1.562958E-1	-2.971802E-1	1.537476E-1	-2.973938E-1	-7.620850E-1	-3.934021E-1
1.918250E+10	-7.652893E-1	-4.784241E-1	1.517639E-1	-2.986603E-1	1.490326E-1	-2.992554E-1	-7.708740E-1	-3.771362E-1
1.940700E+10	-7.698975E-1	-4.699097E-1	1.449738E-1	-3.000488E-1	1.435699E-1	-2.991791E-1	-7.755737E-1	-3.600159E-1
1.963150E+10	-7.778320E-1	-4.605408E-1	1.397552E-1	-3.008728E-1	1.377106E-1	-3.001251E-1	-7.780457E-1	-3.510132E-1
1.985600E+10	-7.822266E-1	-4.535217E-1	1.359863E-1	-3.009186E-1	1.336212E-1	-2.991180E-1	-7.866516E-1	-3.396912E-1
2.008050E+10	-7.863770E-1	-4.456787E-1	1.310883E-1	-3.009186E-1	1.274109E-1	-3.000336E-1	-7.919006E-1	-3.226929E-1
2.030500E+10	-7.929993E-1	-4.365540E-1	1.260223E-1	-3.014526E-1	1.226044E-1	-2.995300E-1	-7.925720E-1	-3.120422E-1
2.052950E+10	-7.976379E-1	-4.286499E-1	1.193390E-1	-3.018799E-1	1.164703E-1	-3.017120E-1	-8.009338E-1	-2.992249E-1
2.075400E+10	-8.029785E-1	-4.223938E-1	1.162109E-1	-3.022156E-1	1.128235E-1	-2.998657E-1	-8.050537E-1	-2.854004E-1
2.097850E+10	-8.067627E-1	-4.123840E-1	1.103363E-1	-3.021851E-1	1.076660E-1	-3.022156E-1	-8.074951E-1	-2.742920E-1
2.120300E+10	-8.107910E-1	-4.057007E-1	1.065979E-1	-3.018646E-1	1.029816E-1	-3.016052E-1	-8.125610E-1	-2.651062E-1
2.142750E+10	-8.191833E-1	-3.952637E-1	1.016541E-1	-3.020172E-1	9.739685E-2	-3.022766E-1	-8.179321E-1	-2.487793E-1
2.165200E+10	-8.232727E-1	-3.876038E-1	9.741211E-2	-3.014984E-1	9.494019E-2	-2.997589E-1	-8.200073E-1	-2.375488E-1
2.187650E+10	-8.262634E-1	-3.782654E-1	9.274292E-2	-3.022003E-1	9.056091E-2	-3.010864E-1	-8.246460E-1	-2.255554E-1
2.210100E+10	-8.331604E-1	-3.694458E-1	8.471680E-2	-3.027191E-1	8.407593E-2	-2.992859E-1	-8.304138E-1	-2.077332E-1
2.232550E+10	-8.345947E-1	-3.628540E-1	8.360291E-2	-2.999878E-1	8.113098E-2	-3.008423E-1	-8.311768E-1	-1.965637E-1
2.255000E+10	-8.401794E-1	-3.545227E-1	7.910156E-2	-3.025970E-1	7.693481E-2	-3.006744E-1	-8.370667E-1	-1.868591E-1
2.277450E+10	-8.430481E-1	-3.439331E-1	7.327271E-2	-3.031311E-1	7.078552E-2	-3.005066E-1	-8.402710E-1	-1.704407E-1
2.299900E+10	-8.460999E-1	-3.384705E-1	6.843567E-2	-3.010559E-1	6.602478E-2	-2.994385E-1	-8.358765E-1	-1.599121E-1
2.322350E+10	-8.516541E-1	-3.303223E-1	6.491089E-2	-2.986908E-1	6.187439E-2	-2.987518E-1	-8.427124E-1	-1.477661E-1
2.344800E+10	-8.530273E-1	-3.227844E-1	6.002808E-2	-2.995758E-1	5.772400E-2	-3.008423E-1	-8.432007E-1	-1.315002E-1
2.367250E+10	-8.567505E-1	-3.122253E-1	5.532837E-2	-2.990875E-1	5.363464E-2	-2.986145E-1	-8.409119E-1	-1.191101E-1
2.389700E+10	-8.582153E-1	-3.065796E-1	5.017090E-2	-2.985840E-1	4.638672E-2	-2.993774E-1	-8.446350E-1	-1.081238E-1
2.412150E+10	-8.607178E-1	-2.981567E-1	4.621887E-2	-2.981567E-1	4.333496E-2	-2.980194E-1	-8.453674E-1	-8.938599E-2
2.434600E+10	-8.615417E-1	-2.898254E-1	4.081726E-2	-2.976227E-1	3.988647E-2	-2.967072E-1	-8.443604E-1	-8.099365E-2
2.457050E+10	-8.655396E-1	-2.857361E-1	3.878784E-2	-2.966766E-1	3.672791E-2	-2.956848E-1	-8.475647E-1	-6.848145E-2
2.479500E+10	-8.688965E-1	-2.785645E-1	3.427124E-2	-2.955170E-1	3.157043E-2	-2.970123E-1	-8.463745E-1	-5.026245E-2
2.501950E+10	-8.717651E-1	-2.716064E-1	3.076172E-2	-2.961731E-1	2.986145E-2	-2.946014E-1	-8.418579E-1	-4.125977E-2
2.524400E+10	-8.751831E-1	-2.649536E-1	2.601624E-2	-2.947693E-1	2.397156E-2	-2.929535E-1	-8.448792E-1	-2.935791E-2
2.546850E+10	-8.801575E-1	-2.568665E-1	2.198792E-2	-2.932892E-1	2.017212E-2	-2.923584E-1	-8.405457E-1	-1.608276E-2
2.569300E+10	-8.788147E-1	-2.489929E-1	1.826477E-2	-2.885437E-1	1.486206E-2	-2.905121E-1	-8.428955E-1	-8.361816E-3
2.591750E+10	-8.854675E-1	-2.414246E-1	1.496887E-2	-2.920532E-1	1.373291E-2	-2.901001E-1	-8.424072E-1	2.746582E-3
2.614200E+10	-8.872986E-1	-2.348022E-1	1.213074E-2	-2.863312E-1	8.972168E-3	-2.881165E-1	-8.414917E-1	1.968384E-2
2.636650E+10	-8.894043E-1	-2.275391E-1	8.956909E-3	-2.882233E-1	6.256104E-3	-2.872314E-1	-8.413086E-1	3.109741E-2
2.659100E+10	-8.896790E-1	-2.187805E-1	5.142212E-3	-2.884216E-1	2.410889E-3	-2.859497E-1	-8.374634E-1	4.354858E-2
2.681550E+10	-8.930359E-1	-2.137451E-1	2.029419E-3	-2.883606E-1	-2.716064E-3	-2.873535E-1	-8.382568E-1	5.215454E-2
2.704000E+10	-8.947144E-1	-2.051697E-1	-2.273560E-3	-2.855072E-1	-5.111694E-3	-2.843018E-1	-8.357239E-1	7.424927E-2
2.726450E+10	-8.967285E-1	-1.982422E-1	-6.393433E-3	-2.863922E-1	-6.942749E-3	-2.829895E-1	-8.306580E-1	7.998657E-2
2.748900E+10	-8.989868E-1	-1.912231E-1	-8.575439E-3	-2.853241E-1	-1.266479E-2	-2.819061E-1	-8.292847E-1	8.853149E-2
2.771350E+10	-9.022217E-1	-1.840210E-1	-1.382446E-2	-2.825317E-1	-1.660156E-2	-2.806091E-1	-8.261108E-1	1.033325E-1
2.793800E+10	-9.041138E-1	-1.774597E-1	-1.779175E-2	-2.822113E-1	-1.741028E-2	-2.823639E-1	-8.249207E-1	1.171265E-1
2.816250E+10	-9.031372E-1	-1.692200E-1	-2.224731E-2	-2.794495E-1	-2.297974E-2	-2.794037E-1	-8.199158E-1	1.247559E-1
2.838700E+10	-9.052734E-1	-1.605225E-1	-2.343750E-2	-2.786560E-1	-2.551270E-2	-2.777710E-1	-8.146362E-1	1.378479E-1
2.861150E+10	-9.114990E-1	-1.563721E-1	-2.862549E-2	-2.783203E-1	-3.186035E-2	-2.760010E-1	-8.124695E-1	1.516724E-1
2.883600E+10	-9.093933E-1	-1.499634E-1	-2.899170E-2	-2.747803E-1	-3.247070E-2	-2.724915E-1	-8.083496E-1	1.573792E-1
2.906050E+10	-9.109497E-1	-1.438599E-1	-3.483582E-2	-2.721405E-1	-3.567505E-2	-2.731018E-1	-8.080750E-1	1.715698E-1
2.928500E+10	-9.135742E-1	-1.349792E-1	-3.997803E-2	-2.717438E-1	-3.752136E-2	-2.711029E-1	-8.016968E-1	1.824341E-1
2.950950E+10	-9.134521E-1	-1.265259E-1	-4.127502E-2	-2.714233E-1	-4.220581E-2	-2.698364E-1	-8.034668E-1	1.895752E-1
2.973400E+10	-9.147949E-1	-1.219482E-1	-3.962708E-2	-2.689667E-1	-4.342651E-2	-2.664948E-1	-7.976990E-1	2.026978E-1
2.995850E+10	-9.137268E-1	-1.129761E-1	-4.512024E-2	-2.676544E-1	-4.696655E-2	-2.649231E-1	-7.951355E-1	2.148743E-1
3.018300E+10	-9.164429E-1	-1.060791E-1	-4.759216E-2	-2.662964E-1	-5.143738E-2	-2.651520E-1	-7.914734E-1	2.304382E-1
3.040750E+10	-9.186096E-1	-9.716797E-2	-5.552673E-2	-2.646942E-1	-5.091858E-2	-2.621002E-1	-7.861023E-1	2.385559E-1
3.063200E+10	-9.152222E-1	-8.932495E-2	-5.480957E-2	-2.622070E-1	-5.482483E-2	-2.624664E-1	-7.822266E-1	2.519226E-1
3.085650E+10	-9.202576E-1	-8.590698E-2	-5.970764E-2	-2.621155E-1	-5.880737E-2	-2.621002E-1	-7.760925E-1	2.634888E-1
3.108100E+10	-9.173279E-1	-7.818604E-2	-6.015015E-2	-2.620087E-1	-6.239319E-2	-2.604370E-1	-7.672729E-1	2.700195E-1
3.130550E+10	-9.198608E-1	-7.040405E-2	-6.816101E-2	-2.597046E-1	-6.402588E-2	-2.566833E-1	-7.637939E-1	2.832336E-1
3.153000E+10	-9.273376E-1	-7.012939E-2	-6.594849E-2	-2.570648E-1	-6.848145E-2	-2.584229E-1	-7.621765E-1	2.930908E-1
3.175450E+10	-9.221191E-1	-5.493164E-2	-7.170105E-2	-2.539825E-1	-7.135010E-2	-2.586823E-1	-7.490234E-1	3.091125E-1
3.197900E+10	-9.250183E-1	-4.733276E-2	-7.498169E-2	-2.570953E-1	-7.481384E-2	-2.562866E-1	-7.345581E-1	3.198242E-1
3.220350E+10	-9.239197E-1	-4.150391E-2	-7.604980E-2	-2.540131E-1	-8.042145E-2	-2.497177E-1	-7.338562E-1	3.229980E-1
3.242800E+10	-9.250488E-1	-4.031372E-2	-8.236694E-2	-2.494507E-1	-7.826233E-2	-2.537994E-1	-7.280273E-1	3.386230E-1
3.265250E+10	-9.280701E-1	-2.526855E-2	-8.409882E-2	-2.495880E-1	-8.316040E-2	-2.472839E-1	-7.197876E-1	3.428040E-1
3.287700E+10	-9.250183E-1	-2.410889E-2	-8.191681E-2	-2.489243E-1	-8.223724E-2	-2.454453E-1	-7.152100E-1	3.533630E-1
3.310150E+10	-9.286804E-1	-1.638794E-2	-8.747101E-2	-2.463455E-1	-9.014130E-2	-2.435455E-1	-7.046204E-1	3.658447E-1
3.332600E+10	-9.266052E-1	-6.683350E-3	-8.979034E-2	-2.420883E-1	-9.069824E-2	-2.395325E-1	-6.971130E-1	3.721924E-1
3.355050E+10	-9.283752E-1	-6.744385E-3	-9.027863E-2	-2.377090E-1	-9.475708E-2	-2.402344E-1	-6.905823E-1	3.792725E-1
3.377500E+10	-9.296265E-1	2.258301E-3	-9.394073E-2	-2.399368E-1	-9.397125E-2	-2.370148E-1	-6.804199E-1	3.901978E-1
3.399950E+10	-9.247437E-1	1.123047E-2	-9.562683E-2	-2.419128E-1	-9.153748E-2	-2.381821E-1	-6.782227E-1	3.970337E-1
3.422400E+10	-9.304504E-1	1.953125E-2	-9.690857E-2	-2.364578E-1	-1.010590E-1	-2.340775E-1	-6.719055E-1	4.151306E-1
3.444850E+10	-9.295654E-1	2.569580E-2	-1.022339E-1	-2.358856E-1	-1.040115E-1	-2.313156E-1	-6.638489E-1	4.197693E-1
3.467300E+10	-9.250793E-1	2.990723E-2	-1.047440E-1	-2.359314E-1	-1.026230E-1	-2.369461E-1	-6.595459E-1	4.317322E-1
3.489750E+10	-9.289246E-1	3.970337E-2	-1.050491E-1	-2.342606E-1	-1.062927E-1	-2.319107E-1	-6.486816E-1	4.399414E-1
3.512200E+10	-9.270935E-1	4.214478E-2	-1.094131E-1	-2.322540E-1	-1.087494E-1	-2.280960E-1	-6.324768E-1	4.442749E-1
3.534650E+10	-9.250793E-1	4.638672E-2	-1.117554E-1	-2.305145E-1	-1.166077E-1	-2.274704E-1	-6.308899E-1	4.561157E-1
3.557100E+10	-9.260254E-1	5.459595E-2	-1.123581E-1	-2.273254E-1	-1.187134E-1	-2.316818E-1	-6.185303E-1	4.713135E-1
3.579550E+10	-9.282532E-1	5.941772E-2	-1.184998E-1	-2.253036E-1	-1.165619E-1	-2.266388E-1	-6.061707E-1	4.725037E-1
3.602000E+10	-9.287415E-1	6.945801E-2	-1.165085E-1	-2.243042E-1	-1.208191E-1	-2.227325E-1	-5.997620E-1	4.796753E-1
3.624450E+10	-9.230957E-1	6.887817E-2	-1.227264E-1	-2.193604E-1	-1.242828E-1	-2.265854E-1	-5.940857E-1	4.812012E-1
3.646900E+10	-9.270935E-1	8.419800E-2	-1.239624E-1	-2.188950E-1	-1.225433E-1	-2.216415E-1	-5.743103E-1	4.989014E-1
3.669350E+10	-9.245300E-1	8.847046E-2	-1.259918E-1	-2.212143E-1	-1.266327E-1	-2.204437E-1	-5.664062E-1	5.049438E-1
3.691800E+10	-9.223938E-1	9.570312E-2	-1.339111E-1	-2.178879E-1	-1.326065E-1	-2.169113E-1	-5.588684E-1	5.118103E-1
3.714250E+10	-9.211121E-1	9.884644E-2	-1.288986E-1	-2.175522E-1	-1.332855E-1	-2.162094E-1	-5.437012E-1	5.226746E-1
3.736700E+10	-9.206543E-1	1.065063E-1	-1.345825E-1	-2.162399E-1	-1.369476E-1	-2.110825E-1	-5.328979E-1	5.213013E-1
3.759150E+10	-9.219055E-1	1.132812E-1	-1.376419E-1	-2.103195E-1	-1.371613E-1	-2.091751E-1	-5.206604E-1	5.340576E-1
3.781600E+10	-9.180603E-1	1.243896E-1	-1.402283E-1	-2.070847E-1	-1.409073E-1	-2.065659E-1	-5.166321E-1	5.383606E-1
3.804050E+10	-9.196167E-1	1.267395E-1	-1.418686E-1	-2.097092E-1	-1.472626E-1	-2.105637E-1	-4.988708E-1	5.488281E-1
3.826500E+10	-9.173279E-1	1.345520E-1	-1.439743E-1	-2.018356E-1	-1.450424E-1	-2.041168E-1	-4.870911E-1	5.540771E-1
3.848950E+10	-9.134521E-1	1.430664E-1	-1.489029E-1	-2.080307E-1	-1.474075E-1	-2.033920E-1	-4.743042E-1	5.601501E-1
3.871400E+10	-9.136047E-1	1.427002E-1	-1.470642E-1	-1.998062E-1	-1.500015E-1	-1.972504E-1	-4.598083E-1	5.620117E-1
3.893850E+10	-9.133911E-1	1.464539E-1	-1.519470E-1	-1.950760E-1	-1.493607E-1	-1.982422E-1	-4.437256E-1	5.669250E-1
