!Date: 10/28/2005, 12:46 PM

!Vgs = -6.000000E+0
!Vds = 5.000000E+0
!Ig = -5.640100E-5
!Id = 2.540300E-3

# HZ S RI R 50
1.000000E+8	9.900208E-1	-4.089355E-2	-7.629013E-2	1.248932E-2	8.730888E-4	1.012516E-2	9.747314E-1	-8.026123E-3
3.245000E+8	9.765930E-1	-1.173096E-1	-7.083893E-2	4.660416E-2	6.435394E-3	3.868866E-2	9.526978E-1	-9.259033E-2
5.490000E+8	9.590149E-1	-1.904602E-1	-6.175613E-2	7.690811E-2	1.396751E-2	6.206512E-2	9.467468E-1	-1.512756E-1
7.735000E+8	9.369202E-1	-2.618103E-1	-4.821014E-2	1.037750E-1	2.525330E-2	8.397293E-2	9.277649E-1	-2.088928E-1
9.980000E+8	9.111328E-1	-3.271790E-1	-3.134918E-2	1.287308E-1	3.841019E-2	1.039772E-1	9.083252E-1	-2.597046E-1
1.222500E+9	8.801880E-1	-3.905945E-1	-1.345062E-2	1.509857E-1	5.297089E-2	1.214294E-1	8.862305E-1	-3.124390E-1
1.447000E+9	8.455811E-1	-4.502563E-1	7.164001E-3	1.704483E-1	6.934357E-2	1.368561E-1	8.602295E-1	-3.606873E-1
1.671500E+9	8.071899E-1	-5.054321E-1	2.795410E-2	1.877060E-1	8.660889E-2	1.512222E-1	8.325806E-1	-4.054260E-1
1.896000E+9	7.667542E-1	-5.556335E-1	5.208588E-2	2.032394E-1	1.067963E-1	1.637039E-1	8.063660E-1	-4.461670E-1
2.120500E+9	7.247925E-1	-6.017151E-1	7.824707E-2	2.140732E-1	1.281509E-1	1.724167E-1	7.780151E-1	-4.884338E-1
2.345000E+9	6.788940E-1	-6.449890E-1	1.037674E-1	2.215729E-1	1.496658E-1	1.776657E-1	7.455139E-1	-5.265808E-1
2.569500E+9	6.339111E-1	-6.802979E-1	1.294937E-1	2.255707E-1	1.704025E-1	1.806870E-1	7.138367E-1	-5.619507E-1
2.794000E+9	5.877686E-1	-7.145386E-1	1.538086E-1	2.274017E-1	1.911240E-1	1.819534E-1	6.807251E-1	-5.944519E-1
3.018500E+9	5.415039E-1	-7.438049E-1	1.772842E-1	2.271957E-1	2.107010E-1	1.804047E-1	6.457214E-1	-6.259460E-1
3.243000E+9	4.954529E-1	-7.694702E-1	2.010040E-1	2.241287E-1	2.306366E-1	1.769714E-1	6.098938E-1	-6.542358E-1
3.467500E+9	4.496765E-1	-7.921448E-1	2.228775E-1	2.195969E-1	2.481613E-1	1.723251E-1	5.747070E-1	-6.782227E-1
3.692000E+9	4.043274E-1	-8.109741E-1	2.435989E-1	2.139587E-1	2.660980E-1	1.661987E-1	5.387268E-1	-7.023315E-1
3.916500E+9	3.582764E-1	-8.265076E-1	2.638245E-1	2.050934E-1	2.824860E-1	1.585693E-1	5.024414E-1	-7.216492E-1
4.141000E+9	3.161621E-1	-8.404846E-1	2.820435E-1	1.966400E-1	2.980957E-1	1.504364E-1	4.685364E-1	-7.402039E-1
4.365500E+9	2.744751E-1	-8.517761E-1	2.995300E-1	1.865845E-1	3.124542E-1	1.410217E-1	4.343872E-1	-7.577209E-1
4.590000E+9	2.321472E-1	-8.608398E-1	3.159485E-1	1.739960E-1	3.257446E-1	1.297302E-1	3.981628E-1	-7.723389E-1
4.814500E+9	1.924438E-1	-8.669128E-1	3.305969E-1	1.616821E-1	3.383179E-1	1.184387E-1	3.651428E-1	-7.859497E-1
5.039000E+9	1.530151E-1	-8.725891E-1	3.444977E-1	1.478577E-1	3.501282E-1	1.056976E-1	3.313293E-1	-7.988281E-1
5.263500E+9	1.148987E-1	-8.742981E-1	3.561096E-1	1.337128E-1	3.597107E-1	9.277344E-2	2.958069E-1	-8.088989E-1
5.488000E+9	7.937622E-2	-8.760376E-1	3.670197E-1	1.196442E-1	3.679199E-1	7.994080E-2	2.648315E-1	-8.175354E-1
5.712500E+9	4.318237E-2	-8.768005E-1	3.762817E-1	1.044312E-1	3.760223E-1	6.616211E-2	2.320251E-1	-8.258667E-1
5.937000E+9	1.007080E-2	-8.749695E-1	3.841400E-1	8.850098E-2	3.823853E-1	5.215454E-2	1.984863E-1	-8.326111E-1
6.161500E+9	-2.087402E-2	-8.738403E-1	3.912048E-1	7.369995E-2	3.883209E-1	3.811646E-2	1.685181E-1	-8.390808E-1
6.386000E+9	-5.474854E-2	-8.713074E-1	3.965607E-1	5.862427E-2	3.913879E-1	2.432251E-2	1.362915E-1	-8.433533E-1
6.610500E+9	-8.282471E-2	-8.682251E-1	4.013367E-1	4.313660E-2	3.951111E-1	1.081848E-2	1.042480E-1	-8.474426E-1
6.835000E+9	-1.128845E-1	-8.638916E-1	4.048309E-1	2.879333E-2	3.980865E-1	-2.593994E-3	7.397461E-2	-8.476868E-1
7.059500E+9	-1.394348E-1	-8.576050E-1	4.075012E-1	1.452637E-2	3.997650E-1	-1.492310E-2	4.736328E-2	-8.484802E-1
7.284000E+9	-1.673889E-1	-8.524475E-1	4.085083E-1	-7.629395E-5	3.999939E-1	-2.825928E-2	1.568604E-2	-8.489075E-1
7.508500E+9	-1.937866E-1	-8.459473E-1	4.101715E-1	-1.438904E-2	4.007263E-1	-4.228210E-2	-1.266479E-2	-8.464966E-1
7.733000E+9	-2.186890E-1	-8.382263E-1	4.102783E-1	-2.824402E-2	4.002380E-1	-5.400085E-2	-3.781128E-2	-8.472290E-1
7.957500E+9	-2.425232E-1	-8.319397E-1	4.096680E-1	-4.188538E-2	3.991852E-1	-6.665039E-2	-6.811523E-2	-8.449402E-1
8.182000E+9	-2.645569E-1	-8.244019E-1	4.090424E-1	-5.508423E-2	3.979950E-1	-7.872009E-2	-9.393311E-2	-8.426819E-1
8.406500E+9	-2.869873E-1	-8.168030E-1	4.065399E-1	-6.799316E-2	3.951263E-1	-9.077454E-2	-1.200256E-1	-8.376770E-1
8.631000E+9	-3.096008E-1	-8.086548E-1	4.041290E-1	-8.023071E-2	3.924103E-1	-1.015778E-1	-1.469727E-1	-8.338928E-1
8.855500E+9	-3.298340E-1	-8.013000E-1	4.021149E-1	-9.217834E-2	3.896484E-1	-1.129913E-1	-1.719055E-1	-8.288574E-1
9.080001E+9	-3.493347E-1	-7.933960E-1	3.992004E-1	-1.040955E-1	3.863678E-1	-1.229553E-1	-1.951599E-1	-8.229065E-1
9.304500E+9	-3.693542E-1	-7.832642E-1	3.948059E-1	-1.152496E-1	3.816833E-1	-1.334534E-1	-2.189941E-1	-8.150024E-1
9.529000E+9	-3.872375E-1	-7.755127E-1	3.908997E-1	-1.260681E-1	3.779602E-1	-1.432495E-1	-2.429199E-1	-8.086548E-1
9.753500E+9	-4.063721E-1	-7.660828E-1	3.868256E-1	-1.366425E-1	3.732910E-1	-1.526947E-1	-2.640381E-1	-8.000488E-1
9.978000E+9	-4.232483E-1	-7.574768E-1	3.818512E-1	-1.468201E-1	3.681030E-1	-1.618042E-1	-2.859802E-1	-7.938232E-1
1.020250E+10	-4.401245E-1	-7.489929E-1	3.763885E-1	-1.566162E-1	3.637238E-1	-1.715393E-1	-3.083191E-1	-7.854309E-1
1.042700E+10	-4.565125E-1	-7.386475E-1	3.710327E-1	-1.656189E-1	3.584442E-1	-1.790161E-1	-3.282166E-1	-7.772827E-1
1.065150E+10	-4.718323E-1	-7.295227E-1	3.652039E-1	-1.743164E-1	3.527374E-1	-1.871185E-1	-3.474731E-1	-7.692566E-1
1.087600E+10	-4.859924E-1	-7.206726E-1	3.594513E-1	-1.817322E-1	3.466797E-1	-1.948547E-1	-3.679504E-1	-7.601929E-1
1.110050E+10	-5.012817E-1	-7.111511E-1	3.544312E-1	-1.912384E-1	3.411102E-1	-2.020264E-1	-3.882141E-1	-7.503662E-1
1.132500E+10	-5.152588E-1	-7.021790E-1	3.484802E-1	-1.982422E-1	3.345947E-1	-2.090607E-1	-4.049377E-1	-7.418518E-1
1.154950E+10	-5.291748E-1	-6.921692E-1	3.425446E-1	-2.047882E-1	3.296204E-1	-2.159119E-1	-4.258423E-1	-7.308350E-1
1.177400E+10	-5.408020E-1	-6.831970E-1	3.357086E-1	-2.122803E-1	3.236084E-1	-2.214355E-1	-4.414978E-1	-7.184143E-1
1.199850E+10	-5.566101E-1	-6.739197E-1	3.302155E-1	-2.195892E-1	3.171844E-1	-2.286987E-1	-4.584045E-1	-7.103271E-1
1.222300E+10	-5.669556E-1	-6.640930E-1	3.237000E-1	-2.257996E-1	3.109894E-1	-2.336426E-1	-4.767456E-1	-7.007446E-1
1.244750E+10	-5.792542E-1	-6.555481E-1	3.168030E-1	-2.318726E-1	3.041382E-1	-2.399445E-1	-4.925232E-1	-6.868286E-1
1.267200E+10	-5.913086E-1	-6.456909E-1	3.102417E-1	-2.381134E-1	2.985077E-1	-2.449799E-1	-5.070190E-1	-6.791687E-1
1.289650E+10	-6.007080E-1	-6.372070E-1	3.034210E-1	-2.429199E-1	2.916412E-1	-2.489319E-1	-5.243225E-1	-6.670837E-1
1.312100E+10	-6.131897E-1	-6.272583E-1	2.961578E-1	-2.476501E-1	2.853851E-1	-2.543793E-1	-5.384827E-1	-6.521606E-1
1.334550E+10	-6.242676E-1	-6.178284E-1	2.904205E-1	-2.535858E-1	2.794342E-1	-2.589569E-1	-5.507202E-1	-6.441956E-1
1.357000E+10	-6.355591E-1	-6.072998E-1	2.830658E-1	-2.575531E-1	2.712097E-1	-2.639160E-1	-5.675049E-1	-6.330261E-1
1.379450E+10	-6.417236E-1	-5.990906E-1	2.766571E-1	-2.629395E-1	2.665558E-1	-2.667542E-1	-5.799255E-1	-6.172791E-1
1.401900E+10	-6.513672E-1	-5.916443E-1	2.705383E-1	-2.658539E-1	2.596588E-1	-2.701721E-1	-5.909119E-1	-6.070862E-1
1.424350E+10	-6.621399E-1	-5.809021E-1	2.626648E-1	-2.697601E-1	2.532043E-1	-2.738647E-1	-6.055908E-1	-5.972290E-1
1.446800E+10	-6.702881E-1	-5.730896E-1	2.565613E-1	-2.743988E-1	2.464142E-1	-2.770844E-1	-6.171875E-1	-5.802307E-1
1.469250E+10	-6.792908E-1	-5.635986E-1	2.492065E-1	-2.772980E-1	2.397766E-1	-2.805328E-1	-6.270752E-1	-5.705566E-1
1.491700E+10	-6.879272E-1	-5.552979E-1	2.437286E-1	-2.797241E-1	2.347565E-1	-2.837830E-1	-6.416016E-1	-5.599976E-1
1.514150E+10	-6.965942E-1	-5.448608E-1	2.364197E-1	-2.832184E-1	2.276154E-1	-2.865295E-1	-6.522522E-1	-5.430603E-1
1.536600E+10	-7.043457E-1	-5.359192E-1	2.290955E-1	-2.857361E-1	2.208405E-1	-2.891846E-1	-6.618652E-1	-5.323181E-1
1.559050E+10	-7.121277E-1	-5.279846E-1	2.238770E-1	-2.885284E-1	2.141724E-1	-2.914886E-1	-6.739502E-1	-5.211182E-1
1.581500E+10	-7.200012E-1	-5.180969E-1	2.165222E-1	-2.908325E-1	2.085266E-1	-2.937012E-1	-6.837158E-1	-5.043640E-1
1.603950E+10	-7.267761E-1	-5.091248E-1	2.102661E-1	-2.939301E-1	2.021027E-1	-2.948914E-1	-6.914062E-1	-4.936829E-1
1.626400E+10	-7.339172E-1	-5.005188E-1	2.037811E-1	-2.935181E-1	1.955414E-1	-2.968292E-1	-7.035828E-1	-4.820557E-1
1.648850E+10	-7.420959E-1	-4.917908E-1	1.986847E-1	-2.958069E-1	1.899872E-1	-2.981110E-1	-7.117920E-1	-4.668884E-1
1.671300E+10	-7.476196E-1	-4.817200E-1	1.915283E-1	-2.986298E-1	1.836548E-1	-2.997131E-1	-7.188721E-1	-4.544067E-1
1.693750E+10	-7.543945E-1	-4.749756E-1	1.857300E-1	-3.006287E-1	1.780548E-1	-3.012238E-1	-7.283630E-1	-4.435425E-1
1.716200E+10	-7.606812E-1	-4.656067E-1	1.792297E-1	-3.025360E-1	1.715240E-1	-3.025818E-1	-7.355347E-1	-4.278259E-1
1.738650E+10	-7.678528E-1	-4.573669E-1	1.715851E-1	-3.023071E-1	1.652985E-1	-3.033905E-1	-7.417297E-1	-4.151306E-1
1.761100E+10	-7.733765E-1	-4.486084E-1	1.668854E-1	-3.029480E-1	1.596375E-1	-3.046112E-1	-7.512817E-1	-4.043579E-1
1.783550E+10	-7.817383E-1	-4.400024E-1	1.622314E-1	-3.032684E-1	1.544342E-1	-3.042603E-1	-7.579956E-1	-3.872986E-1
1.806000E+10	-7.864380E-1	-4.316101E-1	1.550751E-1	-3.063202E-1	1.485138E-1	-3.063202E-1	-7.635193E-1	-3.757019E-1
1.828450E+10	-7.898560E-1	-4.235840E-1	1.505432E-1	-3.064270E-1	1.425171E-1	-3.059235E-1	-7.698059E-1	-3.650818E-1
1.850900E+10	-7.949829E-1	-4.154358E-1	1.447144E-1	-3.065643E-1	1.371155E-1	-3.062592E-1	-7.779846E-1	-3.501282E-1
1.873350E+10	-8.026123E-1	-4.059143E-1	1.381989E-1	-3.083496E-1	1.315002E-1	-3.081360E-1	-7.816772E-1	-3.353271E-1
1.895800E+10	-8.052673E-1	-3.978271E-1	1.341400E-1	-3.079224E-1	1.262817E-1	-3.074799E-1	-7.866516E-1	-3.265991E-1
1.918250E+10	-8.109741E-1	-3.902588E-1	1.291199E-1	-3.095856E-1	1.207581E-1	-3.096313E-1	-7.924194E-1	-3.130798E-1
1.940700E+10	-8.147888E-1	-3.819275E-1	1.222534E-1	-3.087463E-1	1.157074E-1	-3.078918E-1	-7.966919E-1	-2.929382E-1
1.963150E+10	-8.207703E-1	-3.722839E-1	1.150055E-1	-3.084869E-1	1.099854E-1	-3.077393E-1	-8.004456E-1	-2.855530E-1
1.985600E+10	-8.249207E-1	-3.644409E-1	1.112518E-1	-3.082275E-1	1.048126E-1	-3.083649E-1	-8.081055E-1	-2.717590E-1
2.008050E+10	-8.289185E-1	-3.582153E-1	1.061249E-1	-3.081055E-1	9.985352E-2	-3.074646E-1	-8.121338E-1	-2.564392E-1
2.030500E+10	-8.331604E-1	-3.497925E-1	1.025085E-1	-3.068237E-1	9.645081E-2	-3.085480E-1	-8.115540E-1	-2.447815E-1
2.052950E+10	-8.366699E-1	-3.410950E-1	9.565735E-2	-3.087616E-1	9.109497E-2	-3.078003E-1	-8.171692E-1	-2.328796E-1
2.075400E+10	-8.414612E-1	-3.337402E-1	9.255981E-2	-3.084869E-1	8.659363E-2	-3.058472E-1	-8.223877E-1	-2.175903E-1
2.097850E+10	-8.458252E-1	-3.241882E-1	8.605957E-2	-3.072052E-1	8.285522E-2	-3.059845E-1	-8.223267E-1	-2.056580E-1
2.120300E+10	-8.497620E-1	-3.164978E-1	8.125305E-2	-3.065948E-1	7.562256E-2	-3.060913E-1	-8.253174E-1	-1.970520E-1
2.142750E+10	-8.536682E-1	-3.094482E-1	7.579041E-2	-3.058167E-1	7.209778E-2	-3.037567E-1	-8.326111E-1	-1.814270E-1
2.165200E+10	-8.566284E-1	-2.984314E-1	7.052612E-2	-3.030853E-1	6.613159E-2	-3.025208E-1	-8.325500E-1	-1.686401E-1
2.187650E+10	-8.596497E-1	-2.916870E-1	6.687927E-2	-3.035736E-1	6.474304E-2	-3.047028E-1	-8.372803E-1	-1.572266E-1
2.210100E+10	-8.633118E-1	-2.831421E-1	6.346130E-2	-3.033447E-1	5.725098E-2	-3.023376E-1	-8.387451E-1	-1.417847E-1
2.232550E+10	-8.672791E-1	-2.758789E-1	5.953979E-2	-3.030090E-1	5.314636E-2	-3.022766E-1	-8.407593E-1	-1.270142E-1
2.255000E+10	-8.682556E-1	-2.668457E-1	5.459595E-2	-3.032227E-1	5.014038E-2	-3.008881E-1	-8.424988E-1	-1.195068E-1
2.277450E+10	-8.707275E-1	-2.602539E-1	4.927063E-2	-3.018799E-1	4.559326E-2	-3.020325E-1	-8.439331E-1	-1.024170E-1
2.299900E+10	-8.751221E-1	-2.509766E-1	4.394531E-2	-3.016815E-1	4.208374E-2	-3.004456E-1	-8.437195E-1	-9.054565E-2
2.322350E+10	-8.764343E-1	-2.452393E-1	4.023743E-2	-2.997894E-1	3.773499E-2	-2.991180E-1	-8.461609E-1	-7.925415E-2
2.344800E+10	-8.780212E-1	-2.381592E-1	3.810120E-2	-2.995148E-1	3.309631E-2	-2.972717E-1	-8.479614E-1	-6.161499E-2
2.367250E+10	-8.797302E-1	-2.304382E-1	3.193665E-2	-2.969971E-1	2.949524E-2	-2.947540E-1	-8.457642E-1	-4.904175E-2
2.389700E+10	-8.827209E-1	-2.241821E-1	2.859497E-2	-2.966003E-1	2.584839E-2	-2.934723E-1	-8.499146E-1	-3.924561E-2
2.412150E+10	-8.856201E-1	-2.163696E-1	2.418518E-2	-2.976227E-1	2.023315E-2	-2.959900E-1	-8.452148E-1	-2.224731E-2
2.434600E+10	-8.888550E-1	-2.079163E-1	2.284241E-2	-2.962189E-1	1.773071E-2	-2.952271E-1	-8.445435E-1	-1.196289E-2
2.457050E+10	-8.910522E-1	-2.029114E-1	1.675415E-2	-2.964020E-1	1.385498E-2	-2.941742E-1	-8.455200E-1	1.739502E-3
2.479500E+10	-8.951111E-1	-1.941528E-1	1.248169E-2	-2.919922E-1	9.078979E-3	-2.920074E-1	-8.433533E-1	1.550293E-2
2.501950E+10	-8.946533E-1	-1.876831E-1	8.590698E-3	-2.922211E-1	5.355835E-3	-2.924194E-1	-8.385010E-1	2.499390E-2
2.524400E+10	-8.979797E-1	-1.790161E-1	3.295898E-3	-2.915344E-1	8.392334E-4	-2.880554E-1	-8.383789E-1	3.701782E-2
2.546850E+10	-9.008484E-1	-1.710510E-1	2.120972E-3	-2.873230E-1	-3.784180E-3	-2.870178E-1	-8.369751E-1	4.928589E-2
2.569300E+10	-9.012756E-1	-1.671143E-1	-2.182007E-3	-2.872620E-1	-4.959106E-3	-2.850037E-1	-8.355103E-1	6.079102E-2
2.591750E+10	-9.047852E-1	-1.560059E-1	-6.134033E-3	-2.858276E-1	-9.963989E-3	-2.839966E-1	-8.351746E-1	7.046509E-2
2.614200E+10	-9.050903E-1	-1.483154E-1	-8.712769E-3	-2.830048E-1	-1.148987E-2	-2.813263E-1	-8.351135E-1	8.395386E-2
2.636650E+10	-9.073486E-1	-1.434021E-1	-1.455688E-2	-2.824554E-1	-1.438904E-2	-2.801819E-1	-8.320007E-1	9.790039E-2
2.659100E+10	-9.064941E-1	-1.346741E-1	-1.728821E-2	-2.810974E-1	-1.840210E-2	-2.802887E-1	-8.289490E-1	1.092834E-1
2.681550E+10	-9.077759E-1	-1.311035E-1	-2.037048E-2	-2.822266E-1	-2.279663E-2	-2.800293E-1	-8.281860E-1	1.183167E-1
2.704000E+10	-9.094238E-1	-1.212463E-1	-2.243042E-2	-2.774353E-1	-2.523804E-2	-2.782288E-1	-8.251343E-1	1.395874E-1
2.726450E+10	-9.107666E-1	-1.166992E-1	-2.510071E-2	-2.765656E-1	-2.912903E-2	-2.776031E-1	-8.149109E-1	1.495361E-1
2.748900E+10	-9.128113E-1	-1.097107E-1	-3.059387E-2	-2.793884E-1	-3.196716E-2	-2.747650E-1	-8.184814E-1	1.570129E-1
2.771350E+10	-9.125671E-1	-1.004639E-1	-3.404236E-2	-2.736053E-1	-3.677368E-2	-2.740936E-1	-8.121643E-1	1.705627E-1
2.793800E+10	-9.172058E-1	-9.631348E-2	-3.663635E-2	-2.739716E-1	-3.863525E-2	-2.716675E-1	-8.081360E-1	1.811523E-1
2.816250E+10	-9.179077E-1	-8.624268E-2	-3.843689E-2	-2.715759E-1	-4.136658E-2	-2.712860E-1	-8.059692E-1	1.901855E-1
2.838700E+10	-9.141235E-1	-7.751465E-2	-4.455566E-2	-2.701569E-1	-4.687500E-2	-2.690430E-1	-7.999573E-1	2.039185E-1
2.861150E+10	-9.200745E-1	-7.394409E-2	-4.646301E-2	-2.688141E-1	-4.945374E-2	-2.668152E-1	-7.951965E-1	2.162170E-1
2.883600E+10	-9.209290E-1	-6.344604E-2	-4.876709E-2	-2.657013E-1	-5.358887E-2	-2.659912E-1	-7.914429E-1	2.186584E-1
2.906050E+10	-9.212036E-1	-5.957031E-2	-5.274963E-2	-2.638855E-1	-5.291748E-2	-2.630005E-1	-7.877197E-1	2.334900E-1
2.928500E+10	-9.219055E-1	-5.181885E-2	-5.523682E-2	-2.631989E-1	-5.844116E-2	-2.588806E-1	-7.792053E-1	2.443542E-1
2.950950E+10	-9.202881E-1	-4.403687E-2	-5.766296E-2	-2.606812E-1	-6.016541E-2	-2.596283E-1	-7.797546E-1	2.496643E-1
2.973400E+10	-9.248962E-1	-3.668213E-2	-5.976868E-2	-2.586670E-1	-6.169128E-2	-2.582703E-1	-7.741394E-1	2.686462E-1
2.995850E+10	-9.205627E-1	-2.877808E-2	-6.645203E-2	-2.605286E-1	-6.614685E-2	-2.553406E-1	-7.715454E-1	2.790222E-1
3.018300E+10	-9.206848E-1	-2.410889E-2	-6.475830E-2	-2.583313E-1	-6.809998E-2	-2.531281E-1	-7.655640E-1	2.893677E-1
3.040750E+10	-9.236755E-1	-1.721191E-2	-7.035828E-2	-2.544098E-1	-7.005310E-2	-2.518616E-1	-7.602539E-1	3.038025E-1
3.063200E+10	-9.226685E-1	-1.361084E-2	-6.939697E-2	-2.555389E-1	-7.365417E-2	-2.521515E-1	-7.589722E-1	3.098450E-1
3.085650E+10	-9.239502E-1	-2.258301E-3	-7.470703E-2	-2.543030E-1	-7.658386E-2	-2.496033E-1	-7.482300E-1	3.226013E-1
3.108100E+10	-9.229431E-1	3.784180E-3	-7.878113E-2	-2.520752E-1	-8.007812E-2	-2.510529E-1	-7.394714E-1	3.348389E-1
3.130550E+10	-9.195557E-1	5.798340E-3	-7.960510E-2	-2.505493E-1	-8.195496E-2	-2.451019E-1	-7.276306E-1	3.462830E-1
3.153000E+10	-9.296265E-1	8.392334E-3	-8.300781E-2	-2.472763E-1	-8.367157E-2	-2.459869E-1	-7.260437E-1	3.569336E-1
3.175450E+10	-9.230957E-1	2.188110E-2	-8.650208E-2	-2.439880E-1	-8.764648E-2	-2.449646E-1	-7.165527E-1	3.667908E-1
3.197900E+10	-9.243469E-1	2.661133E-2	-9.188080E-2	-2.404327E-1	-9.085083E-2	-2.398376E-1	-7.090454E-1	3.727722E-1
3.220350E+10	-9.257202E-1	3.488159E-2	-9.369659E-2	-2.424774E-1	-9.265900E-2	-2.391281E-1	-6.983032E-1	3.876953E-1
3.242800E+10	-9.273987E-1	4.037476E-2	-9.509277E-2	-2.432709E-1	-9.412384E-2	-2.342377E-1	-6.950073E-1	3.957825E-1
3.265250E+10	-9.255371E-1	5.191040E-2	-9.847260E-2	-2.337952E-1	-9.849548E-2	-2.371597E-1	-6.826782E-1	4.015198E-1
3.287700E+10	-9.264832E-1	5.743408E-2	-9.991455E-2	-2.374420E-1	-9.906769E-2	-2.356567E-1	-6.787720E-1	4.136047E-1
3.310150E+10	-9.259949E-1	6.341553E-2	-1.011429E-1	-2.334137E-1	-1.035919E-1	-2.310638E-1	-6.643066E-1	4.181519E-1
3.332600E+10	-9.204712E-1	6.845093E-2	-1.080475E-1	-2.328949E-1	-1.023331E-1	-2.297516E-1	-6.584473E-1	4.255981E-1
3.355050E+10	-9.181213E-1	7.513428E-2	-1.027222E-1	-2.274246E-1	-1.079636E-1	-2.265396E-1	-6.522827E-1	4.301147E-1
3.377500E+10	-9.242859E-1	8.053589E-2	-1.063080E-1	-2.253189E-1	-1.083450E-1	-2.267532E-1	-6.444702E-1	4.390564E-1
3.399950E+10	-9.191895E-1	8.596802E-2	-1.087723E-1	-2.250748E-1	-1.110764E-1	-2.247314E-1	-6.342163E-1	4.532166E-1
3.422400E+10	-9.202881E-1	9.735107E-2	-1.120834E-1	-2.240906E-1	-1.124268E-1	-2.222595E-1	-6.327515E-1	4.652100E-1
3.444850E+10	-9.232483E-1	1.028137E-1	-1.142426E-1	-2.228775E-1	-1.163330E-1	-2.263260E-1	-6.195068E-1	4.709473E-1
3.467300E+10	-9.197998E-1	1.071777E-1	-1.122437E-1	-2.239990E-1	-1.169586E-1	-2.205276E-1	-6.138916E-1	4.771118E-1
3.489750E+10	-9.193420E-1	1.126099E-1	-1.189651E-1	-2.197723E-1	-1.215820E-1	-2.158051E-1	-6.053772E-1	4.873047E-1
3.512200E+10	-9.186401E-1	1.182861E-1	-1.229019E-1	-2.174835E-1	-1.245270E-1	-2.185364E-1	-5.875854E-1	4.973145E-1
3.534650E+10	-9.187012E-1	1.243896E-1	-1.240158E-1	-2.198792E-1	-1.235733E-1	-2.155762E-1	-5.830688E-1	5.044556E-1
3.557100E+10	-9.137573E-1	1.305542E-1	-1.273804E-1	-2.164078E-1	-1.314926E-1	-2.198868E-1	-5.711975E-1	5.152283E-1
3.579550E+10	-9.170227E-1	1.409607E-1	-1.317139E-1	-2.164383E-1	-1.316299E-1	-2.078476E-1	-5.578613E-1	5.205994E-1
3.602000E+10	-9.184875E-1	1.450195E-1	-1.324463E-1	-2.080841E-1	-1.347351E-1	-2.090607E-1	-5.486450E-1	5.271301E-1
3.624450E+10	-9.128113E-1	1.503906E-1	-1.322784E-1	-2.141495E-1	-1.346893E-1	-2.070007E-1	-5.426636E-1	5.329285E-1
3.646900E+10	-9.131470E-1	1.605225E-1	-1.337051E-1	-2.090759E-1	-1.412582E-1	-2.060471E-1	-5.227661E-1	5.464783E-1
3.669350E+10	-9.078369E-1	1.658630E-1	-1.408081E-1	-2.030945E-1	-1.415558E-1	-2.040024E-1	-5.117493E-1	5.491943E-1
3.691800E+10	-9.059448E-1	1.652527E-1	-1.416321E-1	-2.054825E-1	-1.439285E-1	-2.012863E-1	-5.003967E-1	5.578918E-1
3.714250E+10	-9.066772E-1	1.760254E-1	-1.414566E-1	-1.995468E-1	-1.465759E-1	-2.003860E-1	-4.889526E-1	5.618286E-1
3.736700E+10	-9.035339E-1	1.822205E-1	-1.417236E-1	-1.981506E-1	-1.474228E-1	-2.001801E-1	-4.796753E-1	5.641785E-1
3.759150E+10	-9.043884E-1	1.870728E-1	-1.486740E-1	-1.998291E-1	-1.533890E-1	-2.015457E-1	-4.661255E-1	5.768433E-1
3.781600E+10	-9.075012E-1	1.969604E-1	-1.509399E-1	-1.933136E-1	-1.495209E-1	-1.944656E-1	-4.586792E-1	5.711670E-1
3.804050E+10	-9.031372E-1	1.999512E-1	-1.589203E-1	-1.888046E-1	-1.608047E-1	-1.888351E-1	-4.386902E-1	5.834656E-1
3.826500E+10	-9.013977E-1	2.043457E-1	-1.559448E-1	-1.893234E-1	-1.584549E-1	-1.857605E-1	-4.192810E-1	5.895691E-1
3.848950E+10	-8.946533E-1	2.116699E-1	-1.535721E-1	-1.868362E-1	-1.566772E-1	-1.863480E-1	-4.152832E-1	5.932617E-1
3.871400E+10	-8.995361E-1	2.136841E-1	-1.580582E-1	-1.821594E-1	-1.598663E-1	-1.872253E-1	-3.975220E-1	5.940857E-1
3.893850E+10	-8.941345E-1	2.239685E-1	-1.621399E-1	-1.841965E-1	-1.649704E-1	-1.773224E-1	-3.873596E-1	5.997009E-1
