!Date: 10/28/2005, 12:46 PM

!Vgs = 0.000000E+0
!Vds = 1.250000E+1
!Ig = -1.221100E-5
!Id = 8.952900E-1

# HZ S RI R 50
1.000000E+8	9.664001E-1	-1.793823E-1	-1.136377E+1	-9.765625E-3	6.699562E-4	1.097488E-2	4.965210E-1	-2.139282E-2
3.245000E+8	7.907410E-1	-5.226440E-1	-1.041797E+1	3.615723E+0	1.097775E-2	2.688122E-2	2.488556E-1	-2.280350E-1
5.490000E+8	5.481567E-1	-7.512512E-1	-8.711426E+0	5.241211E+0	2.449036E-2	3.825569E-2	1.920776E-1	-2.875824E-1
7.735000E+8	3.052368E-1	-8.617554E-1	-6.952393E+0	5.931152E+0	3.819466E-2	4.235458E-2	7.958984E-2	-3.491974E-1
9.980000E+8	9.170532E-2	-8.907166E-1	-5.424072E+0	6.090576E+0	4.923820E-2	4.278564E-2	-7.568359E-3	-3.378296E-1
1.222500E+9	-8.795166E-2	-8.794556E-1	-4.209229E+0	5.996094E+0	5.801201E-2	4.022789E-2	-6.407166E-2	-3.386230E-1
1.447000E+9	-2.317505E-1	-8.467407E-1	-3.251709E+0	5.740723E+0	6.537247E-2	3.772354E-2	-1.214752E-1	-3.233948E-1
1.671500E+9	-3.439026E-1	-8.038025E-1	-2.510498E+0	5.425781E+0	7.130432E-2	3.459930E-2	-1.589661E-1	-3.093567E-1
1.896000E+9	-4.346008E-1	-7.539978E-1	-1.941895E+0	5.091064E+0	7.584000E-2	3.060532E-2	-1.915588E-1	-2.911377E-1
2.120500E+9	-5.032043E-1	-7.049866E-1	-1.493652E+0	4.784424E+0	7.952881E-2	2.745056E-2	-2.148132E-1	-2.778931E-1
2.345000E+9	-5.596313E-1	-6.564026E-1	-1.122803E+0	4.480469E+0	8.234787E-2	2.346039E-2	-2.388763E-1	-2.598877E-1
2.569500E+9	-6.018982E-1	-6.120300E-1	-8.278809E-1	4.191895E+0	8.382416E-2	1.980209E-2	-2.512360E-1	-2.459717E-1
2.794000E+9	-6.386719E-1	-5.739441E-1	-5.955811E-1	3.939697E+0	8.533859E-2	1.665115E-2	-2.672729E-1	-2.357483E-1
3.018500E+9	-6.678467E-1	-5.370483E-1	-4.031982E-1	3.695068E+0	8.691025E-2	1.411438E-2	-2.757874E-1	-2.203979E-1
3.243000E+9	-6.914062E-1	-5.023193E-1	-2.416992E-1	3.482178E+0	8.753204E-2	1.092148E-2	-2.842255E-1	-2.154083E-1
3.467500E+9	-7.132263E-1	-4.733582E-1	-1.052246E-1	3.285522E+0	8.818436E-2	8.968353E-3	-2.958679E-1	-2.046509E-1
3.692000E+9	-7.316589E-1	-4.448547E-1	1.086426E-2	3.104004E+0	8.912277E-2	6.237030E-3	-2.984619E-1	-1.980743E-1
3.916500E+9	-7.460022E-1	-4.173889E-1	1.058350E-1	2.935181E+0	8.952332E-2	4.192352E-3	-3.103485E-1	-1.925964E-1
4.141000E+9	-7.593384E-1	-3.929443E-1	1.878662E-1	2.781494E+0	8.995056E-2	1.777649E-3	-3.141937E-1	-1.822968E-1
4.365500E+9	-7.688293E-1	-3.709717E-1	2.613525E-1	2.638794E+0	8.993149E-2	-9.613037E-4	-3.190002E-1	-1.801758E-1
4.590000E+9	-7.791748E-1	-3.502197E-1	3.218994E-1	2.505615E+0	9.022903E-2	-2.674103E-3	-3.259888E-1	-1.721802E-1
4.814500E+9	-7.881775E-1	-3.300781E-1	3.714600E-1	2.381958E+0	9.059906E-2	-4.184723E-3	-3.283539E-1	-1.674652E-1
5.039000E+9	-7.945862E-1	-3.114929E-1	4.172363E-1	2.269531E+0	9.047699E-2	-6.557465E-3	-3.332214E-1	-1.645203E-1
5.263500E+9	-8.012390E-1	-2.935181E-1	4.580078E-1	2.164673E+0	9.032059E-2	-8.281708E-3	-3.372192E-1	-1.586151E-1
5.488000E+9	-8.054504E-1	-2.786255E-1	4.920654E-1	2.067505E+0	9.008026E-2	-1.011658E-2	-3.414001E-1	-1.555939E-1
5.712500E+9	-8.114014E-1	-2.636719E-1	5.216064E-1	1.972656E+0	9.024048E-2	-1.188278E-2	-3.447418E-1	-1.514130E-1
5.937000E+9	-8.152771E-1	-2.473450E-1	5.485229E-1	1.885498E+0	9.024048E-2	-1.342392E-2	-3.484039E-1	-1.481171E-1
6.161500E+9	-8.191528E-1	-2.347412E-1	5.722046E-1	1.806641E+0	8.956146E-2	-1.518631E-2	-3.522949E-1	-1.429291E-1
6.386000E+9	-8.236084E-1	-2.214355E-1	5.935669E-1	1.729370E+0	8.940125E-2	-1.733398E-2	-3.520813E-1	-1.412506E-1
6.610500E+9	-8.260803E-1	-2.096863E-1	6.129150E-1	1.655579E+0	8.913040E-2	-1.847839E-2	-3.587799E-1	-1.407013E-1
6.835000E+9	-8.296204E-1	-1.977539E-1	6.282349E-1	1.585815E+0	8.893585E-2	-2.039337E-2	-3.597260E-1	-1.327057E-1
7.059500E+9	-8.317261E-1	-1.873779E-1	6.373901E-1	1.521484E+0	8.821487E-2	-2.196503E-2	-3.586731E-1	-1.361084E-1
7.284000E+9	-8.334961E-1	-1.766663E-1	6.492310E-1	1.460327E+0	8.770752E-2	-2.319336E-2	-3.666382E-1	-1.312561E-1
7.508500E+9	-8.368530E-1	-1.657410E-1	6.580811E-1	1.401733E+0	8.750153E-2	-2.361298E-2	-3.625031E-1	-1.297913E-1
7.733000E+9	-8.368530E-1	-1.553650E-1	6.674194E-1	1.347900E+0	8.681870E-2	-2.611923E-2	-3.718109E-1	-1.305084E-1
7.957500E+9	-8.385315E-1	-1.458435E-1	6.779785E-1	1.296753E+0	8.669662E-2	-2.670288E-2	-3.717194E-1	-1.254425E-1
8.182000E+9	-8.401489E-1	-1.370239E-1	6.860352E-1	1.246826E+0	8.613968E-2	-2.897644E-2	-3.776093E-1	-1.270294E-1
8.406500E+9	-8.412781E-1	-1.286316E-1	6.905518E-1	1.196716E+0	8.500290E-2	-2.971268E-2	-3.785553E-1	-1.205750E-1
8.631000E+9	-8.431091E-1	-1.194153E-1	6.965942E-1	1.148254E+0	8.460236E-2	-3.134918E-2	-3.810272E-1	-1.209106E-1
8.855500E+9	-8.437805E-1	-1.108398E-1	7.002563E-1	1.103638E+0	8.399200E-2	-3.301620E-2	-3.852692E-1	-1.176300E-1
9.080001E+9	-8.446960E-1	-1.044312E-1	7.027588E-1	1.062683E+0	8.346939E-2	-3.426361E-2	-3.857422E-1	-1.141052E-1
9.304500E+9	-8.451843E-1	-9.356689E-2	7.048950E-1	1.021545E+0	8.194733E-2	-3.507614E-2	-3.875427E-1	-1.139984E-1
9.529000E+9	-8.455200E-1	-8.810425E-2	7.062073E-1	9.819336E-1	8.197021E-2	-3.598022E-2	-3.937836E-1	-1.114655E-1
9.753500E+9	-8.465271E-1	-8.068848E-2	7.073669E-1	9.435730E-1	8.045959E-2	-3.736496E-2	-3.932648E-1	-1.073914E-1
9.978000E+9	-8.465271E-1	-7.305908E-2	7.066345E-1	9.093018E-1	8.032608E-2	-3.914261E-2	-3.965302E-1	-1.089020E-1
1.020250E+10	-8.478699E-1	-6.695557E-2	7.074890E-1	8.739319E-1	7.976913E-2	-3.989792E-2	-4.001923E-1	-1.039276E-1
1.042700E+10	-8.483276E-1	-5.877686E-2	7.077026E-1	8.409729E-1	7.856750E-2	-4.112625E-2	-4.007263E-1	-1.032104E-1
1.065150E+10	-8.477478E-1	-5.294800E-2	7.055969E-1	8.092346E-1	7.744980E-2	-4.196930E-2	-4.047546E-1	-1.016693E-1
1.087600E+10	-8.480530E-1	-4.699707E-2	7.046814E-1	7.779541E-1	7.661057E-2	-4.296112E-2	-4.065094E-1	-9.873962E-2
1.110050E+10	-8.486633E-1	-3.933716E-2	7.042542E-1	7.483826E-1	7.548141E-2	-4.396439E-2	-4.087677E-1	-9.686279E-2
1.132500E+10	-8.480225E-1	-3.463745E-2	7.028503E-1	7.185364E-1	7.534027E-2	-4.484940E-2	-4.108734E-1	-9.667969E-2
1.154950E+10	-8.483582E-1	-2.673340E-2	6.997681E-1	6.898804E-1	7.406616E-2	-4.539490E-2	-4.163971E-1	-9.243774E-2
1.177400E+10	-8.469849E-1	-2.093506E-2	6.963501E-1	6.637268E-1	7.337952E-2	-4.584885E-2	-4.171906E-1	-9.077454E-2
1.199850E+10	-8.479919E-1	-1.495361E-2	6.936951E-1	6.389771E-1	7.238388E-2	-4.725647E-2	-4.193878E-1	-8.937073E-2
1.222300E+10	-8.474426E-1	-9.643555E-3	6.910706E-1	6.123657E-1	7.129288E-2	-4.801941E-2	-4.215698E-1	-8.758545E-2
1.244750E+10	-8.469543E-1	-4.577637E-3	6.860962E-1	5.879822E-1	7.041168E-2	-4.962540E-2	-4.250793E-1	-8.425903E-2
1.267200E+10	-8.482056E-1	1.068115E-3	6.839294E-1	5.646362E-1	6.999969E-2	-5.012512E-2	-4.268188E-1	-8.421326E-2
1.289650E+10	-8.461609E-1	5.920410E-3	6.782532E-1	5.416565E-1	6.881714E-2	-5.066299E-2	-4.306641E-1	-8.253479E-2
1.312100E+10	-8.462830E-1	1.110840E-2	6.743469E-1	5.192871E-1	6.832123E-2	-5.204010E-2	-4.330750E-1	-7.737732E-2
1.334550E+10	-8.469849E-1	1.666260E-2	6.701660E-1	4.986877E-1	6.697464E-2	-5.232620E-2	-4.349518E-1	-7.620239E-2
1.357000E+10	-8.452454E-1	2.008057E-2	6.661377E-1	4.771118E-1	6.573105E-2	-5.365372E-2	-4.376678E-1	-7.594299E-2
1.379450E+10	-8.455811E-1	2.642822E-2	6.604919E-1	4.574280E-1	6.483841E-2	-5.459595E-2	-4.425659E-1	-7.218933E-2
1.401900E+10	-8.444519E-1	2.993774E-2	6.577148E-1	4.403076E-1	6.436157E-2	-5.505753E-2	-4.415131E-1	-7.104492E-2
1.424350E+10	-8.441162E-1	3.576660E-2	6.513062E-1	4.203186E-1	6.285858E-2	-5.638123E-2	-4.452209E-1	-6.820679E-2
1.446800E+10	-8.444519E-1	4.168701E-2	6.466370E-1	4.030457E-1	6.147957E-2	-5.571747E-2	-4.480743E-1	-6.256104E-2
1.469250E+10	-8.429871E-1	4.544067E-2	6.419067E-1	3.853760E-1	6.082344E-2	-5.742455E-2	-4.468994E-1	-5.995178E-2
1.491700E+10	-8.422241E-1	4.974365E-2	6.371155E-1	3.688354E-1	6.020164E-2	-5.672455E-2	-4.512024E-1	-6.263733E-2
1.514150E+10	-8.414917E-1	5.529785E-2	6.302490E-1	3.516846E-1	5.944061E-2	-5.733109E-2	-4.541931E-1	-5.569458E-2
1.536600E+10	-8.402100E-1	6.015015E-2	6.271973E-1	3.353271E-1	5.799484E-2	-5.909348E-2	-4.540253E-1	-5.334473E-2
1.559050E+10	-8.404541E-1	6.390381E-2	6.206665E-1	3.196411E-1	5.736542E-2	-5.886078E-2	-4.577789E-1	-5.444336E-2
1.581500E+10	-8.385010E-1	6.875610E-2	6.147461E-1	3.044739E-1	5.708885E-2	-5.941582E-2	-4.623260E-1	-4.971313E-2
1.603950E+10	-8.377075E-1	7.250977E-2	6.095276E-1	2.895203E-1	5.537415E-2	-6.056404E-2	-4.610748E-1	-4.722595E-2
1.626400E+10	-8.382568E-1	7.717896E-2	6.035461E-1	2.762756E-1	5.454636E-2	-6.107712E-2	-4.675903E-1	-4.647827E-2
1.648850E+10	-8.372192E-1	8.096313E-2	5.984192E-1	2.637939E-1	5.340195E-2	-6.201172E-2	-4.678650E-1	-4.138184E-2
1.671300E+10	-8.373108E-1	8.627319E-2	5.925598E-1	2.484436E-1	5.203056E-2	-6.183243E-2	-4.694824E-1	-3.944397E-2
1.693750E+10	-8.358765E-1	8.956909E-2	5.880127E-1	2.368774E-1	5.053329E-2	-6.277847E-2	-4.718323E-1	-3.750610E-2
1.716200E+10	-8.352051E-1	9.353638E-2	5.827637E-1	2.239075E-1	5.000687E-2	-6.364441E-2	-4.742584E-1	-3.190613E-2
1.738650E+10	-8.342590E-1	9.893799E-2	5.764465E-1	2.138062E-1	4.750824E-2	-6.245804E-2	-4.747009E-1	-2.861023E-2
1.761100E+10	-8.327942E-1	1.021118E-1	5.697632E-1	2.010498E-1	4.749298E-2	-6.385040E-2	-4.776306E-1	-2.867126E-2
1.783550E+10	-8.322144E-1	1.073608E-1	5.640259E-1	1.892090E-1	4.487991E-2	-6.290054E-2	-4.809265E-1	-2.246094E-2
1.806000E+10	-8.314819E-1	1.090698E-1	5.586243E-1	1.788635E-1	4.677963E-2	-6.439972E-2	-4.813080E-1	-1.840210E-2
1.828450E+10	-8.310852E-1	1.149292E-1	5.545959E-1	1.689453E-1	4.526520E-2	-6.370163E-2	-4.828186E-1	-1.875305E-2
1.850900E+10	-8.282471E-1	1.181641E-1	5.469055E-1	1.583252E-1	4.478836E-2	-6.435776E-2	-4.865112E-1	-1.298523E-2
1.873350E+10	-8.286743E-1	1.225891E-1	5.413208E-1	1.467285E-1	4.223633E-2	-6.443024E-2	-4.860229E-1	-8.163452E-3
1.895800E+10	-8.270874E-1	1.253967E-1	5.340881E-1	1.361389E-1	4.176331E-2	-6.488037E-2	-4.884491E-1	-6.973267E-3
1.918250E+10	-8.267212E-1	1.289368E-1	5.296326E-1	1.295166E-1	4.066849E-2	-6.492233E-2	-4.917755E-1	-5.111694E-3
1.940700E+10	-8.255005E-1	1.333923E-1	5.234680E-1	1.177368E-1	3.956604E-2	-6.556702E-2	-4.908142E-1	3.646851E-3
1.963150E+10	-8.239441E-1	1.354980E-1	5.174866E-1	1.091003E-1	3.855896E-2	-6.730270E-2	-4.909058E-1	3.723145E-3
1.985600E+10	-8.226624E-1	1.390686E-1	5.134583E-1	1.001587E-1	3.681946E-2	-6.681061E-2	-4.958954E-1	5.264282E-3
2.008050E+10	-8.233032E-1	1.419373E-1	5.060425E-1	9.149170E-2	3.601837E-2	-6.704712E-2	-4.956360E-1	1.345825E-2
2.030500E+10	-8.214417E-1	1.458435E-1	5.016174E-1	8.401489E-2	3.443146E-2	-6.565475E-2	-4.943542E-1	1.316833E-2
2.052950E+10	-8.194580E-1	1.505127E-1	4.968414E-1	7.699585E-2	3.358078E-2	-6.594467E-2	-4.996338E-1	1.593018E-2
2.075400E+10	-8.189697E-1	1.527405E-1	4.904175E-1	6.838989E-2	3.200912E-2	-6.776810E-2	-5.005798E-1	2.099609E-2
2.097850E+10	-8.183594E-1	1.555176E-1	4.857635E-1	6.225586E-2	3.154373E-2	-6.850052E-2	-4.991608E-1	2.609253E-2
2.120300E+10	-8.166199E-1	1.593323E-1	4.782715E-1	5.502319E-2	2.939224E-2	-6.674576E-2	-5.020447E-1	2.453613E-2
2.142750E+10	-8.155823E-1	1.632690E-1	4.744873E-1	4.663086E-2	2.919769E-2	-6.485748E-2	-5.052185E-1	3.259277E-2
2.165200E+10	-8.151245E-1	1.662292E-1	4.692078E-1	4.278564E-2	2.840805E-2	-6.496811E-2	-5.042725E-1	3.625488E-2
2.187650E+10	-8.137512E-1	1.698608E-1	4.614105E-1	3.404236E-2	2.732468E-2	-6.645203E-2	-5.083618E-1	3.833008E-2
2.210100E+10	-8.127747E-1	1.731262E-1	4.571991E-1	2.622986E-2	2.564240E-2	-6.761551E-2	-5.102234E-1	4.876709E-2
2.232550E+10	-8.121948E-1	1.758423E-1	4.527588E-1	2.243042E-2	2.568436E-2	-6.921768E-2	-5.070801E-1	5.050659E-2
2.255000E+10	-8.124695E-1	1.804199E-1	4.470215E-1	1.516724E-2	2.425385E-2	-6.860733E-2	-5.109253E-1	5.218506E-2
2.277450E+10	-8.096924E-1	1.843262E-1	4.423218E-1	7.904053E-3	2.195740E-2	-6.789780E-2	-5.116272E-1	5.911255E-2
2.299900E+10	-8.098145E-1	1.852417E-1	4.368286E-1	2.899170E-3	2.165604E-2	-6.775284E-2	-5.078735E-1	6.109619E-2
2.322350E+10	-8.080444E-1	1.903076E-1	4.327545E-1	-2.624512E-3	1.901245E-2	-6.729889E-2	-5.139771E-1	6.433105E-2
2.344800E+10	-8.062439E-1	1.911316E-1	4.248657E-1	-6.668091E-3	1.824570E-2	-6.777191E-2	-5.150757E-1	6.936646E-2
2.367250E+10	-8.050842E-1	1.950378E-1	4.202271E-1	-1.344299E-2	1.577377E-2	-6.822586E-2	-5.086670E-1	7.354736E-2
2.389700E+10	-8.024902E-1	1.990051E-1	4.149017E-1	-1.907349E-2	1.612091E-2	-6.768417E-2	-5.145264E-1	7.727051E-2
2.412150E+10	-8.007507E-1	2.037354E-1	4.085541E-1	-2.262878E-2	1.392746E-2	-6.701660E-2	-5.132141E-1	8.612061E-2
2.434600E+10	-8.005371E-1	2.075195E-1	4.051666E-1	-2.661133E-2	1.570129E-2	-6.724930E-2	-5.079041E-1	8.569336E-2
2.457050E+10	-7.997437E-1	2.079468E-1	4.002075E-1	-3.282166E-2	1.198578E-2	-6.750870E-2	-5.145569E-1	8.721924E-2
2.479500E+10	-7.977295E-1	2.139587E-1	3.945312E-1	-3.619385E-2	1.054001E-2	-6.497574E-2	-5.111084E-1	9.808350E-2
2.501950E+10	-7.954712E-1	2.150879E-1	3.902740E-1	-3.996277E-2	9.170532E-3	-6.678772E-2	-5.079651E-1	9.799194E-2
2.524400E+10	-7.953796E-1	2.177124E-1	3.856354E-1	-4.652405E-2	8.602142E-3	-6.566620E-2	-5.115662E-1	1.027832E-1
2.546850E+10	-7.955322E-1	2.227173E-1	3.805695E-1	-4.701233E-2	6.431580E-3	-6.407928E-2	-5.081482E-1	1.065369E-1
2.569300E+10	-7.912292E-1	2.235718E-1	3.768158E-1	-4.949951E-2	6.553650E-3	-6.408310E-2	-5.093384E-1	1.082458E-1
2.591750E+10	-7.912903E-1	2.289124E-1	3.715515E-1	-5.686951E-2	5.268097E-3	-6.274414E-2	-5.104675E-1	1.120605E-1
2.614200E+10	-7.883301E-1	2.294312E-1	3.659515E-1	-5.780029E-2	6.530762E-3	-6.335068E-2	-5.142517E-1	1.188354E-1
2.636650E+10	-7.884827E-1	2.325745E-1	3.628693E-1	-6.188965E-2	5.117416E-3	-6.231499E-2	-5.128479E-1	1.247559E-1
2.659100E+10	-7.854309E-1	2.353516E-1	3.572235E-1	-6.573486E-2	4.152298E-3	-6.195068E-2	-5.069275E-1	1.282349E-1
2.681550E+10	-7.847900E-1	2.382202E-1	3.522797E-1	-6.758118E-2	1.125336E-3	-6.090546E-2	-5.100098E-1	1.286621E-1
2.704000E+10	-7.829895E-1	2.408447E-1	3.471069E-1	-7.331848E-2	1.640320E-4	-6.275940E-2	-5.103760E-1	1.383972E-1
2.726450E+10	-7.828674E-1	2.467957E-1	3.443604E-1	-7.615662E-2	-2.656937E-3	-6.006050E-2	-5.058594E-1	1.445007E-1
2.748900E+10	-7.797241E-1	2.458801E-1	3.371735E-1	-7.997131E-2	1.449585E-4	-5.999184E-2	-5.037842E-1	1.427307E-1
2.771350E+10	-7.782898E-1	2.491150E-1	3.347473E-1	-8.128357E-2	-2.359390E-3	-6.114006E-2	-5.057373E-1	1.492004E-1
2.793800E+10	-7.776489E-1	2.509766E-1	3.316345E-1	-8.494568E-2	-1.363754E-3	-6.060982E-2	-5.053711E-1	1.542053E-1
2.816250E+10	-7.740173E-1	2.538147E-1	3.273315E-1	-8.674622E-2	-2.880096E-3	-5.833054E-2	-5.032043E-1	1.578979E-1
2.838700E+10	-7.762451E-1	2.555542E-1	3.243408E-1	-9.088135E-2	-5.863190E-3	-5.649757E-2	-5.029907E-1	1.661377E-1
2.861150E+10	-7.722778E-1	2.599792E-1	3.200989E-1	-9.246826E-2	-8.005142E-3	-5.642319E-2	-5.010071E-1	1.697388E-1
2.883600E+10	-7.691345E-1	2.635193E-1	3.143311E-1	-9.283447E-2	-9.397507E-3	-5.770111E-2	-5.004883E-1	1.663513E-1
2.906050E+10	-7.692261E-1	2.661438E-1	3.117828E-1	-9.628296E-2	-9.498596E-3	-5.313492E-2	-4.993286E-1	1.746826E-1
2.928500E+10	-7.691040E-1	2.693176E-1	3.062897E-1	-9.750366E-2	-8.689880E-3	-5.370522E-2	-4.969788E-1	1.791077E-1
2.950950E+10	-7.657776E-1	2.754211E-1	3.029327E-1	-1.011200E-1	-1.082611E-2	-5.396461E-2	-4.994812E-1	1.816101E-1
2.973400E+10	-7.639160E-1	2.762756E-1	3.025818E-1	-1.010742E-1	-9.466171E-3	-5.181313E-2	-4.998169E-1	1.867981E-1
2.995850E+10	-7.603455E-1	2.764893E-1	2.974548E-1	-1.076965E-1	-1.165771E-2	-5.296135E-2	-4.982758E-1	1.943054E-1
3.018300E+10	-7.603149E-1	2.787476E-1	2.937012E-1	-1.081390E-1	-1.439095E-2	-5.241013E-2	-4.988708E-1	2.015228E-1
3.040750E+10	-7.594299E-1	2.818604E-1	2.936859E-1	-1.081848E-1	-1.269150E-2	-5.359840E-2	-4.940948E-1	2.027130E-1
3.063200E+10	-7.576904E-1	2.796326E-1	2.901154E-1	-1.126556E-1	-1.420021E-2	-4.949188E-2	-4.974976E-1	2.115173E-1
3.085650E+10	-7.581482E-1	2.864075E-1	2.863617E-1	-1.133881E-1	-1.391792E-2	-5.056572E-2	-4.910583E-1	2.136841E-1
3.108100E+10	-7.542725E-1	2.885437E-1	2.830505E-1	-1.164246E-1	-1.397324E-2	-4.970169E-2	-4.912415E-1	2.192383E-1
3.130550E+10	-7.496643E-1	2.861633E-1	2.763519E-1	-1.134033E-1	-2.069473E-2	-4.709053E-2	-4.858704E-1	2.222137E-1
3.153000E+10	-7.516479E-1	2.976990E-1	2.768250E-1	-1.180573E-1	-1.810646E-2	-4.614449E-2	-4.822998E-1	2.232208E-1
3.175450E+10	-7.487183E-1	2.964172E-1	2.721100E-1	-1.202393E-1	-1.433945E-2	-4.561043E-2	-4.832306E-1	2.361145E-1
3.197900E+10	-7.456360E-1	2.972717E-1	2.684631E-1	-1.225433E-1	-1.814842E-2	-4.378319E-2	-4.746857E-1	2.322693E-1
3.220350E+10	-7.497559E-1	3.018799E-1	2.667694E-1	-1.221619E-1	-1.968575E-2	-4.489326E-2	-4.780731E-1	2.397461E-1
3.242800E+10	-7.471619E-1	2.994080E-1	2.661438E-1	-1.252136E-1	-1.837730E-2	-4.096985E-2	-4.698639E-1	2.487030E-1
3.265250E+10	-7.456665E-1	3.074036E-1	2.583923E-1	-1.276093E-1	-2.272224E-2	-3.823471E-2	-4.674225E-1	2.455292E-1
3.287700E+10	-7.422180E-1	3.097534E-1	2.622833E-1	-1.304474E-1	-2.295303E-2	-3.924370E-2	-4.715881E-1	2.494965E-1
3.310150E+10	-7.378845E-1	3.118896E-1	2.522278E-1	-1.287689E-1	-2.146530E-2	-3.510666E-2	-4.612579E-1	2.574463E-1
3.332600E+10	-7.389221E-1	3.123474E-1	2.499771E-1	-1.331406E-1	-2.338219E-2	-3.961372E-2	-4.614410E-1	2.552185E-1
3.355050E+10	-7.340393E-1	3.134155E-1	2.497711E-1	-1.336212E-1	-2.162170E-2	-3.425026E-2	-4.684296E-1	2.633972E-1
3.377500E+10	-7.343445E-1	3.175049E-1	2.478104E-1	-1.342163E-1	-1.856041E-2	-3.361320E-2	-4.575806E-1	2.682800E-1
3.399950E+10	-7.329407E-1	3.203125E-1	2.402267E-1	-1.357040E-1	-2.251244E-2	-3.026962E-2	-4.572144E-1	2.680054E-1
3.422400E+10	-7.313538E-1	3.229980E-1	2.395172E-1	-1.359558E-1	-2.150726E-2	-3.403854E-2	-4.571533E-1	2.792206E-1
3.444850E+10	-7.312622E-1	3.245544E-1	2.384949E-1	-1.413956E-1	-1.887894E-2	-3.459549E-2	-4.487000E-1	2.811737E-1
3.467300E+10	-7.238464E-1	3.235474E-1	2.424240E-1	-1.409607E-1	-2.227211E-2	-3.373718E-2	-4.518280E-1	2.830353E-1
3.489750E+10	-7.248840E-1	3.297424E-1	2.314911E-1	-1.406250E-1	-1.943874E-2	-3.116608E-2	-4.445648E-1	2.969360E-1
3.512200E+10	-7.247620E-1	3.305054E-1	2.324982E-1	-1.427460E-1	-2.137375E-2	-3.281403E-2	-4.387054E-1	2.962189E-1
3.534650E+10	-7.225952E-1	3.305054E-1	2.285538E-1	-1.500168E-1	-2.948761E-2	-2.915955E-2	-4.404144E-1	3.014832E-1
3.557100E+10	-7.227783E-1	3.317261E-1	2.257843E-1	-1.488876E-1	-2.360058E-2	-2.802467E-2	-4.318390E-1	3.065338E-1
3.579550E+10	-7.184448E-1	3.324280E-1	2.255173E-1	-1.417847E-1	-2.523804E-2	-2.489948E-2	-4.279480E-1	3.116913E-1
3.602000E+10	-7.186279E-1	3.392944E-1	2.241135E-1	-1.527252E-1	-2.451324E-2	-2.458382E-2	-4.265289E-1	3.110199E-1
3.624450E+10	-7.152710E-1	3.370972E-1	2.169571E-1	-1.546936E-1	-2.342987E-2	-2.672386E-2	-4.205780E-1	3.166504E-1
3.646900E+10	-7.102356E-1	3.405762E-1	2.159805E-1	-1.576538E-1	-2.383137E-2	-2.261066E-2	-4.168243E-1	3.256683E-1
3.669350E+10	-7.121277E-1	3.425903E-1	2.140045E-1	-1.554184E-1	-2.420044E-2	-1.963520E-2	-4.113617E-1	3.242340E-1
3.691800E+10	-7.116394E-1	3.468323E-1	2.131119E-1	-1.545258E-1	-2.436352E-2	-2.070713E-2	-4.087219E-1	3.298340E-1
3.714250E+10	-7.112122E-1	3.450012E-1	2.112274E-1	-1.588440E-1	-1.934433E-2	-1.670647E-2	-4.022522E-1	3.352051E-1
3.736700E+10	-7.085876E-1	3.505554E-1	2.073212E-1	-1.584167E-1	-2.778339E-2	-2.091789E-2	-3.960876E-1	3.325195E-1
3.759150E+10	-7.038879E-1	3.560486E-1	2.035446E-1	-1.604843E-1	-2.382851E-2	-1.856041E-2	-3.914795E-1	3.392792E-1
3.781600E+10	-6.983643E-1	3.542786E-1	1.982346E-1	-1.556168E-1	-2.498817E-2	-1.771069E-2	-3.869629E-1	3.558197E-1
3.804050E+10	-7.008057E-1	3.544312E-1	2.005463E-1	-1.628799E-1	-2.373981E-2	-1.911831E-2	-3.804474E-1	3.510895E-1
3.826500E+10	-6.942139E-1	3.610840E-1	1.998367E-1	-1.656418E-1	-2.118015E-2	-1.034737E-2	-3.775024E-1	3.600311E-1
3.848950E+10	-6.951599E-1	3.574829E-1	1.910324E-1	-1.671448E-1	-2.539730E-2	-1.191425E-2	-3.701935E-1	3.622742E-1
3.871400E+10	-6.974487E-1	3.586426E-1	1.935501E-1	-1.660995E-1	-2.116489E-2	-1.347828E-2	-3.606415E-1	3.573456E-1
3.893850E+10	-6.890259E-1	3.622131E-1	1.942139E-1	-1.690369E-1	-2.580261E-2	-9.588242E-3	-3.509674E-1	3.661804E-1
3.916300E+10	-6.980591E-1	3.639526E-1	1.897507E-1	-1.761932E-1	-1.836586E-2	-7.560730E-3	-3.524475E-1	3.572693E-1
