!Date: 10/28/2005, 12:46 PM

!Vgs = -4.000000E+0
!Vds = 7.500000E+0
!Ig = -2.824100E-5
!Id = 1.493000E-1

# HZ S RI R 50
1.000000E+8	9.708252E-1	-1.987610E-1	-1.586719E+1	1.565430E+0	7.748604E-4	1.060438E-2	5.242920E-1	-8.868408E-2
3.245000E+8	7.813110E-1	-5.531311E-1	-1.402393E+1	5.236816E+0	1.006699E-2	2.305317E-2	3.769073E-1	-2.537231E-1
5.490000E+8	5.215759E-1	-7.780151E-1	-1.160107E+1	7.247070E+0	2.128792E-2	3.199768E-2	2.757874E-1	-3.354797E-1
7.735000E+8	2.633972E-1	-8.817444E-1	-9.207520E+0	8.135254E+0	3.310394E-2	3.483391E-2	1.635742E-1	-3.778839E-1
9.980000E+8	4.370117E-2	-9.070435E-1	-7.168945E+0	8.317871E+0	4.239845E-2	3.481865E-2	7.296753E-2	-3.806610E-1
1.222500E+9	-1.364746E-1	-8.901672E-1	-5.541992E+0	8.152344E+0	4.998970E-2	3.283691E-2	5.142212E-3	-3.757324E-1
1.447000E+9	-2.810669E-1	-8.530884E-1	-4.248291E+0	7.793457E+0	5.561638E-2	3.008270E-2	-5.116272E-2	-3.629303E-1
1.671500E+9	-3.933411E-1	-8.061218E-1	-3.237793E+0	7.337891E+0	6.027412E-2	2.713203E-2	-9.591675E-2	-3.486938E-1
1.896000E+9	-4.826050E-1	-7.533569E-1	-2.472900E+0	6.858887E+0	6.390762E-2	2.428055E-2	-1.316071E-1	-3.283386E-1
2.120500E+9	-5.508423E-1	-7.024231E-1	-1.879883E+0	6.416992E+0	6.679916E-2	2.116013E-2	-1.578369E-1	-3.120270E-1
2.345000E+9	-6.058350E-1	-6.515808E-1	-1.397461E+0	5.992432E+0	6.923294E-2	1.757431E-2	-1.798553E-1	-2.957611E-1
2.569500E+9	-6.461182E-1	-6.065063E-1	-1.017822E+0	5.598145E+0	7.041931E-2	1.501083E-2	-1.973724E-1	-2.815704E-1
2.794000E+9	-6.817322E-1	-5.688171E-1	-7.207031E-1	5.244873E+0	7.178497E-2	1.220322E-2	-2.102356E-1	-2.686462E-1
3.018500E+9	-7.098389E-1	-5.298767E-1	-4.650879E-1	4.921387E+0	7.246780E-2	9.380341E-3	-2.218628E-1	-2.581329E-1
3.243000E+9	-7.334900E-1	-4.955444E-1	-2.543945E-1	4.629150E+0	7.312012E-2	7.369995E-3	-2.324448E-1	-2.487259E-1
3.467500E+9	-7.538147E-1	-4.656982E-1	-8.105469E-2	4.363770E+0	7.374954E-2	4.840851E-3	-2.409821E-1	-2.402420E-1
3.692000E+9	-7.716064E-1	-4.367981E-1	7.128906E-2	4.115967E+0	7.428360E-2	3.456116E-3	-2.486572E-1	-2.340317E-1
3.916500E+9	-7.862854E-1	-4.085388E-1	1.933594E-1	3.887817E+0	7.443619E-2	7.514954E-4	-2.572632E-1	-2.278137E-1
4.141000E+9	-7.980042E-1	-3.840027E-1	2.994385E-1	3.680420E+0	7.498169E-2	-1.075745E-3	-2.635498E-1	-2.210846E-1
4.365500E+9	-8.067932E-1	-3.613892E-1	3.907471E-1	3.489380E+0	7.467270E-2	-2.708435E-3	-2.698059E-1	-2.158508E-1
4.590000E+9	-8.168945E-1	-3.404236E-1	4.698486E-1	3.308105E+0	7.487869E-2	-4.684448E-3	-2.766876E-1	-2.110443E-1
4.814500E+9	-8.253784E-1	-3.205872E-1	5.323486E-1	3.142578E+0	7.528305E-2	-6.164551E-3	-2.809601E-1	-2.064819E-1
5.039000E+9	-8.312683E-1	-3.016052E-1	5.900879E-1	2.991211E+0	7.470703E-2	-8.098602E-3	-2.865753E-1	-2.032166E-1
5.263500E+9	-8.374023E-1	-2.834167E-1	6.405029E-1	2.848511E+0	7.435989E-2	-1.040649E-2	-2.925720E-1	-1.989746E-1
5.488000E+9	-8.417053E-1	-2.683411E-1	6.810303E-1	2.717407E+0	7.451248E-2	-1.114273E-2	-2.962036E-1	-1.955109E-1
5.712500E+9	-8.472595E-1	-2.529297E-1	7.196045E-1	2.590820E+0	7.431412E-2	-1.263809E-2	-3.005219E-1	-1.925354E-1
5.937000E+9	-8.511047E-1	-2.368164E-1	7.513428E-1	2.475342E+0	7.436371E-2	-1.463318E-2	-3.057861E-1	-1.898041E-1
6.161500E+9	-8.547363E-1	-2.241211E-1	7.805176E-1	2.370117E+0	7.385254E-2	-1.635361E-2	-3.097076E-1	-1.862640E-1
6.386000E+9	-8.582458E-1	-2.108154E-1	8.070068E-1	2.265747E+0	7.379150E-2	-1.750565E-2	-3.128510E-1	-1.842499E-1
6.610500E+9	-8.607483E-1	-1.984253E-1	8.308105E-1	2.169678E+0	7.327271E-2	-1.923752E-2	-3.182526E-1	-1.832886E-1
6.835000E+9	-8.641663E-1	-1.867371E-1	8.496094E-1	2.076050E+0	7.303238E-2	-2.001572E-2	-3.226166E-1	-1.794128E-1
7.059500E+9	-8.655090E-1	-1.761780E-1	8.622437E-1	1.989624E+0	7.301331E-2	-2.154160E-2	-3.231964E-1	-1.785431E-1
7.284000E+9	-8.674927E-1	-1.646423E-1	8.770142E-1	1.907776E+0	7.236862E-2	-2.352524E-2	-3.297119E-1	-1.776733E-1
7.508500E+9	-8.696594E-1	-1.540833E-1	8.901367E-1	1.828796E+0	7.086563E-2	-2.392197E-2	-3.330841E-1	-1.736145E-1
7.733000E+9	-8.703308E-1	-1.431580E-1	8.994751E-1	1.754700E+0	7.107544E-2	-2.515793E-2	-3.363647E-1	-1.735687E-1
7.957500E+9	-8.719177E-1	-1.331482E-1	9.098511E-1	1.684448E+0	7.020187E-2	-2.622986E-2	-3.415680E-1	-1.715546E-1
8.182000E+9	-8.729553E-1	-1.247559E-1	9.174805E-1	1.616821E+0	6.930542E-2	-2.833557E-2	-3.455048E-1	-1.713715E-1
8.406500E+9	-8.731689E-1	-1.158142E-1	9.218750E-1	1.551514E+0	6.949997E-2	-2.952576E-2	-3.488159E-1	-1.685638E-1
8.631000E+9	-8.747864E-1	-1.058960E-1	9.279175E-1	1.488831E+0	6.853104E-2	-3.039932E-2	-3.539124E-1	-1.668091E-1
8.855500E+9	-8.761597E-1	-9.817505E-2	9.311523E-1	1.429443E+0	6.811905E-2	-3.157806E-2	-3.584137E-1	-1.647186E-1
9.080001E+9	-8.768005E-1	-9.066772E-2	9.343262E-1	1.372803E+0	6.786728E-2	-3.279877E-2	-3.606720E-1	-1.622467E-1
9.304500E+9	-8.766479E-1	-8.050537E-2	9.338379E-1	1.318420E+0	6.558990E-2	-3.356552E-2	-3.641052E-1	-1.614532E-1
9.529000E+9	-8.767090E-1	-7.470703E-2	9.356689E-1	1.265564E+0	6.575775E-2	-3.465271E-2	-3.700409E-1	-1.588135E-1
9.753500E+9	-8.778381E-1	-6.750488E-2	9.338989E-1	1.215698E+0	6.448364E-2	-3.573227E-2	-3.720856E-1	-1.564178E-1
9.978000E+9	-8.778076E-1	-6.008911E-2	9.329834E-1	1.169434E+0	6.341934E-2	-3.680038E-2	-3.762360E-1	-1.558075E-1
1.020250E+10	-8.783264E-1	-5.352783E-2	9.320679E-1	1.121765E+0	6.326294E-2	-3.797150E-2	-3.802338E-1	-1.525726E-1
1.042700E+10	-8.794556E-1	-4.666138E-2	9.301147E-1	1.078247E+0	6.235123E-2	-3.892899E-2	-3.837738E-1	-1.510773E-1
1.065150E+10	-8.785706E-1	-3.915405E-2	9.263306E-1	1.036438E+0	6.159592E-2	-4.019165E-2	-3.863525E-1	-1.499786E-1
1.087600E+10	-8.799133E-1	-3.262329E-2	9.243164E-1	9.954224E-1	6.052589E-2	-4.087639E-2	-3.905487E-1	-1.482086E-1
1.110050E+10	-8.792114E-1	-2.545166E-2	9.211426E-1	9.551392E-1	5.953598E-2	-4.116440E-2	-3.946381E-1	-1.463623E-1
1.132500E+10	-8.780823E-1	-1.965332E-2	9.179993E-1	9.181519E-1	5.886269E-2	-4.254150E-2	-3.965912E-1	-1.458282E-1
1.154950E+10	-8.783569E-1	-1.312256E-2	9.133606E-1	8.802185E-1	5.787277E-2	-4.339409E-2	-4.037018E-1	-1.422272E-1
1.177400E+10	-8.789978E-1	-6.835937E-3	9.082642E-1	8.447571E-1	5.611801E-2	-4.349327E-2	-4.060822E-1	-1.397552E-1
1.199850E+10	-8.780518E-1	-1.892090E-3	9.039001E-1	8.110962E-1	5.630302E-2	-4.485321E-2	-4.095306E-1	-1.391754E-1
1.222300E+10	-8.780212E-1	4.302979E-3	8.973999E-1	7.767334E-1	5.551529E-2	-4.526138E-2	-4.136200E-1	-1.368866E-1
1.244750E+10	-8.771362E-1	9.918213E-3	8.909607E-1	7.440796E-1	5.496788E-2	-4.552269E-2	-4.175873E-1	-1.320343E-1
1.267200E+10	-8.778687E-1	1.605225E-2	8.841553E-1	7.143860E-1	5.295563E-2	-4.619408E-2	-4.194183E-1	-1.331177E-1
1.289650E+10	-8.764038E-1	2.020264E-2	8.768311E-1	6.851196E-1	5.214691E-2	-4.657555E-2	-4.257355E-1	-1.315918E-1
1.312100E+10	-8.763428E-1	2.566528E-2	8.708801E-1	6.553345E-1	5.151939E-2	-4.803658E-2	-4.279022E-1	-1.256866E-1
1.334550E+10	-8.759766E-1	3.131104E-2	8.639526E-1	6.289978E-1	5.052567E-2	-4.897308E-2	-4.298706E-1	-1.261139E-1
1.357000E+10	-8.740540E-1	3.518677E-2	8.566895E-1	6.016541E-1	4.945755E-2	-4.879189E-2	-4.361420E-1	-1.254578E-1
1.379450E+10	-8.738403E-1	4.135132E-2	8.497314E-1	5.774536E-1	4.847908E-2	-4.994202E-2	-4.397125E-1	-1.187439E-1
1.401900E+10	-8.748779E-1	4.635620E-2	8.425293E-1	5.541687E-1	4.728889E-2	-5.050468E-2	-4.394531E-1	-1.188202E-1
1.424350E+10	-8.731079E-1	5.099487E-2	8.338928E-1	5.282593E-1	4.660225E-2	-5.168724E-2	-4.466553E-1	-1.161041E-1
1.446800E+10	-8.735352E-1	5.688477E-2	8.286133E-1	5.053406E-1	4.529953E-2	-5.249214E-2	-4.489136E-1	-1.095886E-1
1.469250E+10	-8.717346E-1	6.155396E-2	8.205872E-1	4.827271E-1	4.381371E-2	-5.315781E-2	-4.478302E-1	-1.087036E-1
1.491700E+10	-8.716736E-1	6.701660E-2	8.135681E-1	4.598694E-1	4.312515E-2	-5.240631E-2	-4.543915E-1	-1.078491E-1
1.514150E+10	-8.710022E-1	7.064819E-2	8.048706E-1	4.395752E-1	4.272270E-2	-5.290604E-2	-4.581757E-1	-1.014252E-1
1.536600E+10	-8.702698E-1	7.589722E-2	7.962952E-1	4.166870E-1	4.183578E-2	-5.359650E-2	-4.578400E-1	-9.933472E-2
1.559050E+10	-8.684998E-1	8.035278E-2	7.893677E-1	3.980408E-1	3.976250E-2	-5.301666E-2	-4.640808E-1	-9.944153E-2
1.581500E+10	-8.670959E-1	8.517456E-2	7.805481E-1	3.773804E-1	3.931236E-2	-5.532074E-2	-4.679413E-1	-9.367371E-2
1.603950E+10	-8.680420E-1	8.889771E-2	7.730713E-1	3.598633E-1	3.886414E-2	-5.619621E-2	-4.677887E-1	-9.288025E-2
1.626400E+10	-8.668518E-1	9.429932E-2	7.634888E-1	3.410645E-1	3.775787E-2	-5.479813E-2	-4.754181E-1	-8.961487E-2
1.648850E+10	-8.658752E-1	9.750366E-2	7.547607E-1	3.241577E-1	3.560066E-2	-5.555153E-2	-4.778748E-1	-8.448792E-2
1.671300E+10	-8.645630E-1	1.033936E-1	7.466431E-1	3.065186E-1	3.519249E-2	-5.686760E-2	-4.797821E-1	-8.212280E-2
1.693750E+10	-8.645630E-1	1.067810E-1	7.398071E-1	2.919006E-1	3.398514E-2	-5.633545E-2	-4.839478E-1	-8.003235E-2
1.716200E+10	-8.634033E-1	1.112671E-1	7.301941E-1	2.761841E-1	3.268814E-2	-5.709839E-2	-4.868469E-1	-7.391357E-2
1.738650E+10	-8.616638E-1	1.159058E-1	7.232666E-1	2.638550E-1	3.087807E-2	-5.739975E-2	-4.874420E-1	-7.124329E-2
1.761100E+10	-8.602600E-1	1.181946E-1	7.136841E-1	2.476807E-1	2.999115E-2	-5.723000E-2	-4.929810E-1	-6.945801E-2
1.783550E+10	-8.617249E-1	1.251526E-1	7.044678E-1	2.338867E-1	2.906227E-2	-5.726433E-2	-4.952087E-1	-6.034851E-2
1.806000E+10	-8.610840E-1	1.278381E-1	6.979065E-1	2.183533E-1	2.778625E-2	-5.789757E-2	-4.948578E-1	-5.778503E-2
1.828450E+10	-8.582764E-1	1.318359E-1	6.911316E-1	2.084045E-1	2.745056E-2	-5.822182E-2	-4.993896E-1	-5.786133E-2
1.850900E+10	-8.575745E-1	1.367493E-1	6.827087E-1	1.931763E-1	2.532387E-2	-5.811501E-2	-5.035095E-1	-5.130005E-2
1.873350E+10	-8.565369E-1	1.404114E-1	6.740417E-1	1.795959E-1	2.451515E-2	-5.782127E-2	-5.037537E-1	-4.675293E-2
1.895800E+10	-8.542175E-1	1.441956E-1	6.647034E-1	1.676025E-1	2.375412E-2	-5.944443E-2	-5.054321E-1	-4.663086E-2
1.918250E+10	-8.530884E-1	1.480103E-1	6.577148E-1	1.560364E-1	2.324295E-2	-5.747795E-2	-5.101929E-1	-4.315186E-2
1.940700E+10	-8.518982E-1	1.525879E-1	6.477966E-1	1.437683E-1	2.132225E-2	-5.850983E-2	-5.099487E-1	-3.561401E-2
1.963150E+10	-8.509521E-1	1.554260E-1	6.419678E-1	1.349792E-1	1.913643E-2	-5.767632E-2	-5.131226E-1	-3.625488E-2
1.985600E+10	-8.514099E-1	1.588440E-1	6.333923E-1	1.238708E-1	1.805115E-2	-5.744553E-2	-5.157471E-1	-2.874756E-2
2.008050E+10	-8.494263E-1	1.619263E-1	6.240234E-1	1.130371E-1	1.753044E-2	-5.888176E-2	-5.185242E-1	-2.203369E-2
2.030500E+10	-8.475647E-1	1.664734E-1	6.158142E-1	1.039124E-1	1.717186E-2	-5.692291E-2	-5.177917E-1	-1.815796E-2
2.052950E+10	-8.480225E-1	1.687622E-1	6.069946E-1	9.457397E-2	1.431465E-2	-5.751991E-2	-5.227661E-1	-1.843262E-2
2.075400E+10	-8.454590E-1	1.731873E-1	6.037292E-1	8.462524E-2	1.416397E-2	-5.946732E-2	-5.246277E-1	-1.135254E-2
2.097850E+10	-8.455811E-1	1.761169E-1	5.950012E-1	7.714844E-2	1.274109E-2	-5.904198E-2	-5.218201E-1	-8.361816E-3
2.120300E+10	-8.430176E-1	1.803894E-1	5.843811E-1	6.866455E-2	1.087379E-2	-5.804443E-2	-5.282898E-1	-8.026123E-3
2.142750E+10	-8.423462E-1	1.838684E-1	5.790710E-1	6.106567E-2	9.315491E-3	-5.775070E-2	-5.290527E-1	6.103516E-5
2.165200E+10	-8.420715E-1	1.877441E-1	5.702515E-1	5.133057E-2	1.014137E-2	-5.832291E-2	-5.278931E-1	4.425049E-3
2.187650E+10	-8.409729E-1	1.903992E-1	5.643311E-1	4.339600E-2	7.724762E-3	-5.900192E-2	-5.346680E-1	9.613037E-3
2.210100E+10	-8.381348E-1	1.961975E-1	5.569458E-1	3.588867E-2	8.033752E-3	-5.720139E-2	-5.370178E-1	1.437378E-2
2.232550E+10	-8.374329E-1	1.969299E-1	5.503845E-1	2.999878E-2	6.452560E-3	-5.680847E-2	-5.345764E-1	1.977539E-2
2.255000E+10	-8.371582E-1	2.015991E-1	5.425415E-1	2.319336E-2	4.516602E-3	-5.678558E-2	-5.380554E-1	2.069092E-2
2.277450E+10	-8.335266E-1	2.081299E-1	5.339355E-1	1.672363E-2	2.536774E-3	-5.772781E-2	-5.366211E-1	2.755737E-2
2.299900E+10	-8.334961E-1	2.092590E-1	5.279846E-1	9.368896E-3	2.973557E-3	-5.579567E-2	-5.384216E-1	3.198242E-2
2.322350E+10	-8.319092E-1	2.125854E-1	5.219116E-1	1.525879E-4	-6.046295E-4	-5.701637E-2	-5.416870E-1	3.549194E-2
2.344800E+10	-8.313599E-1	2.159424E-1	5.136719E-1	-2.471924E-3	6.542206E-4	-5.631638E-2	-5.424805E-1	4.241943E-2
2.367250E+10	-8.290100E-1	2.209473E-1	5.077820E-1	-9.368896E-3	-2.498627E-3	-5.722237E-2	-5.412598E-1	4.840088E-2
2.389700E+10	-8.276672E-1	2.236328E-1	5.006104E-1	-1.663208E-2	-3.767014E-3	-5.508423E-2	-5.432739E-1	4.928589E-2
2.412150E+10	-8.270264E-1	2.262573E-1	4.931641E-1	-2.003479E-2	-5.428314E-3	-5.460930E-2	-5.435486E-1	5.810547E-2
2.434600E+10	-8.233032E-1	2.291565E-1	4.855194E-1	-2.531433E-2	-5.107880E-3	-5.275726E-2	-5.419006E-1	5.911255E-2
2.457050E+10	-8.232117E-1	2.347412E-1	4.797516E-1	-3.089905E-2	-8.127213E-3	-5.326843E-2	-5.457764E-1	6.292725E-2
2.479500E+10	-8.217163E-1	2.353821E-1	4.739685E-1	-3.622437E-2	-1.024818E-2	-5.312920E-2	-5.419617E-1	7.138062E-2
2.501950E+10	-8.186951E-1	2.388000E-1	4.665985E-1	-3.962708E-2	-1.031494E-2	-5.187035E-2	-5.403137E-1	7.351685E-2
2.524400E+10	-8.186035E-1	2.413635E-1	4.594879E-1	-4.211426E-2	-1.252174E-2	-5.161476E-2	-5.429077E-1	7.656860E-2
2.546850E+10	-8.155823E-1	2.466736E-1	4.544067E-1	-4.624939E-2	-1.096725E-2	-4.977417E-2	-5.424805E-1	8.416748E-2
2.569300E+10	-8.152161E-1	2.467346E-1	4.482574E-1	-5.070496E-2	-1.317978E-2	-4.951286E-2	-5.432129E-1	8.499146E-2
2.591750E+10	-8.138123E-1	2.506409E-1	4.428101E-1	-5.291748E-2	-1.352310E-2	-4.929352E-2	-5.482788E-1	8.694458E-2
2.614200E+10	-8.116150E-1	2.548828E-1	4.347382E-1	-5.615234E-2	-1.412964E-2	-4.804993E-2	-5.501709E-1	9.527588E-2
2.636650E+10	-8.104553E-1	2.575378E-1	4.322357E-1	-6.129456E-2	-1.565933E-2	-4.714394E-2	-5.474243E-1	1.017151E-1
2.659100E+10	-8.094788E-1	2.598877E-1	4.241028E-1	-6.300354E-2	-1.713562E-2	-4.711342E-2	-5.472717E-1	1.059265E-1
2.681550E+10	-8.050232E-1	2.614441E-1	4.202423E-1	-6.764221E-2	-1.597214E-2	-4.661942E-2	-5.503845E-1	1.085510E-1
2.704000E+10	-8.051147E-1	2.673035E-1	4.109192E-1	-6.887817E-2	-2.063942E-2	-4.716492E-2	-5.503845E-1	1.202393E-1
2.726450E+10	-8.030701E-1	2.705688E-1	4.106903E-1	-7.295227E-2	-1.944351E-2	-4.377556E-2	-5.407410E-1	1.215210E-1
2.748900E+10	-8.009949E-1	2.706604E-1	4.073792E-1	-7.766724E-2	-2.036095E-2	-4.264450E-2	-5.469055E-1	1.220093E-1
2.771350E+10	-7.968140E-1	2.743530E-1	4.009705E-1	-7.809448E-2	-2.022552E-2	-4.448128E-2	-5.434875E-1	1.290283E-1
2.793800E+10	-7.970886E-1	2.752991E-1	3.969269E-1	-8.380127E-2	-2.045822E-2	-4.166794E-2	-5.444946E-1	1.334839E-1
2.816250E+10	-7.949219E-1	2.776489E-1	3.892975E-1	-8.370972E-2	-2.366066E-2	-4.255104E-2	-5.488586E-1	1.347656E-1
2.838700E+10	-7.933044E-1	2.803040E-1	3.841095E-1	-8.657837E-2	-2.353668E-2	-3.990555E-2	-5.462036E-1	1.421204E-1
2.861150E+10	-7.926941E-1	2.831726E-1	3.830719E-1	-8.995056E-2	-2.674484E-2	-3.731155E-2	-5.443115E-1	1.486511E-1
2.883600E+10	-7.904358E-1	2.863770E-1	3.752136E-1	-8.970642E-2	-2.560997E-2	-3.641891E-2	-5.455322E-1	1.479797E-1
2.906050E+10	-7.895813E-1	2.904663E-1	3.717651E-1	-9.364319E-2	-2.893829E-2	-3.718758E-2	-5.453186E-1	1.579285E-1
2.928500E+10	-7.868042E-1	2.935181E-1	3.679657E-1	-9.507751E-2	-2.904510E-2	-3.698921E-2	-5.451660E-1	1.639709E-1
2.950950E+10	-7.846375E-1	2.999878E-1	3.657684E-1	-9.518433E-2	-2.961254E-2	-3.082180E-2	-5.459595E-1	1.641846E-1
2.973400E+10	-7.843933E-1	2.955017E-1	3.616791E-1	-9.721375E-2	-2.971649E-2	-3.553963E-2	-5.437012E-1	1.698608E-1
2.995850E+10	-7.783203E-1	3.006897E-1	3.552246E-1	-9.777832E-2	-3.237915E-2	-2.927589E-2	-5.444946E-1	1.767578E-1
3.018300E+10	-7.786255E-1	3.006592E-1	3.532715E-1	-1.036835E-1	-2.915192E-2	-3.193283E-2	-5.441284E-1	1.821289E-1
3.040750E+10	-7.774658E-1	3.027954E-1	3.498840E-1	-1.054077E-1	-3.236198E-2	-2.835655E-2	-5.432434E-1	1.896973E-1
3.063200E+10	-7.740479E-1	3.055420E-1	3.458710E-1	-1.056519E-1	-3.004265E-2	-2.795982E-2	-5.443115E-1	1.958618E-1
3.085650E+10	-7.747803E-1	3.106995E-1	3.417053E-1	-1.071320E-1	-3.353691E-2	-3.023338E-2	-5.460815E-1	1.942444E-1
3.108100E+10	-7.692566E-1	3.147583E-1	3.401184E-1	-1.109467E-1	-3.156471E-2	-2.343178E-2	-5.346680E-1	2.067566E-1
3.130550E+10	-7.672119E-1	3.148499E-1	3.393707E-1	-1.102600E-1	-3.832245E-2	-2.094269E-2	-5.362244E-1	2.061462E-1
3.153000E+10	-7.698669E-1	3.154297E-1	3.345947E-1	-1.165924E-1	-3.049278E-2	-2.048397E-2	-5.438843E-1	2.150574E-1
3.175450E+10	-7.688293E-1	3.194580E-1	3.329163E-1	-1.138000E-1	-3.645325E-2	-1.980209E-2	-5.392151E-1	2.230835E-1
3.197900E+10	-7.638855E-1	3.232422E-1	3.268585E-1	-1.148682E-1	-4.016876E-2	-2.066994E-2	-5.284729E-1	2.226257E-1
3.220350E+10	-7.645874E-1	3.237305E-1	3.286896E-1	-1.235504E-1	-3.508186E-2	-1.767731E-2	-5.298157E-1	2.266541E-1
3.242800E+10	-7.644653E-1	3.297119E-1	3.194427E-1	-1.172180E-1	-3.815842E-2	-1.178360E-2	-5.282288E-1	2.406616E-1
3.265250E+10	-7.592468E-1	3.308716E-1	3.159027E-1	-1.218109E-1	-3.570747E-2	-1.306534E-2	-5.240784E-1	2.409363E-1
3.287700E+10	-7.611084E-1	3.338318E-1	3.188324E-1	-1.244354E-1	-3.771591E-2	-1.649857E-2	-5.305176E-1	2.470093E-1
3.310150E+10	-7.535095E-1	3.336182E-1	3.142853E-1	-1.213837E-1	-3.880119E-2	-1.052094E-2	-5.233765E-1	2.481689E-1
3.332600E+10	-7.540894E-1	3.389587E-1	3.098450E-1	-1.265106E-1	-3.862572E-2	-7.362366E-3	-5.247803E-1	2.531433E-1
3.355050E+10	-7.501526E-1	3.377991E-1	3.108215E-1	-1.300964E-1	-3.609848E-2	-1.178169E-2	-5.256958E-1	2.611694E-1
3.377500E+10	-7.531433E-1	3.389282E-1	3.072662E-1	-1.306305E-1	-3.638649E-2	-5.529404E-3	-5.202637E-1	2.650146E-1
3.399950E+10	-7.476807E-1	3.433533E-1	3.081512E-1	-1.313171E-1	-3.454590E-2	-4.146576E-3	-5.191650E-1	2.695923E-1
3.422400E+10	-7.461548E-1	3.477478E-1	3.000183E-1	-1.324310E-1	-3.670120E-2	-5.399704E-3	-5.202942E-1	2.817993E-1
3.444850E+10	-7.451782E-1	3.461914E-1	2.995758E-1	-1.385345E-1	-3.816605E-2	-2.401352E-3	-5.178528E-1	2.891235E-1
3.467300E+10	-7.404480E-1	3.464966E-1	3.059082E-1	-1.366272E-1	-3.860855E-2	-1.281738E-3	-5.146179E-1	2.911987E-1
3.489750E+10	-7.404175E-1	3.541565E-1	3.024292E-1	-1.380920E-1	-3.816795E-2	3.807068E-3	-5.130310E-1	3.024292E-1
3.512200E+10	-7.384644E-1	3.493958E-1	2.901459E-1	-1.419373E-1	-3.849220E-2	1.113892E-3	-5.044861E-1	2.994080E-1
3.534650E+10	-7.367859E-1	3.554382E-1	2.911835E-1	-1.449432E-1	-3.519249E-2	2.561569E-3	-5.105286E-1	3.097229E-1
3.557100E+10	-7.370300E-1	3.559570E-1	2.918701E-1	-1.462555E-1	-3.506279E-2	8.432388E-3	-5.008240E-1	3.182373E-1
3.579550E+10	-7.368469E-1	3.586731E-1	2.920837E-1	-1.518555E-1	-3.930283E-2	8.159637E-3	-4.957428E-1	3.181458E-1
3.602000E+10	-7.359314E-1	3.592224E-1	2.920532E-1	-1.525879E-1	-3.428841E-2	6.877899E-3	-5.018921E-1	3.201599E-1
3.624450E+10	-7.298279E-1	3.639221E-1	2.907257E-1	-1.485901E-1	-3.561783E-2	9.901047E-3	-4.925842E-1	3.349915E-1
3.646900E+10	-7.273254E-1	3.676147E-1	2.830963E-1	-1.514282E-1	-3.697014E-2	5.012512E-3	-4.862976E-1	3.400421E-1
3.669350E+10	-7.241516E-1	3.662720E-1	2.815399E-1	-1.524811E-1	-3.425407E-2	1.442719E-2	-4.787292E-1	3.426208E-1
3.691800E+10	-7.258911E-1	3.691406E-1	2.802124E-1	-1.612244E-1	-3.264046E-2	1.269531E-2	-4.789581E-1	3.518524E-1
3.714250E+10	-7.239685E-1	3.677673E-1	2.792664E-1	-1.611786E-1	-3.270721E-2	1.847267E-2	-4.780273E-1	3.576660E-1
3.736700E+10	-7.212524E-1	3.719482E-1	2.730255E-1	-1.630249E-1	-3.593826E-2	1.918411E-2	-4.705200E-1	3.595123E-1
3.759150E+10	-7.188721E-1	3.759766E-1	2.775879E-1	-1.691132E-1	-2.866745E-2	2.376556E-2	-4.641266E-1	3.645630E-1
3.781600E+10	-7.120972E-1	3.771973E-1	2.733917E-1	-1.677246E-1	-2.984810E-2	1.947594E-2	-4.626923E-1	3.759155E-1
3.804050E+10	-7.124634E-1	3.741760E-1	2.697144E-1	-1.696167E-1	-3.238678E-2	1.739120E-2	-4.584351E-1	3.822632E-1
3.826500E+10	-7.160339E-1	3.819580E-1	2.754517E-1	-1.667023E-1	-2.886009E-2	2.210331E-2	-4.505463E-1	3.867035E-1
3.848950E+10	-7.121277E-1	3.787231E-1	2.662354E-1	-1.750031E-1	-2.687836E-2	2.531242E-2	-4.466400E-1	3.935547E-1
3.871400E+10	-7.065735E-1	3.796387E-1	2.693939E-1	-1.821747E-1	-2.380371E-2	3.002071E-2	-4.403839E-1	3.952637E-1
3.893850E+10	-7.123108E-1	3.862610E-1	2.641754E-1	-1.760254E-1	-2.433968E-2	3.267479E-2	-4.299927E-1	4.034271E-1
3.916300E+10	-7.128906E-1	3.876953E-1	2.622986E-1	-1.837463E-1	-2.734661E-2	2.875137E-2	-4.329987E-1	4.073334E-1
