!Date: 10/28/2005, 12:46 PM

!Vgs = -1.000000E+0
!Vds = 1.250000E+1
!Ig = -2.153100E-5
!Id = 7.441300E-1

# HZ S RI R 50
1.000000E+8	9.658203E-1	-1.767883E-1	-1.326953E+1	2.011719E-1	-1.263618E-5	7.344484E-3	5.127258E-1	-2.316284E-2
3.245000E+8	7.910461E-1	-5.287781E-1	-1.213184E+1	4.248047E+0	9.887695E-3	2.409935E-2	2.888641E-1	-2.298737E-1
5.490000E+8	5.441589E-1	-7.585449E-1	-1.013672E+1	6.105469E+0	2.155495E-2	3.343773E-2	2.241211E-1	-2.943573E-1
7.735000E+8	2.988281E-1	-8.686218E-1	-8.089355E+0	6.900391E+0	3.325081E-2	3.674889E-2	1.123657E-1	-3.529663E-1
9.980000E+8	8.206177E-2	-8.978577E-1	-6.321533E+0	7.085693E+0	4.301643E-2	3.686714E-2	2.478027E-2	-3.443451E-1
1.222500E+9	-9.762573E-2	-8.866272E-1	-4.912842E+0	6.973389E+0	5.084038E-2	3.505325E-2	-3.330994E-2	-3.439941E-1
1.447000E+9	-2.427368E-1	-8.537598E-1	-3.797607E+0	6.680664E+0	5.749702E-2	3.250885E-2	-8.981323E-2	-3.303070E-1
1.671500E+9	-3.556213E-1	-8.103638E-1	-2.933350E+0	6.313477E+0	6.229401E-2	2.989388E-2	-1.288452E-1	-3.166656E-1
1.896000E+9	-4.472351E-1	-7.601929E-1	-2.273437E+0	5.922119E+0	6.642532E-2	2.659225E-2	-1.618347E-1	-2.982178E-1
2.120500E+9	-5.163574E-1	-7.112427E-1	-1.751465E+0	5.563232E+0	6.928253E-2	2.353287E-2	-1.857147E-1	-2.848663E-1
2.345000E+9	-5.732422E-1	-6.615601E-1	-1.321777E+0	5.208252E+0	7.192993E-2	2.035904E-2	-2.081451E-1	-2.674103E-1
2.569500E+9	-6.157837E-1	-6.170959E-1	-9.812012E-1	4.873779E+0	7.365036E-2	1.691437E-2	-2.215576E-1	-2.541504E-1
2.794000E+9	-6.531677E-1	-5.785522E-1	-7.126465E-1	4.581055E+0	7.542801E-2	1.417542E-2	-2.368393E-1	-2.438736E-1
3.018500E+9	-6.825562E-1	-5.416565E-1	-4.875488E-1	4.298828E+0	7.609558E-2	1.239014E-2	-2.464523E-1	-2.305984E-1
3.243000E+9	-7.063904E-1	-5.064392E-1	-2.993164E-1	4.050537E+0	7.682800E-2	9.174347E-3	-2.551270E-1	-2.239838E-1
3.467500E+9	-7.287292E-1	-4.769592E-1	-1.408691E-1	3.823608E+0	7.721710E-2	7.198334E-3	-2.655334E-1	-2.140198E-1
3.692000E+9	-7.473145E-1	-4.482727E-1	-6.347656E-3	3.610718E+0	7.813263E-2	4.943848E-3	-2.699585E-1	-2.083740E-1
3.916500E+9	-7.618103E-1	-4.200745E-1	1.051025E-1	3.415405E+0	7.843399E-2	2.780914E-3	-2.809143E-1	-2.033539E-1
4.141000E+9	-7.746887E-1	-3.951416E-1	2.016602E-1	3.236938E+0	7.829285E-2	6.408691E-4	-2.851105E-1	-1.943359E-1
4.365500E+9	-7.850342E-1	-3.725586E-1	2.860107E-1	3.071411E+0	7.878876E-2	-9.384155E-4	-2.902985E-1	-1.910400E-1
4.590000E+9	-7.954102E-1	-3.515930E-1	3.564453E-1	2.915527E+0	7.892227E-2	-2.464294E-3	-2.973633E-1	-1.855011E-1
4.814500E+9	-8.042297E-1	-3.312073E-1	4.147949E-1	2.773560E+0	7.927322E-2	-4.543304E-3	-3.004913E-1	-1.806488E-1
5.039000E+9	-8.106689E-1	-3.121643E-1	4.675293E-1	2.642456E+0	7.924652E-2	-6.340027E-3	-3.056641E-1	-1.774902E-1
5.263500E+9	-8.175354E-1	-2.943115E-1	5.151367E-1	2.519897E+0	7.845306E-2	-7.976532E-3	-3.103333E-1	-1.728821E-1
5.488000E+9	-8.220520E-1	-2.786560E-1	5.548096E-1	2.405884E+0	7.869720E-2	-9.346008E-3	-3.143311E-1	-1.695099E-1
5.712500E+9	-8.272705E-1	-2.633972E-1	5.894775E-1	2.296021E+0	7.865143E-2	-1.108170E-2	-3.179474E-1	-1.663513E-1
5.937000E+9	-8.315735E-1	-2.471313E-1	6.191406E-1	2.195312E+0	7.822418E-2	-1.307678E-2	-3.215332E-1	-1.633301E-1
6.161500E+9	-8.360291E-1	-2.354431E-1	6.477051E-1	2.103516E+0	7.822037E-2	-1.438904E-2	-3.255310E-1	-1.593475E-1
6.386000E+9	-8.402100E-1	-2.206726E-1	6.724854E-1	2.013916E+0	7.803345E-2	-1.559830E-2	-3.263245E-1	-1.581116E-1
6.610500E+9	-8.419189E-1	-2.089539E-1	6.947021E-1	1.928650E+0	7.770920E-2	-1.710510E-2	-3.327484E-1	-1.576691E-1
6.835000E+9	-8.459473E-1	-1.966248E-1	7.124023E-1	1.847595E+0	7.764816E-2	-1.859665E-2	-3.350983E-1	-1.502686E-1
7.059500E+9	-8.476562E-1	-1.859741E-1	7.236328E-1	1.772949E+0	7.694626E-2	-1.998138E-2	-3.345490E-1	-1.525116E-1
7.284000E+9	-8.496399E-1	-1.745300E-1	7.375488E-1	1.700867E+0	7.618332E-2	-2.131271E-2	-3.424225E-1	-1.488495E-1
7.508500E+9	-8.523865E-1	-1.640015E-1	7.483521E-1	1.632324E+0	7.588196E-2	-2.212524E-2	-3.393250E-1	-1.470642E-1
7.733000E+9	-8.520203E-1	-1.534729E-1	7.587891E-1	1.569824E+0	7.523727E-2	-2.384949E-2	-3.478699E-1	-1.483002E-1
7.957500E+9	-8.548279E-1	-1.430359E-1	7.703857E-1	1.510132E+0	7.503891E-2	-2.433014E-2	-3.488464E-1	-1.445618E-1
8.182000E+9	-8.564453E-1	-1.335754E-1	7.795410E-1	1.452637E+0	7.418060E-2	-2.628708E-2	-3.554382E-1	-1.456299E-1
8.406500E+9	-8.569641E-1	-1.256714E-1	7.852783E-1	1.393921E+0	7.452011E-2	-2.762604E-2	-3.568115E-1	-1.404266E-1
8.631000E+9	-8.587036E-1	-1.161499E-1	7.918701E-1	1.338745E+0	7.314682E-2	-2.912521E-2	-3.595581E-1	-1.406403E-1
8.855500E+9	-8.586426E-1	-1.079407E-1	7.953491E-1	1.285339E+0	7.244110E-2	-3.033829E-2	-3.644257E-1	-1.374207E-1
9.080001E+9	-8.604126E-1	-1.011047E-1	7.989502E-1	1.238586E+0	7.220078E-2	-3.075409E-2	-3.656921E-1	-1.344757E-1
9.304500E+9	-8.604431E-1	-9.097290E-2	8.008423E-1	1.191284E+0	7.144547E-2	-3.203583E-2	-3.686676E-1	-1.350250E-1
9.529000E+9	-8.607178E-1	-8.468628E-2	8.034058E-1	1.144775E+0	7.078171E-2	-3.373337E-2	-3.739929E-1	-1.319580E-1
9.753500E+9	-8.615112E-1	-7.711792E-2	8.032837E-1	1.099670E+0	6.963348E-2	-3.367615E-2	-3.753510E-1	-1.284790E-1
9.978000E+9	-8.614807E-1	-6.918335E-2	8.034058E-1	1.060425E+0	6.964111E-2	-3.554535E-2	-3.777313E-1	-1.303406E-1
1.020250E+10	-8.629456E-1	-6.320190E-2	8.039551E-1	1.019592E+0	6.894684E-2	-3.637314E-2	-3.826752E-1	-1.259460E-1
1.042700E+10	-8.627319E-1	-5.538940E-2	8.034363E-1	9.811401E-1	6.818771E-2	-3.755188E-2	-3.833923E-1	-1.239471E-1
1.065150E+10	-8.621521E-1	-4.873657E-2	8.023376E-1	9.443970E-1	6.693268E-2	-3.843307E-2	-3.859100E-1	-1.234589E-1
1.087600E+10	-8.628235E-1	-4.281616E-2	8.006897E-1	9.091797E-1	6.622314E-2	-3.910828E-2	-3.901825E-1	-1.216431E-1
1.110050E+10	-8.638000E-1	-3.509521E-2	7.990112E-1	8.731995E-1	6.491852E-2	-3.982162E-2	-3.920593E-1	-1.194305E-1
1.132500E+10	-8.618469E-1	-2.908325E-2	7.969360E-1	8.406067E-1	6.491470E-2	-4.090881E-2	-3.949585E-1	-1.198120E-1
1.154950E+10	-8.631592E-1	-2.267456E-2	7.945862E-1	8.065491E-1	6.317520E-2	-4.203796E-2	-4.010468E-1	-1.162720E-1
1.177400E+10	-8.624878E-1	-1.525879E-2	7.909851E-1	7.765198E-1	6.347275E-2	-4.236984E-2	-4.021149E-1	-1.130676E-1
1.199850E+10	-8.620300E-1	-1.086426E-2	7.886047E-1	7.470703E-1	6.193924E-2	-4.313278E-2	-4.042206E-1	-1.130981E-1
1.222300E+10	-8.615112E-1	-4.699707E-3	7.829895E-1	7.175598E-1	6.148720E-2	-4.359436E-2	-4.080658E-1	-1.114807E-1
1.244750E+10	-8.608093E-1	4.272461E-4	7.791443E-1	6.881714E-1	6.058311E-2	-4.617691E-2	-4.115601E-1	-1.076660E-1
1.267200E+10	-8.620300E-1	6.378174E-3	7.752991E-1	6.616211E-1	5.921745E-2	-4.593468E-2	-4.141083E-1	-1.082764E-1
1.289650E+10	-8.605957E-1	1.159668E-2	7.685852E-1	6.358643E-1	5.939102E-2	-4.600143E-2	-4.186249E-1	-1.065979E-1
1.312100E+10	-8.601990E-1	1.678467E-2	7.643433E-1	6.103516E-1	5.822563E-2	-4.703140E-2	-4.203644E-1	-1.012726E-1
1.334550E+10	-8.598938E-1	2.227783E-2	7.586670E-1	5.863953E-1	5.750275E-2	-4.731560E-2	-4.226990E-1	-1.006470E-1
1.357000E+10	-8.581543E-1	2.624512E-2	7.536011E-1	5.608521E-1	5.527115E-2	-4.863739E-2	-4.265747E-1	-1.018829E-1
1.379450E+10	-8.584900E-1	3.189087E-2	7.492371E-1	5.393677E-1	5.547905E-2	-4.842758E-2	-4.315643E-1	-9.681702E-2
1.401900E+10	-8.577881E-1	3.720093E-2	7.438965E-1	5.202332E-1	5.346298E-2	-5.074692E-2	-4.308472E-1	-9.622192E-2
1.424350E+10	-8.569336E-1	4.162598E-2	7.374573E-1	4.966736E-1	5.297089E-2	-4.993248E-2	-4.361420E-1	-9.237671E-2
1.446800E+10	-8.576355E-1	4.724121E-2	7.326660E-1	4.765625E-1	5.219650E-2	-5.107498E-2	-4.372101E-1	-8.848572E-2
1.469250E+10	-8.569946E-1	5.175781E-2	7.256775E-1	4.562988E-1	5.153656E-2	-5.146408E-2	-4.381714E-1	-8.532715E-2
1.491700E+10	-8.546448E-1	5.599976E-2	7.204285E-1	4.362183E-1	5.080032E-2	-5.136299E-2	-4.423523E-1	-8.708191E-2
1.514150E+10	-8.551025E-1	6.115723E-2	7.140808E-1	4.161377E-1	4.902840E-2	-5.268669E-2	-4.460907E-1	-8.050537E-2
1.536600E+10	-8.536377E-1	6.597900E-2	7.084656E-1	3.979187E-1	4.995728E-2	-5.377769E-2	-4.446259E-1	-7.847595E-2
1.559050E+10	-8.531494E-1	7.086182E-2	7.005920E-1	3.809814E-1	4.803467E-2	-5.341721E-2	-4.514465E-1	-7.756042E-2
1.581500E+10	-8.520813E-1	7.489014E-2	6.942749E-1	3.624573E-1	4.664993E-2	-5.341530E-2	-4.542236E-1	-7.429504E-2
1.603950E+10	-8.516541E-1	8.004761E-2	6.893005E-1	3.463440E-1	4.620934E-2	-5.389023E-2	-4.559631E-1	-7.192993E-2
1.626400E+10	-8.500977E-1	8.401489E-2	6.836243E-1	3.311157E-1	4.267883E-2	-5.364799E-2	-4.596252E-1	-7.138062E-2
1.648850E+10	-8.501587E-1	8.718872E-2	6.749268E-1	3.154297E-1	4.295349E-2	-5.533028E-2	-4.617767E-1	-6.661987E-2
1.671300E+10	-8.487549E-1	9.265137E-2	6.694946E-1	2.985229E-1	4.223442E-2	-5.492973E-2	-4.643707E-1	-6.411743E-2
1.693750E+10	-8.487549E-1	9.613037E-2	6.621399E-1	2.861023E-1	4.172897E-2	-5.652046E-2	-4.675903E-1	-6.234741E-2
1.716200E+10	-8.473206E-1	1.004639E-1	6.560974E-1	2.696228E-1	4.074669E-2	-5.617905E-2	-4.710846E-1	-5.830383E-2
1.738650E+10	-8.466492E-1	1.052856E-1	6.505127E-1	2.586060E-1	3.956223E-2	-5.628967E-2	-4.714355E-1	-5.540466E-2
1.761100E+10	-8.467712E-1	1.084290E-1	6.438599E-1	2.447510E-1	3.889084E-2	-5.673218E-2	-4.745789E-1	-5.473328E-2
1.783550E+10	-8.453064E-1	1.142273E-1	6.355286E-1	2.316895E-1	3.624535E-2	-5.703735E-2	-4.770813E-1	-4.692078E-2
1.806000E+10	-8.439636E-1	1.174622E-1	6.285095E-1	2.188110E-1	3.642082E-2	-5.740738E-2	-4.780884E-1	-4.187012E-2
1.828450E+10	-8.432007E-1	1.210937E-1	6.230469E-1	2.067566E-1	3.585815E-2	-5.708504E-2	-4.793854E-1	-4.364014E-2
1.850900E+10	-8.418274E-1	1.250000E-1	6.164246E-1	1.961060E-1	3.369331E-2	-5.602837E-2	-4.847412E-1	-3.797913E-2
1.873350E+10	-8.406372E-1	1.291809E-1	6.095886E-1	1.832275E-1	3.275681E-2	-5.791283E-2	-4.845428E-1	-3.363037E-2
1.895800E+10	-8.377075E-1	1.332703E-1	6.030273E-1	1.716919E-1	3.164864E-2	-5.940437E-2	-4.865417E-1	-3.291321E-2
1.918250E+10	-8.384094E-1	1.366577E-1	5.961304E-1	1.612244E-1	3.075981E-2	-5.791473E-2	-4.913177E-1	-2.944946E-2
1.940700E+10	-8.370361E-1	1.409302E-1	5.890198E-1	1.502991E-1	2.909851E-2	-5.839729E-2	-4.891968E-1	-2.233887E-2
1.963150E+10	-8.357544E-1	1.434631E-1	5.827637E-1	1.404114E-1	2.970886E-2	-5.840302E-2	-4.910278E-1	-2.171326E-2
1.985600E+10	-8.352966E-1	1.466064E-1	5.766602E-1	1.306458E-1	2.748489E-2	-5.887222E-2	-4.963837E-1	-1.911926E-2
2.008050E+10	-8.328857E-1	1.497498E-1	5.689087E-1	1.189880E-1	2.753258E-2	-5.835152E-2	-4.970245E-1	-1.055908E-2
2.030500E+10	-8.326721E-1	1.533203E-1	5.617065E-1	1.137085E-1	2.659798E-2	-5.914116E-2	-4.959106E-1	-1.037598E-2
2.052950E+10	-8.316040E-1	1.564331E-1	5.571594E-1	1.036987E-1	2.363014E-2	-5.836296E-2	-4.989777E-1	-7.110596E-3
2.075400E+10	-8.304749E-1	1.613464E-1	5.522156E-1	9.439087E-2	2.218628E-2	-5.888176E-2	-5.010071E-1	-1.403809E-3
2.097850E+10	-8.297424E-1	1.658630E-1	5.448608E-1	8.685303E-2	2.144814E-2	-5.941200E-2	-5.023804E-1	-4.882813E-4
2.120300E+10	-8.276672E-1	1.680298E-1	5.375366E-1	8.020020E-2	2.059937E-2	-5.888367E-2	-5.063782E-1	1.678467E-3
2.142750E+10	-8.272095E-1	1.693420E-1	5.311584E-1	7.073975E-2	2.026749E-2	-5.818176E-2	-5.100403E-1	1.037598E-2
2.165200E+10	-8.259888E-1	1.750488E-1	5.255432E-1	6.262207E-2	2.057266E-2	-5.846024E-2	-5.074158E-1	1.132202E-2
2.187650E+10	-8.249512E-1	1.759949E-1	5.193481E-1	5.587769E-2	1.791191E-2	-5.879974E-2	-5.130005E-1	1.568604E-2
2.210100E+10	-8.248901E-1	1.823730E-1	5.143738E-1	4.745483E-2	1.596451E-2	-5.927277E-2	-5.149536E-1	2.209473E-2
2.232550E+10	-8.237915E-1	1.838074E-1	5.086975E-1	4.101562E-2	1.802063E-2	-6.066513E-2	-5.128784E-1	2.795410E-2
2.255000E+10	-8.229065E-1	1.866760E-1	5.006714E-1	3.497314E-2	1.352882E-2	-5.929375E-2	-5.148010E-1	2.813721E-2
2.277450E+10	-8.204346E-1	1.918030E-1	4.952240E-1	2.780151E-2	1.422882E-2	-6.015587E-2	-5.155334E-1	3.674316E-2
2.299900E+10	-8.201904E-1	1.959229E-1	4.891052E-1	2.046204E-2	1.129532E-2	-5.841637E-2	-5.143433E-1	3.814697E-2
2.322350E+10	-8.165588E-1	1.977234E-1	4.850159E-1	1.469421E-2	1.236725E-2	-5.731392E-2	-5.191345E-1	3.683472E-2
2.344800E+10	-8.160400E-1	1.975098E-1	4.785614E-1	1.014709E-2	1.050758E-2	-5.848122E-2	-5.208130E-1	4.901123E-2
2.367250E+10	-8.152771E-1	2.060852E-1	4.720306E-1	2.929687E-3	9.296417E-3	-5.712318E-2	-5.157166E-1	5.154419E-2
2.389700E+10	-8.125916E-1	2.075806E-1	4.653625E-1	-2.792358E-3	7.474899E-3	-5.827904E-2	-5.217285E-1	5.493164E-2
2.412150E+10	-8.118896E-1	2.102661E-1	4.605560E-1	-8.087158E-3	7.162094E-3	-5.710411E-2	-5.181885E-1	6.234741E-2
2.434600E+10	-8.093262E-1	2.154236E-1	4.542999E-1	-1.408386E-2	5.960464E-3	-5.549240E-2	-5.189209E-1	6.423950E-2
2.457050E+10	-8.092041E-1	2.185974E-1	4.485321E-1	-1.954651E-2	4.772186E-3	-5.655861E-2	-5.228577E-1	6.747437E-2
2.479500E+10	-8.092041E-1	2.200317E-1	4.426880E-1	-2.407837E-2	3.002167E-3	-5.706978E-2	-5.212402E-1	7.482910E-2
2.501950E+10	-8.045959E-1	2.244263E-1	4.356384E-1	-2.536011E-2	1.504898E-3	-5.496216E-2	-5.169067E-1	7.455444E-2
2.524400E+10	-8.049011E-1	2.275085E-1	4.311829E-1	-3.103638E-2	3.089905E-4	-5.270386E-2	-5.214233E-1	7.946777E-2
2.546850E+10	-8.023682E-1	2.305298E-1	4.257660E-1	-3.596497E-2	-2.536774E-4	-5.359077E-2	-5.187988E-1	8.569336E-2
2.569300E+10	-8.007202E-1	2.311096E-1	4.204407E-1	-3.768921E-2	-7.915497E-4	-5.383110E-2	-5.201416E-1	8.496094E-2
2.591750E+10	-7.999878E-1	2.372742E-1	4.160919E-1	-4.261780E-2	-3.149033E-3	-5.323792E-2	-5.224304E-1	8.877563E-2
2.614200E+10	-7.989807E-1	2.402039E-1	4.121246E-1	-4.747009E-2	-2.996445E-3	-5.497742E-2	-5.234070E-1	9.744263E-2
2.636650E+10	-7.981262E-1	2.404785E-1	4.069977E-1	-5.187988E-2	-4.985809E-3	-5.216599E-2	-5.208435E-1	1.022034E-1
2.659100E+10	-7.949524E-1	2.450562E-1	4.016113E-1	-5.363464E-2	-4.568100E-3	-5.243492E-2	-5.194397E-1	1.058350E-1
2.681550E+10	-7.931519E-1	2.467346E-1	3.983002E-1	-5.867004E-2	-6.723404E-3	-5.102539E-2	-5.223389E-1	1.094055E-1
2.704000E+10	-7.933350E-1	2.510986E-1	3.885651E-1	-6.196594E-2	-5.338669E-3	-5.216408E-2	-5.260315E-1	1.195984E-1
2.726450E+10	-7.895508E-1	2.549744E-1	3.870697E-1	-6.631470E-2	-8.306503E-3	-4.981995E-2	-5.172729E-1	1.203613E-1
2.748900E+10	-7.882080E-1	2.536011E-1	3.845062E-1	-7.020569E-2	-9.084702E-3	-5.017471E-2	-5.184631E-1	1.207581E-1
2.771350E+10	-7.851868E-1	2.595825E-1	3.785400E-1	-7.412720E-2	-1.032066E-2	-4.796791E-2	-5.144958E-1	1.262512E-1
2.793800E+10	-7.843323E-1	2.604980E-1	3.736115E-1	-7.452393E-2	-1.206970E-2	-4.712486E-2	-5.210571E-1	1.279602E-1
2.816250E+10	-7.836609E-1	2.612000E-1	3.706360E-1	-7.801819E-2	-1.262093E-2	-4.788589E-2	-5.180054E-1	1.370544E-1
2.838700E+10	-7.795410E-1	2.655640E-1	3.647156E-1	-7.926941E-2	-1.310730E-2	-4.428864E-2	-5.182495E-1	1.434326E-1
2.861150E+10	-7.816467E-1	2.697449E-1	3.636780E-1	-8.259583E-2	-1.397324E-2	-4.477310E-2	-5.169678E-1	1.448669E-1
2.883600E+10	-7.787170E-1	2.722168E-1	3.555298E-1	-8.636475E-2	-1.467705E-2	-4.369354E-2	-5.172424E-1	1.474915E-1
2.906050E+10	-7.759094E-1	2.726746E-1	3.515320E-1	-8.676147E-2	-1.458740E-2	-4.367256E-2	-5.162048E-1	1.541748E-1
2.928500E+10	-7.737732E-1	2.780762E-1	3.472900E-1	-9.278870E-2	-1.410675E-2	-4.133415E-2	-5.145264E-1	1.586914E-1
2.950950E+10	-7.726746E-1	2.793274E-1	3.467102E-1	-9.185791E-2	-1.549339E-2	-3.959465E-2	-5.157471E-1	1.597900E-1
2.973400E+10	-7.729492E-1	2.806396E-1	3.441315E-1	-9.620667E-2	-1.594734E-2	-4.067612E-2	-5.153809E-1	1.670837E-1
2.995850E+10	-7.692871E-1	2.858276E-1	3.349152E-1	-9.678650E-2	-1.928139E-2	-4.115295E-2	-5.166016E-1	1.749573E-1
3.018300E+10	-7.675476E-1	2.852173E-1	3.356476E-1	-9.744263E-2	-1.672554E-2	-3.663635E-2	-5.186768E-1	1.851501E-1
3.040750E+10	-7.656250E-1	2.863159E-1	3.328552E-1	-1.047058E-1	-1.769257E-2	-3.795052E-2	-5.132751E-1	1.828918E-1
3.063200E+10	-7.633057E-1	2.929687E-1	3.285522E-1	-1.038971E-1	-1.890945E-2	-3.662872E-2	-5.141296E-1	1.910095E-1
3.085650E+10	-7.634583E-1	2.960815E-1	3.241272E-1	-1.097412E-1	-2.100182E-2	-3.503418E-2	-5.126953E-1	1.970520E-1
3.108100E+10	-7.614746E-1	2.981873E-1	3.215027E-1	-1.086426E-1	-2.143288E-2	-3.884125E-2	-5.091858E-1	2.004700E-1
3.130550E+10	-7.632751E-1	2.978210E-1	3.154907E-1	-1.113434E-1	-1.883698E-2	-3.544426E-2	-5.006409E-1	2.062378E-1
3.153000E+10	-7.628784E-1	2.971191E-1	3.162842E-1	-1.153107E-1	-2.378082E-2	-3.261757E-2	-5.069580E-1	2.062988E-1
3.175450E+10	-7.586975E-1	3.044434E-1	3.064728E-1	-1.090851E-1	-2.233410E-2	-2.983189E-2	-5.041504E-1	2.172546E-1
3.197900E+10	-7.559814E-1	3.046875E-1	3.049011E-1	-1.182861E-1	-2.158356E-2	-3.021622E-2	-4.994812E-1	2.149353E-1
3.220350E+10	-7.534790E-1	3.100891E-1	3.013763E-1	-1.160278E-1	-2.937317E-2	-2.933502E-2	-4.991608E-1	2.268372E-1
3.242800E+10	-7.543945E-1	3.104248E-1	3.005676E-1	-1.192474E-1	-2.544785E-2	-3.015614E-2	-4.960937E-1	2.306976E-1
3.265250E+10	-7.534485E-1	3.157043E-1	2.968750E-1	-1.217957E-1	-2.870846E-2	-2.349854E-2	-4.926758E-1	2.264862E-1
3.287700E+10	-7.500305E-1	3.177185E-1	2.981567E-1	-1.261139E-1	-2.445316E-2	-2.086544E-2	-4.960632E-1	2.344971E-1
3.310150E+10	-7.495117E-1	3.179932E-1	2.885284E-1	-1.246643E-1	-2.598667E-2	-2.502918E-2	-4.885101E-1	2.419128E-1
3.332600E+10	-7.454529E-1	3.218384E-1	2.854309E-1	-1.258545E-1	-2.652454E-2	-2.697086E-2	-4.904785E-1	2.412720E-1
3.355050E+10	-7.423706E-1	3.233337E-1	2.836456E-1	-1.315918E-1	-2.781105E-2	-2.319336E-2	-4.882507E-1	2.505798E-1
3.377500E+10	-7.402039E-1	3.244934E-1	2.826385E-1	-1.286621E-1	-2.335453E-2	-2.235985E-2	-4.830017E-1	2.541809E-1
3.399950E+10	-7.408142E-1	3.274841E-1	2.765503E-1	-1.328430E-1	-2.547741E-2	-2.237415E-2	-4.836731E-1	2.623138E-1
3.422400E+10	-7.369690E-1	3.314819E-1	2.767944E-1	-1.346893E-1	-2.767277E-2	-1.953793E-2	-4.860992E-1	2.674408E-1
3.444850E+10	-7.401123E-1	3.301086E-1	2.777252E-1	-1.415405E-1	-3.002357E-2	-1.583290E-2	-4.778290E-1	2.661285E-1
3.467300E+10	-7.358093E-1	3.320618E-1	2.848358E-1	-1.343079E-1	-2.888203E-2	-1.715755E-2	-4.768066E-1	2.744446E-1
3.489750E+10	-7.321167E-1	3.356628E-1	2.746277E-1	-1.390228E-1	-2.394867E-2	-1.686382E-2	-4.738770E-1	2.812042E-1
3.512200E+10	-7.318726E-1	3.389893E-1	2.705688E-1	-1.431580E-1	-2.860641E-2	-1.134682E-2	-4.680634E-1	2.848816E-1
3.534650E+10	-7.317200E-1	3.414001E-1	2.654572E-1	-1.427612E-1	-2.417088E-2	-1.646805E-2	-4.759674E-1	2.868652E-1
3.557100E+10	-7.252197E-1	3.396606E-1	2.685394E-1	-1.465454E-1	-2.686596E-2	-1.456928E-2	-4.626923E-1	2.969360E-1
3.579550E+10	-7.282410E-1	3.439331E-1	2.659607E-1	-1.469574E-1	-2.435112E-2	-9.077072E-3	-4.635773E-1	3.077545E-1
3.602000E+10	-7.236328E-1	3.462830E-1	2.614288E-1	-1.553650E-1	-2.928066E-2	-9.190559E-3	-4.599915E-1	3.045502E-1
3.624450E+10	-7.208862E-1	3.484802E-1	2.537537E-1	-1.508331E-1	-2.350044E-2	-5.211830E-3	-4.517365E-1	3.100739E-1
3.646900E+10	-7.214966E-1	3.504944E-1	2.537537E-1	-1.509857E-1	-2.665138E-2	-7.090569E-3	-4.544373E-1	3.227234E-1
3.669350E+10	-7.191772E-1	3.536072E-1	2.537537E-1	-1.546631E-1	-2.391148E-2	-5.681038E-3	-4.446106E-1	3.155670E-1
3.691800E+10	-7.188416E-1	3.537292E-1	2.508240E-1	-1.570435E-1	-2.679253E-2	-4.786491E-3	-4.395599E-1	3.276520E-1
3.714250E+10	-7.164307E-1	3.544617E-1	2.436218E-1	-1.604156E-1	-2.768803E-2	4.117966E-3	-4.313507E-1	3.285980E-1
3.736700E+10	-7.130127E-1	3.552856E-1	2.407379E-1	-1.565628E-1	-2.849388E-2	-1.554489E-4	-4.322968E-1	3.334656E-1
3.759150E+10	-7.140503E-1	3.595276E-1	2.416840E-1	-1.586609E-1	-2.509212E-2	-6.045341E-3	-4.321289E-1	3.440704E-1
3.781600E+10	-7.112427E-1	3.622437E-1	2.381134E-1	-1.629028E-1	-2.664471E-2	-8.296967E-4	-4.241638E-1	3.440857E-1
3.804050E+10	-7.095032E-1	3.575745E-1	2.366180E-1	-1.626740E-1	-2.429390E-2	2.043724E-3	-4.136353E-1	3.535919E-1
3.826500E+10	-7.063293E-1	3.656006E-1	2.355347E-1	-1.633682E-1	-2.654934E-2	6.425858E-3	-4.106293E-1	3.588257E-1
3.848950E+10	-7.026062E-1	3.676453E-1	2.331161E-1	-1.702881E-1	-2.529335E-2	4.576683E-3	-4.064636E-1	3.622742E-1
3.871400E+10	-6.998291E-1	3.630981E-1	2.328262E-1	-1.736374E-1	-2.334690E-2	6.628036E-4	-3.970642E-1	3.601532E-1
3.893850E+10	-7.040405E-1	3.739014E-1	2.336960E-1	-1.755753E-1	-2.141953E-2	6.693840E-3	-3.939362E-1	3.653564E-1
3.916300E+10	-7.000732E-1	3.699646E-1	2.241058E-1	-1.800842E-1	-1.930904E-2	1.003647E-2	-3.934326E-1	3.657990E-1
