!Date: 10/28/2005, 12:46 PM

!Vgs = -7.000000E+0
!Vds = 5.000000E+0
!Ig = -7.050900E-5
!Id = 1.368600E-3

# HZ S RI R 50
1.000000E+8	9.903870E-1	-3.884888E-2	-1.548958E-2	9.694099E-3	-2.880096E-4	1.163578E-2	9.874573E-1	-7.354736E-3
3.245000E+8	9.780884E-1	-1.081543E-1	-1.063156E-2	3.960991E-2	6.433487E-3	3.742027E-2	9.640808E-1	-9.133911E-2
5.490000E+8	9.626465E-1	-1.758423E-1	-2.754211E-3	6.426620E-2	1.393509E-2	6.150055E-2	9.578857E-1	-1.492004E-1
7.735000E+8	9.435730E-1	-2.420349E-1	8.255005E-3	8.699799E-2	2.446365E-2	8.311462E-2	9.399109E-1	-2.071838E-1
9.980000E+8	9.212036E-1	-3.030396E-1	2.167130E-2	1.085243E-1	3.699112E-2	1.032104E-1	9.206238E-1	-2.579956E-1
1.222500E+9	8.940125E-1	-3.628845E-1	3.635406E-2	1.270981E-1	5.107117E-2	1.213188E-1	8.989868E-1	-3.105164E-1
1.447000E+9	8.639221E-1	-4.194641E-1	5.238342E-2	1.438141E-1	6.645203E-2	1.369095E-1	8.738708E-1	-3.595581E-1
1.671500E+9	8.301086E-1	-4.722290E-1	7.001495E-2	1.599426E-1	8.335114E-2	1.516800E-1	8.462830E-1	-4.039917E-1
1.896000E+9	7.941895E-1	-5.206604E-1	9.049225E-2	1.735764E-1	1.032867E-1	1.653366E-1	8.208008E-1	-4.450378E-1
2.120500E+9	7.573242E-1	-5.660095E-1	1.126862E-1	1.834717E-1	1.239471E-1	1.749725E-1	7.927246E-1	-4.872742E-1
2.345000E+9	7.161865E-1	-6.086121E-1	1.348343E-1	1.901855E-1	1.448288E-1	1.810455E-1	7.603149E-1	-5.263062E-1
2.569500E+9	6.758423E-1	-6.446838E-1	1.559753E-1	1.950302E-1	1.655807E-1	1.853027E-1	7.291870E-1	-5.619812E-1
2.794000E+9	6.340637E-1	-6.794128E-1	1.775818E-1	1.967545E-1	1.864014E-1	1.870499E-1	6.962280E-1	-5.943298E-1
3.018500E+9	5.912170E-1	-7.098389E-1	1.984634E-1	1.966095E-1	2.066727E-1	1.869125E-1	6.613464E-1	-6.273499E-1
3.243000E+9	5.490723E-1	-7.376099E-1	2.190628E-1	1.951065E-1	2.256851E-1	1.850662E-1	6.257629E-1	-6.555176E-1
3.467500E+9	5.066833E-1	-7.622070E-1	2.385025E-1	1.916199E-1	2.445450E-1	1.819458E-1	5.907898E-1	-6.805115E-1
3.692000E+9	4.648743E-1	-7.835693E-1	2.566223E-1	1.871490E-1	2.625275E-1	1.762543E-1	5.549316E-1	-7.055664E-1
3.916500E+9	4.215393E-1	-8.017578E-1	2.749634E-1	1.796417E-1	2.794189E-1	1.696777E-1	5.174255E-1	-7.254639E-1
4.141000E+9	3.814697E-1	-8.174744E-1	2.920990E-1	1.723633E-1	2.964783E-1	1.627045E-1	4.840088E-1	-7.439575E-1
4.365500E+9	3.418579E-1	-8.316650E-1	3.081360E-1	1.632843E-1	3.119354E-1	1.535339E-1	4.489746E-1	-7.613220E-1
4.590000E+9	3.012695E-1	-8.444214E-1	3.231354E-1	1.526489E-1	3.254547E-1	1.433868E-1	4.128418E-1	-7.773132E-1
4.814500E+9	2.631226E-1	-8.532715E-1	3.373566E-1	1.417389E-1	3.396301E-1	1.324615E-1	3.792114E-1	-7.904968E-1
5.039000E+9	2.247314E-1	-8.610840E-1	3.498077E-1	1.299133E-1	3.520660E-1	1.203461E-1	3.449097E-1	-8.042603E-1
5.263500E+9	1.874390E-1	-8.663330E-1	3.613586E-1	1.170197E-1	3.629608E-1	1.078339E-1	3.102112E-1	-8.141479E-1
5.488000E+9	1.524963E-1	-8.705750E-1	3.714447E-1	1.039581E-1	3.727570E-1	9.536743E-2	2.778015E-1	-8.227234E-1
5.712500E+9	1.167908E-1	-8.739624E-1	3.812408E-1	9.063721E-2	3.816223E-1	8.187866E-2	2.453918E-1	-8.316650E-1
5.937000E+9	8.398437E-2	-8.740845E-1	3.893890E-1	7.661438E-2	3.895111E-1	6.755066E-2	2.118225E-1	-8.384705E-1
6.161500E+9	5.267334E-2	-8.762512E-1	3.955994E-1	6.166077E-2	3.954010E-1	5.432129E-2	1.802063E-1	-8.441162E-1
6.386000E+9	1.947021E-2	-8.755188E-1	4.015808E-1	4.748535E-2	4.009552E-1	3.982544E-2	1.487427E-1	-8.494263E-1
6.610500E+9	-9.368896E-3	-8.747559E-1	4.059601E-1	3.359985E-2	4.050598E-1	2.613831E-2	1.158447E-1	-8.519897E-1
6.835000E+9	-3.994751E-2	-8.726501E-1	4.106293E-1	2.006531E-2	4.094391E-1	1.263428E-2	8.593750E-2	-8.541565E-1
7.059500E+9	-6.677246E-2	-8.685303E-1	4.129639E-1	6.500244E-3	4.112701E-1	4.577637E-5	5.987549E-2	-8.544617E-1
7.284000E+9	-9.533691E-2	-8.655701E-1	4.139557E-1	-8.102417E-3	4.134216E-1	-1.457214E-2	2.642822E-2	-8.555603E-1
7.508500E+9	-1.223450E-1	-8.605042E-1	4.160309E-1	-2.186584E-2	4.147491E-1	-2.789307E-2	-6.103516E-4	-8.524170E-1
7.733000E+9	-1.484375E-1	-8.547363E-1	4.167023E-1	-3.433228E-2	4.151917E-1	-4.063416E-2	-2.694702E-2	-8.524475E-1
7.957500E+9	-1.724854E-1	-8.503113E-1	4.164124E-1	-4.783630E-2	4.145813E-1	-5.364990E-2	-5.691528E-2	-8.513794E-1
8.182000E+9	-1.952209E-1	-8.446045E-1	4.171906E-1	-6.005859E-2	4.141541E-1	-6.568909E-2	-8.175659E-2	-8.483276E-1
8.406500E+9	-2.186890E-1	-8.385010E-1	4.147339E-1	-7.330322E-2	4.118195E-1	-7.766724E-2	-1.089172E-1	-8.437195E-1
8.631000E+9	-2.425537E-1	-8.319702E-1	4.133148E-1	-8.477783E-2	4.107666E-1	-9.013367E-2	-1.359863E-1	-8.398743E-1
8.855500E+9	-2.630005E-1	-8.251648E-1	4.101257E-1	-9.674072E-2	4.082642E-1	-1.020355E-1	-1.611633E-1	-8.340454E-1
9.080001E+9	-2.838135E-1	-8.183289E-1	4.079590E-1	-1.080780E-1	4.053802E-1	-1.126251E-1	-1.845398E-1	-8.278809E-1
9.304500E+9	-3.049622E-1	-8.101807E-1	4.038544E-1	-1.190491E-1	4.015656E-1	-1.235504E-1	-2.088013E-1	-8.222656E-1
9.529000E+9	-3.224487E-1	-8.038635E-1	4.005890E-1	-1.297302E-1	3.979645E-1	-1.343384E-1	-2.328491E-1	-8.153687E-1
9.753500E+9	-3.431091E-1	-7.958069E-1	3.966370E-1	-1.400909E-1	3.935852E-1	-1.444244E-1	-2.531738E-1	-8.066711E-1
9.978000E+9	-3.601990E-1	-7.873230E-1	3.919525E-1	-1.498566E-1	3.891144E-1	-1.548157E-1	-2.753906E-1	-7.999878E-1
1.020250E+10	-3.789978E-1	-7.808228E-1	3.875732E-1	-1.605682E-1	3.852081E-1	-1.636047E-1	-2.973328E-1	-7.915039E-1
1.042700E+10	-3.964539E-1	-7.717285E-1	3.825073E-1	-1.692352E-1	3.796387E-1	-1.727905E-1	-3.173218E-1	-7.836304E-1
1.065150E+10	-4.122620E-1	-7.633972E-1	3.774567E-1	-1.779480E-1	3.742065E-1	-1.813660E-1	-3.373413E-1	-7.761230E-1
1.087600E+10	-4.286194E-1	-7.541809E-1	3.718567E-1	-1.864624E-1	3.690186E-1	-1.895752E-1	-3.577271E-1	-7.668152E-1
1.110050E+10	-4.439087E-1	-7.464294E-1	3.670959E-1	-1.951141E-1	3.632202E-1	-1.990051E-1	-3.773499E-1	-7.572021E-1
1.132500E+10	-4.595642E-1	-7.382812E-1	3.601685E-1	-2.032013E-1	3.577271E-1	-2.050781E-1	-3.941345E-1	-7.489624E-1
1.154950E+10	-4.737854E-1	-7.288513E-1	3.546295E-1	-2.099915E-1	3.518524E-1	-2.129364E-1	-4.156799E-1	-7.376099E-1
1.177400E+10	-4.880066E-1	-7.203979E-1	3.481903E-1	-2.168579E-1	3.458252E-1	-2.196960E-1	-4.319458E-1	-7.255554E-1
1.199850E+10	-5.032043E-1	-7.120056E-1	3.426971E-1	-2.239075E-1	3.396149E-1	-2.269592E-1	-4.480286E-1	-7.194214E-1
1.222300E+10	-5.148315E-1	-7.027588E-1	3.358612E-1	-2.316895E-1	3.339996E-1	-2.334137E-1	-4.657288E-1	-7.073059E-1
1.244750E+10	-5.287476E-1	-6.943054E-1	3.293304E-1	-2.376251E-1	3.265839E-1	-2.394867E-1	-4.823303E-1	-6.952515E-1
1.267200E+10	-5.404053E-1	-6.850891E-1	3.249664E-1	-2.425537E-1	3.207855E-1	-2.449493E-1	-4.964905E-1	-6.863708E-1
1.289650E+10	-5.517578E-1	-6.764221E-1	3.170929E-1	-2.481537E-1	3.142853E-1	-2.498474E-1	-5.132141E-1	-6.748962E-1
1.312100E+10	-5.646057E-1	-6.675110E-1	3.101044E-1	-2.544403E-1	3.082581E-1	-2.560272E-1	-5.279846E-1	-6.605530E-1
1.334550E+10	-5.758972E-1	-6.594543E-1	3.050232E-1	-2.595215E-1	3.022766E-1	-2.610626E-1	-5.397339E-1	-6.517944E-1
1.357000E+10	-5.895691E-1	-6.494446E-1	2.987061E-1	-2.639465E-1	2.945709E-1	-2.670898E-1	-5.562134E-1	-6.422729E-1
1.379450E+10	-5.971375E-1	-6.420898E-1	2.903900E-1	-2.686920E-1	2.884369E-1	-2.709808E-1	-5.700378E-1	-6.260986E-1
1.401900E+10	-6.063843E-1	-6.327209E-1	2.853851E-1	-2.726593E-1	2.820740E-1	-2.737427E-1	-5.802307E-1	-6.163940E-1
1.424350E+10	-6.182251E-1	-6.246033E-1	2.786407E-1	-2.770386E-1	2.748871E-1	-2.773285E-1	-5.952759E-1	-6.047058E-1
1.446800E+10	-6.269531E-1	-6.160278E-1	2.718658E-1	-2.820740E-1	2.693329E-1	-2.824554E-1	-6.068115E-1	-5.898743E-1
1.469250E+10	-6.368103E-1	-6.069336E-1	2.644958E-1	-2.851410E-1	2.618866E-1	-2.862244E-1	-6.163940E-1	-5.798035E-1
1.491700E+10	-6.465149E-1	-5.982971E-1	2.587433E-1	-2.895660E-1	2.563629E-1	-2.894897E-1	-6.304321E-1	-5.690308E-1
1.514150E+10	-6.558228E-1	-5.886841E-1	2.515411E-1	-2.920227E-1	2.487335E-1	-2.927856E-1	-6.424255E-1	-5.527649E-1
1.536600E+10	-6.644592E-1	-5.801086E-1	2.447662E-1	-2.951508E-1	2.418671E-1	-2.961273E-1	-6.502991E-1	-5.419006E-1
1.559050E+10	-6.731873E-1	-5.711670E-1	2.377319E-1	-2.984161E-1	2.366943E-1	-2.986603E-1	-6.619873E-1	-5.308228E-1
1.581500E+10	-6.818237E-1	-5.626831E-1	2.310028E-1	-2.997589E-1	2.282410E-1	-3.020020E-1	-6.745300E-1	-5.141602E-1
1.603950E+10	-6.896973E-1	-5.543823E-1	2.265015E-1	-3.039093E-1	2.237701E-1	-3.041382E-1	-6.811218E-1	-5.047607E-1
1.626400E+10	-6.990967E-1	-5.454102E-1	2.199860E-1	-3.050995E-1	2.164459E-1	-3.054199E-1	-6.928711E-1	-4.934387E-1
1.648850E+10	-7.063904E-1	-5.367737E-1	2.123871E-1	-3.064423E-1	2.089233E-1	-3.076477E-1	-7.014771E-1	-4.780579E-1
1.671300E+10	-7.133484E-1	-5.287170E-1	2.053375E-1	-3.098602E-1	2.033081E-1	-3.104706E-1	-7.091980E-1	-4.660645E-1
1.693750E+10	-7.201843E-1	-5.207214E-1	1.985931E-1	-3.117065E-1	1.974487E-1	-3.117218E-1	-7.190857E-1	-4.533691E-1
1.716200E+10	-7.266541E-1	-5.116882E-1	1.927490E-1	-3.124237E-1	1.907349E-1	-3.125763E-1	-7.254944E-1	-4.386902E-1
1.738650E+10	-7.337341E-1	-5.022278E-1	1.860046E-1	-3.139496E-1	1.853027E-1	-3.139191E-1	-7.323303E-1	-4.261169E-1
1.761100E+10	-7.407532E-1	-4.944153E-1	1.804657E-1	-3.134155E-1	1.798096E-1	-3.153229E-1	-7.409058E-1	-4.166260E-1
1.783550E+10	-7.500305E-1	-4.851990E-1	1.741486E-1	-3.182678E-1	1.722717E-1	-3.180084E-1	-7.501831E-1	-3.992615E-1
1.806000E+10	-7.552490E-1	-4.773560E-1	1.693573E-1	-3.180084E-1	1.676025E-1	-3.181610E-1	-7.538147E-1	-3.878784E-1
1.828450E+10	-7.612305E-1	-4.699402E-1	1.636810E-1	-3.176727E-1	1.622009E-1	-3.189697E-1	-7.614746E-1	-3.769836E-1
1.850900E+10	-7.670898E-1	-4.599609E-1	1.582336E-1	-3.197937E-1	1.558228E-1	-3.192444E-1	-7.690125E-1	-3.622742E-1
1.873350E+10	-7.725830E-1	-4.513855E-1	1.517639E-1	-3.220978E-1	1.486969E-1	-3.200226E-1	-7.751770E-1	-3.469238E-1
1.895800E+10	-7.791138E-1	-4.430847E-1	1.486969E-1	-3.206329E-1	1.446075E-1	-3.198853E-1	-7.781067E-1	-3.382874E-1
1.918250E+10	-7.857971E-1	-4.363098E-1	1.396027E-1	-3.216705E-1	1.389618E-1	-3.214264E-1	-7.865601E-1	-3.241577E-1
1.940700E+10	-7.887573E-1	-4.260559E-1	1.348724E-1	-3.219452E-1	1.329498E-1	-3.216705E-1	-7.892761E-1	-3.061829E-1
1.963150E+10	-7.969055E-1	-4.194946E-1	1.296082E-1	-3.238678E-1	1.264038E-1	-3.220367E-1	-7.938843E-1	-2.987366E-1
1.985600E+10	-8.004761E-1	-4.105530E-1	1.232300E-1	-3.230591E-1	1.220398E-1	-3.213806E-1	-8.010559E-1	-2.841797E-1
2.008050E+10	-8.045044E-1	-4.039001E-1	1.165619E-1	-3.215179E-1	1.170044E-1	-3.221588E-1	-8.039551E-1	-2.691650E-1
2.030500E+10	-8.086548E-1	-3.969116E-1	1.123352E-1	-3.222656E-1	1.117706E-1	-3.215485E-1	-8.041382E-1	-2.596741E-1
2.052950E+10	-8.145142E-1	-3.870239E-1	1.079254E-1	-3.216705E-1	1.065063E-1	-3.223572E-1	-8.088074E-1	-2.471924E-1
2.075400E+10	-8.196106E-1	-3.790588E-1	1.024628E-1	-3.227386E-1	1.006927E-1	-3.222809E-1	-8.143921E-1	-2.312622E-1
2.097850E+10	-8.232422E-1	-3.711853E-1	9.725952E-2	-3.221283E-1	9.570312E-2	-3.208008E-1	-8.154602E-1	-2.209167E-1
2.120300E+10	-8.280029E-1	-3.628845E-1	9.207153E-2	-3.193665E-1	9.039307E-2	-3.196259E-1	-8.222961E-1	-2.111511E-1
2.142750E+10	-8.345642E-1	-3.548889E-1	8.779907E-2	-3.201752E-1	8.566284E-2	-3.202362E-1	-8.253174E-1	-1.952515E-1
2.165200E+10	-8.369751E-1	-3.466492E-1	8.255005E-2	-3.208923E-1	8.183289E-2	-3.210297E-1	-8.273926E-1	-1.825256E-1
2.187650E+10	-8.405457E-1	-3.381653E-1	7.704163E-2	-3.189850E-1	7.771301E-2	-3.183746E-1	-8.309631E-1	-1.726074E-1
2.210100E+10	-8.453064E-1	-3.282776E-1	7.188416E-2	-3.215332E-1	7.165527E-2	-3.201447E-1	-8.349609E-1	-1.564026E-1
2.232550E+10	-8.482971E-1	-3.199158E-1	6.813049E-2	-3.188934E-1	6.785583E-2	-3.194580E-1	-8.358154E-1	-1.428223E-1
2.255000E+10	-8.542480E-1	-3.137207E-1	6.300354E-2	-3.181000E-1	6.318665E-2	-3.202972E-1	-8.388977E-1	-1.337280E-1
2.277450E+10	-8.547974E-1	-3.034973E-1	6.050110E-2	-3.162384E-1	5.789185E-2	-3.166199E-1	-8.395691E-1	-1.169128E-1
2.299900E+10	-8.594360E-1	-2.956238E-1	5.360413E-2	-3.169098E-1	5.497742E-2	-3.167114E-1	-8.382874E-1	-1.034546E-1
2.322350E+10	-8.620911E-1	-2.890625E-1	4.811096E-2	-3.168335E-1	4.910278E-2	-3.150177E-1	-8.442078E-1	-9.365845E-2
2.344800E+10	-8.625793E-1	-2.828369E-1	4.542542E-2	-3.144226E-1	4.495239E-2	-3.151093E-1	-8.453064E-1	-7.687378E-2
2.367250E+10	-8.663025E-1	-2.724304E-1	4.144287E-2	-3.141327E-1	3.919983E-2	-3.135986E-1	-8.418579E-1	-6.570435E-2
2.389700E+10	-8.663025E-1	-2.651672E-1	3.511047E-2	-3.127136E-1	3.681946E-2	-3.126526E-1	-8.446045E-1	-5.230713E-2
2.412150E+10	-8.705139E-1	-2.613525E-1	3.248596E-2	-3.117523E-1	3.002930E-2	-3.118896E-1	-8.425598E-1	-3.765869E-2
2.434600E+10	-8.722839E-1	-2.534485E-1	2.780151E-2	-3.087006E-1	2.824402E-2	-3.110962E-1	-8.431702E-1	-2.758789E-2
2.457050E+10	-8.766785E-1	-2.473755E-1	2.436829E-2	-3.077087E-1	2.188110E-2	-3.109741E-1	-8.436584E-1	-1.385498E-2
2.479500E+10	-8.801575E-1	-2.395020E-1	2.160645E-2	-3.092957E-1	1.870728E-2	-3.096466E-1	-8.415833E-1	2.136230E-4
2.501950E+10	-8.824768E-1	-2.329712E-1	1.364136E-2	-3.095551E-1	1.341248E-2	-3.092804E-1	-8.373108E-1	9.918213E-3
2.524400E+10	-8.857117E-1	-2.265625E-1	1.106262E-2	-3.059235E-1	9.078979E-3	-3.051605E-1	-8.371277E-1	2.081299E-2
2.546850E+10	-8.860474E-1	-2.171631E-1	7.171631E-3	-3.054199E-1	6.439209E-3	-3.037109E-1	-8.367310E-1	3.555298E-2
2.569300E+10	-8.889771E-1	-2.103577E-1	3.402710E-3	-3.022156E-1	3.448486E-3	-3.013611E-1	-8.364868E-1	4.174805E-2
2.591750E+10	-8.945007E-1	-2.004089E-1	4.425049E-4	-3.016663E-1	-1.525879E-3	-3.025513E-1	-8.358459E-1	5.551147E-2
2.614200E+10	-8.939514E-1	-1.920166E-1	-2.319336E-3	-2.986298E-1	-3.143311E-3	-3.002167E-1	-8.334045E-1	7.125854E-2
2.636650E+10	-8.982849E-1	-1.872864E-1	-6.072998E-3	-2.988281E-1	-7.080078E-3	-2.970428E-1	-8.330383E-1	8.374023E-2
2.659100E+10	-8.973999E-1	-1.793823E-1	-1.116943E-2	-2.969055E-1	-1.113892E-2	-2.963715E-1	-8.276367E-1	9.378052E-2
2.681550E+10	-8.989563E-1	-1.745300E-1	-1.365662E-2	-2.962646E-1	-1.445007E-2	-2.958374E-1	-8.294373E-1	1.047058E-1
2.704000E+10	-9.026794E-1	-1.645203E-1	-1.823425E-2	-2.948456E-1	-1.817322E-2	-2.951202E-1	-8.277283E-1	1.233521E-1
2.726450E+10	-9.028015E-1	-1.569824E-1	-2.273560E-2	-2.933807E-1	-2.313232E-2	-2.956390E-1	-8.178406E-1	1.304932E-1
2.748900E+10	-9.056396E-1	-1.519775E-1	-2.609253E-2	-2.930756E-1	-2.568054E-2	-2.931366E-1	-8.182678E-1	1.398926E-1
2.771350E+10	-9.100647E-1	-1.448975E-1	-2.957153E-2	-2.922363E-1	-2.673340E-2	-2.948151E-1	-8.146667E-1	1.558228E-1
2.793800E+10	-9.091797E-1	-1.381226E-1	-3.335571E-2	-2.896271E-1	-3.195190E-2	-2.903442E-1	-8.119507E-1	1.649780E-1
2.816250E+10	-9.112244E-1	-1.306458E-1	-3.512573E-2	-2.878418E-1	-3.712463E-2	-2.867584E-1	-8.073425E-1	1.749573E-1
2.838700E+10	-9.097290E-1	-1.246338E-1	-3.747559E-2	-2.873993E-1	-3.939819E-2	-2.848053E-1	-7.991028E-1	1.873779E-1
2.861150E+10	-9.124451E-1	-1.148682E-1	-4.180908E-2	-2.849426E-1	-4.232788E-2	-2.840576E-1	-7.937927E-1	1.987915E-1
2.883600E+10	-9.160461E-1	-1.080933E-1	-4.762268E-2	-2.834473E-1	-4.756165E-2	-2.833557E-1	-7.951965E-1	2.064514E-1
2.906050E+10	-9.169006E-1	-1.024170E-1	-5.038452E-2	-2.814026E-1	-4.972839E-2	-2.794800E-1	-7.892151E-1	2.195740E-1
2.928500E+10	-9.205017E-1	-9.329224E-2	-5.242920E-2	-2.777863E-1	-5.146790E-2	-2.787170E-1	-7.828979E-1	2.287292E-1
2.950950E+10	-9.190063E-1	-8.502197E-2	-5.802917E-2	-2.775879E-1	-5.667114E-2	-2.747955E-1	-7.836914E-1	2.386780E-1
2.973400E+10	-9.196167E-1	-8.236694E-2	-5.792236E-2	-2.767181E-1	-5.696106E-2	-2.737274E-1	-7.815857E-1	2.494202E-1
2.995850E+10	-9.193115E-1	-7.357788E-2	-5.946350E-2	-2.733765E-1	-5.989075E-2	-2.712250E-1	-7.742310E-1	2.626953E-1
3.018300E+10	-9.186096E-1	-6.597900E-2	-6.343079E-2	-2.714539E-1	-6.448364E-2	-2.702332E-1	-7.686768E-1	2.766724E-1
3.040750E+10	-9.208069E-1	-6.042480E-2	-6.649780E-2	-2.718658E-1	-6.436157E-2	-2.700806E-1	-7.638245E-1	2.848511E-1
3.063200E+10	-9.192505E-1	-5.316162E-2	-7.015991E-2	-2.700653E-1	-7.009888E-2	-2.673950E-1	-7.582703E-1	2.962646E-1
3.085650E+10	-9.232483E-1	-4.727173E-2	-7.492065E-2	-2.709808E-1	-7.211304E-2	-2.694702E-1	-7.530823E-1	3.107300E-1
3.108100E+10	-9.265137E-1	-3.970337E-2	-7.070923E-2	-2.694397E-1	-7.754517E-2	-2.677155E-1	-7.460327E-1	3.154907E-1
3.130550E+10	-9.229431E-1	-3.173828E-2	-7.756042E-2	-2.657776E-1	-7.859802E-2	-2.620697E-1	-7.386169E-1	3.282471E-1
3.153000E+10	-9.239807E-1	-2.755737E-2	-7.936096E-2	-2.644501E-1	-7.960510E-2	-2.614288E-1	-7.243652E-1	3.394470E-1
3.175450E+10	-9.260864E-1	-1.660156E-2	-8.406067E-2	-2.621918E-1	-8.612061E-2	-2.580109E-1	-7.242737E-1	3.515320E-1
3.197900E+10	-9.224854E-1	-1.495361E-2	-8.671570E-2	-2.595520E-1	-9.031677E-2	-2.617493E-1	-7.149963E-1	3.583069E-1
3.220350E+10	-9.253235E-1	-9.948730E-3	-9.262085E-2	-2.576752E-1	-9.371948E-2	-2.541046E-1	-7.070007E-1	3.718872E-1
3.242800E+10	-9.238892E-1	-1.922607E-3	-9.359741E-2	-2.546844E-1	-9.172058E-2	-2.560272E-1	-7.019348E-1	3.821411E-1
3.265250E+10	-9.270935E-1	1.110840E-2	-9.729004E-2	-2.553101E-1	-9.858704E-2	-2.520142E-1	-6.945801E-1	3.875427E-1
3.287700E+10	-9.236755E-1	1.480103E-2	-1.022415E-1	-2.478180E-1	-9.798431E-2	-2.493591E-1	-6.869507E-1	3.959351E-1
3.310150E+10	-9.297180E-1	2.532959E-2	-9.953308E-2	-2.505951E-1	-1.000900E-1	-2.444611E-1	-6.755981E-1	4.078979E-1
3.332600E+10	-9.251709E-1	2.825928E-2	-1.043625E-1	-2.482986E-1	-9.912872E-2	-2.440567E-1	-6.670227E-1	4.085388E-1
3.355050E+10	-9.221191E-1	3.491211E-2	-1.053085E-1	-2.448120E-1	-1.039810E-1	-2.411652E-1	-6.617737E-1	4.192810E-1
3.377500E+10	-9.290771E-1	4.287720E-2	-1.116562E-1	-2.454987E-1	-1.078644E-1	-2.395172E-1	-6.520691E-1	4.279480E-1
3.399950E+10	-9.258118E-1	4.873657E-2	-1.066437E-1	-2.431870E-1	-1.073990E-1	-2.424698E-1	-6.509399E-1	4.316711E-1
3.422400E+10	-9.252319E-1	5.505371E-2	-1.133575E-1	-2.390137E-1	-1.129532E-1	-2.381287E-1	-6.402283E-1	4.530945E-1
3.444850E+10	-9.234924E-1	6.387329E-2	-1.166153E-1	-2.380447E-1	-1.144257E-1	-2.349167E-1	-6.334229E-1	4.599304E-1
3.467300E+10	-9.241028E-1	7.003784E-2	-1.179657E-1	-2.376251E-1	-1.129913E-1	-2.353363E-1	-6.290588E-1	4.670410E-1
3.489750E+10	-9.258728E-1	7.205200E-2	-1.169281E-1	-2.325745E-1	-1.210403E-1	-2.315979E-1	-6.131287E-1	4.765015E-1
3.512200E+10	-9.196777E-1	7.736206E-2	-1.172180E-1	-2.357559E-1	-1.194687E-1	-2.307663E-1	-6.020813E-1	4.782104E-1
3.534650E+10	-9.228821E-1	8.340454E-2	-1.246567E-1	-2.346497E-1	-1.229324E-1	-2.335052E-1	-5.953064E-1	4.924316E-1
3.557100E+10	-9.206543E-1	9.057617E-2	-1.243896E-1	-2.332916E-1	-1.282806E-1	-2.293320E-1	-5.866089E-1	5.043945E-1
3.579550E+10	-9.245911E-1	9.890747E-2	-1.330795E-1	-2.270508E-1	-1.294861E-1	-2.319336E-1	-5.677490E-1	5.116272E-1
3.602000E+10	-9.249573E-1	1.058350E-1	-1.362915E-1	-2.266922E-1	-1.312180E-1	-2.261734E-1	-5.608215E-1	5.115051E-1
3.624450E+10	-9.187622E-1	1.140137E-1	-1.350098E-1	-2.237778E-1	-1.330414E-1	-2.210617E-1	-5.527344E-1	5.196838E-1
3.646900E+10	-9.204712E-1	1.224976E-1	-1.392975E-1	-2.246246E-1	-1.378021E-1	-2.251053E-1	-5.381165E-1	5.292969E-1
3.669350E+10	-9.183350E-1	1.239624E-1	-1.432190E-1	-2.210159E-1	-1.371841E-1	-2.189484E-1	-5.262146E-1	5.354004E-1
3.691800E+10	-9.168396E-1	1.307068E-1	-1.415024E-1	-2.162476E-1	-1.441879E-1	-2.171555E-1	-5.134583E-1	5.451050E-1
3.714250E+10	-9.159241E-1	1.353149E-1	-1.423492E-1	-2.146606E-1	-1.468048E-1	-2.187729E-1	-5.073547E-1	5.446472E-1
3.736700E+10	-9.113464E-1	1.419678E-1	-1.466980E-1	-2.111130E-1	-1.503220E-1	-2.149582E-1	-4.981995E-1	5.541992E-1
3.759150E+10	-9.180908E-1	1.472778E-1	-1.519241E-1	-2.136383E-1	-1.479263E-1	-2.099380E-1	-4.842224E-1	5.623779E-1
3.781600E+10	-9.121704E-1	1.594543E-1	-1.531906E-1	-2.077713E-1	-1.523972E-1	-2.066345E-1	-4.742737E-1	5.613098E-1
3.804050E+10	-9.120483E-1	1.575317E-1	-1.511459E-1	-2.044907E-1	-1.545639E-1	-2.032471E-1	-4.549561E-1	5.725403E-1
3.826500E+10	-9.074707E-1	1.707764E-1	-1.563187E-1	-2.016068E-1	-1.551971E-1	-2.046890E-1	-4.369812E-1	5.809326E-1
3.848950E+10	-9.075928E-1	1.790466E-1	-1.618500E-1	-2.011719E-1	-1.620789E-1	-1.994705E-1	-4.284668E-1	5.787048E-1
3.871400E+10	-9.092712E-1	1.794739E-1	-1.548157E-1	-2.032852E-1	-1.619492E-1	-1.961212E-1	-4.147644E-1	5.841064E-1
3.893850E+10	-9.089050E-1	1.842041E-1	-1.685715E-1	-1.951675E-1	-1.662903E-1	-1.959381E-1	-4.017944E-1	5.874634E-1
