!Date: 10/28/2005, 12:46 PM

!Vgs = -2.000000E+0
!Vds = 5.000000E+0
!Ig = -1.456700E-5
!Id = 5.740600E-1

# HZ S RI R 50
1.000000E+8	9.573364E-1	-2.248535E-1	-1.241748E+1	7.670898E-1	1.951694E-3	1.022863E-2	2.262268E-1	-8.147430E-2
3.245000E+8	7.217102E-1	-6.190491E-1	-1.064355E+1	4.367676E+0	1.256180E-2	2.753544E-2	1.313019E-2	-2.240829E-1
5.490000E+8	4.085693E-1	-8.401184E-1	-8.369629E+0	5.975586E+0	2.672386E-2	3.585625E-2	-6.448364E-2	-2.695160E-1
7.735000E+8	1.242065E-1	-9.116211E-1	-6.322754E+0	6.453125E+0	4.041672E-2	3.807640E-2	-1.674805E-1	-3.027191E-1
9.980000E+8	-1.016541E-1	-9.003906E-1	-4.710449E+0	6.349365E+0	5.034065E-2	3.617096E-2	-2.413483E-1	-2.818298E-1
1.222500E+9	-2.757568E-1	-8.565063E-1	-3.504639E+0	6.029541E+0	5.772018E-2	3.300858E-2	-2.877808E-1	-2.703705E-1
1.447000E+9	-4.059143E-1	-7.999878E-1	-2.603516E+0	5.618896E+0	6.323242E-2	2.937317E-2	-3.315277E-1	-2.500763E-1
1.671500E+9	-5.029297E-1	-7.408752E-1	-1.942627E+0	5.203369E+0	6.710815E-2	2.584076E-2	-3.597717E-1	-2.315216E-1
1.896000E+9	-5.781555E-1	-6.824036E-1	-1.450928E+0	4.803467E+0	7.074738E-2	2.257919E-2	-3.830719E-1	-2.117615E-1
2.120500E+9	-6.340942E-1	-6.284180E-1	-1.076416E+0	4.453613E+0	7.324982E-2	1.939011E-2	-3.995667E-1	-1.966553E-1
2.345000E+9	-6.784058E-1	-5.771179E-1	-7.761230E-1	4.125000E+0	7.505798E-2	1.613617E-2	-4.150085E-1	-1.789551E-1
2.569500E+9	-7.100830E-1	-5.325623E-1	-5.430908E-1	3.828125E+0	7.606125E-2	1.321793E-2	-4.230652E-1	-1.655884E-1
2.794000E+9	-7.381287E-1	-4.955139E-1	-3.632812E-1	3.573364E+0	7.693863E-2	1.029587E-2	-4.327850E-1	-1.536713E-1
3.018500E+9	-7.595520E-1	-4.595032E-1	-2.126465E-1	3.335083E+0	7.739258E-2	7.995605E-3	-4.382019E-1	-1.408081E-1
3.243000E+9	-7.774353E-1	-4.261780E-1	-8.959961E-2	3.126953E+0	7.812881E-2	5.302429E-3	-4.430695E-1	-1.326752E-1
3.467500E+9	-7.935791E-1	-3.979797E-1	1.354980E-2	2.941650E+0	7.854080E-2	3.696442E-3	-4.493256E-1	-1.226501E-1
3.692000E+9	-8.059998E-1	-3.715515E-1	1.015625E-1	2.770386E+0	7.871628E-2	1.522064E-3	-4.521332E-1	-1.155090E-1
3.916500E+9	-8.174744E-1	-3.461609E-1	1.716309E-1	2.612793E+0	7.900238E-2	-3.814697E-4	-4.580688E-1	-1.084900E-1
4.141000E+9	-8.261108E-1	-3.227844E-1	2.337646E-1	2.471558E+0	7.875443E-2	-2.529144E-3	-4.604645E-1	-9.989929E-2
4.365500E+9	-8.325195E-1	-3.023376E-1	2.863770E-1	2.340820E+0	7.909775E-2	-4.207611E-3	-4.624939E-1	-9.515381E-2
4.590000E+9	-8.395386E-1	-2.839661E-1	3.309326E-1	2.218384E+0	7.900238E-2	-5.611420E-3	-4.664764E-1	-8.804321E-2
4.814500E+9	-8.460999E-1	-2.662354E-1	3.668213E-1	2.108398E+0	7.914352E-2	-7.469177E-3	-4.679108E-1	-8.248901E-2
5.039000E+9	-8.502808E-1	-2.487793E-1	3.994141E-1	2.007690E+0	7.897186E-2	-9.456635E-3	-4.708252E-1	-7.772827E-2
5.263500E+9	-8.547058E-1	-2.322693E-1	4.283447E-1	1.913208E+0	7.891464E-2	-1.101685E-2	-4.734955E-1	-7.177734E-2
5.488000E+9	-8.573914E-1	-2.187195E-1	4.530029E-1	1.827576E+0	7.886887E-2	-1.242828E-2	-4.747772E-1	-6.695557E-2
5.712500E+9	-8.615417E-1	-2.051697E-1	4.755859E-1	1.743103E+0	7.812119E-2	-1.375580E-2	-4.766693E-1	-6.278992E-2
5.937000E+9	-8.647461E-1	-1.903687E-1	4.935303E-1	1.665344E+0	7.791138E-2	-1.567078E-2	-4.780731E-1	-5.833435E-2
6.161500E+9	-8.674011E-1	-1.792908E-1	5.108643E-1	1.596924E+0	7.785034E-2	-1.710129E-2	-4.804687E-1	-5.194092E-2
6.386000E+9	-8.694458E-1	-1.666260E-1	5.255127E-1	1.528931E+0	7.777405E-2	-1.818848E-2	-4.785767E-1	-4.924011E-2
6.610500E+9	-8.706360E-1	-1.560364E-1	5.394287E-1	1.465515E+0	7.673645E-2	-1.961517E-2	-4.826202E-1	-4.730225E-2
6.835000E+9	-8.736267E-1	-1.451111E-1	5.505981E-1	1.402710E+0	7.659912E-2	-2.096939E-2	-4.834747E-1	-3.964233E-2
7.059500E+9	-8.742981E-1	-1.353149E-1	5.572510E-1	1.346985E+0	7.626724E-2	-2.222443E-2	-4.803619E-1	-3.982544E-2
7.284000E+9	-8.755493E-1	-1.257324E-1	5.649414E-1	1.293518E+0	7.580948E-2	-2.298355E-2	-4.854431E-1	-3.475952E-2
7.508500E+9	-8.779297E-1	-1.156616E-1	5.704956E-1	1.242676E+0	7.521820E-2	-2.423859E-2	-4.817200E-1	-3.146362E-2
7.733000E+9	-8.771362E-1	-1.058960E-1	5.767212E-1	1.194885E+0	7.465744E-2	-2.557755E-2	-4.867706E-1	-3.170776E-2
7.957500E+9	-8.784790E-1	-9.652710E-2	5.832520E-1	1.150391E+0	7.408142E-2	-2.709961E-2	-4.866486E-1	-2.677917E-2
8.182000E+9	-8.788757E-1	-8.798218E-2	5.891113E-1	1.108337E+0	7.485580E-2	-2.823639E-2	-4.900360E-1	-2.522278E-2
8.406500E+9	-8.792725E-1	-8.114624E-2	5.916748E-1	1.065369E+0	7.276917E-2	-2.935791E-2	-4.895325E-1	-1.873779E-2
8.631000E+9	-8.804932E-1	-7.250977E-2	5.966797E-1	1.023987E+0	7.203293E-2	-3.090286E-2	-4.905701E-1	-1.725769E-2
8.855500E+9	-8.808289E-1	-6.500244E-2	5.981750E-1	9.844971E-1	7.157516E-2	-3.166199E-2	-4.920807E-1	-1.368713E-2
9.080001E+9	-8.808899E-1	-5.831909E-2	5.993347E-1	9.490051E-1	7.072449E-2	-3.327179E-2	-4.914398E-1	-9.246826E-3
9.304500E+9	-8.795471E-1	-5.050659E-2	5.998840E-1	9.142456E-1	6.988907E-2	-3.190613E-2	-4.917450E-1	-4.745483E-3
9.529000E+9	-8.810730E-1	-4.354858E-2	6.011047E-1	8.799133E-1	6.898117E-2	-3.467560E-2	-4.947815E-1	-3.829956E-3
9.753500E+9	-8.818970E-1	-3.723145E-2	6.007690E-1	8.472595E-1	6.908035E-2	-3.591156E-2	-4.936218E-1	-7.629395E-5
9.978000E+9	-8.806152E-1	-2.935791E-2	6.001587E-1	8.168335E-1	6.794357E-2	-3.696442E-2	-4.932098E-1	1.022339E-3
1.020250E+10	-8.816528E-1	-2.334595E-2	5.998230E-1	7.873535E-1	6.747055E-2	-3.774643E-2	-4.955597E-1	5.233765E-3
1.042700E+10	-8.822937E-1	-1.739502E-2	5.992432E-1	7.586670E-1	6.624603E-2	-3.919983E-2	-4.945831E-1	7.965088E-3
1.065150E+10	-8.811340E-1	-1.074219E-2	5.979614E-1	7.317505E-1	6.505203E-2	-3.943253E-2	-4.955292E-1	9.521484E-3
1.087600E+10	-8.816833E-1	-4.272461E-3	5.972900E-1	7.052917E-1	6.458664E-2	-4.098892E-2	-4.973755E-1	1.210022E-2
1.110050E+10	-8.814087E-1	2.166748E-3	5.953674E-1	6.782227E-1	6.327820E-2	-4.109573E-2	-4.968719E-1	1.615906E-2
1.132500E+10	-8.798218E-1	7.446289E-3	5.934753E-1	6.545105E-1	6.214905E-2	-4.193115E-2	-4.967194E-1	1.672363E-2
1.154950E+10	-8.802185E-1	1.364136E-2	5.912476E-1	6.310730E-1	6.239128E-2	-4.274559E-2	-5.000000E-1	2.056885E-2
1.177400E+10	-8.795776E-1	1.895142E-2	5.889893E-1	6.084290E-1	6.098557E-2	-4.313850E-2	-4.980927E-1	2.433777E-2
1.199850E+10	-8.793030E-1	2.401733E-2	5.876770E-1	5.866699E-1	6.018639E-2	-4.397011E-2	-4.999695E-1	2.552795E-2
1.222300E+10	-8.785400E-1	3.015137E-2	5.840759E-1	5.650024E-1	5.978584E-2	-4.486084E-2	-5.000916E-1	2.819824E-2
1.244750E+10	-8.786621E-1	3.497314E-2	5.806580E-1	5.419617E-1	5.837822E-2	-4.485321E-2	-5.020142E-1	3.204346E-2
1.267200E+10	-8.779907E-1	4.119873E-2	5.785828E-1	5.237427E-1	5.845833E-2	-4.676437E-2	-5.007629E-1	3.216553E-2
1.289650E+10	-8.764038E-1	4.483032E-2	5.737610E-1	5.048218E-1	5.688095E-2	-4.683495E-2	-5.032349E-1	3.506470E-2
1.312100E+10	-8.771057E-1	5.050659E-2	5.697021E-1	4.854736E-1	5.590820E-2	-4.765701E-2	-5.036621E-1	3.964233E-2
1.334550E+10	-8.759766E-1	5.548096E-2	5.664673E-1	4.676208E-1	5.500221E-2	-4.743576E-2	-5.024414E-1	3.997803E-2
1.357000E+10	-8.742981E-1	5.816650E-2	5.637817E-1	4.492187E-1	5.391121E-2	-4.869461E-2	-5.051575E-1	4.129028E-2
1.379450E+10	-8.748779E-1	6.451416E-2	5.581360E-1	4.335632E-1	5.310440E-2	-4.960060E-2	-5.062561E-1	4.635620E-2
1.401900E+10	-8.742371E-1	6.927490E-2	5.554810E-1	4.189148E-1	5.249023E-2	-5.045700E-2	-5.039978E-1	4.788208E-2
1.424350E+10	-8.743591E-1	7.321167E-2	5.502014E-1	4.013977E-1	5.122948E-2	-5.069542E-2	-5.058594E-1	5.120850E-2
1.446800E+10	-8.735657E-1	7.916260E-2	5.482178E-1	3.876953E-1	4.940414E-2	-5.076599E-2	-5.057373E-1	5.642700E-2
1.469250E+10	-8.721008E-1	8.343506E-2	5.427551E-1	3.721008E-1	4.838371E-2	-5.197525E-2	-5.039978E-1	5.816650E-2
1.491700E+10	-8.711853E-1	8.853149E-2	5.394897E-1	3.572388E-1	4.815865E-2	-5.240059E-2	-5.065918E-1	5.786133E-2
1.514150E+10	-8.694153E-1	9.362793E-2	5.342407E-1	3.431702E-1	4.668617E-2	-5.242157E-2	-5.070801E-1	6.402588E-2
1.536600E+10	-8.687744E-1	9.707642E-2	5.306091E-1	3.290100E-1	4.649925E-2	-5.274391E-2	-5.050659E-1	6.607056E-2
1.559050E+10	-8.687744E-1	1.021423E-1	5.261841E-1	3.159180E-1	4.567528E-2	-5.348778E-2	-5.069580E-1	6.652832E-2
1.581500E+10	-8.666687E-1	1.062012E-1	5.200500E-1	3.027954E-1	4.342461E-2	-5.256462E-2	-5.087585E-1	6.930542E-2
1.603950E+10	-8.657837E-1	1.108704E-1	5.177307E-1	2.908020E-1	4.365540E-2	-5.429649E-2	-5.085449E-1	7.397461E-2
1.626400E+10	-8.648987E-1	1.133728E-1	5.132446E-1	2.788696E-1	4.303360E-2	-5.447197E-2	-5.097351E-1	7.257080E-2
1.648850E+10	-8.634033E-1	1.184692E-1	5.068970E-1	2.680054E-1	4.023743E-2	-5.412483E-2	-5.108948E-1	7.827759E-2
1.671300E+10	-8.645020E-1	1.226196E-1	5.030823E-1	2.558289E-1	4.014397E-2	-5.507278E-2	-5.096741E-1	8.029175E-2
1.693750E+10	-8.624268E-1	1.266174E-1	4.986572E-1	2.461243E-1	3.877831E-2	-5.611229E-2	-5.111389E-1	8.233643E-2
1.716200E+10	-8.599854E-1	1.314697E-1	4.937897E-1	2.348480E-1	3.847504E-2	-5.564690E-2	-5.121460E-1	8.645630E-2
1.738650E+10	-8.605042E-1	1.349182E-1	4.897461E-1	2.267456E-1	3.711319E-2	-5.622864E-2	-5.107422E-1	9.005737E-2
1.761100E+10	-8.590088E-1	1.395569E-1	4.855347E-1	2.154541E-1	3.583717E-2	-5.681801E-2	-5.126648E-1	9.051514E-2
1.783550E+10	-8.575134E-1	1.442261E-1	4.788971E-1	2.066650E-1	3.435516E-2	-5.664253E-2	-5.144958E-1	9.625244E-2
1.806000E+10	-8.568726E-1	1.463623E-1	4.756317E-1	1.968231E-1	3.338623E-2	-5.713081E-2	-5.114746E-1	9.872437E-2
1.828450E+10	-8.547058E-1	1.523437E-1	4.719696E-1	1.883392E-1	3.234291E-2	-5.648232E-2	-5.114136E-1	1.001587E-1
1.850900E+10	-8.537598E-1	1.553040E-1	4.669495E-1	1.796112E-1	3.168869E-2	-5.723190E-2	-5.143127E-1	1.046143E-1
1.873350E+10	-8.532715E-1	1.589661E-1	4.638672E-1	1.706390E-1	2.941132E-2	-5.743790E-2	-5.115662E-1	1.093140E-1
1.895800E+10	-8.510132E-1	1.614380E-1	4.588318E-1	1.617889E-1	2.929115E-2	-5.695724E-2	-5.133667E-1	1.092224E-1
1.918250E+10	-8.505554E-1	1.668396E-1	4.533234E-1	1.543579E-1	2.762604E-2	-5.737877E-2	-5.136414E-1	1.125488E-1
1.940700E+10	-8.476562E-1	1.700439E-1	4.471130E-1	1.461182E-1	2.536011E-2	-5.762672E-2	-5.104980E-1	1.185608E-1
1.963150E+10	-8.484497E-1	1.736145E-1	4.432983E-1	1.399536E-1	2.569771E-2	-5.792999E-2	-5.118713E-1	1.178589E-1
1.985600E+10	-8.460388E-1	1.769714E-1	4.396515E-1	1.325531E-1	2.418518E-2	-5.743217E-2	-5.140686E-1	1.221008E-1
2.008050E+10	-8.442383E-1	1.787109E-1	4.350433E-1	1.247406E-1	2.466774E-2	-5.813789E-2	-5.140686E-1	1.273193E-1
2.030500E+10	-8.435059E-1	1.833801E-1	4.303436E-1	1.176453E-1	2.293015E-2	-5.692291E-2	-5.114746E-1	1.287231E-1
2.052950E+10	-8.426819E-1	1.862488E-1	4.252472E-1	1.131134E-1	2.256393E-2	-5.739212E-2	-5.137024E-1	1.297302E-1
2.075400E+10	-8.419800E-1	1.892090E-1	4.225159E-1	1.069183E-1	1.998901E-2	-5.819321E-2	-5.133667E-1	1.362915E-1
2.097850E+10	-8.407288E-1	1.939087E-1	4.176025E-1	1.006927E-1	1.911736E-2	-5.771446E-2	-5.109558E-1	1.391296E-1
2.120300E+10	-8.363647E-1	1.963806E-1	4.136200E-1	9.492493E-2	1.835823E-2	-5.660439E-2	-5.132141E-1	1.387329E-1
2.142750E+10	-8.381653E-1	2.002563E-1	4.087372E-1	9.048462E-2	1.762962E-2	-5.691147E-2	-5.156555E-1	1.450500E-1
2.165200E+10	-8.363953E-1	2.047729E-1	4.050293E-1	8.314514E-2	1.570892E-2	-5.612755E-2	-5.128784E-1	1.474609E-1
2.187650E+10	-8.336792E-1	2.069092E-1	4.012146E-1	7.649231E-2	1.574135E-2	-5.634117E-2	-5.138245E-1	1.506042E-1
2.210100E+10	-8.338623E-1	2.115173E-1	3.970337E-1	7.203674E-2	1.329994E-2	-5.543709E-2	-5.157776E-1	1.548767E-1
2.232550E+10	-8.309021E-1	2.164307E-1	3.930511E-1	6.805420E-2	1.223183E-2	-5.705261E-2	-5.108643E-1	1.602478E-1
2.255000E+10	-8.314209E-1	2.173767E-1	3.877258E-1	6.221008E-2	1.040077E-2	-5.716133E-2	-5.126038E-1	1.612549E-1
2.277450E+10	-8.274536E-1	2.211914E-1	3.838654E-1	5.772400E-2	1.062775E-2	-5.555916E-2	-5.109558E-1	1.669312E-1
2.299900E+10	-8.268433E-1	2.243347E-1	3.801117E-1	5.317688E-2	9.513855E-3	-5.611038E-2	-5.100098E-1	1.691284E-1
2.322350E+10	-8.256531E-1	2.274170E-1	3.793945E-1	4.783630E-2	7.709503E-3	-5.675125E-2	-5.122070E-1	1.708069E-1
2.344800E+10	-8.245239E-1	2.288513E-1	3.741760E-1	4.362488E-2	8.274078E-3	-5.441856E-2	-5.112000E-1	1.778259E-1
2.367250E+10	-8.229675E-1	2.324524E-1	3.684998E-1	4.046631E-2	7.148743E-3	-5.547333E-2	-5.069580E-1	1.812439E-1
2.389700E+10	-8.195801E-1	2.370605E-1	3.643341E-1	3.350830E-2	4.285812E-3	-5.362320E-2	-5.080566E-1	1.829224E-1
2.412150E+10	-8.191223E-1	2.399902E-1	3.612823E-1	3.221130E-2	2.641678E-3	-5.416107E-2	-5.060425E-1	1.900330E-1
2.434600E+10	-8.169556E-1	2.427979E-1	3.596039E-1	2.745056E-2	2.489090E-3	-5.446053E-2	-5.039978E-1	1.877441E-1
2.457050E+10	-8.173218E-1	2.463074E-1	3.536072E-1	2.262878E-2	2.536774E-4	-5.372810E-2	-5.062866E-1	1.935730E-1
2.479500E+10	-8.140869E-1	2.489014E-1	3.497925E-1	2.021790E-2	-8.144379E-4	-5.330467E-2	-5.024414E-1	1.981506E-1
2.501950E+10	-8.109131E-1	2.513123E-1	3.483276E-1	1.666260E-2	-1.888275E-3	-5.223083E-2	-5.003052E-1	2.004395E-1
2.524400E+10	-8.106689E-1	2.543640E-1	3.450928E-1	1.646423E-2	-2.019882E-3	-4.953003E-2	-5.008850E-1	2.008972E-1
2.546850E+10	-8.092957E-1	2.582397E-1	3.403473E-1	1.385498E-2	-5.552292E-3	-4.850197E-2	-4.981995E-1	2.069092E-1
2.569300E+10	-8.062134E-1	2.588501E-1	3.378296E-1	8.941650E-3	-4.096985E-3	-4.975128E-2	-4.991150E-1	2.071991E-1
2.591750E+10	-8.069153E-1	2.654114E-1	3.347321E-1	6.256104E-3	-6.177902E-3	-4.779816E-2	-4.969788E-1	2.084045E-1
2.614200E+10	-8.043213E-1	2.664490E-1	3.303223E-1	3.799438E-3	-6.328583E-3	-4.769135E-2	-5.003052E-1	2.160950E-1
2.636650E+10	-8.011475E-1	2.674866E-1	3.306732E-1	3.204346E-4	-6.723404E-3	-4.738045E-2	-4.980927E-1	2.213898E-1
2.659100E+10	-7.997131E-1	2.710876E-1	3.256531E-1	-2.410889E-3	-7.089615E-3	-4.555130E-2	-4.942780E-1	2.226715E-1
2.681550E+10	-7.970886E-1	2.723694E-1	3.252411E-1	-4.333496E-3	-8.358002E-3	-4.495430E-2	-4.954529E-1	2.238007E-1
2.704000E+10	-7.976074E-1	2.770691E-1	3.200684E-1	-7.431030E-3	-9.862900E-3	-4.562759E-2	-4.945831E-1	2.354584E-1
2.726450E+10	-7.916565E-1	2.796936E-1	3.173523E-1	-1.162720E-2	-9.407043E-3	-4.412460E-2	-4.889374E-1	2.354736E-1
2.748900E+10	-7.897339E-1	2.825928E-1	3.146667E-1	-1.385498E-2	-1.024246E-2	-4.244804E-2	-4.915161E-1	2.371368E-1
2.771350E+10	-7.914429E-1	2.833557E-1	3.148651E-1	-1.432800E-2	-1.362419E-2	-4.048538E-2	-4.893951E-1	2.432556E-1
2.793800E+10	-7.892456E-1	2.879028E-1	3.107300E-1	-1.647949E-2	-1.317406E-2	-3.945541E-2	-4.902039E-1	2.441254E-1
2.816250E+10	-7.845764E-1	2.892151E-1	3.092194E-1	-1.879883E-2	-1.490402E-2	-4.060364E-2	-4.876862E-1	2.461243E-1
2.838700E+10	-7.836609E-1	2.898254E-1	3.066711E-1	-2.218628E-2	-1.445198E-2	-3.869629E-2	-4.845123E-1	2.520142E-1
2.861150E+10	-7.835083E-1	2.944336E-1	3.049927E-1	-2.305603E-2	-1.264381E-2	-3.861618E-2	-4.800415E-1	2.537842E-1
2.883600E+10	-7.800903E-1	2.967224E-1	3.014984E-1	-2.816772E-2	-1.594925E-2	-3.961754E-2	-4.804535E-1	2.577209E-1
2.906050E+10	-7.803650E-1	2.997131E-1	2.993622E-1	-2.842712E-2	-1.700401E-2	-3.583527E-2	-4.802551E-1	2.594910E-1
2.928500E+10	-7.771912E-1	3.001099E-1	3.002930E-1	-3.009033E-2	-1.689148E-2	-3.439140E-2	-4.785004E-1	2.660675E-1
2.950950E+10	-7.754211E-1	3.049622E-1	2.956543E-1	-3.120422E-2	-2.023506E-2	-3.135681E-2	-4.794922E-1	2.692566E-1
2.973400E+10	-7.749634E-1	3.076172E-1	2.967987E-1	-3.599548E-2	-1.801491E-2	-3.096867E-2	-4.802399E-1	2.701111E-1
2.995850E+10	-7.707214E-1	3.077393E-1	2.944794E-1	-3.306580E-2	-1.689625E-2	-3.018093E-2	-4.773407E-1	2.783356E-1
3.018300E+10	-7.669067E-1	3.087769E-1	2.942505E-1	-3.968811E-2	-1.917934E-2	-2.925491E-2	-4.735260E-1	2.838898E-1
3.040750E+10	-7.691650E-1	3.117676E-1	2.939453E-1	-4.136658E-2	-1.928902E-2	-2.888012E-2	-4.713745E-1	2.853241E-1
3.063200E+10	-7.643433E-1	3.129578E-1	2.902527E-1	-4.103088E-2	-1.670456E-2	-2.839756E-2	-4.731445E-1	2.951965E-1
3.085650E+10	-7.642212E-1	3.147278E-1	2.925720E-1	-5.076599E-2	-2.075863E-2	-2.970791E-2	-4.698181E-1	2.958984E-1
3.108100E+10	-7.627258E-1	3.172302E-1	2.903137E-1	-4.565430E-2	-2.283287E-2	-2.848434E-2	-4.682465E-1	3.007355E-1
3.130550E+10	-7.592163E-1	3.227234E-1	2.819824E-1	-4.922485E-2	-1.972008E-2	-2.557087E-2	-4.596405E-1	3.031006E-1
3.153000E+10	-7.575684E-1	3.234558E-1	2.875061E-1	-5.400085E-2	-2.374840E-2	-2.646255E-2	-4.591827E-1	3.036652E-1
3.175450E+10	-7.546997E-1	3.204041E-1	2.833557E-1	-4.992676E-2	-1.775265E-2	-2.019024E-2	-4.586182E-1	3.143005E-1
3.197900E+10	-7.554016E-1	3.247986E-1	2.856293E-1	-5.630493E-2	-2.167225E-2	-2.015972E-2	-4.513245E-1	3.189850E-1
3.220350E+10	-7.550049E-1	3.299561E-1	2.887573E-1	-5.911255E-2	-2.050495E-2	-1.870823E-2	-4.550476E-1	3.204498E-1
3.242800E+10	-7.545776E-1	3.314209E-1	2.800446E-1	-5.897522E-2	-2.745247E-2	-1.505184E-2	-4.447632E-1	3.235016E-1
3.265250E+10	-7.539368E-1	3.360291E-1	2.800446E-1	-6.613159E-2	-2.194214E-2	-1.645184E-2	-4.440613E-1	3.279419E-1
3.287700E+10	-7.502747E-1	3.368835E-1	2.825317E-1	-6.549072E-2	-2.155209E-2	-1.607609E-2	-4.428253E-1	3.315582E-1
3.310150E+10	-7.472229E-1	3.362122E-1	2.830048E-1	-6.855774E-2	-2.461624E-2	-1.462746E-2	-4.346313E-1	3.325195E-1
3.332600E+10	-7.447815E-1	3.386841E-1	2.782440E-1	-7.127380E-2	-1.854420E-2	-1.252174E-2	-4.307709E-1	3.391876E-1
3.355050E+10	-7.406921E-1	3.416443E-1	2.765198E-1	-7.423401E-2	-2.012730E-2	-8.718491E-3	-4.359283E-1	3.410187E-1
3.377500E+10	-7.416992E-1	3.455200E-1	2.723694E-1	-7.707214E-2	-2.114964E-2	-1.100922E-2	-4.300385E-1	3.437805E-1
3.399950E+10	-7.362671E-1	3.453979E-1	2.750549E-1	-7.698059E-2	-2.239227E-2	-7.632256E-3	-4.282227E-1	3.467255E-1
3.422400E+10	-7.369385E-1	3.474731E-1	2.728271E-1	-8.552551E-2	-2.251244E-2	-7.099152E-3	-4.258881E-1	3.585968E-1
3.444850E+10	-7.379150E-1	3.505249E-1	2.728577E-1	-8.827209E-2	-2.050304E-2	-6.239891E-3	-4.176636E-1	3.602753E-1
3.467300E+10	-7.335815E-1	3.502502E-1	2.821655E-1	-8.465576E-2	-2.046299E-2	-7.081032E-3	-4.161682E-1	3.644562E-1
3.489750E+10	-7.331238E-1	3.482971E-1	2.763977E-1	-9.088135E-2	-1.784515E-2	-3.405571E-3	-4.208527E-1	3.728790E-1
3.512200E+10	-7.341003E-1	3.527222E-1	2.715149E-1	-9.628296E-2	-2.093697E-2	-3.166199E-3	-4.077148E-1	3.722076E-1
3.534650E+10	-7.341919E-1	3.529358E-1	2.704010E-1	-9.837341E-2	-1.722240E-2	-2.414703E-3	-4.048309E-1	3.766022E-1
3.557100E+10	-7.282715E-1	3.544617E-1	2.727661E-1	-9.715271E-2	-1.992702E-2	-5.535126E-3	-3.990021E-1	3.855286E-1
3.579550E+10	-7.270813E-1	3.561401E-1	2.709961E-1	-1.071014E-1	-1.961231E-2	1.692772E-3	-3.950958E-1	3.864441E-1
3.602000E+10	-7.257080E-1	3.588562E-1	2.697296E-1	-1.126862E-1	-1.795197E-2	1.379967E-3	-3.877106E-1	3.917236E-1
3.624450E+10	-7.243347E-1	3.661499E-1	2.674408E-1	-1.125031E-1	-1.509428E-2	-6.833076E-4	-3.898468E-1	3.934784E-1
3.646900E+10	-7.232056E-1	3.637695E-1	2.654114E-1	-1.131592E-1	-1.396656E-2	4.313469E-3	-3.809662E-1	4.009247E-1
3.669350E+10	-7.198792E-1	3.635864E-1	2.631989E-1	-1.211700E-1	-1.520014E-2	4.193306E-3	-3.775177E-1	4.047241E-1
3.691800E+10	-7.206421E-1	3.674316E-1	2.643127E-1	-1.207581E-1	-1.418781E-2	8.789062E-3	-3.684387E-1	4.103241E-1
3.714250E+10	-7.169800E-1	3.654480E-1	2.589569E-1	-1.334076E-1	-1.397514E-2	9.643555E-3	-3.575592E-1	4.102020E-1
3.736700E+10	-7.148132E-1	3.675537E-1	2.593079E-1	-1.284332E-1	-1.435900E-2	1.127195E-2	-3.572235E-1	4.172516E-1
3.759150E+10	-7.102661E-1	3.716431E-1	2.605743E-1	-1.276093E-1	-1.268482E-2	6.857872E-3	-3.495636E-1	4.165649E-1
3.781600E+10	-7.122803E-1	3.720703E-1	2.561340E-1	-1.354523E-1	-1.203489E-2	1.372147E-2	-3.460388E-1	4.214020E-1
3.804050E+10	-7.082520E-1	3.747864E-1	2.549133E-1	-1.390076E-1	-8.518219E-3	1.485157E-2	-3.390656E-1	4.210815E-1
3.826500E+10	-7.069702E-1	3.799438E-1	2.556610E-1	-1.454620E-1	-9.349823E-3	1.605892E-2	-3.259888E-1	4.336090E-1
3.848950E+10	-7.094116E-1	3.783875E-1	2.495575E-1	-1.454773E-1	-9.177685E-3	9.604931E-3	-3.265839E-1	4.343414E-1
3.871400E+10	-7.135925E-1	3.768005E-1	2.485428E-1	-1.545105E-1	-9.571075E-3	1.281404E-2	-3.170013E-1	4.356689E-1
3.893850E+10	-7.050781E-1	3.826294E-1	2.509308E-1	-1.478729E-1	-2.829552E-3	1.729202E-2	-3.084412E-1	4.349365E-1
3.916300E+10	-7.036438E-1	3.822937E-1	2.454224E-1	-1.574478E-1	-8.493423E-3	2.050495E-2	-3.065948E-1	4.398041E-1
3.938750E+10	-7.039185E-1	3.860168E-1	2.469711E-1	-1.651688E-1	-4.192352E-3	1.653385E-2	-3.064880E-1	4.387970E-1
