!Date: 10/28/2005, 12:46 PM

!Vgs = -4.000000E+0
!Vds = 1.500000E+1
!Ig = -4.354500E-5
!Id = 1.638000E-1

# HZ S RI R 50
1.000000E+8	9.660645E-1	-1.875305E-1	-1.667383E+1	1.452148E+0	1.982689E-3	8.275032E-3	6.041565E-1	-6.872559E-2
3.245000E+8	8.072510E-1	-5.161743E-1	-1.499121E+1	5.257324E+0	8.215904E-3	1.982117E-2	4.664459E-1	-2.378998E-1
5.490000E+8	5.740356E-1	-7.436218E-1	-1.266943E+1	7.387695E+0	1.753998E-2	2.785683E-2	3.777161E-1	-3.191681E-1
7.735000E+8	3.330383E-1	-8.621216E-1	-1.028174E+1	8.431152E+0	2.729607E-2	3.098011E-2	2.732697E-1	-3.673248E-1
9.980000E+8	1.176453E-1	-9.043884E-1	-8.167969E+0	8.781250E+0	3.565216E-2	3.091049E-2	1.859589E-1	-3.766937E-1
1.222500E+9	-6.185913E-2	-9.027405E-1	-6.434082E+0	8.732422E+0	4.248810E-2	2.989960E-2	1.198578E-1	-3.776245E-1
1.447000E+9	-2.124634E-1	-8.760376E-1	-5.023926E+0	8.461914E+0	4.793739E-2	2.779579E-2	6.396484E-2	-3.714142E-1
1.671500E+9	-3.312988E-1	-8.369751E-1	-3.884766E+0	8.044922E+0	5.211067E-2	2.613831E-2	1.724243E-2	-3.620453E-1
1.896000E+9	-4.282227E-1	-7.891235E-1	-3.012695E+0	7.572021E+0	5.573654E-2	2.332878E-2	-2.059937E-2	-3.443756E-1
2.120500E+9	-5.027466E-1	-7.410889E-1	-2.330078E+0	7.129639E+0	5.847931E-2	2.065086E-2	-4.786682E-2	-3.308105E-1
2.345000E+9	-5.641174E-1	-6.915894E-1	-1.768066E+0	6.691162E+0	6.082726E-2	1.779938E-2	-7.139587E-2	-3.165283E-1
2.569500E+9	-6.101990E-1	-6.466370E-1	-1.315674E+0	6.281738E+0	6.265259E-2	1.511383E-2	-8.970642E-2	-3.051605E-1
2.794000E+9	-6.502075E-1	-6.068115E-1	-9.631348E-1	5.903564E+0	6.398392E-2	1.225281E-2	-1.039734E-1	-2.941589E-1
3.018500E+9	-6.816406E-1	-5.692139E-1	-6.555176E-1	5.557617E+0	6.466675E-2	1.007462E-2	-1.170654E-1	-2.860565E-1
3.243000E+9	-7.088928E-1	-5.335693E-1	-3.962402E-1	5.239014E+0	6.552124E-2	7.637024E-3	-1.293182E-1	-2.786102E-1
3.467500E+9	-7.325134E-1	-5.032959E-1	-1.870117E-1	4.948730E+0	6.587601E-2	6.160736E-3	-1.388550E-1	-2.709808E-1
3.692000E+9	-7.532654E-1	-4.731140E-1	-4.394531E-3	4.673096E+0	6.686783E-2	4.299164E-3	-1.473083E-1	-2.669220E-1
3.916500E+9	-7.697754E-1	-4.430237E-1	1.494141E-1	4.421631E+0	6.691360E-2	2.372742E-3	-1.575623E-1	-2.626801E-1
4.141000E+9	-7.834167E-1	-4.175415E-1	2.792969E-1	4.188721E+0	6.717300E-2	3.356934E-4	-1.654358E-1	-2.573700E-1
4.365500E+9	-7.939453E-1	-3.940735E-1	3.908691E-1	3.972778E+0	6.707764E-2	-1.331329E-3	-1.728973E-1	-2.539368E-1
4.590000E+9	-8.056641E-1	-3.716125E-1	4.868164E-1	3.770996E+0	6.747818E-2	-2.960205E-3	-1.806793E-1	-2.501221E-1
4.814500E+9	-8.150940E-1	-3.505249E-1	5.657959E-1	3.585449E+0	6.795120E-2	-4.314423E-3	-1.854858E-1	-2.476730E-1
5.039000E+9	-8.225708E-1	-3.302307E-1	6.387939E-1	3.412109E+0	6.798172E-2	-6.347656E-3	-1.932602E-1	-2.454376E-1
5.263500E+9	-8.295898E-1	-3.116455E-1	7.006836E-1	3.249756E+0	6.739807E-2	-7.957458E-3	-2.002029E-1	-2.420502E-1
5.488000E+9	-8.348694E-1	-2.950745E-1	7.503662E-1	3.100098E+0	6.769943E-2	-9.284973E-3	-2.048645E-1	-2.392883E-1
5.712500E+9	-8.419189E-1	-2.790833E-1	7.982178E-1	2.957153E+0	6.745529E-2	-1.073074E-2	-2.106552E-1	-2.377625E-1
5.937000E+9	-8.454895E-1	-2.615356E-1	8.363037E-1	2.827026E+0	6.729126E-2	-1.220322E-2	-2.159195E-1	-2.364120E-1
6.161500E+9	-8.495483E-1	-2.482910E-1	8.730469E-1	2.707031E+0	6.718445E-2	-1.378250E-2	-2.206345E-1	-2.345200E-1
6.386000E+9	-8.546448E-1	-2.338867E-1	9.068604E-1	2.587769E+0	6.679535E-2	-1.436615E-2	-2.246552E-1	-2.341461E-1
6.610500E+9	-8.572388E-1	-2.208252E-1	9.377441E-1	2.477905E+0	6.632614E-2	-1.613617E-2	-2.316666E-1	-2.340698E-1
6.835000E+9	-8.607178E-1	-2.083130E-1	9.617920E-1	2.371094E+0	6.651688E-2	-1.729965E-2	-2.369690E-1	-2.315750E-1
7.059500E+9	-8.629456E-1	-1.966553E-1	9.787598E-1	2.271606E+0	6.592941E-2	-1.888657E-2	-2.394791E-1	-2.317505E-1
7.284000E+9	-8.645935E-1	-1.851807E-1	9.976807E-1	2.176758E+0	6.544113E-2	-1.996231E-2	-2.464447E-1	-2.319031E-1
7.508500E+9	-8.675232E-1	-1.733704E-1	1.012451E+0	2.086060E+0	6.457901E-2	-2.127075E-2	-2.508850E-1	-2.289124E-1
7.733000E+9	-8.684692E-1	-1.622009E-1	1.024536E+0	2.000610E+0	6.440735E-2	-2.239990E-2	-2.558746E-1	-2.305450E-1
7.957500E+9	-8.710632E-1	-1.521912E-1	1.038025E+0	1.921265E+0	6.412888E-2	-2.380753E-2	-2.621460E-1	-2.295074E-1
8.182000E+9	-8.720398E-1	-1.416016E-1	1.048401E+0	1.842834E+0	6.383133E-2	-2.495193E-2	-2.672882E-1	-2.299805E-1
8.406500E+9	-8.726196E-1	-1.328125E-1	1.054138E+0	1.767517E+0	6.311417E-2	-2.512360E-2	-2.718048E-1	-2.279358E-1
8.631000E+9	-8.745728E-1	-1.227112E-1	1.063171E+0	1.694763E+0	6.175423E-2	-2.662849E-2	-2.774200E-1	-2.282104E-1
8.855500E+9	-8.750305E-1	-1.140747E-1	1.067078E+0	1.625549E+0	6.216812E-2	-2.800941E-2	-2.835388E-1	-2.261658E-1
9.080001E+9	-8.764343E-1	-1.069641E-1	1.071289E+0	1.561340E+0	6.123924E-2	-2.952194E-2	-2.872162E-1	-2.248993E-1
9.304500E+9	-8.769836E-1	-9.515381E-2	1.071350E+0	1.497864E+0	6.060219E-2	-3.052902E-2	-2.930908E-1	-2.252197E-1
9.529000E+9	-8.768921E-1	-8.999634E-2	1.073242E+0	1.435974E+0	5.964470E-2	-3.130531E-2	-2.993469E-1	-2.233734E-1
9.753500E+9	-8.779907E-1	-8.160400E-2	1.072144E+0	1.379517E+0	5.912018E-2	-3.232002E-2	-3.025513E-1	-2.220917E-1
9.978000E+9	-8.779297E-1	-7.379150E-2	1.070374E+0	1.324951E+0	5.780602E-2	-3.293991E-2	-3.073730E-1	-2.215881E-1
1.020250E+10	-8.781433E-1	-6.695557E-2	1.069458E+0	1.271545E+0	5.761719E-2	-3.391075E-2	-3.134918E-1	-2.191467E-1
1.042700E+10	-8.800964E-1	-5.908203E-2	1.067932E+0	1.220642E+0	5.648041E-2	-3.497124E-2	-3.175964E-1	-2.180634E-1
1.065150E+10	-8.784790E-1	-5.264282E-2	1.063660E+0	1.172302E+0	5.551720E-2	-3.561211E-2	-3.226929E-1	-2.191772E-1
1.087600E+10	-8.795776E-1	-4.547119E-2	1.060242E+0	1.125305E+0	5.478859E-2	-3.649330E-2	-3.280487E-1	-2.177277E-1
1.110050E+10	-8.791199E-1	-3.775024E-2	1.057434E+0	1.079590E+0	5.455399E-2	-3.673172E-2	-3.329468E-1	-2.156067E-1
1.132500E+10	-8.792419E-1	-3.134155E-2	1.053101E+0	1.035400E+0	5.428886E-2	-3.836060E-2	-3.370056E-1	-2.154388E-1
1.154950E+10	-8.800354E-1	-2.401733E-2	1.048645E+0	9.915161E-1	5.267715E-2	-3.907585E-2	-3.443146E-1	-2.134552E-1
1.177400E+10	-8.776245E-1	-1.818848E-2	1.043030E+0	9.515991E-1	5.152130E-2	-3.969955E-2	-3.486176E-1	-2.105560E-1
1.199850E+10	-8.777466E-1	-1.260376E-2	1.037842E+0	9.135742E-1	5.045891E-2	-3.966141E-2	-3.521118E-1	-2.100525E-1
1.222300E+10	-8.782043E-1	-5.493164E-3	1.029419E+0	8.739014E-1	5.093765E-2	-4.094315E-2	-3.584290E-1	-2.084656E-1
1.244750E+10	-8.780212E-1	-9.155273E-4	1.022156E+0	8.356323E-1	4.934120E-2	-4.173660E-2	-3.628845E-1	-2.057343E-1
1.267200E+10	-8.774719E-1	5.401611E-3	1.015198E+0	8.010254E-1	4.806709E-2	-4.242516E-2	-3.665314E-1	-2.067261E-1
1.289650E+10	-8.767700E-1	1.107788E-2	1.006470E+0	7.666016E-1	4.748726E-2	-4.351234E-2	-3.746185E-1	-2.048645E-1
1.312100E+10	-8.768616E-1	1.644897E-2	9.980469E-1	7.339783E-1	4.671860E-2	-4.361343E-2	-3.783112E-1	-2.002106E-1
1.334550E+10	-8.767395E-1	2.148437E-2	9.906921E-1	7.036133E-1	4.590416E-2	-4.459572E-2	-3.813782E-1	-2.003632E-1
1.357000E+10	-8.760071E-1	2.624512E-2	9.830017E-1	6.716003E-1	4.499626E-2	-4.428482E-2	-3.872223E-1	-1.995697E-1
1.379450E+10	-8.750000E-1	3.210449E-2	9.739075E-1	6.445312E-1	4.396439E-2	-4.556084E-2	-3.934479E-1	-1.944275E-1
1.401900E+10	-8.749084E-1	3.726196E-2	9.658203E-1	6.163025E-1	4.308319E-2	-4.712677E-2	-3.958282E-1	-1.933899E-1
1.424350E+10	-8.736572E-1	4.177856E-2	9.566956E-1	5.882568E-1	4.177094E-2	-4.637337E-2	-4.029541E-1	-1.910095E-1
1.446800E+10	-8.738403E-1	4.858398E-2	9.500732E-1	5.624084E-1	4.120445E-2	-4.732132E-2	-4.060516E-1	-1.844330E-1
1.469250E+10	-8.718262E-1	5.343628E-2	9.411011E-1	5.361023E-1	4.009819E-2	-4.709244E-2	-4.075775E-1	-1.836700E-1
1.491700E+10	-8.714905E-1	5.859375E-2	9.315796E-1	5.088806E-1	3.898621E-2	-4.864693E-2	-4.148102E-1	-1.835175E-1
1.514150E+10	-8.704224E-1	6.277466E-2	9.237976E-1	4.853210E-1	3.893852E-2	-4.880905E-2	-4.189758E-1	-1.782837E-1
1.536600E+10	-8.695068E-1	6.854248E-2	9.130249E-1	4.594421E-1	3.714561E-2	-4.907417E-2	-4.207764E-1	-1.766205E-1
1.559050E+10	-8.695374E-1	7.363892E-2	9.031067E-1	4.364319E-1	3.711319E-2	-4.928017E-2	-4.265137E-1	-1.759186E-1
1.581500E+10	-8.679810E-1	7.647705E-2	8.918762E-1	4.143982E-1	3.582191E-2	-4.985237E-2	-4.342499E-1	-1.715698E-1
1.603950E+10	-8.675537E-1	8.233643E-2	8.832397E-1	3.928223E-1	3.471184E-2	-5.073166E-2	-4.355621E-1	-1.685638E-1
1.626400E+10	-8.664856E-1	8.682251E-2	8.740845E-1	3.734741E-1	3.230476E-2	-5.053139E-2	-4.418488E-1	-1.669617E-1
1.648850E+10	-8.659668E-1	8.996582E-2	8.637695E-1	3.538513E-1	3.262901E-2	-5.058861E-2	-4.456329E-1	-1.623230E-1
1.671300E+10	-8.648376E-1	9.506226E-2	8.537292E-1	3.346252E-1	3.136253E-2	-5.241203E-2	-4.501190E-1	-1.599274E-1
1.693750E+10	-8.645325E-1	9.988403E-2	8.448181E-1	3.158875E-1	3.010941E-2	-5.151367E-2	-4.551544E-1	-1.570892E-1
1.716200E+10	-8.628845E-1	1.044922E-1	8.349609E-1	2.978210E-1	2.918053E-2	-5.312538E-2	-4.584503E-1	-1.523590E-1
1.738650E+10	-8.619690E-1	1.087646E-1	8.247070E-1	2.842712E-1	2.731323E-2	-5.309868E-2	-4.602814E-1	-1.487732E-1
1.761100E+10	-8.615112E-1	1.130676E-1	8.168335E-1	2.650757E-1	2.748108E-2	-5.198097E-2	-4.669189E-1	-1.478729E-1
1.783550E+10	-8.599548E-1	1.172791E-1	8.060303E-1	2.486267E-1	2.624130E-2	-5.199051E-2	-4.708557E-1	-1.395111E-1
1.806000E+10	-8.595276E-1	1.211243E-1	7.983398E-1	2.344971E-1	2.486801E-2	-5.331612E-2	-4.714508E-1	-1.366882E-1
1.828450E+10	-8.583069E-1	1.253357E-1	7.890930E-1	2.187500E-1	2.390480E-2	-5.238152E-2	-4.760590E-1	-1.351013E-1
1.850900E+10	-8.578491E-1	1.307983E-1	7.800293E-1	2.038574E-1	2.348709E-2	-5.354309E-2	-4.816895E-1	-1.293182E-1
1.873350E+10	-8.562622E-1	1.337585E-1	7.689514E-1	1.878052E-1	2.196884E-2	-5.349731E-2	-4.817657E-1	-1.245422E-1
1.895800E+10	-8.537903E-1	1.373291E-1	7.601624E-1	1.729736E-1	2.098846E-2	-5.457306E-2	-4.854279E-1	-1.241608E-1
1.918250E+10	-8.546448E-1	1.412048E-1	7.509766E-1	1.594238E-1	2.091026E-2	-5.461121E-2	-4.924927E-1	-1.200562E-1
1.940700E+10	-8.508911E-1	1.449890E-1	7.392883E-1	1.462708E-1	1.909637E-2	-5.471992E-2	-4.922638E-1	-1.111908E-1
1.963150E+10	-8.516235E-1	1.495972E-1	7.300110E-1	1.333923E-1	1.819229E-2	-5.436707E-2	-4.947968E-1	-1.111145E-1
1.985600E+10	-8.494263E-1	1.535339E-1	7.210083E-1	1.246643E-1	1.641846E-2	-5.310440E-2	-4.999542E-1	-1.061859E-1
2.008050E+10	-8.471069E-1	1.555481E-1	7.113647E-1	1.109924E-1	1.477623E-2	-5.400467E-2	-5.043945E-1	-9.799194E-2
2.030500E+10	-8.475037E-1	1.594849E-1	7.021790E-1	1.000061E-1	1.354218E-2	-5.483818E-2	-5.044556E-1	-9.875488E-2
2.052950E+10	-8.464355E-1	1.629639E-1	6.912537E-1	8.972168E-2	1.226997E-2	-5.366707E-2	-5.088196E-1	-9.317017E-2
2.075400E+10	-8.452148E-1	1.663818E-1	6.846008E-1	8.117676E-2	1.129913E-2	-5.426788E-2	-5.130005E-1	-8.645630E-2
2.097850E+10	-8.438416E-1	1.707153E-1	6.759338E-1	6.851196E-2	1.125336E-2	-5.383301E-2	-5.131531E-1	-8.389282E-2
2.120300E+10	-8.428040E-1	1.744385E-1	6.661072E-1	5.981445E-2	8.922577E-3	-5.285454E-2	-5.181274E-1	-8.316040E-2
2.142750E+10	-8.423767E-1	1.788635E-1	6.588440E-1	5.056763E-2	8.045197E-3	-5.443764E-2	-5.226440E-1	-7.638550E-2
2.165200E+10	-8.405457E-1	1.834412E-1	6.500854E-1	4.055786E-2	7.095337E-3	-5.214119E-2	-5.231628E-1	-7.196045E-2
2.187650E+10	-8.391724E-1	1.859741E-1	6.401672E-1	3.204346E-2	5.283356E-3	-5.396080E-2	-5.261536E-1	-6.823730E-2
2.210100E+10	-8.377075E-1	1.892700E-1	6.320496E-1	2.236938E-2	4.539490E-3	-5.558777E-2	-5.322266E-1	-6.121826E-2
2.232550E+10	-8.363953E-1	1.918335E-1	6.229248E-1	1.379395E-2	2.780914E-3	-5.266571E-2	-5.307922E-1	-5.465698E-2
2.255000E+10	-8.359680E-1	1.970520E-1	6.157837E-1	7.659912E-3	2.151489E-3	-5.186462E-2	-5.340576E-1	-5.471802E-2
2.277450E+10	-8.334045E-1	2.013245E-1	6.063232E-1	-4.333496E-3	1.100540E-3	-5.172157E-2	-5.367432E-1	-4.653931E-2
2.299900E+10	-8.329163E-1	2.028503E-1	5.986328E-1	-9.796143E-3	4.024506E-4	-5.127907E-2	-5.370483E-1	-4.183960E-2
2.322350E+10	-8.311768E-1	2.078857E-1	5.922546E-1	-1.730347E-2	-3.452301E-4	-5.279350E-2	-5.425720E-1	-4.040527E-2
2.344800E+10	-8.310852E-1	2.080994E-1	5.827332E-1	-2.215576E-2	-3.202438E-3	-5.218697E-2	-5.436707E-1	-3.109741E-2
2.367250E+10	-8.286743E-1	2.135010E-1	5.729675E-1	-3.002930E-2	-2.691269E-3	-5.339050E-2	-5.429077E-1	-2.734375E-2
2.389700E+10	-8.269348E-1	2.174988E-1	5.658875E-1	-3.775024E-2	-5.687714E-3	-5.065536E-2	-5.474548E-1	-2.319336E-2
2.412150E+10	-8.270569E-1	2.216797E-1	5.581360E-1	-4.318237E-2	-5.908966E-3	-5.080795E-2	-5.458984E-1	-1.477051E-2
2.434600E+10	-8.222046E-1	2.251282E-1	5.507507E-1	-4.895020E-2	-5.310059E-3	-4.972458E-2	-5.469055E-1	-1.361084E-2
2.457050E+10	-8.228455E-1	2.264404E-1	5.437317E-1	-5.511475E-2	-8.821487E-3	-5.013657E-2	-5.506897E-1	-8.605957E-3
2.479500E+10	-8.202820E-1	2.290955E-1	5.346069E-1	-6.100464E-2	-8.193970E-3	-4.897118E-2	-5.508423E-1	1.342773E-3
2.501950E+10	-8.185425E-1	2.334290E-1	5.287170E-1	-6.506348E-2	-1.146507E-2	-4.716682E-2	-5.486145E-1	2.624512E-3
2.524400E+10	-8.171082E-1	2.365417E-1	5.197754E-1	-7.003784E-2	-1.194000E-2	-4.873276E-2	-5.509033E-1	6.958008E-3
2.546850E+10	-8.158264E-1	2.413330E-1	5.140991E-1	-7.324219E-2	-1.438141E-2	-4.685974E-2	-5.505371E-1	1.254272E-2
2.569300E+10	-8.142395E-1	2.432251E-1	5.044861E-1	-7.907104E-2	-1.231194E-2	-4.564476E-2	-5.543213E-1	1.354980E-2
2.591750E+10	-8.126831E-1	2.485046E-1	4.976959E-1	-8.435059E-2	-1.617622E-2	-4.471970E-2	-5.558167E-1	1.962280E-2
2.614200E+10	-8.105774E-1	2.496338E-1	4.919434E-1	-8.685303E-2	-1.760674E-2	-4.359055E-2	-5.593567E-1	2.658081E-2
2.636650E+10	-8.111267E-1	2.521362E-1	4.822998E-1	-9.162903E-2	-1.869774E-2	-4.380798E-2	-5.613098E-1	3.106689E-2
2.659100E+10	-8.075867E-1	2.551880E-1	4.782867E-1	-9.567261E-2	-1.795578E-2	-4.315758E-2	-5.587769E-1	3.738403E-2
2.681550E+10	-8.052979E-1	2.568665E-1	4.714355E-1	-9.785461E-2	-1.856041E-2	-4.243279E-2	-5.620728E-1	3.948975E-2
2.704000E+10	-8.045349E-1	2.585754E-1	4.617615E-1	-1.023407E-1	-2.070045E-2	-4.088974E-2	-5.637512E-1	5.142212E-2
2.726450E+10	-8.014832E-1	2.633057E-1	4.598389E-1	-1.089935E-1	-2.098656E-2	-4.156876E-2	-5.579224E-1	5.471802E-2
2.748900E+10	-8.001404E-1	2.655640E-1	4.525299E-1	-1.108551E-1	-2.194405E-2	-3.904343E-2	-5.606995E-1	5.718994E-2
2.771350E+10	-7.987366E-1	2.674255E-1	4.466248E-1	-1.125031E-1	-2.190590E-2	-4.001808E-2	-5.611572E-1	6.170654E-2
2.793800E+10	-7.975464E-1	2.687683E-1	4.430542E-1	-1.147461E-1	-2.527046E-2	-3.674126E-2	-5.622559E-1	6.378174E-2
2.816250E+10	-7.969360E-1	2.738037E-1	4.376678E-1	-1.196899E-1	-2.216339E-2	-4.076195E-2	-5.657959E-1	7.183838E-2
2.838700E+10	-7.925415E-1	2.776794E-1	4.275665E-1	-1.232300E-1	-2.929687E-2	-3.790855E-2	-5.630188E-1	7.635498E-2
2.861150E+10	-7.929382E-1	2.797241E-1	4.218903E-1	-1.251678E-1	-2.574348E-2	-3.196716E-2	-5.631714E-1	8.261108E-2
2.883600E+10	-7.887268E-1	2.826233E-1	4.165649E-1	-1.286469E-1	-2.773666E-2	-3.359032E-2	-5.612793E-1	8.294678E-2
2.906050E+10	-7.889099E-1	2.866211E-1	4.092865E-1	-1.281586E-1	-2.939796E-2	-3.341293E-2	-5.657349E-1	9.365845E-2
2.928500E+10	-7.860718E-1	2.863770E-1	4.073334E-1	-1.292114E-1	-3.101921E-2	-2.952385E-2	-5.625000E-1	9.622192E-2
2.950950E+10	-7.842102E-1	2.933655E-1	4.044189E-1	-1.329651E-1	-2.901936E-2	-2.808475E-2	-5.673218E-1	1.025391E-1
2.973400E+10	-7.834473E-1	2.926025E-1	4.021606E-1	-1.350708E-1	-2.744007E-2	-2.807331E-2	-5.660706E-1	1.087952E-1
2.995850E+10	-7.812195E-1	2.961426E-1	3.917999E-1	-1.378479E-1	-3.236198E-2	-2.773285E-2	-5.684814E-1	1.124878E-1
3.018300E+10	-7.781982E-1	2.954407E-1	3.889313E-1	-1.404114E-1	-3.148270E-2	-2.754974E-2	-5.671997E-1	1.204834E-1
3.040750E+10	-7.799683E-1	3.032532E-1	3.838654E-1	-1.429138E-1	-3.475571E-2	-2.709198E-2	-5.681152E-1	1.276855E-1
3.063200E+10	-7.744446E-1	3.014832E-1	3.772736E-1	-1.431122E-1	-3.409195E-2	-2.548218E-2	-5.641174E-1	1.339111E-1
3.085650E+10	-7.739258E-1	3.094482E-1	3.766785E-1	-1.476593E-1	-3.069496E-2	-2.657890E-2	-5.683594E-1	1.399231E-1
3.108100E+10	-7.716370E-1	3.084412E-1	3.707581E-1	-1.504822E-1	-3.605843E-2	-2.187729E-2	-5.695801E-1	1.443481E-1
3.130550E+10	-7.696228E-1	3.106995E-1	3.609009E-1	-1.493988E-1	-3.342819E-2	-1.857758E-2	-5.618896E-1	1.445618E-1
3.153000E+10	-7.680359E-1	3.142090E-1	3.592377E-1	-1.502228E-1	-3.894997E-2	-2.035141E-2	-5.683289E-1	1.542053E-1
3.175450E+10	-7.679138E-1	3.165894E-1	3.571777E-1	-1.540527E-1	-3.763008E-2	-1.449394E-2	-5.637207E-1	1.655884E-1
3.197900E+10	-7.633972E-1	3.150024E-1	3.517303E-1	-1.553650E-1	-3.681183E-2	-1.706123E-2	-5.585022E-1	1.709595E-1
3.220350E+10	-7.639771E-1	3.216553E-1	3.528900E-1	-1.589813E-1	-3.377724E-2	-1.616859E-2	-5.604553E-1	1.723633E-1
3.242800E+10	-7.633362E-1	3.263245E-1	3.484802E-1	-1.589203E-1	-3.727531E-2	-1.342392E-2	-5.599365E-1	1.815186E-1
3.265250E+10	-7.622375E-1	3.241577E-1	3.462372E-1	-1.585999E-1	-3.978157E-2	-1.445580E-2	-5.558472E-1	1.854858E-1
3.287700E+10	-7.576294E-1	3.286438E-1	3.430176E-1	-1.640167E-1	-3.961372E-2	-1.325226E-2	-5.632935E-1	1.911621E-1
3.310150E+10	-7.584229E-1	3.292847E-1	3.375702E-1	-1.641388E-1	-4.059982E-2	-1.042747E-2	-5.574036E-1	1.974487E-1
3.332600E+10	-7.543945E-1	3.292542E-1	3.316650E-1	-1.632996E-1	-3.694725E-2	-6.580353E-3	-5.517273E-1	2.030640E-1
3.355050E+10	-7.513428E-1	3.336182E-1	3.298798E-1	-1.692352E-1	-3.866005E-2	-5.235672E-3	-5.559692E-1	2.061157E-1
3.377500E+10	-7.523193E-1	3.389282E-1	3.289948E-1	-1.663208E-1	-3.932953E-2	-3.227234E-3	-5.500793E-1	2.042542E-1
3.399950E+10	-7.527771E-1	3.381653E-1	3.217926E-1	-1.710968E-1	-4.106522E-2	-9.346008E-4	-5.535889E-1	2.191162E-1
3.422400E+10	-7.469482E-1	3.424988E-1	3.164368E-1	-1.759949E-1	-3.954697E-2	-1.123428E-3	-5.523682E-1	2.250671E-1
3.444850E+10	-7.469177E-1	3.449097E-1	3.163300E-1	-1.833649E-1	-3.866577E-2	-1.457214E-3	-5.469360E-1	2.294312E-1
3.467300E+10	-7.412720E-1	3.482971E-1	3.233185E-1	-1.751556E-1	-3.981400E-2	-2.832413E-3	-5.549622E-1	2.412720E-1
3.489750E+10	-7.442932E-1	3.503418E-1	3.061066E-1	-1.773529E-1	-3.811455E-2	5.413055E-3	-5.508118E-1	2.461548E-1
3.512200E+10	-7.431946E-1	3.517456E-1	3.067017E-1	-1.762695E-1	-4.084206E-2	5.231857E-3	-5.425720E-1	2.461243E-1
3.534650E+10	-7.410583E-1	3.522644E-1	3.029175E-1	-1.841125E-1	-3.411674E-2	6.042480E-3	-5.437622E-1	2.557983E-1
3.557100E+10	-7.369995E-1	3.532104E-1	3.015442E-1	-1.863861E-1	-3.833961E-2	7.503510E-3	-5.408020E-1	2.700500E-1
3.579550E+10	-7.352600E-1	3.538818E-1	2.964172E-1	-1.843719E-1	-4.124832E-2	5.958557E-3	-5.326233E-1	2.721558E-1
3.602000E+10	-7.367249E-1	3.554382E-1	2.936707E-1	-1.841431E-1	-3.712654E-2	9.654999E-3	-5.340881E-1	2.794800E-1
3.624450E+10	-7.313232E-1	3.638916E-1	2.921753E-1	-1.836395E-1	-3.907585E-2	1.350403E-2	-5.356140E-1	2.866821E-1
3.646900E+10	-7.313538E-1	3.641052E-1	2.880096E-1	-1.931763E-1	-3.714180E-2	1.269150E-2	-5.263062E-1	2.941284E-1
3.669350E+10	-7.284851E-1	3.624573E-1	2.829895E-1	-1.917419E-1	-3.595352E-2	1.113319E-2	-5.245667E-1	2.966309E-1
3.691800E+10	-7.268066E-1	3.647461E-1	2.869873E-1	-1.944122E-1	-3.783989E-2	1.354980E-2	-5.203857E-1	3.074646E-1
3.714250E+10	-7.236633E-1	3.657532E-1	2.802277E-1	-1.965942E-1	-3.497124E-2	1.752090E-2	-5.141296E-1	3.128357E-1
3.736700E+10	-7.221680E-1	3.701782E-1	2.800598E-1	-1.970367E-1	-3.753853E-2	2.085495E-2	-5.146790E-1	3.161621E-1
3.759150E+10	-7.212830E-1	3.694153E-1	2.720947E-1	-2.041626E-1	-3.755951E-2	2.040100E-2	-5.089111E-1	3.240051E-1
3.781600E+10	-7.158203E-1	3.756409E-1	2.732697E-1	-2.043762E-1	-3.181458E-2	1.670647E-2	-5.069580E-1	3.253784E-1
3.804050E+10	-7.202148E-1	3.730469E-1	2.691345E-1	-2.040710E-1	-3.582382E-2	2.630806E-2	-5.017395E-1	3.365784E-1
3.826500E+10	-7.184143E-1	3.773499E-1	2.723846E-1	-2.089996E-1	-3.816414E-2	2.738190E-2	-4.974670E-1	3.432770E-1
3.848950E+10	-7.098389E-1	3.809509E-1	2.660522E-1	-2.147217E-1	-3.285789E-2	2.873230E-2	-4.937592E-1	3.524017E-1
3.871400E+10	-7.118530E-1	3.753357E-1	2.621613E-1	-2.100677E-1	-2.895927E-2	3.221130E-2	-4.850616E-1	3.574524E-1
3.893850E+10	-7.107544E-1	3.835144E-1	2.558594E-1	-2.116394E-1	-2.659607E-2	3.083897E-2	-4.744568E-1	3.598633E-1
3.916300E+10	-7.131042E-1	3.831177E-1	2.601166E-1	-2.116394E-1	-3.081608E-2	3.032684E-2	-4.779205E-1	3.668060E-1
