!Date: 10/28/2005, 12:46 PM

!Vgs = -1.000000E+0
!Vds = 1.500000E+1
!Ig = -2.743000E-5
!Id = 7.294500E-1

# HZ S RI R 50
1.000000E+8	9.635620E-1	-1.694031E-1	-1.348193E+1	1.474609E-1	-5.598068E-4	6.990671E-3	5.653992E-1	-1.333618E-2
3.245000E+8	8.002625E-1	-5.106201E-1	-1.242627E+1	4.238770E+0	8.635521E-3	2.282047E-2	3.444214E-1	-2.272644E-1
5.490000E+8	5.682373E-1	-7.406311E-1	-1.050000E+1	6.109863E+0	2.015114E-2	3.235054E-2	2.816620E-1	-2.948151E-1
7.735000E+8	3.308105E-1	-8.576660E-1	-8.469727E+0	6.963379E+0	3.163910E-2	3.611755E-2	1.715851E-1	-3.553467E-1
9.980000E+8	1.186218E-1	-8.943787E-1	-6.683105E+0	7.217773E+0	4.128075E-2	3.625870E-2	8.360291E-2	-3.508148E-1
1.222500E+9	-6.121826E-2	-8.893433E-1	-5.245361E+0	7.160156E+0	4.882812E-2	3.470993E-2	2.465820E-2	-3.537903E-1
1.447000E+9	-2.084656E-1	-8.622437E-1	-4.085937E+0	6.900391E+0	5.511856E-2	3.258133E-2	-3.373718E-2	-3.424683E-1
1.671500E+9	-3.244629E-1	-8.226929E-1	-3.180908E+0	6.552246E+0	6.032372E-2	3.004646E-2	-7.470703E-2	-3.307648E-1
1.896000E+9	-4.190979E-1	-7.742004E-1	-2.481201E+0	6.169678E+0	6.411362E-2	2.689362E-2	-1.089630E-1	-3.130493E-1
2.120500E+9	-4.914551E-1	-7.270203E-1	-1.926025E+0	5.812500E+0	6.758499E-2	2.409744E-2	-1.339417E-1	-3.011017E-1
2.345000E+9	-5.506287E-1	-6.781616E-1	-1.464844E+0	5.455566E+0	7.006836E-2	2.057648E-2	-1.580658E-1	-2.850189E-1
2.569500E+9	-5.958557E-1	-6.339111E-1	-1.098389E+0	5.115234E+0	7.151413E-2	1.749039E-2	-1.730042E-1	-2.717438E-1
2.794000E+9	-6.348267E-1	-5.956116E-1	-8.090820E-1	4.816406E+0	7.317352E-2	1.517868E-2	-1.889343E-1	-2.621460E-1
3.018500E+9	-6.658630E-1	-5.583496E-1	-5.639648E-1	4.526367E+0	7.413101E-2	1.268768E-2	-1.991501E-1	-2.494583E-1
3.243000E+9	-6.918335E-1	-5.229797E-1	-3.576660E-1	4.270996E+0	7.517624E-2	9.868622E-3	-2.092514E-1	-2.434616E-1
3.467500E+9	-7.147217E-1	-4.936523E-1	-1.850586E-1	4.035645E+0	7.520294E-2	7.534027E-3	-2.198105E-1	-2.342300E-1
3.692000E+9	-7.348328E-1	-4.640503E-1	-3.808594E-2	3.812744E+0	7.654572E-2	5.538940E-3	-2.250290E-1	-2.286453E-1
3.916500E+9	-7.502747E-1	-4.358215E-1	8.508301E-2	3.608032E+0	7.668304E-2	3.219604E-3	-2.370529E-1	-2.238998E-1
4.141000E+9	-7.645874E-1	-4.109497E-1	1.907959E-1	3.421753E+0	7.737350E-2	1.346588E-3	-2.414246E-1	-2.155762E-1
4.365500E+9	-7.755432E-1	-3.879395E-1	2.830811E-1	3.248047E+0	7.714462E-2	-3.623962E-4	-2.474594E-1	-2.131348E-1
4.590000E+9	-7.869873E-1	-3.663635E-1	3.602295E-1	3.084106E+0	7.766342E-2	-2.460480E-3	-2.548981E-1	-2.071228E-1
4.814500E+9	-7.955322E-1	-3.458252E-1	4.241943E-1	2.935059E+0	7.760239E-2	-3.913879E-3	-2.592773E-1	-2.033691E-1
5.039000E+9	-8.027344E-1	-3.266296E-1	4.832764E-1	2.796143E+0	7.767868E-2	-6.137848E-3	-2.648468E-1	-2.007294E-1
5.263500E+9	-8.101807E-1	-3.083191E-1	5.352783E-1	2.667725E+0	7.732010E-2	-7.198334E-3	-2.700806E-1	-1.966095E-1
5.488000E+9	-8.154907E-1	-2.919617E-1	5.780029E-1	2.546753E+0	7.733154E-2	-8.731842E-3	-2.747040E-1	-1.942139E-1
5.712500E+9	-8.216858E-1	-2.765808E-1	6.169434E-1	2.429932E+0	7.729340E-2	-1.003647E-2	-2.787933E-1	-1.908417E-1
5.937000E+9	-8.260193E-1	-2.599182E-1	6.501465E-1	2.324341E+0	7.744217E-2	-1.215363E-2	-2.832336E-1	-1.889801E-1
6.161500E+9	-8.305969E-1	-2.470093E-1	6.818848E-1	2.227173E+0	7.723618E-2	-1.347351E-2	-2.880554E-1	-1.848450E-1
6.386000E+9	-8.356628E-1	-2.330322E-1	7.086182E-1	2.131104E+0	7.640076E-2	-1.521301E-2	-2.886353E-1	-1.839600E-1
6.610500E+9	-8.374634E-1	-2.198792E-1	7.340088E-1	2.041382E+0	7.619476E-2	-1.656723E-2	-2.965240E-1	-1.839142E-1
6.835000E+9	-8.412170E-1	-2.082214E-1	7.531128E-1	1.955139E+0	7.600784E-2	-1.806259E-2	-2.989960E-1	-1.774292E-1
7.059500E+9	-8.436279E-1	-1.971741E-1	7.669067E-1	1.875977E+0	7.569885E-2	-1.937866E-2	-2.986603E-1	-1.805267E-1
7.284000E+9	-8.450928E-1	-1.860046E-1	7.822876E-1	1.799683E+0	7.498550E-2	-2.083969E-2	-3.078156E-1	-1.773987E-1
7.508500E+9	-8.486938E-1	-1.744080E-1	7.943115E-1	1.726135E+0	7.434082E-2	-2.135849E-2	-3.054047E-1	-1.756287E-1
7.733000E+9	-8.490601E-1	-1.635437E-1	8.059082E-1	1.660156E+0	7.410049E-2	-2.247620E-2	-3.135834E-1	-1.777191E-1
7.957500E+9	-8.522644E-1	-1.539307E-1	8.179321E-1	1.596069E+0	7.398224E-2	-2.436447E-2	-3.160553E-1	-1.730957E-1
8.182000E+9	-8.533325E-1	-1.440125E-1	8.291016E-1	1.534851E+0	7.369995E-2	-2.554703E-2	-3.218536E-1	-1.760864E-1
8.406500E+9	-8.542175E-1	-1.353760E-1	8.343506E-1	1.473206E+0	7.281113E-2	-2.681351E-2	-3.251343E-1	-1.704254E-1
8.631000E+9	-8.556824E-1	-1.256714E-1	8.425903E-1	1.414062E+0	7.219315E-2	-2.775955E-2	-3.287811E-1	-1.708679E-1
8.855500E+9	-8.561096E-1	-1.170349E-1	8.464966E-1	1.357910E+0	7.213974E-2	-2.852631E-2	-3.336792E-1	-1.682587E-1
9.080001E+9	-8.572083E-1	-1.096497E-1	8.504639E-1	1.307068E+0	7.133865E-2	-3.011322E-2	-3.354950E-1	-1.665192E-1
9.304500E+9	-8.574524E-1	-9.988403E-2	8.522949E-1	1.255554E+0	7.050705E-2	-3.149796E-2	-3.406982E-1	-1.660309E-1
9.529000E+9	-8.587036E-1	-9.332275E-2	8.540039E-1	1.206970E+0	7.043457E-2	-3.265762E-2	-3.455811E-1	-1.636505E-1
9.753500E+9	-8.594666E-1	-8.636475E-2	8.555908E-1	1.160461E+0	6.857681E-2	-3.293228E-2	-3.471680E-1	-1.608124E-1
9.978000E+9	-8.590698E-1	-7.809448E-2	8.554687E-1	1.117432E+0	6.836700E-2	-3.382111E-2	-3.515930E-1	-1.620941E-1
1.020250E+10	-8.605042E-1	-7.095337E-2	8.552246E-1	1.073792E+0	6.752396E-2	-3.567123E-2	-3.551483E-1	-1.586304E-1
1.042700E+10	-8.611450E-1	-6.341553E-2	8.554077E-1	1.032349E+0	6.672668E-2	-3.607559E-2	-3.571320E-1	-1.577759E-1
1.065150E+10	-8.603821E-1	-5.633545E-2	8.537598E-1	9.931946E-1	6.587601E-2	-3.842163E-2	-3.615112E-1	-1.566010E-1
1.087600E+10	-8.612061E-1	-4.998779E-2	8.525391E-1	9.548340E-1	6.578064E-2	-3.806305E-2	-3.648224E-1	-1.549377E-1
1.110050E+10	-8.609009E-1	-4.183960E-2	8.507080E-1	9.172974E-1	6.440735E-2	-3.919601E-2	-3.681641E-1	-1.529083E-1
1.132500E+10	-8.606873E-1	-3.662109E-2	8.483582E-1	8.818665E-1	6.368256E-2	-3.942871E-2	-3.710175E-1	-1.529388E-1
1.154950E+10	-8.605042E-1	-2.969360E-2	8.457336E-1	8.462830E-1	6.275558E-2	-4.084778E-2	-3.785248E-1	-1.503906E-1
1.177400E+10	-8.600769E-1	-2.371216E-2	8.413086E-1	8.138733E-1	6.139565E-2	-4.041672E-2	-3.791046E-1	-1.465149E-1
1.199850E+10	-8.604126E-1	-1.831055E-2	8.390503E-1	7.817383E-1	6.097984E-2	-4.267693E-2	-3.825684E-1	-1.477814E-1
1.222300E+10	-8.599548E-1	-1.092529E-2	8.329468E-1	7.514648E-1	6.094742E-2	-4.299927E-2	-3.864288E-1	-1.462860E-1
1.244750E+10	-8.600769E-1	-6.835937E-3	8.278809E-1	7.202454E-1	5.972862E-2	-4.313660E-2	-3.906860E-1	-1.428680E-1
1.267200E+10	-8.600464E-1	-6.103516E-5	8.237000E-1	6.914062E-1	5.862999E-2	-4.364586E-2	-3.935547E-1	-1.434326E-1
1.289650E+10	-8.585510E-1	5.065918E-3	8.181763E-1	6.642151E-1	5.804253E-2	-4.495811E-2	-3.993378E-1	-1.414948E-1
1.312100E+10	-8.591614E-1	9.490967E-3	8.123474E-1	6.371765E-1	5.688858E-2	-4.566383E-2	-4.024353E-1	-1.355896E-1
1.334550E+10	-8.588867E-1	1.550293E-2	8.078918E-1	6.109619E-1	5.652428E-2	-4.677963E-2	-4.035950E-1	-1.360016E-1
1.357000E+10	-8.567200E-1	1.989746E-2	8.023071E-1	5.853882E-1	5.490112E-2	-4.734039E-2	-4.084930E-1	-1.368866E-1
1.379450E+10	-8.576965E-1	2.484131E-2	7.961121E-1	5.610962E-1	5.390549E-2	-4.792213E-2	-4.137573E-1	-1.311798E-1
1.401900E+10	-8.571777E-1	3.094482E-2	7.907104E-1	5.411072E-1	5.417824E-2	-4.841805E-2	-4.141846E-1	-1.304016E-1
1.424350E+10	-8.555908E-1	3.536987E-2	7.835388E-1	5.157471E-1	5.217552E-2	-4.876709E-2	-4.196625E-1	-1.268005E-1
1.446800E+10	-8.562622E-1	4.064941E-2	7.781067E-1	4.941101E-1	5.038834E-2	-4.958153E-2	-4.236145E-1	-1.237488E-1
1.469250E+10	-8.554382E-1	4.617310E-2	7.721863E-1	4.725647E-1	4.947090E-2	-5.068970E-2	-4.234161E-1	-1.213989E-1
1.491700E+10	-8.542480E-1	5.041504E-2	7.651367E-1	4.512329E-1	5.053520E-2	-5.091095E-2	-4.299469E-1	-1.224976E-1
1.514150E+10	-8.537903E-1	5.593872E-2	7.575073E-1	4.315491E-1	4.925156E-2	-5.100441E-2	-4.331360E-1	-1.162872E-1
1.536600E+10	-8.528442E-1	6.091309E-2	7.505798E-1	4.114990E-1	4.845238E-2	-5.132294E-2	-4.337769E-1	-1.146545E-1
1.559050E+10	-8.524780E-1	6.411743E-2	7.456055E-1	3.926697E-1	4.666519E-2	-5.297089E-2	-4.394226E-1	-1.134644E-1
1.581500E+10	-8.519592E-1	6.924438E-2	7.369080E-1	3.728638E-1	4.589081E-2	-5.263138E-2	-4.428253E-1	-1.102600E-1
1.603950E+10	-8.514099E-1	7.363892E-2	7.311096E-1	3.552856E-1	4.433632E-2	-5.384445E-2	-4.433746E-1	-1.073303E-1
1.626400E+10	-8.496704E-1	7.806396E-2	7.233887E-1	3.394470E-1	4.450798E-2	-5.351448E-2	-4.495544E-1	-1.055603E-1
1.648850E+10	-8.486023E-1	8.230591E-2	7.153625E-1	3.224487E-1	4.309845E-2	-5.264854E-2	-4.525909E-1	-1.010437E-1
1.671300E+10	-8.485107E-1	8.770752E-2	7.092285E-1	3.055420E-1	4.220390E-2	-5.436325E-2	-4.552460E-1	-9.892273E-2
1.693750E+10	-8.476868E-1	9.094238E-2	7.023315E-1	2.910767E-1	4.130745E-2	-5.484390E-2	-4.581604E-1	-9.738159E-2
1.716200E+10	-8.462524E-1	9.579468E-2	6.946411E-1	2.751465E-1	3.983116E-2	-5.554008E-2	-4.619598E-1	-9.146118E-2
1.738650E+10	-8.455200E-1	1.002502E-1	6.872559E-1	2.638245E-1	3.809929E-2	-5.628586E-2	-4.638214E-1	-8.920288E-2
1.761100E+10	-8.441162E-1	1.034546E-1	6.790466E-1	2.483826E-1	3.840446E-2	-5.539322E-2	-4.676361E-1	-8.839417E-2
1.783550E+10	-8.436279E-1	1.085815E-1	6.719360E-1	2.335205E-1	3.535652E-2	-5.555916E-2	-4.726410E-1	-8.183289E-2
1.806000E+10	-8.422852E-1	1.117554E-1	6.667175E-1	2.210083E-1	3.490257E-2	-5.700493E-2	-4.715881E-1	-7.928467E-2
1.828450E+10	-8.411255E-1	1.170349E-1	6.602173E-1	2.079468E-1	3.485870E-2	-5.671310E-2	-4.755859E-1	-7.788086E-2
1.850900E+10	-8.409729E-1	1.193848E-1	6.523437E-1	1.954346E-1	3.315163E-2	-5.733490E-2	-4.782715E-1	-7.307434E-2
1.873350E+10	-8.404236E-1	1.237793E-1	6.459656E-1	1.819763E-1	3.317642E-2	-5.771065E-2	-4.803619E-1	-6.713867E-2
1.895800E+10	-8.372498E-1	1.274414E-1	6.376648E-1	1.712952E-1	3.204155E-2	-5.684090E-2	-4.812927E-1	-6.845093E-2
1.918250E+10	-8.369141E-1	1.317139E-1	6.307983E-1	1.595764E-1	3.030205E-2	-5.900955E-2	-4.873505E-1	-6.428528E-2
1.940700E+10	-8.355103E-1	1.350098E-1	6.221008E-1	1.488037E-1	3.050613E-2	-5.909348E-2	-4.873047E-1	-5.476379E-2
1.963150E+10	-8.363342E-1	1.389160E-1	6.150818E-1	1.370850E-1	2.788925E-2	-5.833626E-2	-4.886780E-1	-5.734253E-2
1.985600E+10	-8.337097E-1	1.419678E-1	6.076965E-1	1.278381E-1	2.736092E-2	-5.742455E-2	-4.954224E-1	-5.191040E-2
2.008050E+10	-8.320007E-1	1.454163E-1	6.026611E-1	1.176758E-1	2.619553E-2	-5.904388E-2	-4.948730E-1	-4.312134E-2
2.030500E+10	-8.320312E-1	1.485901E-1	5.945129E-1	1.084595E-1	2.625656E-2	-5.991936E-2	-4.953308E-1	-4.571533E-2
2.052950E+10	-8.302917E-1	1.527100E-1	5.889893E-1	9.863281E-2	2.318001E-2	-5.859566E-2	-5.009155E-1	-4.089355E-2
2.075400E+10	-8.290405E-1	1.532593E-1	5.809631E-1	8.911133E-2	2.212334E-2	-5.882072E-2	-5.023499E-1	-3.695679E-2
2.097850E+10	-8.288574E-1	1.594849E-1	5.730896E-1	8.087158E-2	2.126122E-2	-5.884933E-2	-5.003662E-1	-3.103638E-2
2.120300E+10	-8.282776E-1	1.618347E-1	5.662231E-1	7.321167E-2	2.067566E-2	-5.829048E-2	-5.074158E-1	-3.182983E-2
2.142750E+10	-8.255920E-1	1.660461E-1	5.613708E-1	6.353760E-2	1.932716E-2	-5.745125E-2	-5.106201E-1	-2.276611E-2
2.165200E+10	-8.275757E-1	1.698303E-1	5.537720E-1	5.740356E-2	1.861191E-2	-5.947113E-2	-5.094910E-1	-1.934814E-2
2.187650E+10	-8.234253E-1	1.716919E-1	5.451050E-1	4.882812E-2	1.672745E-2	-5.822945E-2	-5.113220E-1	-1.956177E-2
2.210100E+10	-8.247681E-1	1.771851E-1	5.386047E-1	4.028320E-2	1.606560E-2	-5.793762E-2	-5.161743E-1	-9.948730E-3
2.232550E+10	-8.227539E-1	1.791077E-1	5.333557E-1	3.445435E-2	1.653671E-2	-5.736542E-2	-5.151367E-1	-3.662109E-3
2.255000E+10	-8.226929E-1	1.831360E-1	5.280762E-1	2.642822E-2	1.377296E-2	-5.747414E-2	-5.164795E-1	-3.051758E-3
2.277450E+10	-8.189697E-1	1.865234E-1	5.198975E-1	1.876831E-2	1.417732E-2	-5.683899E-2	-5.194397E-1	5.523682E-3
2.299900E+10	-8.183594E-1	1.894226E-1	5.139771E-1	1.110840E-2	1.123810E-2	-5.867577E-2	-5.180359E-1	5.187988E-3
2.322350E+10	-8.194275E-1	1.926575E-1	5.098572E-1	4.119873E-3	1.171875E-2	-5.876541E-2	-5.216370E-1	8.605957E-3
2.344800E+10	-8.158569E-1	1.944885E-1	5.025940E-1	6.408691E-4	1.042366E-2	-5.664253E-2	-5.226746E-1	1.690674E-2
2.367250E+10	-8.146057E-1	2.009277E-1	4.947968E-1	-6.561279E-3	8.123398E-3	-5.692101E-2	-5.212402E-1	1.828003E-2
2.389700E+10	-8.131104E-1	2.027283E-1	4.890137E-1	-1.275635E-2	8.354187E-3	-5.912781E-2	-5.255737E-1	2.279663E-2
2.412150E+10	-8.125305E-1	2.055664E-1	4.816284E-1	-1.940918E-2	6.626129E-3	-5.780411E-2	-5.256958E-1	3.155518E-2
2.434600E+10	-8.109741E-1	2.104492E-1	4.760590E-1	-2.494812E-2	5.208969E-3	-5.574226E-2	-5.235291E-1	3.234863E-2
2.457050E+10	-8.076477E-1	2.117615E-1	4.686432E-1	-3.018188E-2	2.647400E-3	-5.639458E-2	-5.285339E-1	3.686523E-2
2.479500E+10	-8.061523E-1	2.161560E-1	4.635620E-1	-3.585815E-2	3.768921E-3	-5.644226E-2	-5.272827E-1	4.623413E-2
2.501950E+10	-8.040161E-1	2.173767E-1	4.571686E-1	-3.988647E-2	3.143311E-3	-5.544472E-2	-5.225525E-1	4.751587E-2
2.524400E+10	-8.042297E-1	2.225647E-1	4.522858E-1	-4.400635E-2	6.294250E-5	-5.443382E-2	-5.277710E-1	4.995728E-2
2.546850E+10	-8.019714E-1	2.266235E-1	4.465027E-1	-4.685974E-2	-1.827240E-3	-5.470657E-2	-5.254211E-1	5.569458E-2
2.569300E+10	-8.004456E-1	2.258911E-1	4.405670E-1	-5.096436E-2	1.640320E-4	-5.333710E-2	-5.277405E-1	5.670166E-2
2.591750E+10	-8.008423E-1	2.327271E-1	4.350586E-1	-5.755615E-2	-2.380371E-3	-5.364418E-2	-5.291138E-1	6.192017E-2
2.614200E+10	-8.002014E-1	2.349243E-1	4.281006E-1	-5.935669E-2	-3.452301E-3	-5.117416E-2	-5.341187E-1	6.832886E-2
2.636650E+10	-7.960815E-1	2.358398E-1	4.248505E-1	-6.562805E-2	-4.533768E-3	-5.267143E-2	-5.333557E-1	7.431030E-2
2.659100E+10	-7.949219E-1	2.394104E-1	4.173126E-1	-6.803894E-2	-5.155563E-3	-5.001831E-2	-5.291138E-1	7.907104E-2
2.681550E+10	-7.923279E-1	2.417908E-1	4.136658E-1	-7.090759E-2	-4.917145E-3	-5.031586E-2	-5.319214E-1	8.026123E-2
2.704000E+10	-7.927856E-1	2.466125E-1	4.043274E-1	-7.673645E-2	-8.981705E-3	-5.142593E-2	-5.352783E-1	9.115601E-2
2.726450E+10	-7.898560E-1	2.469177E-1	4.050598E-1	-8.103943E-2	-8.457184E-3	-4.854012E-2	-5.279541E-1	9.097290E-2
2.748900E+10	-7.883301E-1	2.500000E-1	3.979645E-1	-8.352661E-2	-9.330750E-3	-4.883194E-2	-5.298462E-1	9.786987E-2
2.771350E+10	-7.868042E-1	2.525940E-1	3.936768E-1	-8.691406E-2	-8.569717E-3	-4.994202E-2	-5.293579E-1	1.024170E-1
2.793800E+10	-7.855225E-1	2.556152E-1	3.885803E-1	-8.840942E-2	-9.899139E-3	-4.840660E-2	-5.257568E-1	1.041565E-1
2.816250E+10	-7.836914E-1	2.575684E-1	3.839874E-1	-9.619141E-2	-1.290894E-2	-4.427338E-2	-5.296021E-1	1.069641E-1
2.838700E+10	-7.829285E-1	2.604980E-1	3.782806E-1	-9.486389E-2	-1.176834E-2	-4.515648E-2	-5.278320E-1	1.159668E-1
2.861150E+10	-7.817688E-1	2.638550E-1	3.724060E-1	-1.000061E-1	-1.385689E-2	-4.560280E-2	-5.283203E-1	1.203918E-1
2.883600E+10	-7.780762E-1	2.647400E-1	3.663635E-1	-9.870911E-2	-1.508331E-2	-4.411316E-2	-5.283508E-1	1.228638E-1
2.906050E+10	-7.799988E-1	2.695312E-1	3.623352E-1	-1.010895E-1	-1.383781E-2	-4.218674E-2	-5.257874E-1	1.296387E-1
2.928500E+10	-7.766113E-1	2.717285E-1	3.605194E-1	-1.045990E-1	-1.550293E-2	-4.137421E-2	-5.281067E-1	1.303101E-1
2.950950E+10	-7.748718E-1	2.760010E-1	3.565521E-1	-1.072235E-1	-1.714516E-2	-3.962708E-2	-5.327148E-1	1.412048E-1
2.973400E+10	-7.741089E-1	2.771301E-1	3.531799E-1	-1.081390E-1	-1.471901E-2	-3.914642E-2	-5.273132E-1	1.433411E-1
2.995850E+10	-7.685547E-1	2.775269E-1	3.486328E-1	-1.153412E-1	-1.575089E-2	-4.182243E-2	-5.282288E-1	1.513062E-1
3.018300E+10	-7.662048E-1	2.824707E-1	3.448486E-1	-1.161194E-1	-1.771545E-2	-3.934479E-2	-5.317078E-1	1.596680E-1
3.040750E+10	-7.645874E-1	2.847595E-1	3.378601E-1	-1.149445E-1	-1.998138E-2	-3.748322E-2	-5.275574E-1	1.619568E-1
3.063200E+10	-7.605896E-1	2.869263E-1	3.365631E-1	-1.186218E-1	-1.934052E-2	-3.869629E-2	-5.285034E-1	1.719971E-1
3.085650E+10	-7.656555E-1	2.889709E-1	3.296661E-1	-1.217041E-1	-1.952171E-2	-3.426743E-2	-5.259094E-1	1.765442E-1
3.108100E+10	-7.606812E-1	2.919006E-1	3.317566E-1	-1.239166E-1	-1.917076E-2	-3.434372E-2	-5.205078E-1	1.774597E-1
3.130550E+10	-7.561951E-1	2.939453E-1	3.234253E-1	-1.270294E-1	-2.090836E-2	-3.633118E-2	-5.193481E-1	1.865234E-1
3.153000E+10	-7.627258E-1	3.000793E-1	3.222198E-1	-1.254883E-1	-2.096367E-2	-3.556442E-2	-5.223694E-1	1.806641E-1
3.175450E+10	-7.552185E-1	2.962646E-1	3.156891E-1	-1.279297E-1	-2.140999E-2	-3.097534E-2	-5.199280E-1	1.951904E-1
3.197900E+10	-7.570801E-1	3.017883E-1	3.112946E-1	-1.319885E-1	-2.149391E-2	-3.108883E-2	-5.124207E-1	1.947937E-1
3.220350E+10	-7.507935E-1	3.077698E-1	3.103790E-1	-1.338806E-1	-2.650452E-2	-3.219032E-2	-5.116577E-1	2.009583E-1
3.242800E+10	-7.544250E-1	3.080750E-1	3.036041E-1	-1.354065E-1	-2.439404E-2	-3.019238E-2	-5.130310E-1	2.107239E-1
3.265250E+10	-7.514038E-1	3.112793E-1	3.025208E-1	-1.377258E-1	-2.736855E-2	-3.346825E-2	-5.077515E-1	2.061157E-1
3.287700E+10	-7.499390E-1	3.129578E-1	3.011627E-1	-1.381073E-1	-2.663231E-2	-2.621078E-2	-5.112915E-1	2.121277E-1
3.310150E+10	-7.495117E-1	3.147583E-1	2.980042E-1	-1.411285E-1	-2.549553E-2	-2.430058E-2	-5.040894E-1	2.218018E-1
3.332600E+10	-7.445984E-1	3.199463E-1	2.895813E-1	-1.441498E-1	-2.706718E-2	-2.395153E-2	-5.021362E-1	2.240295E-1
3.355050E+10	-7.392273E-1	3.182373E-1	2.898865E-1	-1.452026E-1	-2.581596E-2	-2.317619E-2	-5.115662E-1	2.248840E-1
3.377500E+10	-7.432251E-1	3.213806E-1	2.888947E-1	-1.444550E-1	-3.048992E-2	-2.065563E-2	-4.958496E-1	2.329712E-1
3.399950E+10	-7.386780E-1	3.235168E-1	2.850494E-1	-1.466675E-1	-2.628613E-2	-2.015114E-2	-5.025330E-1	2.383118E-1
3.422400E+10	-7.416077E-1	3.223877E-1	2.805176E-1	-1.501160E-1	-2.452469E-2	-1.976967E-2	-5.011902E-1	2.516479E-1
3.444850E+10	-7.379150E-1	3.265381E-1	2.763977E-1	-1.533356E-1	-2.695179E-2	-2.277374E-2	-4.898987E-1	2.534180E-1
3.467300E+10	-7.348938E-1	3.344116E-1	2.820587E-1	-1.479950E-1	-2.441692E-2	-1.839447E-2	-4.965973E-1	2.552490E-1
3.489750E+10	-7.325745E-1	3.287048E-1	2.744141E-1	-1.540070E-1	-2.909851E-2	-2.050686E-2	-4.907532E-1	2.693176E-1
3.512200E+10	-7.344666E-1	3.332825E-1	2.703552E-1	-1.592712E-1	-2.522469E-2	-9.297371E-3	-4.850922E-1	2.634125E-1
3.534650E+10	-7.318420E-1	3.382263E-1	2.693634E-1	-1.576691E-1	-3.101730E-2	-1.558113E-2	-4.884033E-1	2.718658E-1
3.557100E+10	-7.283325E-1	3.382568E-1	2.647400E-1	-1.624756E-1	-2.924728E-2	-1.205540E-2	-4.775391E-1	2.842865E-1
3.579550E+10	-7.280579E-1	3.391724E-1	2.609863E-1	-1.619873E-1	-2.520084E-2	-1.117802E-2	-4.739075E-1	2.856293E-1
3.602000E+10	-7.308655E-1	3.412476E-1	2.601929E-1	-1.646118E-1	-2.539158E-2	-1.070595E-2	-4.741974E-1	2.890472E-1
3.624450E+10	-7.217102E-1	3.419800E-1	2.544556E-1	-1.627960E-1	-2.418518E-2	-1.187420E-2	-4.724579E-1	2.965240E-1
3.646900E+10	-7.205811E-1	3.486328E-1	2.498474E-1	-1.661148E-1	-2.799034E-2	-1.355457E-2	-4.657288E-1	3.063812E-1
3.669350E+10	-7.200623E-1	3.468628E-1	2.488403E-1	-1.687698E-1	-2.996826E-2	-6.217003E-3	-4.652252E-1	3.008270E-1
3.691800E+10	-7.179260E-1	3.494263E-1	2.483902E-1	-1.690750E-1	-2.509403E-2	-5.415916E-3	-4.570770E-1	3.103943E-1
3.714250E+10	-7.153320E-1	3.514099E-1	2.456360E-1	-1.711655E-1	-2.978230E-2	-2.265930E-3	-4.535828E-1	3.181000E-1
3.736700E+10	-7.136536E-1	3.520813E-1	2.372284E-1	-1.693268E-1	-2.428055E-2	6.456375E-4	-4.500885E-1	3.228149E-1
3.759150E+10	-7.132263E-1	3.533630E-1	2.406158E-1	-1.723251E-1	-2.585411E-2	-2.187729E-3	-4.548950E-1	3.268890E-1
3.781600E+10	-7.100525E-1	3.606567E-1	2.353210E-1	-1.738510E-1	-2.495670E-2	-1.366615E-3	-4.414062E-1	3.330231E-1
3.804050E+10	-7.077026E-1	3.599548E-1	2.308121E-1	-1.831131E-1	-2.915096E-2	5.269051E-3	-4.303589E-1	3.367157E-1
3.826500E+10	-7.093201E-1	3.609314E-1	2.292023E-1	-1.770935E-1	-2.490520E-2	3.211975E-3	-4.284973E-1	3.463287E-1
3.848950E+10	-7.032166E-1	3.625793E-1	2.288589E-1	-1.782684E-1	-2.148724E-2	3.271103E-3	-4.260864E-1	3.518524E-1
3.871400E+10	-7.026978E-1	3.619995E-1	2.225266E-1	-1.841888E-1	-2.711678E-2	3.755569E-3	-4.220886E-1	3.536530E-1
3.893850E+10	-7.001038E-1	3.645020E-1	2.291565E-1	-1.819916E-1	-2.401447E-2	1.761436E-3	-4.148560E-1	3.546295E-1
3.916300E+10	-7.020569E-1	3.693237E-1	2.231674E-1	-1.839142E-1	-2.526093E-2	1.208115E-2	-4.109497E-1	3.561096E-1
