!Date: 10/28/2005, 12:46 PM

!Vgs = -5.000000E+0
!Vds = 1.500000E+1
!Ig = -7.972800E-5
!Id = 1.630000E-2

# HZ S RI R 50
1.000000E+8	9.846497E-1	-8.511353E-2	-4.199463E+0	2.028809E-1	4.324913E-4	9.624004E-3	8.029480E-1	-3.997803E-2
3.245000E+8	9.423828E-1	-2.492981E-1	-4.072510E+0	7.875977E-1	6.463051E-3	2.491283E-2	7.486267E-1	-1.342163E-1
5.490000E+8	8.762512E-1	-3.971252E-1	-3.858887E+0	1.228760E+0	1.388359E-2	3.973389E-2	7.222595E-1	-1.974487E-1
7.735000E+8	7.925415E-1	-5.253906E-1	-3.576538E+0	1.597046E+0	2.356720E-2	5.100822E-2	6.824341E-1	-2.563477E-1
9.980000E+8	6.974182E-1	-6.300049E-1	-3.249023E+0	1.893433E+0	3.468704E-2	6.008148E-2	6.423645E-1	-3.030396E-1
1.222500E+9	5.931702E-1	-7.139282E-1	-2.922119E+0	2.133545E+0	4.553604E-2	6.652832E-2	6.005554E-1	-3.450928E-1
1.447000E+9	4.861755E-1	-7.788696E-1	-2.604248E+0	2.311157E+0	5.732727E-2	7.088852E-2	5.620117E-1	-3.811340E-1
1.671500E+9	3.809814E-1	-8.249207E-1	-2.269775E+0	2.421997E+0	6.874466E-2	7.380676E-2	5.174866E-1	-4.109192E-1
1.896000E+9	2.803345E-1	-8.549500E-1	-1.969116E+0	2.491821E+0	8.042526E-2	7.537460E-2	4.757690E-1	-4.319305E-1
2.120500E+9	1.874084E-1	-8.718262E-1	-1.687378E+0	2.519653E+0	9.114075E-2	7.460785E-2	4.386597E-1	-4.502258E-1
2.345000E+9	9.539795E-2	-8.770142E-1	-1.418701E+0	2.505615E+0	1.017418E-1	7.177734E-2	4.039307E-1	-4.649658E-1
2.569500E+9	1.748657E-2	-8.716125E-1	-1.179199E+0	2.499634E+0	1.104050E-1	6.848907E-2	3.699341E-1	-4.772186E-1
2.794000E+9	-5.484009E-2	-8.650208E-1	-9.625244E-1	2.451172E+0	1.180763E-1	6.418228E-2	3.393555E-1	-4.861450E-1
3.018500E+9	-1.194153E-1	-8.518982E-1	-7.658691E-1	2.383911E+0	1.244545E-1	6.048584E-2	3.083801E-1	-4.945526E-1
3.243000E+9	-1.801453E-1	-8.363037E-1	-5.895996E-1	2.322144E+0	1.305084E-1	5.537415E-2	2.799072E-1	-5.013123E-1
3.467500E+9	-2.362366E-1	-8.187561E-1	-4.362793E-1	2.256958E+0	1.353073E-1	5.116272E-2	2.557983E-1	-5.059509E-1
3.692000E+9	-2.833557E-1	-7.989197E-1	-2.954102E-1	2.184570E+0	1.404343E-1	4.646301E-2	2.319031E-1	-5.125122E-1
3.916500E+9	-3.276367E-1	-7.773132E-1	-1.694336E-1	2.104858E+0	1.444855E-1	4.074097E-2	2.069702E-1	-5.177612E-1
4.141000E+9	-3.655396E-1	-7.560730E-1	-5.554199E-2	2.021484E+0	1.478958E-1	3.583527E-2	1.849976E-1	-5.204773E-1
4.365500E+9	-4.003296E-1	-7.349243E-1	4.132080E-2	1.932251E+0	1.505966E-1	3.082275E-2	1.636353E-1	-5.232849E-1
4.590000E+9	-4.340820E-1	-7.144165E-1	1.272583E-1	1.857788E+0	1.536484E-1	2.645874E-2	1.427307E-1	-5.256042E-1
4.814500E+9	-4.623718E-1	-6.932678E-1	2.048340E-1	1.779419E+0	1.563034E-1	2.129364E-2	1.250916E-1	-5.299683E-1
5.039000E+9	-4.889221E-1	-6.726074E-1	2.750854E-1	1.709656E+0	1.579819E-1	1.571655E-2	1.054077E-1	-5.340271E-1
5.263500E+9	-5.130615E-1	-6.519165E-1	3.358765E-1	1.630737E+0	1.588974E-1	1.081848E-2	8.459473E-2	-5.340576E-1
5.488000E+9	-5.339050E-1	-6.322632E-1	3.876343E-1	1.558838E+0	1.600418E-1	6.401062E-3	6.945801E-2	-5.351868E-1
5.712500E+9	-5.552063E-1	-6.120911E-1	4.371948E-1	1.484436E+0	1.615906E-1	1.991272E-3	5.291748E-2	-5.371704E-1
5.937000E+9	-5.734558E-1	-5.917969E-1	4.795532E-1	1.419128E+0	1.624298E-1	-2.792358E-3	3.579712E-2	-5.401001E-1
6.161500E+9	-5.892029E-1	-5.762329E-1	5.156860E-1	1.354675E+0	1.634140E-1	-7.575989E-3	2.081299E-2	-5.421143E-1
6.386000E+9	-6.056824E-1	-5.584412E-1	5.520630E-1	1.294189E+0	1.626434E-1	-1.213837E-2	4.486084E-3	-5.449219E-1
6.610500E+9	-6.183777E-1	-5.434570E-1	5.811768E-1	1.231689E+0	1.627960E-1	-1.665497E-2	-1.287842E-2	-5.476990E-1
6.835000E+9	-6.321716E-1	-5.268860E-1	6.068115E-1	1.174072E+0	1.627960E-1	-2.034760E-2	-2.914429E-2	-5.470581E-1
7.059500E+9	-6.435852E-1	-5.109863E-1	6.287231E-1	1.117554E+0	1.627121E-1	-2.433777E-2	-4.138184E-2	-5.493774E-1
7.284000E+9	-6.539917E-1	-4.969482E-1	6.471558E-1	1.058777E+0	1.623230E-1	-2.899933E-2	-5.969238E-2	-5.507202E-1
7.508500E+9	-6.660461E-1	-4.811096E-1	6.643677E-1	1.005310E+0	1.615677E-1	-3.234100E-2	-7.473755E-2	-5.486145E-1
7.733000E+9	-6.757507E-1	-4.656372E-1	6.771545E-1	9.541931E-1	1.603699E-1	-3.580475E-2	-8.825684E-2	-5.510559E-1
7.957500E+9	-6.845398E-1	-4.516907E-1	6.917114E-1	9.064636E-1	1.604309E-1	-3.978729E-2	-1.059875E-1	-5.510559E-1
8.182000E+9	-6.926575E-1	-4.381714E-1	7.028503E-1	8.617554E-1	1.593018E-1	-4.373932E-2	-1.202698E-1	-5.517883E-1
8.406500E+9	-6.994629E-1	-4.276733E-1	7.092896E-1	8.155518E-1	1.578674E-1	-4.692841E-2	-1.341248E-1	-5.509033E-1
8.631000E+9	-7.082825E-1	-4.140625E-1	7.184753E-1	7.713318E-1	1.564865E-1	-5.064392E-2	-1.499329E-1	-5.508118E-1
8.855500E+9	-7.144165E-1	-4.007874E-1	7.214966E-1	7.251282E-1	1.557770E-1	-5.401611E-2	-1.644287E-1	-5.497131E-1
9.080001E+9	-7.210083E-1	-3.903503E-1	7.272339E-1	6.858215E-1	1.543503E-1	-5.644989E-2	-1.772461E-1	-5.470581E-1
9.304500E+9	-7.277832E-1	-3.764954E-1	7.282104E-1	6.474609E-1	1.534348E-1	-6.011963E-2	-1.931763E-1	-5.468140E-1
9.529000E+9	-7.326355E-1	-3.683167E-1	7.305298E-1	6.103210E-1	1.518784E-1	-6.324005E-2	-2.079468E-1	-5.442505E-1
9.753500E+9	-7.376404E-1	-3.571167E-1	7.297668E-1	5.729675E-1	1.500854E-1	-6.579590E-2	-2.187500E-1	-5.420227E-1
9.978000E+9	-7.428284E-1	-3.469543E-1	7.277527E-1	5.379333E-1	1.481552E-1	-6.932068E-2	-2.324524E-1	-5.407410E-1
1.020250E+10	-7.488403E-1	-3.366394E-1	7.265625E-1	5.046997E-1	1.465530E-1	-7.212067E-2	-2.479858E-1	-5.373535E-1
1.042700E+10	-7.549438E-1	-3.255005E-1	7.253113E-1	4.731445E-1	1.448441E-1	-7.475281E-2	-2.592773E-1	-5.344238E-1
1.065150E+10	-7.568665E-1	-3.168335E-1	7.220459E-1	4.450989E-1	1.427231E-1	-7.748413E-2	-2.720032E-1	-5.328369E-1
1.087600E+10	-7.614136E-1	-3.079529E-1	7.179871E-1	4.138489E-1	1.419373E-1	-7.956696E-2	-2.866821E-1	-5.300293E-1
1.110050E+10	-7.661438E-1	-2.971802E-1	7.148743E-1	3.838196E-1	1.392288E-1	-8.260345E-2	-2.991943E-1	-5.255737E-1
1.132500E+10	-7.692871E-1	-2.885132E-1	7.082214E-1	3.560486E-1	1.374054E-1	-8.469391E-2	-3.114929E-1	-5.234680E-1
1.154950E+10	-7.734375E-1	-2.778320E-1	7.039490E-1	3.290100E-1	1.356277E-1	-8.715820E-2	-3.255310E-1	-5.191040E-1
1.177400E+10	-7.760925E-1	-2.713318E-1	6.996765E-1	3.057861E-1	1.342697E-1	-8.875275E-2	-3.373413E-1	-5.128479E-1
1.199850E+10	-7.796326E-1	-2.626648E-1	6.931458E-1	2.808228E-1	1.323090E-1	-9.123993E-2	-3.477173E-1	-5.107117E-1
1.222300E+10	-7.818604E-1	-2.543640E-1	6.848145E-1	2.553101E-1	1.298065E-1	-9.329224E-2	-3.618469E-1	-5.072937E-1
1.244750E+10	-7.852783E-1	-2.464600E-1	6.768188E-1	2.309265E-1	1.274719E-1	-9.513855E-2	-3.731537E-1	-4.999237E-1
1.267200E+10	-7.893677E-1	-2.377014E-1	6.703186E-1	2.095337E-1	1.260910E-1	-9.706879E-2	-3.836212E-1	-4.974213E-1
1.289650E+10	-7.904053E-1	-2.306519E-1	6.636658E-1	1.912537E-1	1.235695E-1	-9.824753E-2	-3.969116E-1	-4.916840E-1
1.312100E+10	-7.938232E-1	-2.228394E-1	6.553955E-1	1.694336E-1	1.223755E-1	-1.007156E-1	-4.079742E-1	-4.861603E-1
1.334550E+10	-7.967529E-1	-2.160950E-1	6.464233E-1	1.499939E-1	1.211815E-1	-1.025734E-1	-4.168396E-1	-4.833984E-1
1.357000E+10	-7.994385E-1	-2.065735E-1	6.383667E-1	1.306458E-1	1.176987E-1	-1.036987E-1	-4.300690E-1	-4.780273E-1
1.379450E+10	-8.003845E-1	-2.012329E-1	6.317139E-1	1.152954E-1	1.159630E-1	-1.065292E-1	-4.410400E-1	-4.693298E-1
1.401900E+10	-8.025208E-1	-1.961975E-1	6.229553E-1	9.719849E-2	1.148262E-1	-1.070900E-1	-4.485779E-1	-4.654541E-1
1.424350E+10	-8.047485E-1	-1.879883E-1	6.134949E-1	7.971191E-2	1.117744E-1	-1.099777E-1	-4.628754E-1	-4.594116E-1
1.446800E+10	-8.072510E-1	-1.798096E-1	6.041565E-1	6.283569E-2	1.106491E-1	-1.110420E-1	-4.717865E-1	-4.489441E-1
1.469250E+10	-8.090820E-1	-1.728516E-1	5.956726E-1	4.843140E-2	1.067734E-1	-1.119804E-1	-4.791718E-1	-4.456787E-1
1.491700E+10	-8.102417E-1	-1.666260E-1	5.870667E-1	3.259277E-2	1.051140E-1	-1.143074E-1	-4.918060E-1	-4.412994E-1
1.514150E+10	-8.114929E-1	-1.594543E-1	5.785217E-1	1.797485E-2	1.028099E-1	-1.148033E-1	-5.019226E-1	-4.299927E-1
1.536600E+10	-8.137512E-1	-1.536255E-1	5.677490E-1	3.631592E-3	1.015739E-1	-1.161423E-1	-5.088806E-1	-4.234619E-1
1.559050E+10	-8.149109E-1	-1.471252E-1	5.592957E-1	-8.666992E-3	9.870148E-2	-1.170502E-1	-5.198975E-1	-4.179687E-1
1.581500E+10	-8.168335E-1	-1.400146E-1	5.479431E-1	-2.313232E-2	9.552765E-2	-1.191101E-1	-5.314636E-1	-4.093018E-1
1.603950E+10	-8.186035E-1	-1.326599E-1	5.404053E-1	-3.320312E-2	9.489822E-2	-1.199760E-1	-5.365601E-1	-4.029846E-1
1.626400E+10	-8.193359E-1	-1.273804E-1	5.318604E-1	-4.595947E-2	9.185410E-2	-1.214790E-1	-5.470581E-1	-3.960876E-1
1.648850E+10	-8.205261E-1	-1.222229E-1	5.226135E-1	-5.590820E-2	8.928680E-2	-1.219902E-1	-5.556030E-1	-3.855896E-1
1.671300E+10	-8.212585E-1	-1.158142E-1	5.132446E-1	-6.698608E-2	8.727646E-2	-1.222801E-1	-5.630188E-1	-3.793030E-1
1.693750E+10	-8.227234E-1	-1.101379E-1	5.025940E-1	-7.763672E-2	8.544540E-2	-1.239395E-1	-5.726013E-1	-3.718872E-1
1.716200E+10	-8.238220E-1	-1.028137E-1	4.946136E-1	-8.723450E-2	8.325958E-2	-1.245613E-1	-5.802612E-1	-3.618469E-1
1.738650E+10	-8.255310E-1	-9.692383E-2	4.842529E-1	-9.718323E-2	8.097076E-2	-1.255341E-1	-5.866394E-1	-3.548584E-1
1.761100E+10	-8.270569E-1	-9.225464E-2	4.770203E-1	-1.053925E-1	7.960510E-2	-1.254807E-1	-5.949402E-1	-3.489380E-1
1.783550E+10	-8.278198E-1	-8.544922E-2	4.661407E-1	-1.152496E-1	7.659149E-2	-1.256638E-1	-6.036072E-1	-3.361511E-1
1.806000E+10	-8.291931E-1	-8.044434E-2	4.570007E-1	-1.236115E-1	7.533264E-2	-1.274643E-1	-6.089783E-1	-3.297119E-1
1.828450E+10	-8.291626E-1	-7.513428E-2	4.476929E-1	-1.307983E-1	7.347870E-2	-1.282120E-1	-6.166992E-1	-3.235779E-1
1.850900E+10	-8.303528E-1	-6.756592E-2	4.404907E-1	-1.386261E-1	6.974030E-2	-1.290436E-1	-6.242371E-1	-3.116455E-1
1.873350E+10	-8.312378E-1	-6.262207E-2	4.311676E-1	-1.452789E-1	6.716156E-2	-1.297531E-1	-6.284790E-1	-3.012085E-1
1.895800E+10	-8.320007E-1	-5.654907E-2	4.203033E-1	-1.533203E-1	6.604767E-2	-1.300507E-1	-6.351013E-1	-2.966309E-1
1.918250E+10	-8.337097E-1	-5.224609E-2	4.134064E-1	-1.600952E-1	6.423950E-2	-1.319885E-1	-6.435852E-1	-2.885742E-1
1.940700E+10	-8.328552E-1	-4.629517E-2	4.001923E-1	-1.663361E-1	6.339264E-2	-1.316910E-1	-6.481628E-1	-2.721558E-1
1.963150E+10	-8.357849E-1	-4.003906E-2	3.942413E-1	-1.736755E-1	5.992126E-2	-1.306458E-1	-6.515198E-1	-2.668457E-1
1.985600E+10	-8.341675E-1	-3.686523E-2	3.864136E-1	-1.784973E-1	5.738831E-2	-1.314697E-1	-6.592712E-1	-2.591553E-1
2.008050E+10	-8.339539E-1	-3.125000E-2	3.753510E-1	-1.833801E-1	5.457306E-2	-1.319656E-1	-6.649780E-1	-2.460937E-1
2.030500E+10	-8.350830E-1	-2.557373E-2	3.693085E-1	-1.883087E-1	5.333710E-2	-1.330795E-1	-6.674805E-1	-2.389221E-1
2.052950E+10	-8.360291E-1	-2.185059E-2	3.598633E-1	-1.932220E-1	5.052185E-2	-1.334610E-1	-6.746826E-1	-2.301941E-1
2.075400E+10	-8.359680E-1	-1.770020E-2	3.526917E-1	-1.969299E-1	4.867554E-2	-1.341019E-1	-6.790466E-1	-2.206116E-1
2.097850E+10	-8.374329E-1	-1.104736E-2	3.431396E-1	-2.024078E-1	4.460144E-2	-1.353073E-1	-6.818848E-1	-2.102356E-1
2.120300E+10	-8.359680E-1	-5.981445E-3	3.329926E-1	-2.082977E-1	4.421234E-2	-1.332321E-1	-6.883240E-1	-2.058716E-1
2.142750E+10	-8.391113E-1	9.460449E-4	3.272552E-1	-2.100220E-1	4.031372E-2	-1.340714E-1	-6.935120E-1	-1.921387E-1
2.165200E+10	-8.368835E-1	5.310059E-3	3.186951E-1	-2.154083E-1	4.093933E-2	-1.338882E-1	-6.954041E-1	-1.838074E-1
2.187650E+10	-8.396301E-1	1.071167E-2	3.129730E-1	-2.156067E-1	3.779602E-2	-1.348877E-1	-7.016907E-1	-1.745605E-1
2.210100E+10	-8.394775E-1	1.654053E-2	3.041382E-1	-2.228851E-1	3.656769E-2	-1.337433E-1	-7.067871E-1	-1.624146E-1
2.232550E+10	-8.390503E-1	2.194214E-2	2.952423E-1	-2.255096E-1	3.441620E-2	-1.347122E-1	-7.061768E-1	-1.517944E-1
2.255000E+10	-8.399048E-1	2.673340E-2	2.880554E-1	-2.295685E-1	3.024292E-2	-1.356583E-1	-7.114258E-1	-1.437073E-1
2.277450E+10	-8.410645E-1	3.329468E-2	2.800140E-1	-2.313690E-1	2.894592E-2	-1.336517E-1	-7.146912E-1	-1.318970E-1
2.299900E+10	-8.419800E-1	3.646851E-2	2.723694E-1	-2.354736E-1	2.825165E-2	-1.361313E-1	-7.144165E-1	-1.213074E-1
2.322350E+10	-8.399353E-1	4.220581E-2	2.669830E-1	-2.397614E-1	2.592468E-2	-1.371918E-1	-7.211609E-1	-1.128540E-1
2.344800E+10	-8.397217E-1	4.391479E-2	2.567902E-1	-2.402039E-1	2.395630E-2	-1.370468E-1	-7.226868E-1	-1.000977E-1
2.367250E+10	-8.408203E-1	5.255127E-2	2.495575E-1	-2.421951E-1	2.254486E-2	-1.366882E-1	-7.228088E-1	-8.889771E-2
2.389700E+10	-8.380127E-1	5.715942E-2	2.410660E-1	-2.447586E-1	1.918030E-2	-1.349182E-1	-7.284546E-1	-7.934570E-2
2.412150E+10	-8.406982E-1	6.301880E-2	2.334595E-1	-2.465057E-1	1.631165E-2	-1.345596E-1	-7.265320E-1	-6.729126E-2
2.434600E+10	-8.394470E-1	6.527710E-2	2.284164E-1	-2.494583E-1	1.678467E-2	-1.359177E-1	-7.286377E-1	-5.752563E-2
2.457050E+10	-8.381348E-1	6.970215E-2	2.200165E-1	-2.517090E-1	1.222229E-2	-1.353760E-1	-7.293091E-1	-5.044556E-2
2.479500E+10	-8.390808E-1	7.601929E-2	2.128754E-1	-2.522125E-1	1.062012E-2	-1.350021E-1	-7.266541E-1	-3.457642E-2
2.501950E+10	-8.385620E-1	8.065796E-2	2.041779E-1	-2.532196E-1	9.140015E-3	-1.351471E-1	-7.264404E-1	-2.835083E-2
2.524400E+10	-8.382874E-1	8.740234E-2	1.987915E-1	-2.537994E-1	5.386353E-3	-1.339111E-1	-7.282715E-1	-1.840210E-2
2.546850E+10	-8.390198E-1	9.344482E-2	1.897583E-1	-2.533112E-1	3.334045E-3	-1.331177E-1	-7.298279E-1	-8.483887E-3
2.569300E+10	-8.377380E-1	9.506226E-2	1.847992E-1	-2.550507E-1	4.791260E-3	-1.338654E-1	-7.293701E-1	-4.791260E-3
2.591750E+10	-8.376465E-1	1.008911E-1	1.789856E-1	-2.545013E-1	-7.400513E-4	-1.322098E-1	-7.309875E-1	8.300781E-3
2.614200E+10	-8.354187E-1	1.056824E-1	1.712036E-1	-2.554474E-1	-3.814697E-5	-1.323547E-1	-7.329407E-1	2.145386E-2
2.636650E+10	-8.354492E-1	1.096497E-1	1.656799E-1	-2.578583E-1	-1.686096E-3	-1.335983E-1	-7.320862E-1	3.436279E-2
2.659100E+10	-8.349609E-1	1.129456E-1	1.583252E-1	-2.571259E-1	-4.379272E-3	-1.329880E-1	-7.287903E-1	4.266357E-2
2.681550E+10	-8.331909E-1	1.176453E-1	1.506348E-1	-2.571716E-1	-6.797791E-3	-1.323242E-1	-7.304382E-1	4.846191E-2
2.704000E+10	-8.331604E-1	1.245728E-1	1.456146E-1	-2.577667E-1	-7.926941E-3	-1.301041E-1	-7.301941E-1	6.542969E-2
2.726450E+10	-8.328552E-1	1.301575E-1	1.409760E-1	-2.594910E-1	-1.244354E-2	-1.325378E-1	-7.209167E-1	7.135010E-2
2.748900E+10	-8.313904E-1	1.325378E-1	1.343079E-1	-2.605133E-1	-1.118469E-2	-1.314392E-1	-7.245789E-1	7.687378E-2
2.771350E+10	-8.294067E-1	1.359253E-1	1.279449E-1	-2.613220E-1	-1.607513E-2	-1.303940E-1	-7.248230E-1	8.926392E-2
2.793800E+10	-8.299255E-1	1.412048E-1	1.230164E-1	-2.583923E-1	-1.638031E-2	-1.315384E-1	-7.227478E-1	1.013489E-1
2.816250E+10	-8.285522E-1	1.460876E-1	1.165924E-1	-2.552185E-1	-2.102661E-2	-1.308899E-1	-7.214661E-1	1.094360E-1
2.838700E+10	-8.258972E-1	1.519775E-1	1.089935E-1	-2.564545E-1	-1.980591E-2	-1.287460E-1	-7.171631E-1	1.212463E-1
2.861150E+10	-8.299255E-1	1.554565E-1	1.042175E-1	-2.577362E-1	-2.400208E-2	-1.269379E-1	-7.138062E-1	1.296387E-1
2.883600E+10	-8.270874E-1	1.585693E-1	9.664917E-2	-2.547455E-1	-2.371979E-2	-1.286545E-1	-7.108459E-1	1.325378E-1
2.906050E+10	-8.263550E-1	1.660156E-1	9.376526E-2	-2.538452E-1	-2.513123E-2	-1.265717E-1	-7.101135E-1	1.483154E-1
2.928500E+10	-8.245850E-1	1.701660E-1	8.528137E-2	-2.559814E-1	-2.851105E-2	-1.253891E-1	-7.079773E-1	1.549683E-1
2.950950E+10	-8.245239E-1	1.736450E-1	8.309937E-2	-2.540894E-1	-3.054810E-2	-1.246414E-1	-7.058716E-1	1.624756E-1
2.973400E+10	-8.217773E-1	1.769104E-1	7.936096E-2	-2.532959E-1	-3.158569E-2	-1.250229E-1	-7.008057E-1	1.746216E-1
2.995850E+10	-8.211060E-1	1.828918E-1	7.403564E-2	-2.514954E-1	-3.261566E-2	-1.241646E-1	-7.032776E-1	1.799011E-1
3.018300E+10	-8.169861E-1	1.846619E-1	6.822205E-2	-2.500458E-1	-3.418732E-2	-1.209373E-1	-6.943665E-1	1.979370E-1
3.040750E+10	-8.190613E-1	1.922607E-1	6.430817E-2	-2.495956E-1	-3.767395E-2	-1.235161E-1	-6.954956E-1	2.052002E-1
3.063200E+10	-8.156433E-1	1.940613E-1	5.645752E-2	-2.509308E-1	-4.008865E-2	-1.206970E-1	-6.947327E-1	2.149353E-1
3.085650E+10	-8.142395E-1	2.022400E-1	5.220032E-2	-2.432785E-1	-4.348755E-2	-1.250839E-1	-6.911316E-1	2.242432E-1
3.108100E+10	-8.149109E-1	2.044373E-1	4.701233E-2	-2.500153E-1	-4.534149E-2	-1.205292E-1	-6.800537E-1	2.362061E-1
3.130550E+10	-8.087158E-1	2.085266E-1	4.166412E-2	-2.482147E-1	-4.274368E-2	-1.199112E-1	-6.764526E-1	2.446289E-1
3.153000E+10	-8.077698E-1	2.116394E-1	3.736115E-2	-2.437363E-1	-4.980087E-2	-1.198311E-1	-6.718445E-1	2.503662E-1
3.175450E+10	-8.096313E-1	2.189331E-1	3.218842E-2	-2.409439E-1	-4.962921E-2	-1.154556E-1	-6.686707E-1	2.630005E-1
3.197900E+10	-8.048096E-1	2.189941E-1	2.597046E-2	-2.401276E-1	-5.355453E-2	-1.167641E-1	-6.618347E-1	2.709656E-1
3.220350E+10	-8.093567E-1	2.248535E-1	2.405548E-2	-2.421875E-1	-5.293655E-2	-1.172981E-1	-6.540833E-1	2.783203E-1
3.242800E+10	-8.084412E-1	2.294617E-1	1.824188E-2	-2.406616E-1	-5.617905E-2	-1.154480E-1	-6.477356E-1	2.888794E-1
3.265250E+10	-8.039551E-1	2.345581E-1	1.320648E-2	-2.379913E-1	-5.700302E-2	-1.144295E-1	-6.387024E-1	2.923889E-1
3.287700E+10	-8.018188E-1	2.387695E-1	1.154327E-2	-2.346344E-1	-5.377197E-2	-1.134071E-1	-6.354065E-1	3.032532E-1
3.310150E+10	-8.007202E-1	2.458191E-1	5.233765E-3	-2.305756E-1	-6.068039E-2	-1.110878E-1	-6.280823E-1	3.119507E-1
3.332600E+10	-7.971802E-1	2.461243E-1	9.078979E-4	-2.261810E-1	-6.322479E-2	-1.097908E-1	-6.280518E-1	3.167725E-1
3.355050E+10	-7.937622E-1	2.507019E-1	-3.456116E-3	-2.226791E-1	-6.563568E-2	-1.088181E-1	-6.200867E-1	3.229065E-1
3.377500E+10	-7.904663E-1	2.581482E-1	-9.895325E-3	-2.271729E-1	-6.600952E-2	-1.096191E-1	-6.109009E-1	3.256226E-1
3.399950E+10	-7.898254E-1	2.600403E-1	-7.110596E-3	-2.233734E-1	-6.995392E-2	-1.065903E-1	-6.120605E-1	3.374329E-1
3.422400E+10	-7.883606E-1	2.630615E-1	-1.428223E-2	-2.223053E-1	-6.768417E-2	-1.054840E-1	-6.017456E-1	3.517456E-1
3.444850E+10	-7.890930E-1	2.698975E-1	-1.654816E-2	-2.220612E-1	-7.099152E-2	-1.049232E-1	-5.959778E-1	3.531494E-1
3.467300E+10	-7.850647E-1	2.700806E-1	-1.555634E-2	-2.181320E-1	-7.402039E-2	-1.036491E-1	-5.928650E-1	3.578796E-1
3.489750E+10	-7.807007E-1	2.722168E-1	-2.375793E-2	-2.165527E-1	-7.700348E-2	-1.036644E-1	-5.835571E-1	3.753662E-1
3.512200E+10	-7.799072E-1	2.784119E-1	-3.157806E-2	-2.138214E-1	-7.798004E-2	-1.018753E-1	-5.760803E-1	3.750916E-1
3.534650E+10	-7.751160E-1	2.827148E-1	-3.536224E-2	-2.114639E-1	-8.046722E-2	-1.016846E-1	-5.703125E-1	3.883972E-1
3.557100E+10	-7.797546E-1	2.808228E-1	-3.331757E-2	-2.062531E-1	-8.333206E-2	-1.029282E-1	-5.586548E-1	3.980103E-1
3.579550E+10	-7.752686E-1	2.921753E-1	-4.280853E-2	-2.084503E-1	-8.770370E-2	-9.797287E-2	-5.493469E-1	4.052734E-1
3.602000E+10	-7.708130E-1	2.950134E-1	-4.245758E-2	-2.063293E-1	-8.523941E-2	-9.435654E-2	-5.409241E-1	4.009399E-1
3.624450E+10	-7.651978E-1	2.979431E-1	-4.978180E-2	-2.019043E-1	-8.739090E-2	-9.722519E-2	-5.382996E-1	4.106750E-1
3.646900E+10	-7.657471E-1	3.020935E-1	-5.100250E-2	-2.017822E-1	-9.394836E-2	-9.104538E-2	-5.285950E-1	4.242859E-1
3.669350E+10	-7.625427E-1	3.043823E-1	-5.599213E-2	-1.983566E-1	-9.301376E-2	-8.712006E-2	-5.149841E-1	4.205322E-1
3.691800E+10	-7.592773E-1	3.082275E-1	-5.567169E-2	-1.953506E-1	-9.743118E-2	-9.037399E-2	-5.106506E-1	4.299011E-1
3.714250E+10	-7.589417E-1	3.128052E-1	-6.457520E-2	-1.882019E-1	-9.532547E-2	-8.345032E-2	-4.956207E-1	4.375610E-1
3.736700E+10	-7.519226E-1	3.142090E-1	-6.388855E-2	-1.864853E-1	-9.989548E-2	-8.368301E-2	-4.899902E-1	4.423370E-1
3.759150E+10	-7.539062E-1	3.169250E-1	-6.990814E-2	-1.875381E-1	-1.036530E-1	-8.315659E-2	-4.853058E-1	4.465637E-1
3.781600E+10	-7.497559E-1	3.218689E-1	-6.980133E-2	-1.837158E-1	-1.023178E-1	-7.913589E-2	-4.705658E-1	4.456177E-1
3.804050E+10	-7.482300E-1	3.236694E-1	-7.236481E-2	-1.775665E-1	-1.093369E-1	-7.897949E-2	-4.623871E-1	4.581757E-1
3.826500E+10	-7.434082E-1	3.259277E-1	-7.509613E-2	-1.783295E-1	-1.034927E-1	-7.150269E-2	-4.488678E-1	4.652252E-1
3.848950E+10	-7.436523E-1	3.310852E-1	-8.509064E-2	-1.763458E-1	-1.131439E-1	-7.565308E-2	-4.358215E-1	4.654083E-1
3.871400E+10	-7.392273E-1	3.354797E-1	-8.342743E-2	-1.610336E-1	-1.129112E-1	-8.015060E-2	-4.265289E-1	4.661865E-1
3.893850E+10	-7.343140E-1	3.376770E-1	-8.377075E-2	-1.708145E-1	-1.068306E-1	-6.446075E-2	-4.170532E-1	4.642029E-1
