!Date: 10/28/2005, 12:46 PM

!Vgs = -3.000000E+0
!Vds = 1.000000E+1
!Ig = -2.405900E-5
!Id = 3.694900E-1

# HZ S RI R 50
1.000000E+8	9.694824E-1	-1.986084E-1	-1.640723E+1	1.100586E+0	5.393028E-4	8.878708E-3	4.971924E-1	-6.016541E-2
3.245000E+8	7.729492E-1	-5.606079E-1	-1.457520E+1	5.497559E+0	9.486198E-3	2.189732E-2	3.156738E-1	-2.452393E-1
5.490000E+8	5.051880E-1	-7.883911E-1	-1.196191E+1	7.619141E+0	2.015686E-2	2.946758E-2	2.244873E-1	-3.190613E-1
7.735000E+8	2.433472E-1	-8.882446E-1	-9.417969E+0	8.467773E+0	3.122139E-2	3.186989E-2	1.119843E-1	-3.624878E-1
9.980000E+8	2.304077E-2	-9.081726E-1	-7.285156E+0	8.598633E+0	3.950310E-2	3.161621E-2	2.359009E-2	-3.567505E-1
1.222500E+9	-1.563721E-1	-8.878479E-1	-5.610352E+0	8.378418E+0	4.623032E-2	2.961159E-2	-3.819275E-2	-3.511658E-1
1.447000E+9	-3.001404E-1	-8.482666E-1	-4.291260E+0	7.975098E+0	5.151749E-2	2.730751E-2	-9.187317E-2	-3.364868E-1
1.671500E+9	-4.104004E-1	-7.993164E-1	-3.276367E+0	7.494385E+0	5.540085E-2	2.490234E-2	-1.321869E-1	-3.210602E-1
1.896000E+9	-4.981995E-1	-7.456055E-1	-2.512451E+0	6.990479E+0	5.879021E-2	2.181435E-2	-1.646729E-1	-3.010406E-1
2.120500E+9	-5.650330E-1	-6.939087E-1	-1.916016E+0	6.536133E+0	6.187057E-2	1.875496E-2	-1.882324E-1	-2.857666E-1
2.345000E+9	-6.186523E-1	-6.431885E-1	-1.433838E+0	6.099854E+0	6.346893E-2	1.594162E-2	-2.088470E-1	-2.688141E-1
2.569500E+9	-6.581726E-1	-5.984192E-1	-1.051514E+0	5.694824E+0	6.470490E-2	1.303482E-2	-2.231903E-1	-2.550507E-1
2.794000E+9	-6.928711E-1	-5.595398E-1	-7.558594E-1	5.337158E+0	6.617737E-2	1.091766E-2	-2.355957E-1	-2.431183E-1
3.018500E+9	-7.201538E-1	-5.217590E-1	-4.992676E-1	5.005127E+0	6.676865E-2	8.220673E-3	-2.456512E-1	-2.314987E-1
3.243000E+9	-7.425842E-1	-4.870911E-1	-2.890625E-1	4.709961E+0	6.719589E-2	6.317139E-3	-2.550201E-1	-2.231445E-1
3.467500E+9	-7.629395E-1	-4.574890E-1	-1.135254E-1	4.440918E+0	6.728745E-2	4.577637E-3	-2.630310E-1	-2.149811E-1
3.692000E+9	-7.799683E-1	-4.295044E-1	3.735352E-2	4.188721E+0	6.804276E-2	2.841949E-3	-2.689056E-1	-2.088623E-1
3.916500E+9	-7.943115E-1	-4.006348E-1	1.604004E-1	3.958496E+0	6.805038E-2	1.007080E-3	-2.776031E-1	-2.023926E-1
4.141000E+9	-8.058472E-1	-3.766174E-1	2.659912E-1	3.748413E+0	6.845856E-2	-9.117126E-4	-2.822113E-1	-1.963654E-1
4.365500E+9	-8.144836E-1	-3.539734E-1	3.581543E-1	3.554932E+0	6.847000E-2	-2.716064E-3	-2.880859E-1	-1.912842E-1
4.590000E+9	-8.241577E-1	-3.330383E-1	4.367676E-1	3.372437E+0	6.844330E-2	-3.932953E-3	-2.933197E-1	-1.857910E-1
4.814500E+9	-8.324890E-1	-3.127441E-1	5.007324E-1	3.205933E+0	6.866837E-2	-5.573273E-3	-2.977905E-1	-1.816711E-1
5.039000E+9	-8.382263E-1	-2.940063E-1	5.582275E-1	3.052856E+0	6.850433E-2	-7.415771E-3	-3.025208E-1	-1.791229E-1
5.263500E+9	-8.436584E-1	-2.763367E-1	6.086426E-1	2.910156E+0	6.823349E-2	-8.892059E-3	-3.077240E-1	-1.745300E-1
5.488000E+9	-8.481750E-1	-2.612000E-1	6.516113E-1	2.777222E+0	6.802368E-2	-1.014709E-2	-3.109131E-1	-1.709290E-1
5.712500E+9	-8.537292E-1	-2.460937E-1	6.898193E-1	2.650391E+0	6.830215E-2	-1.131439E-2	-3.152161E-1	-1.681519E-1
5.937000E+9	-8.572998E-1	-2.297974E-1	7.219238E-1	2.532471E+0	6.790161E-2	-1.293945E-2	-3.192291E-1	-1.651611E-1
6.161500E+9	-8.604736E-1	-2.173767E-1	7.529297E-1	2.428589E+0	6.814575E-2	-1.465225E-2	-3.223724E-1	-1.612396E-1
6.386000E+9	-8.641052E-1	-2.041016E-1	7.790527E-1	2.323486E+0	6.728363E-2	-1.616669E-2	-3.242645E-1	-1.596527E-1
6.610500E+9	-8.663940E-1	-1.920166E-1	8.038330E-1	2.226074E+0	6.721497E-2	-1.707458E-2	-3.299561E-1	-1.585083E-1
6.835000E+9	-8.694458E-1	-1.797485E-1	8.229980E-1	2.131348E+0	6.708908E-2	-1.841736E-2	-3.330688E-1	-1.536865E-1
7.059500E+9	-8.716736E-1	-1.689148E-1	8.354492E-1	2.045410E+0	6.594086E-2	-1.886368E-2	-3.329010E-1	-1.545715E-1
7.284000E+9	-8.726501E-1	-1.580505E-1	8.513184E-1	1.961731E+0	6.575394E-2	-2.067566E-2	-3.396454E-1	-1.522522E-1
7.508500E+9	-8.750916E-1	-1.475220E-1	8.636475E-1	1.883240E+0	6.547546E-2	-2.226639E-2	-3.396149E-1	-1.488800E-1
7.733000E+9	-8.754272E-1	-1.371765E-1	8.730469E-1	1.809082E+0	6.459808E-2	-2.265167E-2	-3.441620E-1	-1.498718E-1
7.957500E+9	-8.775024E-1	-1.274109E-1	8.850098E-1	1.739685E+0	6.468964E-2	-2.409744E-2	-3.484039E-1	-1.469421E-1
8.182000E+9	-8.782959E-1	-1.173401E-1	8.942871E-1	1.673035E+0	6.378555E-2	-2.532959E-2	-3.521729E-1	-1.465149E-1
8.406500E+9	-8.786621E-1	-1.098633E-1	8.992310E-1	1.606934E+0	6.334686E-2	-2.623367E-2	-3.553162E-1	-1.424408E-1
8.631000E+9	-8.802185E-1	-9.988403E-2	9.070435E-1	1.542969E+0	6.308746E-2	-2.737808E-2	-3.594666E-1	-1.424255E-1
8.855500E+9	-8.806458E-1	-9.231567E-2	9.111328E-1	1.481689E+0	6.233025E-2	-2.827454E-2	-3.629150E-1	-1.400452E-1
9.080001E+9	-8.812866E-1	-8.447266E-2	9.131470E-1	1.427185E+0	6.118965E-2	-2.938080E-2	-3.644562E-1	-1.374207E-1
9.304500E+9	-8.796082E-1	-7.403564E-2	9.142456E-1	1.372070E+0	5.984306E-2	-2.992249E-2	-3.675537E-1	-1.371155E-1
9.529000E+9	-8.816223E-1	-6.903076E-2	9.162598E-1	1.319397E+0	6.017685E-2	-3.156090E-2	-3.724976E-1	-1.346741E-1
9.753500E+9	-8.815308E-1	-6.167603E-2	9.166260E-1	1.268311E+0	5.930519E-2	-3.206444E-2	-3.738708E-1	-1.321869E-1
9.978000E+9	-8.821411E-1	-5.334473E-2	9.154663E-1	1.222107E+0	5.829811E-2	-3.264046E-2	-3.773041E-1	-1.316833E-1
1.020250E+10	-8.826904E-1	-4.730225E-2	9.149780E-1	1.176025E+0	5.807686E-2	-3.398705E-2	-3.813019E-1	-1.281281E-1
1.042700E+10	-8.823547E-1	-4.003906E-2	9.140015E-1	1.131714E+0	5.714989E-2	-3.490448E-2	-3.831940E-1	-1.273499E-1
1.065150E+10	-8.821716E-1	-3.280640E-2	9.121094E-1	1.089111E+0	5.644989E-2	-3.556252E-2	-3.859406E-1	-1.265106E-1
1.087600E+10	-8.830872E-1	-2.615356E-2	9.102173E-1	1.047791E+0	5.542183E-2	-3.708076E-2	-3.895569E-1	-1.252289E-1
1.110050E+10	-8.827515E-1	-1.934814E-2	9.079590E-1	1.007935E+0	5.478287E-2	-3.695679E-2	-3.923950E-1	-1.222382E-1
1.132500E+10	-8.813782E-1	-1.342773E-2	9.042053E-1	9.696350E-1	5.382156E-2	-3.788185E-2	-3.948975E-1	-1.235199E-1
1.154950E+10	-8.825989E-1	-6.713867E-3	9.013977E-1	9.315491E-1	5.300331E-2	-3.879166E-2	-4.002991E-1	-1.193237E-1
1.177400E+10	-8.812866E-1	-5.798340E-4	8.967896E-1	8.973389E-1	5.181694E-2	-3.970718E-2	-4.027710E-1	-1.167908E-1
1.199850E+10	-8.811951E-1	4.028320E-3	8.934631E-1	8.639221E-1	5.217743E-2	-3.970337E-2	-4.052429E-1	-1.166534E-1
1.222300E+10	-8.808899E-1	1.074219E-2	8.872681E-1	8.290100E-1	5.063057E-2	-4.048157E-2	-4.083557E-1	-1.156769E-1
1.244750E+10	-8.802795E-1	1.574707E-2	8.817749E-1	7.969666E-1	4.975891E-2	-4.139900E-2	-4.114227E-1	-1.106873E-1
1.267200E+10	-8.802795E-1	2.203369E-2	8.762512E-1	7.659607E-1	4.883766E-2	-4.196739E-2	-4.136810E-1	-1.115570E-1
1.289650E+10	-8.785400E-1	2.645874E-2	8.697815E-1	7.354431E-1	4.820442E-2	-4.223442E-2	-4.191437E-1	-1.095581E-1
1.312100E+10	-8.785400E-1	3.149414E-2	8.630981E-1	7.075806E-1	4.663849E-2	-4.322243E-2	-4.219666E-1	-1.051636E-1
1.334550E+10	-8.780823E-1	3.753662E-2	8.575134E-1	6.799622E-1	4.642868E-2	-4.349899E-2	-4.228516E-1	-1.047821E-1
1.357000E+10	-8.774109E-1	4.223633E-2	8.504333E-1	6.521301E-1	4.590416E-2	-4.439735E-2	-4.273529E-1	-1.053314E-1
1.379450E+10	-8.773193E-1	4.714966E-2	8.446045E-1	6.268921E-1	4.479980E-2	-4.471779E-2	-4.315186E-1	-9.831238E-2
1.401900E+10	-8.763428E-1	5.249023E-2	8.383484E-1	6.032715E-1	4.383087E-2	-4.665375E-2	-4.313202E-1	-9.913635E-2
1.424350E+10	-8.746643E-1	5.731201E-2	8.316650E-1	5.782166E-1	4.284859E-2	-4.622841E-2	-4.365692E-1	-9.614563E-2
1.446800E+10	-8.746338E-1	6.231689E-2	8.247070E-1	5.551147E-1	4.096413E-2	-4.687500E-2	-4.392853E-1	-9.158325E-2
1.469250E+10	-8.742676E-1	6.774902E-2	8.187256E-1	5.317993E-1	4.100609E-2	-4.686928E-2	-4.390564E-1	-9.005737E-2
1.491700E+10	-8.733521E-1	7.116699E-2	8.111877E-1	5.086365E-1	3.920937E-2	-4.721451E-2	-4.437714E-1	-9.028625E-2
1.514150E+10	-8.720398E-1	7.574463E-2	8.038940E-1	4.876099E-1	3.889084E-2	-4.836655E-2	-4.466858E-1	-8.430481E-2
1.536600E+10	-8.704529E-1	8.215332E-2	7.971191E-1	4.660645E-1	3.849792E-2	-4.716682E-2	-4.477234E-1	-8.283997E-2
1.559050E+10	-8.705139E-1	8.462524E-2	7.885437E-1	4.455872E-1	3.619194E-2	-4.880714E-2	-4.515076E-1	-8.175659E-2
1.581500E+10	-8.693542E-1	9.030151E-2	7.811584E-1	4.256287E-1	3.466034E-2	-4.932404E-2	-4.556885E-1	-7.769775E-2
1.603950E+10	-8.684998E-1	9.411621E-2	7.744446E-1	4.070435E-1	3.461456E-2	-4.932594E-2	-4.565887E-1	-7.666016E-2
1.626400E+10	-8.673706E-1	9.994507E-2	7.669373E-1	3.893127E-1	3.361130E-2	-5.002403E-2	-4.616089E-1	-7.420349E-2
1.648850E+10	-8.668213E-1	1.035461E-1	7.593384E-1	3.720703E-1	3.400803E-2	-4.962730E-2	-4.628601E-1	-6.869507E-2
1.671300E+10	-8.660278E-1	1.077576E-1	7.500000E-1	3.537292E-1	3.158379E-2	-5.014229E-2	-4.658661E-1	-6.741333E-2
1.693750E+10	-8.646545E-1	1.109924E-1	7.444763E-1	3.380737E-1	3.112030E-2	-5.144691E-2	-4.694061E-1	-6.575012E-2
1.716200E+10	-8.641663E-1	1.157837E-1	7.356567E-1	3.226624E-1	2.934456E-2	-5.050659E-2	-4.721222E-1	-6.005859E-2
1.738650E+10	-8.633118E-1	1.211243E-1	7.290344E-1	3.079834E-1	2.987289E-2	-5.255127E-2	-4.739838E-1	-5.737305E-2
1.761100E+10	-8.611145E-1	1.244202E-1	7.209473E-1	2.925110E-1	2.811432E-2	-5.151558E-2	-4.771271E-1	-5.509949E-2
1.783550E+10	-8.599548E-1	1.295776E-1	7.127075E-1	2.779236E-1	2.635002E-2	-5.225754E-2	-4.819183E-1	-4.981995E-2
1.806000E+10	-8.603516E-1	1.328125E-1	7.059326E-1	2.650757E-1	2.515221E-2	-5.171204E-2	-4.797363E-1	-4.862976E-2
1.828450E+10	-8.576965E-1	1.374207E-1	6.990051E-1	2.505798E-1	2.461815E-2	-5.217743E-2	-4.828186E-1	-4.771423E-2
1.850900E+10	-8.580322E-1	1.412354E-1	6.909790E-1	2.384949E-1	2.383423E-2	-5.199242E-2	-4.885254E-1	-4.119873E-2
1.873350E+10	-8.557434E-1	1.447754E-1	6.842346E-1	2.247620E-1	2.312469E-2	-5.275345E-2	-4.871368E-1	-3.636169E-2
1.895800E+10	-8.544617E-1	1.476746E-1	6.755371E-1	2.109985E-1	2.125168E-2	-5.284500E-2	-4.893188E-1	-3.660583E-2
1.918250E+10	-8.542175E-1	1.520386E-1	6.680298E-1	1.994934E-1	2.181816E-2	-5.246353E-2	-4.944153E-1	-3.297424E-2
1.940700E+10	-8.526611E-1	1.561890E-1	6.578674E-1	1.867676E-1	1.924324E-2	-5.306816E-2	-4.922333E-1	-2.372742E-2
1.963150E+10	-8.512878E-1	1.604004E-1	6.528015E-1	1.760559E-1	1.786423E-2	-5.084038E-2	-4.959717E-1	-2.546692E-2
1.985600E+10	-8.505859E-1	1.624146E-1	6.450806E-1	1.655273E-1	1.724052E-2	-5.333138E-2	-4.994049E-1	-2.207947E-2
2.008050E+10	-8.479919E-1	1.649780E-1	6.358948E-1	1.548462E-1	1.607323E-2	-5.208015E-2	-5.017090E-1	-1.522827E-2
2.030500E+10	-8.468933E-1	1.700134E-1	6.308899E-1	1.444702E-1	1.583862E-2	-5.327034E-2	-4.992371E-1	-1.499939E-2
2.052950E+10	-8.464661E-1	1.738892E-1	6.206665E-1	1.358643E-1	1.278687E-2	-5.191612E-2	-5.042419E-1	-1.019287E-2
2.075400E+10	-8.427429E-1	1.771240E-1	6.163330E-1	1.271667E-1	1.154709E-2	-5.298615E-2	-5.063782E-1	-5.950928E-3
2.097850E+10	-8.431396E-1	1.820068E-1	6.106873E-1	1.177979E-1	1.383018E-2	-5.245781E-2	-5.048218E-1	-2.197266E-3
2.120300E+10	-8.437195E-1	1.820984E-1	6.006470E-1	1.071167E-1	1.061440E-2	-5.285072E-2	-5.074463E-1	-3.967285E-4
2.142750E+10	-8.414307E-1	1.889648E-1	5.956726E-1	9.884644E-2	1.032639E-2	-5.105782E-2	-5.111389E-1	3.814697E-3
2.165200E+10	-8.412476E-1	1.923828E-1	5.877991E-1	9.027100E-2	7.833481E-3	-5.004311E-2	-5.125427E-1	8.117676E-3
2.187650E+10	-8.381042E-1	1.932373E-1	5.801086E-1	8.377075E-2	7.520676E-3	-5.186081E-2	-5.159607E-1	1.220703E-2
2.210100E+10	-8.372192E-1	1.979370E-1	5.723267E-1	7.537842E-2	7.276535E-3	-5.150032E-2	-5.181885E-1	1.907349E-2
2.232550E+10	-8.339539E-1	2.011719E-1	5.653992E-1	6.683350E-2	5.620956E-3	-4.931831E-2	-5.173950E-1	2.368164E-2
2.255000E+10	-8.362427E-1	2.052917E-1	5.590515E-1	6.033325E-2	4.123688E-3	-5.043030E-2	-5.191345E-1	2.346802E-2
2.277450E+10	-8.334656E-1	2.091370E-1	5.528564E-1	5.230713E-2	4.171371E-3	-5.049706E-2	-5.201416E-1	3.036499E-2
2.299900E+10	-8.328552E-1	2.124329E-1	5.476379E-1	4.495239E-2	1.586914E-3	-5.147934E-2	-5.190430E-1	3.363037E-2
2.322350E+10	-8.323364E-1	2.149048E-1	5.419312E-1	3.729248E-2	8.964539E-4	-5.068016E-2	-5.245972E-1	3.573608E-2
2.344800E+10	-8.294067E-1	2.163696E-1	5.340576E-1	3.421021E-2	7.152557E-4	-4.998398E-2	-5.245056E-1	4.244995E-2
2.367250E+10	-8.294067E-1	2.226562E-1	5.277405E-1	2.511597E-2	-1.087189E-3	-4.888916E-2	-5.222778E-1	4.528809E-2
2.389700E+10	-8.252869E-1	2.233276E-1	5.215454E-1	2.032471E-2	-2.199173E-3	-5.061531E-2	-5.279236E-1	4.989624E-2
2.412150E+10	-8.239441E-1	2.272644E-1	5.153503E-1	1.434326E-2	-2.695084E-3	-4.833221E-2	-5.241699E-1	5.853271E-2
2.434600E+10	-8.227234E-1	2.317200E-1	5.084534E-1	8.789062E-3	-4.060745E-3	-4.806137E-2	-5.251160E-1	5.722046E-2
2.457050E+10	-8.218689E-1	2.358704E-1	5.007324E-1	2.655029E-3	-5.853653E-3	-4.733276E-2	-5.282898E-1	6.033325E-2
2.479500E+10	-8.209839E-1	2.380066E-1	4.944763E-1	-3.280640E-3	-6.191254E-3	-4.796410E-2	-5.260620E-1	6.909180E-2
2.501950E+10	-8.167419E-1	2.408142E-1	4.894257E-1	-6.484985E-3	-7.213593E-3	-4.582214E-2	-5.242615E-1	7.104492E-2
2.524400E+10	-8.167725E-1	2.442932E-1	4.830627E-1	-1.261902E-2	-8.155823E-3	-4.584503E-2	-5.277405E-1	7.501221E-2
2.546850E+10	-8.158875E-1	2.478027E-1	4.788513E-1	-1.463318E-2	-9.637833E-3	-4.565048E-2	-5.268860E-1	7.949829E-2
2.569300E+10	-8.127441E-1	2.483215E-1	4.719849E-1	-1.930237E-2	-1.019669E-2	-4.372787E-2	-5.267029E-1	8.258057E-2
2.591750E+10	-8.123169E-1	2.524414E-1	4.690399E-1	-2.465820E-2	-1.105118E-2	-4.300117E-2	-5.283508E-1	8.459473E-2
2.614200E+10	-8.084106E-1	2.561035E-1	4.617767E-1	-2.709961E-2	-1.288414E-2	-4.293060E-2	-5.328369E-1	9.237671E-2
2.636650E+10	-8.082581E-1	2.567139E-1	4.562225E-1	-3.233337E-2	-1.404953E-2	-4.116631E-2	-5.347290E-1	9.857178E-2
2.659100E+10	-8.068542E-1	2.603455E-1	4.512024E-1	-3.564453E-2	-1.484489E-2	-4.060173E-2	-5.296631E-1	1.009827E-1
2.681550E+10	-8.050842E-1	2.605896E-1	4.482422E-1	-3.926086E-2	-1.699448E-2	-4.150772E-2	-5.335388E-1	1.032715E-1
2.704000E+10	-8.029480E-1	2.656250E-1	4.411774E-1	-4.418945E-2	-1.623726E-2	-3.836632E-2	-5.336914E-1	1.136169E-1
2.726450E+10	-7.991028E-1	2.686462E-1	4.347534E-1	-4.806519E-2	-1.832771E-2	-3.775406E-2	-5.261230E-1	1.119080E-1
2.748900E+10	-7.992859E-1	2.732849E-1	4.304199E-1	-5.041504E-2	-1.710892E-2	-4.088974E-2	-5.293884E-1	1.189270E-1
2.771350E+10	-7.998047E-1	2.743225E-1	4.270325E-1	-5.465698E-2	-1.895523E-2	-3.753090E-2	-5.302429E-1	1.227722E-1
2.793800E+10	-7.943420E-1	2.744751E-1	4.188538E-1	-5.671692E-2	-2.083588E-2	-3.678131E-2	-5.299377E-1	1.252747E-1
2.816250E+10	-7.933350E-1	2.774963E-1	4.178925E-1	-6.082153E-2	-1.889420E-2	-3.488731E-2	-5.344849E-1	1.303101E-1
2.838700E+10	-7.909851E-1	2.789612E-1	4.107666E-1	-6.417847E-2	-2.343559E-2	-3.430557E-2	-5.309448E-1	1.340637E-1
2.861150E+10	-7.907104E-1	2.857666E-1	4.074554E-1	-6.492615E-2	-2.298737E-2	-3.229141E-2	-5.307922E-1	1.421509E-1
2.883600E+10	-7.891235E-1	2.886047E-1	4.064484E-1	-6.817627E-2	-2.433395E-2	-3.100777E-2	-5.300903E-1	1.406860E-1
2.906050E+10	-7.871094E-1	2.917175E-1	3.974915E-1	-6.977844E-2	-2.324390E-2	-2.971363E-2	-5.312805E-1	1.465454E-1
2.928500E+10	-7.865601E-1	2.939148E-1	3.965759E-1	-7.104492E-2	-2.829742E-2	-2.631760E-2	-5.300598E-1	1.521912E-1
2.950950E+10	-7.822571E-1	2.976685E-1	3.937225E-1	-7.391357E-2	-2.360725E-2	-2.659893E-2	-5.302734E-1	1.540833E-1
2.973400E+10	-7.824707E-1	2.982178E-1	3.883362E-1	-7.656860E-2	-2.446175E-2	-2.675915E-2	-5.318909E-1	1.613770E-1
2.995850E+10	-7.797241E-1	2.983704E-1	3.872070E-1	-7.937622E-2	-2.890873E-2	-2.403736E-2	-5.328674E-1	1.692505E-1
3.018300E+10	-7.741089E-1	3.009949E-1	3.829041E-1	-8.471680E-2	-2.912426E-2	-2.527332E-2	-5.328064E-1	1.754456E-1
3.040750E+10	-7.766418E-1	3.045654E-1	3.788147E-1	-8.639526E-2	-2.626324E-2	-2.524567E-2	-5.287781E-1	1.804504E-1
3.063200E+10	-7.748108E-1	3.074036E-1	3.742828E-1	-8.845520E-2	-2.961826E-2	-2.262497E-2	-5.310059E-1	1.854858E-1
3.085650E+10	-7.742310E-1	3.082275E-1	3.725739E-1	-9.065247E-2	-2.953815E-2	-2.182961E-2	-5.309448E-1	1.897888E-1
3.108100E+10	-7.738953E-1	3.120728E-1	3.718872E-1	-9.408569E-2	-2.972126E-2	-1.868248E-2	-5.278015E-1	1.984558E-1
3.130550E+10	-7.698059E-1	3.168640E-1	3.622284E-1	-9.788513E-2	-3.203201E-2	-2.215195E-2	-5.223083E-1	2.024841E-1
3.153000E+10	-7.704163E-1	3.158569E-1	3.657532E-1	-9.567261E-2	-3.132820E-2	-1.872444E-2	-5.305481E-1	2.049255E-1
3.175450E+10	-7.689209E-1	3.164673E-1	3.571320E-1	-9.738159E-2	-2.927971E-2	-1.320553E-2	-5.237732E-1	2.124939E-1
3.197900E+10	-7.673645E-1	3.221436E-1	3.556366E-1	-1.038971E-1	-3.118134E-2	-1.251316E-2	-5.196838E-1	2.163391E-1
3.220350E+10	-7.630310E-1	3.272705E-1	3.555145E-1	-1.075592E-1	-2.785969E-2	-1.164055E-2	-5.240173E-1	2.192078E-1
3.242800E+10	-7.649231E-1	3.266296E-1	3.457794E-1	-1.064911E-1	-3.025818E-2	-1.206589E-2	-5.219421E-1	2.264404E-1
3.265250E+10	-7.637634E-1	3.290100E-1	3.473511E-1	-1.130829E-1	-3.008080E-2	-1.215458E-2	-5.140686E-1	2.304687E-1
3.287700E+10	-7.593689E-1	3.323975E-1	3.480225E-1	-1.094055E-1	-2.841949E-2	-1.084232E-2	-5.192261E-1	2.357483E-1
3.310150E+10	-7.556763E-1	3.333740E-1	3.461609E-1	-1.113434E-1	-3.074837E-2	-7.932663E-3	-5.150452E-1	2.368774E-1
3.332600E+10	-7.559814E-1	3.333435E-1	3.382111E-1	-1.160889E-1	-3.317833E-2	-1.119232E-2	-5.115662E-1	2.422791E-1
3.355050E+10	-7.515869E-1	3.364563E-1	3.356628E-1	-1.207428E-1	-3.223991E-2	-2.716064E-3	-5.106201E-1	2.472229E-1
3.377500E+10	-7.525330E-1	3.401794E-1	3.370972E-1	-1.178284E-1	-3.384209E-2	-5.731583E-3	-5.084534E-1	2.540894E-1
3.399950E+10	-7.485046E-1	3.383484E-1	3.337402E-1	-1.178436E-1	-3.127861E-2	-9.994507E-4	-5.130920E-1	2.541199E-1
3.422400E+10	-7.480469E-1	3.464355E-1	3.327637E-1	-1.207581E-1	-2.770710E-2	-2.799034E-3	-5.043030E-1	2.646790E-1
3.444850E+10	-7.467346E-1	3.479309E-1	3.265381E-1	-1.315918E-1	-3.084755E-2	2.403259E-3	-5.026855E-1	2.702026E-1
3.467300E+10	-7.442017E-1	3.470459E-1	3.358917E-1	-1.236572E-1	-2.910900E-2	1.587868E-3	-5.079346E-1	2.778625E-1
3.489750E+10	-7.459717E-1	3.498230E-1	3.267365E-1	-1.325836E-1	-3.192711E-2	5.378723E-4	-5.013733E-1	2.871704E-1
3.512200E+10	-7.376709E-1	3.481140E-1	3.199005E-1	-1.339569E-1	-3.247070E-2	-1.277924E-3	-4.980927E-1	2.878265E-1
3.534650E+10	-7.347412E-1	3.498230E-1	3.216095E-1	-1.371155E-1	-3.053761E-2	3.454208E-3	-4.988403E-1	2.990417E-1
3.557100E+10	-7.377930E-1	3.526917E-1	3.189087E-1	-1.393433E-1	-3.109837E-2	6.369591E-3	-4.947205E-1	3.052673E-1
3.579550E+10	-7.315979E-1	3.566284E-1	3.177185E-1	-1.416626E-1	-3.212738E-2	9.609222E-3	-4.895630E-1	3.026276E-1
3.602000E+10	-7.360229E-1	3.599243E-1	3.206024E-1	-1.436157E-1	-3.348923E-2	3.215790E-3	-4.858398E-1	3.073578E-1
3.624450E+10	-7.298279E-1	3.629456E-1	3.117218E-1	-1.466522E-1	-2.870846E-2	1.290607E-2	-4.864807E-1	3.174896E-1
3.646900E+10	-7.300110E-1	3.637085E-1	3.137054E-1	-1.497650E-1	-2.938652E-2	1.091957E-2	-4.799957E-1	3.239136E-1
3.669350E+10	-7.290955E-1	3.648071E-1	3.093872E-1	-1.498108E-1	-2.967262E-2	1.579380E-2	-4.772491E-1	3.247375E-1
3.691800E+10	-7.281494E-1	3.677063E-1	3.094177E-1	-1.513672E-1	-2.634716E-2	1.404762E-2	-4.777832E-1	3.330078E-1
3.714250E+10	-7.248535E-1	3.703918E-1	3.028412E-1	-1.563721E-1	-3.009796E-2	1.565456E-2	-4.706116E-1	3.404999E-1
3.736700E+10	-7.207336E-1	3.723755E-1	3.000793E-1	-1.628418E-1	-3.039169E-2	1.902676E-2	-4.646912E-1	3.424988E-1
3.759150E+10	-7.175598E-1	3.759155E-1	2.987976E-1	-1.641693E-1	-2.694416E-2	1.992702E-2	-4.578094E-1	3.511810E-1
3.781600E+10	-7.176208E-1	3.756104E-1	2.981415E-1	-1.613770E-1	-2.465725E-2	1.836872E-2	-4.560394E-1	3.609467E-1
3.804050E+10	-7.223816E-1	3.741150E-1	2.956543E-1	-1.619568E-1	-2.198887E-2	2.404118E-2	-4.480896E-1	3.605347E-1
3.826500E+10	-7.126770E-1	3.812866E-1	2.944794E-1	-1.659698E-1	-2.267170E-2	2.050018E-2	-4.442139E-1	3.737488E-1
3.848950E+10	-7.110901E-1	3.806152E-1	2.938843E-1	-1.698151E-1	-1.988602E-2	2.692032E-2	-4.411621E-1	3.746490E-1
3.871400E+10	-7.143860E-1	3.767700E-1	2.888031E-1	-1.764221E-1	-2.376652E-2	2.505302E-2	-4.329376E-1	3.801270E-1
3.893850E+10	-7.083740E-1	3.839111E-1	2.897491E-1	-1.816406E-1	-1.937771E-2	2.601147E-2	-4.266968E-1	3.828888E-1
3.916300E+10	-7.153625E-1	3.891602E-1	2.863922E-1	-1.766052E-1	-1.861668E-2	3.124809E-2	-4.331207E-1	3.827820E-1
