!Date: 10/28/2005, 12:46 PM

!Vgs = -6.000000E+0
!Vds = 2.000000E+1
!Ig = -1.129400E-4
!Id = 6.454500E-3

# HZ S RI R 50
1.000000E+8	9.897461E-1	-4.180908E-2	-4.520111E-1	1.495361E-3	1.432896E-3	9.320259E-3	9.249878E-1	-1.858521E-2
3.245000E+8	9.761353E-1	-1.169128E-1	-4.617004E-1	6.411743E-2	4.676819E-3	2.635479E-2	8.904114E-1	-8.850098E-2
5.490000E+8	9.592590E-1	-1.887512E-1	-4.532013E-1	1.164246E-1	9.862900E-3	4.314613E-2	8.831177E-1	-1.372070E-1
7.735000E+8	9.379578E-1	-2.594604E-1	-4.359436E-1	1.663971E-1	1.738548E-2	5.794525E-2	8.668518E-1	-1.857605E-1
9.980000E+8	9.130554E-1	-3.244324E-1	-4.128723E-1	2.113342E-1	2.560043E-2	7.201385E-2	8.489075E-1	-2.285156E-1
1.222500E+9	8.828125E-1	-3.881836E-1	-3.870850E-1	2.525330E-1	3.510666E-2	8.449173E-2	8.304443E-1	-2.736816E-1
1.447000E+9	8.493652E-1	-4.475098E-1	-3.589783E-1	2.893829E-1	4.550934E-2	9.597778E-2	8.105164E-1	-3.157349E-1
1.671500E+9	8.122864E-1	-5.036621E-1	-3.282013E-1	3.226013E-1	5.647659E-2	1.065559E-1	7.867126E-1	-3.543091E-1
1.896000E+9	7.723999E-1	-5.540771E-1	-2.944031E-1	3.523407E-1	6.999969E-2	1.170464E-1	7.654114E-1	-3.896790E-1
2.120500E+9	7.311401E-1	-6.010132E-1	-2.573853E-1	3.769073E-1	8.460617E-2	1.237984E-1	7.428284E-1	-4.265137E-1
2.345000E+9	6.847839E-1	-6.451111E-1	-2.200623E-1	3.988190E-1	9.906769E-2	1.287842E-1	7.171021E-1	-4.608154E-1
2.569500E+9	6.406250E-1	-6.811218E-1	-1.817474E-1	4.148560E-1	1.138382E-1	1.325378E-1	6.915588E-1	-4.932556E-1
2.794000E+9	5.941162E-1	-7.164612E-1	-1.442413E-1	4.290009E-1	1.275864E-1	1.345596E-1	6.641846E-1	-5.228882E-1
3.018500E+9	5.479126E-1	-7.466431E-1	-1.060944E-1	4.370270E-1	1.414566E-1	1.347885E-1	6.353455E-1	-5.523071E-1
3.243000E+9	5.010071E-1	-7.733459E-1	-7.070923E-2	4.443359E-1	1.547012E-1	1.344452E-1	6.052856E-1	-5.790710E-1
3.467500E+9	4.550476E-1	-7.968140E-1	-3.544617E-2	4.485016E-1	1.674728E-1	1.330795E-1	5.763855E-1	-6.019592E-1
3.692000E+9	4.092102E-1	-8.165588E-1	-7.171631E-4	4.487000E-1	1.806335E-1	1.302567E-1	5.461426E-1	-6.265564E-1
3.916500E+9	3.631287E-1	-8.332214E-1	3.375244E-2	4.469147E-1	1.925507E-1	1.265106E-1	5.143127E-1	-6.452026E-1
4.141000E+9	3.196716E-1	-8.469238E-1	6.683350E-2	4.424286E-1	2.047806E-1	1.227875E-1	4.855042E-1	-6.631775E-1
4.365500E+9	2.770996E-1	-8.589172E-1	9.808350E-2	4.341125E-1	2.155304E-1	1.173935E-1	4.561157E-1	-6.803284E-1
4.590000E+9	2.337952E-1	-8.691711E-1	1.262970E-1	4.259338E-1	2.260742E-1	1.108475E-1	4.257507E-1	-6.962280E-1
4.814500E+9	1.935425E-1	-8.751526E-1	1.537476E-1	4.157104E-1	2.361832E-1	1.045837E-1	3.979492E-1	-7.106323E-1
5.039000E+9	1.526489E-1	-8.807678E-1	1.801605E-1	4.040375E-1	2.456970E-1	9.693146E-2	3.677979E-1	-7.255859E-1
5.263500E+9	1.138306E-1	-8.827820E-1	2.049103E-1	3.908081E-1	2.541962E-1	8.892822E-2	3.375854E-1	-7.360229E-1
5.488000E+9	7.717896E-2	-8.840637E-1	2.276306E-1	3.763580E-1	2.614441E-1	8.099365E-2	3.105774E-1	-7.452393E-1
5.712500E+9	3.970337E-2	-8.845215E-1	2.487335E-1	3.606110E-1	2.693634E-1	7.220459E-2	2.826233E-1	-7.566528E-1
5.937000E+9	6.195068E-3	-8.817749E-1	2.679901E-1	3.448334E-1	2.754974E-1	6.231689E-2	2.531738E-1	-7.661133E-1
6.161500E+9	-2.584839E-2	-8.803711E-1	2.853546E-1	3.286896E-1	2.809143E-1	5.319214E-2	2.272949E-1	-7.733765E-1
6.386000E+9	-5.944824E-2	-8.769226E-1	3.016663E-1	3.118134E-1	2.854614E-1	4.431152E-2	1.986694E-1	-7.802124E-1
6.610500E+9	-8.898926E-2	-8.731079E-1	3.167572E-1	2.942810E-1	2.892609E-1	3.491211E-2	1.694641E-1	-7.878113E-1
6.835000E+9	-1.195679E-1	-8.690491E-1	3.293610E-1	2.776642E-1	2.932892E-1	2.536011E-2	1.427002E-1	-7.911377E-1
7.059500E+9	-1.463623E-1	-8.621216E-1	3.407440E-1	2.596588E-1	2.957306E-1	1.675415E-2	1.182251E-1	-7.941284E-1
7.284000E+9	-1.747742E-1	-8.559570E-1	3.513336E-1	2.412415E-1	2.982941E-1	6.591797E-3	9.017944E-2	-7.978210E-1
7.508500E+9	-2.009583E-1	-8.486938E-1	3.616028E-1	2.238770E-1	3.001099E-1	-3.143311E-3	6.430054E-2	-7.990112E-1
7.733000E+9	-2.258301E-1	-8.407288E-1	3.692322E-1	2.061005E-1	3.011017E-1	-1.174927E-2	3.994751E-2	-8.001099E-1
7.957500E+9	-2.500916E-1	-8.333130E-1	3.760681E-1	1.889801E-1	3.021393E-1	-2.033997E-2	1.339722E-2	-8.025818E-1
8.182000E+9	-2.730713E-1	-8.254089E-1	3.824921E-1	1.725616E-1	3.034058E-1	-2.966309E-2	-1.065063E-2	-8.026123E-1
8.406500E+9	-2.952576E-1	-8.171692E-1	3.867340E-1	1.553040E-1	3.021851E-1	-3.872681E-2	-3.515625E-2	-8.012390E-1
8.631000E+9	-3.180237E-1	-8.087769E-1	3.916168E-1	1.382904E-1	3.022308E-1	-4.733276E-2	-6.088257E-2	-8.005066E-1
8.855500E+9	-3.380127E-1	-7.991638E-1	3.950043E-1	1.218109E-1	3.015137E-1	-5.580139E-2	-8.337402E-2	-7.976990E-1
9.080001E+9	-3.571777E-1	-7.918701E-1	3.971710E-1	1.063080E-1	3.003387E-1	-6.320190E-2	-1.058960E-1	-7.951965E-1
9.304500E+9	-3.768921E-1	-7.803955E-1	3.982239E-1	8.979797E-2	2.984619E-1	-7.215881E-2	-1.282349E-1	-7.905579E-1
9.529000E+9	-3.947144E-1	-7.726135E-1	3.999329E-1	7.577515E-2	2.973328E-1	-7.901001E-2	-1.512146E-1	-7.878723E-1
9.753500E+9	-4.137268E-1	-7.623596E-1	4.005737E-1	6.011963E-2	2.947083E-1	-8.737183E-2	-1.717834E-1	-7.830811E-1
9.978000E+9	-4.291992E-1	-7.525024E-1	3.999481E-1	4.592896E-2	2.924347E-1	-9.417725E-2	-1.921387E-1	-7.796631E-1
1.020250E+10	-4.464111E-1	-7.447510E-1	3.989258E-1	3.163147E-2	2.911377E-1	-1.017303E-1	-2.139587E-1	-7.733459E-1
1.042700E+10	-4.619751E-1	-7.336426E-1	3.972931E-1	1.753235E-2	2.876740E-1	-1.086884E-1	-2.322083E-1	-7.690735E-1
1.065150E+10	-4.773560E-1	-7.245178E-1	3.954163E-1	5.096436E-3	2.852631E-1	-1.158142E-1	-2.520142E-1	-7.634277E-1
1.087600E+10	-4.919739E-1	-7.144470E-1	3.927155E-1	-7.797241E-3	2.815247E-1	-1.217041E-1	-2.727051E-1	-7.570801E-1
1.110050E+10	-5.065918E-1	-7.042236E-1	3.901672E-1	-2.111816E-2	2.788544E-1	-1.285400E-1	-2.916565E-1	-7.505798E-1
1.132500E+10	-5.197449E-1	-6.954346E-1	3.874359E-1	-3.230286E-2	2.749786E-1	-1.345520E-1	-3.092041E-1	-7.450256E-1
1.154950E+10	-5.333557E-1	-6.846924E-1	3.839874E-1	-4.385376E-2	2.709045E-1	-1.392059E-1	-3.295593E-1	-7.375488E-1
1.177400E+10	-5.458679E-1	-6.760254E-1	3.806458E-1	-5.429077E-2	2.672424E-1	-1.455536E-1	-3.464661E-1	-7.270508E-1
1.199850E+10	-5.593872E-1	-6.668396E-1	3.769531E-1	-6.547546E-2	2.633972E-1	-1.518402E-1	-3.625488E-1	-7.237244E-1
1.222300E+10	-5.706787E-1	-6.565552E-1	3.728027E-1	-7.595825E-2	2.597809E-1	-1.567078E-1	-3.807983E-1	-7.159424E-1
1.244750E+10	-5.818481E-1	-6.477051E-1	3.678894E-1	-8.638000E-2	2.559052E-1	-1.615143E-1	-3.975220E-1	-7.042236E-1
1.267200E+10	-5.938110E-1	-6.375122E-1	3.631134E-1	-9.533691E-2	2.519073E-1	-1.662598E-1	-4.120789E-1	-6.985779E-1
1.289650E+10	-6.036377E-1	-6.283569E-1	3.584595E-1	-1.044464E-1	2.479324E-1	-1.707230E-1	-4.294739E-1	-6.896362E-1
1.312100E+10	-6.147156E-1	-6.175537E-1	3.527679E-1	-1.138458E-1	2.420731E-1	-1.754456E-1	-4.452515E-1	-6.783142E-1
1.334550E+10	-6.250916E-1	-6.095886E-1	3.479004E-1	-1.224976E-1	2.392578E-1	-1.800766E-1	-4.569092E-1	-6.723328E-1
1.357000E+10	-6.366882E-1	-5.991516E-1	3.429871E-1	-1.309509E-1	2.337570E-1	-1.839371E-1	-4.754639E-1	-6.640320E-1
1.379450E+10	-6.432800E-1	-5.919495E-1	3.376007E-1	-1.390991E-1	2.298584E-1	-1.882477E-1	-4.908142E-1	-6.512756E-1
1.401900E+10	-6.513672E-1	-5.828247E-1	3.332672E-1	-1.473846E-1	2.262573E-1	-1.921921E-1	-5.002441E-1	-6.434021E-1
1.424350E+10	-6.611023E-1	-5.722961E-1	3.255463E-1	-1.529541E-1	2.209244E-1	-1.955719E-1	-5.169678E-1	-6.336365E-1
1.446800E+10	-6.687012E-1	-5.640259E-1	3.202362E-1	-1.611633E-1	2.165756E-1	-1.993713E-1	-5.308838E-1	-6.204224E-1
1.469250E+10	-6.776123E-1	-5.547791E-1	3.142395E-1	-1.686554E-1	2.131424E-1	-2.020035E-1	-5.400391E-1	-6.127625E-1
1.491700E+10	-6.863403E-1	-5.467224E-1	3.083191E-1	-1.737213E-1	2.073441E-1	-2.060928E-1	-5.560608E-1	-6.043091E-1
1.514150E+10	-6.936035E-1	-5.367126E-1	3.025360E-1	-1.813202E-1	2.034683E-1	-2.085495E-1	-5.694885E-1	-5.889893E-1
1.536600E+10	-7.023926E-1	-5.270081E-1	2.972412E-1	-1.861572E-1	1.979980E-1	-2.109756E-1	-5.779724E-1	-5.794067E-1
1.559050E+10	-7.083435E-1	-5.180969E-1	2.896881E-1	-1.913147E-1	1.937714E-1	-2.141800E-1	-5.918579E-1	-5.711060E-1
1.581500E+10	-7.164612E-1	-5.095825E-1	2.837830E-1	-1.968994E-1	1.881409E-1	-2.161942E-1	-6.039734E-1	-5.561829E-1
1.603950E+10	-7.236328E-1	-5.013733E-1	2.793274E-1	-2.033997E-1	1.838608E-1	-2.199402E-1	-6.127625E-1	-5.483398E-1
1.626400E+10	-7.302551E-1	-4.925537E-1	2.717896E-1	-2.066650E-1	1.803436E-1	-2.206192E-1	-6.254578E-1	-5.357971E-1
1.648850E+10	-7.369995E-1	-4.837952E-1	2.654572E-1	-2.105560E-1	1.740952E-1	-2.236176E-1	-6.357422E-1	-5.229492E-1
1.671300E+10	-7.436829E-1	-4.736633E-1	2.593994E-1	-2.154999E-1	1.711807E-1	-2.259369E-1	-6.449890E-1	-5.131836E-1
1.693750E+10	-7.487183E-1	-4.663696E-1	2.541504E-1	-2.202759E-1	1.660614E-1	-2.282562E-1	-6.554565E-1	-5.029297E-1
1.716200E+10	-7.539978E-1	-4.580688E-1	2.475052E-1	-2.244034E-1	1.616821E-1	-2.295532E-1	-6.639404E-1	-4.865723E-1
1.738650E+10	-7.604675E-1	-4.500427E-1	2.411118E-1	-2.287750E-1	1.556015E-1	-2.314301E-1	-6.722717E-1	-4.755859E-1
1.761100E+10	-7.672424E-1	-4.418640E-1	2.356949E-1	-2.308960E-1	1.524200E-1	-2.325897E-1	-6.818237E-1	-4.681702E-1
1.783550E+10	-7.740173E-1	-4.324341E-1	2.291031E-1	-2.349167E-1	1.476746E-1	-2.332306E-1	-6.918335E-1	-4.543152E-1
1.806000E+10	-7.795410E-1	-4.259033E-1	2.238998E-1	-2.370529E-1	1.448517E-1	-2.356186E-1	-6.972656E-1	-4.434204E-1
1.828450E+10	-7.825623E-1	-4.158630E-1	2.167969E-1	-2.410049E-1	1.393051E-1	-2.367630E-1	-7.059326E-1	-4.331360E-1
1.850900E+10	-7.880249E-1	-4.078674E-1	2.105637E-1	-2.421188E-1	1.355896E-1	-2.382812E-1	-7.147217E-1	-4.190674E-1
1.873350E+10	-7.938232E-1	-4.006653E-1	2.061462E-1	-2.472305E-1	1.307755E-1	-2.392654E-1	-7.205505E-1	-4.054871E-1
1.895800E+10	-7.969055E-1	-3.905640E-1	1.986694E-1	-2.473755E-1	1.248474E-1	-2.400208E-1	-7.279053E-1	-3.958130E-1
1.918250E+10	-8.029785E-1	-3.846130E-1	1.943054E-1	-2.506866E-1	1.202469E-1	-2.423248E-1	-7.360840E-1	-3.852539E-1
1.940700E+10	-8.053894E-1	-3.761597E-1	1.865234E-1	-2.516022E-1	1.174850E-1	-2.410660E-1	-7.420349E-1	-3.665771E-1
1.963150E+10	-8.117676E-1	-3.674622E-1	1.794586E-1	-2.529297E-1	1.143188E-1	-2.423935E-1	-7.463379E-1	-3.589478E-1
1.985600E+10	-8.141785E-1	-3.592224E-1	1.769409E-1	-2.551575E-1	1.080933E-1	-2.433624E-1	-7.545471E-1	-3.459167E-1
2.008050E+10	-8.191528E-1	-3.514709E-1	1.701813E-1	-2.585602E-1	1.047058E-1	-2.426147E-1	-7.596130E-1	-3.312378E-1
2.030500E+10	-8.229370E-1	-3.450317E-1	1.656342E-1	-2.602997E-1	1.025620E-1	-2.440109E-1	-7.627869E-1	-3.223572E-1
2.052950E+10	-8.287964E-1	-3.364258E-1	1.587830E-1	-2.621765E-1	9.547424E-2	-2.436752E-1	-7.695923E-1	-3.107910E-1
2.075400E+10	-8.323364E-1	-3.303223E-1	1.533203E-1	-2.628479E-1	9.190369E-2	-2.446365E-1	-7.762451E-1	-2.969971E-1
2.097850E+10	-8.367004E-1	-3.221741E-1	1.478577E-1	-2.644196E-1	8.814240E-2	-2.459564E-1	-7.779236E-1	-2.841492E-1
2.120300E+10	-8.375854E-1	-3.132629E-1	1.437531E-1	-2.631378E-1	8.416748E-2	-2.422562E-1	-7.830811E-1	-2.768860E-1
2.142750E+10	-8.444214E-1	-3.060913E-1	1.363068E-1	-2.651520E-1	8.035278E-2	-2.448273E-1	-7.892456E-1	-2.621460E-1
2.165200E+10	-8.471985E-1	-2.981567E-1	1.320648E-1	-2.649078E-1	7.720184E-2	-2.443924E-1	-7.925720E-1	-2.497559E-1
2.187650E+10	-8.493652E-1	-2.890320E-1	1.286316E-1	-2.642822E-1	7.454681E-2	-2.448730E-1	-7.965698E-1	-2.384338E-1
2.210100E+10	-8.530273E-1	-2.808838E-1	1.215363E-1	-2.653351E-1	6.741333E-2	-2.432938E-1	-8.038025E-1	-2.220764E-1
2.232550E+10	-8.543396E-1	-2.717590E-1	1.151733E-1	-2.658844E-1	6.645203E-2	-2.438965E-1	-8.051147E-1	-2.099304E-1
2.255000E+10	-8.598328E-1	-2.651672E-1	1.126099E-1	-2.680969E-1	6.083679E-2	-2.441483E-1	-8.083801E-1	-2.002869E-1
2.277450E+10	-8.620911E-1	-2.568665E-1	1.079407E-1	-2.679901E-1	6.069946E-2	-2.440872E-1	-8.113098E-1	-1.855469E-1
2.299900E+10	-8.654785E-1	-2.524719E-1	1.019897E-1	-2.698975E-1	5.468750E-2	-2.446899E-1	-8.127136E-1	-1.734619E-1
2.322350E+10	-8.668213E-1	-2.430420E-1	9.774780E-2	-2.684479E-1	5.348969E-2	-2.455902E-1	-8.193359E-1	-1.635742E-1
2.344800E+10	-8.686829E-1	-2.381592E-1	9.403992E-2	-2.696533E-1	4.783630E-2	-2.433701E-1	-8.217163E-1	-1.473694E-1
2.367250E+10	-8.732605E-1	-2.281189E-1	8.735657E-2	-2.666473E-1	4.408264E-2	-2.442932E-1	-8.212280E-1	-1.335754E-1
2.389700E+10	-8.721313E-1	-2.214661E-1	8.358765E-2	-2.709198E-1	4.107666E-2	-2.444305E-1	-8.248901E-1	-1.216431E-1
2.412150E+10	-8.774109E-1	-2.153320E-1	7.820129E-2	-2.707062E-1	3.732300E-2	-2.437363E-1	-8.244934E-1	-1.058350E-1
2.434600E+10	-8.798828E-1	-2.076111E-1	7.380676E-2	-2.698059E-1	3.374481E-2	-2.424240E-1	-8.251953E-1	-9.838867E-2
2.457050E+10	-8.813477E-1	-2.045288E-1	7.035828E-2	-2.713470E-1	3.128815E-2	-2.416611E-1	-8.258667E-1	-8.627319E-2
2.479500E+10	-8.838501E-1	-1.923218E-1	6.541443E-2	-2.712555E-1	2.815247E-2	-2.426529E-1	-8.268127E-1	-6.884766E-2
2.501950E+10	-8.832092E-1	-1.879272E-1	6.118774E-2	-2.705841E-1	2.299500E-2	-2.418060E-1	-8.220215E-1	-5.831909E-2
2.524400E+10	-8.873596E-1	-1.797485E-1	5.610657E-2	-2.680054E-1	2.024841E-2	-2.395096E-1	-8.262024E-1	-4.748535E-2
2.546850E+10	-8.883972E-1	-1.710815E-1	5.210876E-2	-2.691650E-1	1.736450E-2	-2.395554E-1	-8.255310E-1	-3.326416E-2
2.569300E+10	-8.895569E-1	-1.673889E-1	4.885864E-2	-2.686005E-1	1.450348E-2	-2.370148E-1	-8.235474E-1	-2.529907E-2
2.591750E+10	-8.942566E-1	-1.581726E-1	4.257202E-2	-2.669373E-1	1.080322E-2	-2.372513E-1	-8.250427E-1	-1.220703E-2
2.614200E+10	-8.936768E-1	-1.505432E-1	3.932190E-2	-2.645569E-1	5.378723E-3	-2.369919E-1	-8.276978E-1	-5.493164E-4
2.636650E+10	-8.949585E-1	-1.449280E-1	3.666687E-2	-2.638397E-1	4.814148E-3	-2.352676E-1	-8.269043E-1	1.336670E-2
2.659100E+10	-8.962402E-1	-1.378479E-1	3.128052E-2	-2.652130E-1	2.006531E-3	-2.369690E-1	-8.230591E-1	2.774048E-2
2.681550E+10	-8.970337E-1	-1.322327E-1	2.801514E-2	-2.645111E-1	3.433228E-4	-2.350998E-1	-8.234558E-1	3.460693E-2
2.704000E+10	-8.981323E-1	-1.243591E-1	2.273560E-2	-2.624054E-1	-3.044128E-3	-2.338867E-1	-8.250122E-1	5.334473E-2
2.726450E+10	-9.001465E-1	-1.172485E-1	2.040100E-2	-2.639313E-1	-4.898071E-3	-2.325974E-1	-8.128967E-1	6.005859E-2
2.748900E+10	-9.016113E-1	-1.133728E-1	1.704407E-2	-2.617340E-1	-8.918762E-3	-2.312317E-1	-8.155823E-1	6.988525E-2
2.771350E+10	-9.038086E-1	-1.042480E-1	1.261902E-2	-2.579498E-1	-1.277161E-2	-2.328033E-1	-8.139954E-1	8.547974E-2
2.793800E+10	-9.060669E-1	-9.729004E-2	8.148193E-3	-2.613983E-1	-1.590729E-2	-2.325439E-1	-8.145447E-1	9.475708E-2
2.816250E+10	-9.053345E-1	-9.289551E-2	4.089355E-3	-2.603912E-1	-1.903534E-2	-2.296448E-1	-8.094788E-1	1.063232E-1
2.838700E+10	-9.056091E-1	-8.624268E-2	2.853394E-3	-2.529144E-1	-2.182007E-2	-2.283096E-1	-8.052063E-1	1.204529E-1
2.861150E+10	-9.083862E-1	-7.937622E-2	-3.097534E-3	-2.588043E-1	-2.784729E-2	-2.294998E-1	-8.005066E-1	1.305847E-1
2.883600E+10	-9.086914E-1	-7.070923E-2	-1.103210E-2	-2.562866E-1	-2.843475E-2	-2.266159E-1	-7.976379E-1	1.386414E-1
2.906050E+10	-9.088745E-1	-6.622314E-2	-9.963989E-3	-2.543030E-1	-3.134155E-2	-2.261887E-1	-7.984619E-1	1.533203E-1
2.928500E+10	-9.122620E-1	-5.743408E-2	-1.550293E-2	-2.525940E-1	-3.407288E-2	-2.217178E-1	-7.892151E-1	1.624146E-1
2.950950E+10	-9.099731E-1	-4.882812E-2	-1.834106E-2	-2.536926E-1	-3.516388E-2	-2.203217E-1	-7.936401E-1	1.719666E-1
2.973400E+10	-9.140930E-1	-4.699707E-2	-1.928711E-2	-2.514496E-1	-3.713989E-2	-2.203140E-1	-7.898254E-1	1.842651E-1
2.995850E+10	-9.118652E-1	-3.704834E-2	-2.157593E-2	-2.511597E-1	-3.623199E-2	-2.200012E-1	-7.886047E-1	2.034607E-1
3.018300E+10	-9.105835E-1	-3.018188E-2	-2.848816E-2	-2.466202E-1	-4.219055E-2	-2.208862E-1	-7.832031E-1	2.098999E-1
3.040750E+10	-9.125977E-1	-2.624512E-2	-2.781677E-2	-2.475586E-1	-4.425812E-2	-2.173386E-1	-7.776489E-1	2.216187E-1
3.063200E+10	-9.097900E-1	-1.895142E-2	-3.259277E-2	-2.446289E-1	-5.151367E-2	-2.177887E-1	-7.719421E-1	2.332764E-1
3.085650E+10	-9.139099E-1	-1.187134E-2	-3.627777E-2	-2.439957E-1	-4.800415E-2	-2.154770E-1	-7.684021E-1	2.440186E-1
3.108100E+10	-9.135742E-1	-6.591797E-3	-4.206085E-2	-2.435379E-1	-5.233002E-2	-2.138062E-1	-7.619019E-1	2.561340E-1
3.130550E+10	-9.111633E-1	2.197266E-3	-4.184723E-2	-2.414017E-1	-5.720520E-2	-2.127686E-1	-7.509460E-1	2.672119E-1
3.153000E+10	-9.154968E-1	5.615234E-3	-4.587555E-2	-2.433014E-1	-5.709076E-2	-2.130814E-1	-7.505493E-1	2.738342E-1
3.175450E+10	-9.131775E-1	1.495361E-2	-5.136108E-2	-2.405243E-1	-5.931091E-2	-2.135315E-1	-7.442017E-1	2.925110E-1
3.197900E+10	-9.156494E-1	1.907349E-2	-5.300140E-2	-2.417526E-1	-6.352997E-2	-2.101593E-1	-7.331848E-1	3.017578E-1
3.220350E+10	-9.144592E-1	2.743530E-2	-5.809784E-2	-2.344131E-1	-6.531525E-2	-2.093124E-1	-7.312927E-1	3.118591E-1
3.242800E+10	-9.178772E-1	3.286743E-2	-6.402588E-2	-2.344742E-1	-7.012939E-2	-2.069397E-1	-7.242737E-1	3.208618E-1
3.265250E+10	-9.187622E-1	4.217529E-2	-6.290436E-2	-2.324829E-1	-6.748199E-2	-2.084656E-1	-7.097778E-1	3.265686E-1
3.287700E+10	-9.142761E-1	4.678345E-2	-6.345367E-2	-2.334290E-1	-7.154083E-2	-2.071152E-1	-7.102051E-1	3.356628E-1
3.310150E+10	-9.161682E-1	5.023193E-2	-7.212830E-2	-2.306671E-1	-7.748413E-2	-2.022018E-1	-7.012024E-1	3.496399E-1
3.332600E+10	-9.158936E-1	6.124878E-2	-7.083893E-2	-2.290268E-1	-7.604980E-2	-1.998749E-1	-6.948853E-1	3.559570E-1
3.355050E+10	-9.131165E-1	6.723022E-2	-7.690430E-2	-2.241287E-1	-7.617187E-2	-2.004623E-1	-6.855164E-1	3.648987E-1
3.377500E+10	-9.132996E-1	7.427979E-2	-7.568359E-2	-2.211151E-1	-7.902527E-2	-1.972885E-1	-6.838074E-1	3.696289E-1
3.399950E+10	-9.147644E-1	7.727051E-2	-8.117676E-2	-2.233734E-1	-8.402252E-2	-1.991577E-1	-6.759033E-1	3.802185E-1
3.422400E+10	-9.118652E-1	8.947754E-2	-8.010101E-2	-2.217484E-1	-8.546448E-2	-1.983414E-1	-6.731262E-1	3.957520E-1
3.444850E+10	-9.124146E-1	8.947754E-2	-8.065033E-2	-2.215042E-1	-8.839417E-2	-1.940079E-1	-6.607056E-1	3.980103E-1
3.467300E+10	-9.103394E-1	9.838867E-2	-8.568573E-2	-2.189026E-1	-9.083557E-2	-1.923981E-1	-6.577148E-1	4.088440E-1
3.489750E+10	-9.129639E-1	1.045532E-1	-8.896637E-2	-2.155762E-1	-9.511566E-2	-1.951904E-1	-6.483765E-1	4.245911E-1
3.512200E+10	-9.084167E-1	1.120605E-1	-9.400940E-2	-2.210693E-1	-9.368134E-2	-1.932297E-1	-6.344299E-1	4.283142E-1
3.534650E+10	-9.068909E-1	1.133118E-1	-9.336853E-2	-2.173004E-1	-9.931946E-2	-1.951675E-1	-6.337585E-1	4.387512E-1
3.557100E+10	-9.119873E-1	1.176147E-1	-9.771729E-2	-2.202835E-1	-9.788513E-2	-1.903534E-1	-6.188049E-1	4.555359E-1
3.579550E+10	-9.062805E-1	1.269531E-1	-9.825134E-2	-2.152252E-1	-1.035309E-1	-1.943283E-1	-6.026917E-1	4.568787E-1
3.602000E+10	-9.075623E-1	1.327820E-1	-1.072845E-1	-2.094193E-1	-1.028900E-1	-1.850662E-1	-5.981445E-1	4.651489E-1
3.624450E+10	-9.042053E-1	1.422424E-1	-1.084442E-1	-2.123108E-1	-1.074295E-1	-1.865692E-1	-5.860901E-1	4.708557E-1
3.646900E+10	-9.053955E-1	1.474609E-1	-1.101456E-1	-2.109451E-1	-1.080017E-1	-1.884842E-1	-5.747986E-1	4.802246E-1
3.669350E+10	-9.058228E-1	1.506042E-1	-1.128616E-1	-2.085190E-1	-1.127319E-1	-1.891251E-1	-5.676880E-1	4.864807E-1
3.691800E+10	-9.002075E-1	1.565247E-1	-1.174240E-1	-2.043839E-1	-1.141663E-1	-1.809006E-1	-5.593567E-1	4.954834E-1
3.714250E+10	-8.953857E-1	1.615906E-1	-1.188202E-1	-2.001724E-1	-1.179657E-1	-1.818848E-1	-5.417480E-1	5.073242E-1
3.736700E+10	-8.971558E-1	1.688232E-1	-1.203918E-1	-2.025146E-1	-1.188660E-1	-1.769180E-1	-5.357361E-1	5.042114E-1
3.759150E+10	-8.955383E-1	1.771240E-1	-1.250381E-1	-2.000656E-1	-1.213837E-1	-1.803436E-1	-5.256958E-1	5.169373E-1
3.781600E+10	-8.969421E-1	1.833801E-1	-1.277618E-1	-1.933441E-1	-1.225281E-1	-1.764526E-1	-5.140686E-1	5.205078E-1
3.804050E+10	-8.967896E-1	1.879883E-1	-1.310654E-1	-1.912231E-1	-1.265869E-1	-1.781235E-1	-4.996948E-1	5.314636E-1
3.826500E+10	-8.899536E-1	1.914673E-1	-1.278381E-1	-1.898880E-1	-1.274261E-1	-1.716461E-1	-4.841614E-1	5.397339E-1
3.848950E+10	-8.912659E-1	2.009277E-1	-1.311722E-1	-1.886215E-1	-1.350403E-1	-1.738510E-1	-4.799805E-1	5.463562E-1
3.871400E+10	-8.939819E-1	2.033997E-1	-1.340179E-1	-1.917877E-1	-1.333084E-1	-1.698608E-1	-4.603271E-1	5.500183E-1
3.893850E+10	-8.905945E-1	2.093201E-1	-1.388626E-1	-1.885071E-1	-1.328583E-1	-1.691818E-1	-4.420166E-1	5.510559E-1
