!Date: 10/28/2005, 12:46 PM

!Vgs = -8.000000E+0
!Vds = 2.000000E+1
!Ig = -1.838800E-4
!Id = 2.657100E-3

# HZ S RI R 50
1.000000E+8	9.877930E-1	-3.552246E-2	-4.617882E-2	8.232117E-3	1.944542E-3	8.031368E-3	9.847717E-1	-6.561279E-3
3.245000E+8	9.790344E-1	-9.738159E-2	-4.366684E-2	3.171349E-2	5.525589E-3	2.740669E-2	9.605713E-1	-8.160400E-2
5.490000E+8	9.667053E-1	-1.578369E-1	-3.833199E-2	5.279350E-2	1.026154E-2	4.522705E-2	9.568176E-1	-1.316223E-1
7.735000E+8	9.508362E-1	-2.179565E-1	-3.018570E-2	7.291412E-2	1.733589E-2	6.195641E-2	9.418640E-1	-1.828003E-1
9.980000E+8	9.333191E-1	-2.729492E-1	-1.997757E-2	9.093094E-2	2.570724E-2	7.645035E-2	9.268799E-1	-2.275085E-1
1.222500E+9	9.113770E-1	-3.286743E-1	-8.953094E-3	1.075325E-1	3.498840E-2	9.030914E-2	9.101562E-1	-2.749023E-1
1.447000E+9	8.869019E-1	-3.816223E-1	3.295898E-3	1.227760E-1	4.514313E-2	1.027451E-1	8.904114E-1	-3.189697E-1
1.671500E+9	8.594971E-1	-4.314575E-1	1.627350E-2	1.378784E-1	5.607986E-2	1.156693E-1	8.681641E-1	-3.599854E-1
1.896000E+9	8.301086E-1	-4.783325E-1	3.199005E-2	1.517792E-1	7.024384E-2	1.276550E-1	8.484497E-1	-3.980408E-1
2.120500E+9	7.994995E-1	-5.227051E-1	4.983521E-2	1.623611E-1	8.486176E-2	1.365051E-1	8.269653E-1	-4.384460E-1
2.345000E+9	7.643127E-1	-5.658569E-1	6.778717E-2	1.710281E-1	1.008301E-1	1.435394E-1	8.013306E-1	-4.758911E-1
2.569500E+9	7.301025E-1	-6.028442E-1	8.509064E-2	1.768646E-1	1.154022E-1	1.483459E-1	7.767029E-1	-5.112305E-1
2.794000E+9	6.941528E-1	-6.398926E-1	1.023026E-1	1.819534E-1	1.304855E-1	1.522827E-1	7.486267E-1	-5.441284E-1
3.018500E+9	6.561890E-1	-6.726685E-1	1.193085E-1	1.845169E-1	1.460800E-1	1.543732E-1	7.204285E-1	-5.767212E-1
3.243000E+9	6.182861E-1	-7.031555E-1	1.370926E-1	1.869965E-1	1.610031E-1	1.555176E-1	6.900330E-1	-6.081848E-1
3.467500E+9	5.802002E-1	-7.313538E-1	1.542969E-1	1.875839E-1	1.754684E-1	1.552505E-1	6.601868E-1	-6.353149E-1
3.692000E+9	5.418701E-1	-7.561646E-1	1.712875E-1	1.866074E-1	1.906204E-1	1.540451E-1	6.292419E-1	-6.626892E-1
3.916500E+9	5.017395E-1	-7.787170E-1	1.879196E-1	1.839371E-1	2.042160E-1	1.510468E-1	5.955811E-1	-6.862793E-1
4.141000E+9	4.640503E-1	-7.990723E-1	2.038727E-1	1.807938E-1	2.182846E-1	1.477814E-1	5.661011E-1	-7.069397E-1
4.365500E+9	4.266663E-1	-8.173523E-1	2.191238E-1	1.762390E-1	2.319107E-1	1.435013E-1	5.354919E-1	-7.301025E-1
4.590000E+9	3.870850E-1	-8.340454E-1	2.338181E-1	1.703796E-1	2.441788E-1	1.374664E-1	5.011292E-1	-7.479248E-1
4.814500E+9	3.496094E-1	-8.472900E-1	2.479935E-1	1.633148E-1	2.569427E-1	1.313934E-1	4.710388E-1	-7.649536E-1
5.039000E+9	3.127136E-1	-8.592529E-1	2.615204E-1	1.554413E-1	2.687378E-1	1.242828E-1	4.386292E-1	-7.827759E-1
5.263500E+9	2.748413E-1	-8.686218E-1	2.746429E-1	1.470490E-1	2.794952E-1	1.152802E-1	4.057617E-1	-7.961426E-1
5.488000E+9	2.398987E-1	-8.764954E-1	2.853699E-1	1.371460E-1	2.890167E-1	1.069183E-1	3.758545E-1	-8.086853E-1
5.712500E+9	2.042236E-1	-8.839417E-1	2.961121E-1	1.276703E-1	2.985992E-1	9.710693E-2	3.439331E-1	-8.217163E-1
5.937000E+9	1.706543E-1	-8.876343E-1	3.057251E-1	1.161194E-1	3.067017E-1	8.721924E-2	3.117065E-1	-8.327026E-1
6.161500E+9	1.382141E-1	-8.925171E-1	3.144073E-1	1.053772E-1	3.144836E-1	7.714844E-2	2.822876E-1	-8.422852E-1
6.386000E+9	1.042175E-1	-8.955688E-1	3.220825E-1	9.440613E-2	3.207397E-1	6.643677E-2	2.507324E-1	-8.509827E-1
6.610500E+9	7.473755E-2	-8.978271E-1	3.291016E-1	8.325195E-2	3.264771E-1	5.613708E-2	2.184448E-1	-8.587341E-1
6.835000E+9	4.275513E-2	-8.987732E-1	3.355103E-1	7.211304E-2	3.316040E-1	4.565430E-2	1.887207E-1	-8.631287E-1
7.059500E+9	1.443481E-2	-8.975830E-1	3.410797E-1	6.100464E-2	3.360596E-1	3.552246E-2	1.615906E-1	-8.670654E-1
7.284000E+9	-1.516724E-2	-8.970032E-1	3.457031E-1	4.824829E-2	3.400421E-1	2.404785E-2	1.288757E-1	-8.710937E-1
7.508500E+9	-4.318237E-2	-8.945923E-1	3.491974E-1	3.726196E-2	3.432617E-1	1.341248E-2	1.007690E-1	-8.723450E-1
7.733000E+9	-7.135010E-2	-8.911743E-1	3.524323E-1	2.571106E-2	3.448639E-1	3.341675E-3	7.369995E-2	-8.754883E-1
7.957500E+9	-9.771729E-2	-8.880920E-1	3.553162E-1	1.391602E-2	3.475952E-1	-7.110596E-3	4.440308E-2	-8.764343E-1
8.182000E+9	-1.224976E-1	-8.841248E-1	3.577271E-1	3.326416E-3	3.485413E-1	-1.760864E-2	1.770020E-2	-8.761292E-1
8.406500E+9	-1.472473E-1	-8.790894E-1	3.579254E-1	-8.483887E-3	3.491974E-1	-2.806091E-2	-1.025391E-2	-8.746948E-1
8.631000E+9	-1.730347E-1	-8.751831E-1	3.596191E-1	-1.933289E-2	3.495178E-1	-3.884888E-2	-3.683472E-2	-8.747253E-1
8.855500E+9	-1.950684E-1	-8.702393E-1	3.597717E-1	-3.005981E-2	3.499146E-1	-4.924011E-2	-6.344604E-2	-8.718567E-1
9.080001E+9	-2.167969E-1	-8.649292E-1	3.590851E-1	-4.090881E-2	3.491211E-1	-5.834961E-2	-8.789062E-2	-8.673401E-1
9.304500E+9	-2.404175E-1	-8.570557E-1	3.577423E-1	-5.155945E-2	3.478546E-1	-6.822205E-2	-1.144409E-1	-8.642883E-1
9.529000E+9	-2.601318E-1	-8.523560E-1	3.578033E-1	-6.132507E-2	3.464050E-1	-7.737732E-2	-1.381836E-1	-8.595276E-1
9.753500E+9	-2.818604E-1	-8.453064E-1	3.560181E-1	-7.241821E-2	3.451538E-1	-8.703613E-2	-1.602478E-1	-8.546753E-1
9.978000E+9	-3.017883E-1	-8.367004E-1	3.543701E-1	-8.108521E-2	3.422699E-1	-9.577942E-2	-1.839294E-1	-8.505554E-1
1.020250E+10	-3.208923E-1	-8.307190E-1	3.517761E-1	-9.068298E-2	3.402863E-1	-1.045227E-1	-2.067566E-1	-8.425903E-1
1.042700E+10	-3.398743E-1	-8.225403E-1	3.489075E-1	-1.001740E-1	3.365173E-1	-1.142120E-1	-2.285767E-1	-8.369751E-1
1.065150E+10	-3.570557E-1	-8.141479E-1	3.462677E-1	-1.093903E-1	3.336182E-1	-1.214142E-1	-2.498474E-1	-8.312378E-1
1.087600E+10	-3.754272E-1	-8.061218E-1	3.423615E-1	-1.174774E-1	3.309326E-1	-1.293335E-1	-2.716675E-1	-8.239136E-1
1.110050E+10	-3.928833E-1	-7.986145E-1	3.393402E-1	-1.264648E-1	3.273163E-1	-1.373138E-1	-2.928772E-1	-8.167419E-1
1.132500E+10	-4.090271E-1	-7.904968E-1	3.352814E-1	-1.347198E-1	3.236847E-1	-1.440582E-1	-3.120422E-1	-8.105469E-1
1.154950E+10	-4.262085E-1	-7.816772E-1	3.319092E-1	-1.416473E-1	3.194580E-1	-1.515350E-1	-3.344727E-1	-7.995300E-1
1.177400E+10	-4.403687E-1	-7.732849E-1	3.280029E-1	-1.496582E-1	3.157654E-1	-1.584778E-1	-3.528442E-1	-7.899475E-1
1.199850E+10	-4.564819E-1	-7.657776E-1	3.236847E-1	-1.573639E-1	3.121033E-1	-1.664581E-1	-3.707275E-1	-7.840881E-1
1.222300E+10	-4.698181E-1	-7.557068E-1	3.194275E-1	-1.643524E-1	3.068542E-1	-1.727600E-1	-3.908691E-1	-7.740173E-1
1.244750E+10	-4.844666E-1	-7.479858E-1	3.148041E-1	-1.712952E-1	3.029327E-1	-1.787720E-1	-4.092102E-1	-7.626343E-1
1.267200E+10	-4.981995E-1	-7.382202E-1	3.104553E-1	-1.778717E-1	2.982025E-1	-1.845856E-1	-4.241028E-1	-7.552490E-1
1.289650E+10	-5.108337E-1	-7.300415E-1	3.039398E-1	-1.835632E-1	2.927094E-1	-1.892853E-1	-4.435425E-1	-7.456360E-1
1.312100E+10	-5.239868E-1	-7.207642E-1	2.992859E-1	-1.898193E-1	2.885284E-1	-1.961823E-1	-4.598999E-1	-7.323914E-1
1.334550E+10	-5.370178E-1	-7.117920E-1	2.951965E-1	-1.958923E-1	2.836761E-1	-2.010803E-1	-4.718628E-1	-7.247620E-1
1.357000E+10	-5.509949E-1	-7.024231E-1	2.891998E-1	-2.022858E-1	2.767639E-1	-2.070465E-1	-4.910583E-1	-7.161560E-1
1.379450E+10	-5.596313E-1	-6.944275E-1	2.839813E-1	-2.067719E-1	2.725830E-1	-2.120056E-1	-5.072632E-1	-7.003479E-1
1.401900E+10	-5.706482E-1	-6.855469E-1	2.793884E-1	-2.115326E-1	2.672882E-1	-2.154236E-1	-5.180359E-1	-6.918335E-1
1.424350E+10	-5.837402E-1	-6.768494E-1	2.719727E-1	-2.165527E-1	2.619476E-1	-2.204132E-1	-5.356140E-1	-6.813660E-1
1.446800E+10	-5.934448E-1	-6.675720E-1	2.672882E-1	-2.225494E-1	2.580719E-1	-2.251892E-1	-5.497742E-1	-6.661072E-1
1.469250E+10	-6.038513E-1	-6.592102E-1	2.627411E-1	-2.251587E-1	2.526550E-1	-2.286987E-1	-5.597534E-1	-6.574097E-1
1.491700E+10	-6.134338E-1	-6.512451E-1	2.576904E-1	-2.296600E-1	2.469482E-1	-2.333832E-1	-5.753784E-1	-6.483154E-1
1.514150E+10	-6.232910E-1	-6.409607E-1	2.515869E-1	-2.337952E-1	2.406693E-1	-2.360840E-1	-5.893250E-1	-6.323242E-1
1.536600E+10	-6.336365E-1	-6.316833E-1	2.446442E-1	-2.383499E-1	2.358704E-1	-2.402649E-1	-5.991516E-1	-6.216736E-1
1.559050E+10	-6.422729E-1	-6.234741E-1	2.409363E-1	-2.418900E-1	2.298660E-1	-2.443161E-1	-6.128540E-1	-6.105957E-1
1.581500E+10	-6.531067E-1	-6.139526E-1	2.342529E-1	-2.452698E-1	2.241669E-1	-2.465820E-1	-6.264954E-1	-5.969238E-1
1.603950E+10	-6.612244E-1	-6.067505E-1	2.279816E-1	-2.492599E-1	2.191925E-1	-2.506409E-1	-6.343079E-1	-5.859375E-1
1.626400E+10	-6.712036E-1	-5.976562E-1	2.246704E-1	-2.513275E-1	2.141418E-1	-2.531128E-1	-6.473694E-1	-5.737000E-1
1.648850E+10	-6.791687E-1	-5.881042E-1	2.185974E-1	-2.536163E-1	2.079773E-1	-2.544403E-1	-6.589966E-1	-5.601196E-1
1.671300E+10	-6.878357E-1	-5.780029E-1	2.131042E-1	-2.572632E-1	2.033997E-1	-2.576141E-1	-6.675720E-1	-5.501099E-1
1.693750E+10	-6.944580E-1	-5.709534E-1	2.066193E-1	-2.599335E-1	1.987457E-1	-2.612152E-1	-6.781616E-1	-5.370483E-1
1.716200E+10	-7.025757E-1	-5.618591E-1	2.010651E-1	-2.621460E-1	1.928101E-1	-2.620392E-1	-6.870422E-1	-5.209351E-1
1.738650E+10	-7.097168E-1	-5.534973E-1	1.965942E-1	-2.648773E-1	1.863861E-1	-2.641296E-1	-6.955872E-1	-5.089111E-1
1.761100E+10	-7.171631E-1	-5.447693E-1	1.905060E-1	-2.663574E-1	1.823273E-1	-2.655029E-1	-7.047424E-1	-4.996948E-1
1.783550E+10	-7.253723E-1	-5.356445E-1	1.853943E-1	-2.683258E-1	1.758423E-1	-2.680969E-1	-7.154846E-1	-4.831848E-1
1.806000E+10	-7.323914E-1	-5.284424E-1	1.802673E-1	-2.698669E-1	1.725311E-1	-2.701874E-1	-7.216187E-1	-4.742432E-1
1.828450E+10	-7.374573E-1	-5.193787E-1	1.740417E-1	-2.717133E-1	1.670074E-1	-2.709198E-1	-7.294312E-1	-4.625549E-1
1.850900E+10	-7.463074E-1	-5.122681E-1	1.704407E-1	-2.738342E-1	1.616211E-1	-2.723389E-1	-7.393799E-1	-4.474182E-1
1.873350E+10	-7.519531E-1	-5.040283E-1	1.638794E-1	-2.750397E-1	1.567535E-1	-2.738800E-1	-7.448120E-1	-4.331055E-1
1.895800E+10	-7.578430E-1	-4.930115E-1	1.575928E-1	-2.763824E-1	1.519012E-1	-2.752380E-1	-7.519836E-1	-4.242554E-1
1.918250E+10	-7.624817E-1	-4.862976E-1	1.533966E-1	-2.777252E-1	1.468048E-1	-2.762451E-1	-7.615051E-1	-4.109497E-1
1.940700E+10	-7.701111E-1	-4.771729E-1	1.470337E-1	-2.780609E-1	1.412506E-1	-2.759857E-1	-7.652588E-1	-3.923035E-1
1.963150E+10	-7.766418E-1	-4.698181E-1	1.423798E-1	-2.786102E-1	1.353455E-1	-2.788544E-1	-7.693481E-1	-3.830261E-1
1.985600E+10	-7.797852E-1	-4.602966E-1	1.394958E-1	-2.810059E-1	1.322784E-1	-2.771454E-1	-7.785339E-1	-3.698120E-1
2.008050E+10	-7.861023E-1	-4.534912E-1	1.306915E-1	-2.810211E-1	1.259918E-1	-2.797241E-1	-7.843323E-1	-3.526001E-1
2.030500E+10	-7.910767E-1	-4.447937E-1	1.294861E-1	-2.797089E-1	1.213837E-1	-2.797394E-1	-7.859497E-1	-3.451233E-1
2.052950E+10	-7.983704E-1	-4.370117E-1	1.234131E-1	-2.821350E-1	1.154938E-1	-2.789764E-1	-7.932129E-1	-3.305054E-1
2.075400E+10	-8.029785E-1	-4.300842E-1	1.186218E-1	-2.835846E-1	1.116333E-1	-2.808075E-1	-7.981567E-1	-3.178711E-1
2.097850E+10	-8.078003E-1	-4.206543E-1	1.120148E-1	-2.833862E-1	1.082306E-1	-2.806244E-1	-7.999573E-1	-3.049011E-1
2.120300E+10	-8.117065E-1	-4.117432E-1	1.084442E-1	-2.834320E-1	1.017151E-1	-2.808685E-1	-8.084717E-1	-2.969055E-1
2.142750E+10	-8.182983E-1	-4.054565E-1	1.040802E-1	-2.827301E-1	9.890747E-2	-2.822571E-1	-8.123169E-1	-2.818604E-1
2.165200E+10	-8.218079E-1	-3.953857E-1	9.852600E-2	-2.834625E-1	9.346008E-2	-2.805481E-1	-8.150635E-1	-2.687073E-1
2.187650E+10	-8.273315E-1	-3.863525E-1	9.561157E-2	-2.818298E-1	9.208679E-2	-2.805939E-1	-8.218994E-1	-2.578430E-1
2.210100E+10	-8.305359E-1	-3.785706E-1	8.963013E-2	-2.848053E-1	8.729553E-2	-2.800293E-1	-8.271179E-1	-2.390442E-1
2.232550E+10	-8.331604E-1	-3.701782E-1	8.714294E-2	-2.830963E-1	8.163452E-2	-2.826080E-1	-8.264160E-1	-2.271423E-1
2.255000E+10	-8.410645E-1	-3.623352E-1	8.238220E-2	-2.834320E-1	7.702637E-2	-2.806244E-1	-8.309021E-1	-2.177734E-1
2.277450E+10	-8.416138E-1	-3.524170E-1	7.717896E-2	-2.826080E-1	7.260132E-2	-2.801971E-1	-8.348999E-1	-2.008667E-1
2.299900E+10	-8.479309E-1	-3.447571E-1	7.208252E-2	-2.840271E-1	6.890869E-2	-2.825928E-1	-8.346863E-1	-1.908264E-1
2.322350E+10	-8.499146E-1	-3.373413E-1	6.848145E-2	-2.846375E-1	6.381226E-2	-2.823334E-1	-8.409424E-1	-1.777954E-1
2.344800E+10	-8.519287E-1	-3.296814E-1	6.561279E-2	-2.833557E-1	6.044006E-2	-2.797394E-1	-8.421326E-1	-1.617737E-1
2.367250E+10	-8.566895E-1	-3.195190E-1	5.917358E-2	-2.814178E-1	5.639648E-2	-2.825928E-1	-8.417664E-1	-1.503296E-1
2.389700E+10	-8.560791E-1	-3.111877E-1	5.444336E-2	-2.842102E-1	5.291748E-2	-2.816620E-1	-8.481140E-1	-1.381531E-1
2.412150E+10	-8.599243E-1	-3.068542E-1	5.256653E-2	-2.814331E-1	4.563904E-2	-2.781982E-1	-8.455811E-1	-1.204834E-1
2.434600E+10	-8.612366E-1	-2.986145E-1	4.643250E-2	-2.777710E-1	4.507446E-2	-2.788391E-1	-8.452148E-1	-1.117249E-1
2.457050E+10	-8.648682E-1	-2.944946E-1	4.374695E-2	-2.799988E-1	4.100037E-2	-2.799835E-1	-8.489990E-1	-9.689331E-2
2.479500E+10	-8.710632E-1	-2.853699E-1	4.003906E-2	-2.793121E-1	3.576660E-2	-2.779083E-1	-8.472290E-1	-8.129883E-2
2.501950E+10	-8.703003E-1	-2.811279E-1	3.462219E-2	-2.805634E-1	3.263855E-2	-2.768707E-1	-8.435364E-1	-7.159424E-2
2.524400E+10	-8.752136E-1	-2.736206E-1	3.079224E-2	-2.792664E-1	2.745056E-2	-2.750092E-1	-8.459473E-1	-5.975342E-2
2.546850E+10	-8.782043E-1	-2.632751E-1	2.745056E-2	-2.788391E-1	2.479553E-2	-2.733002E-1	-8.429260E-1	-4.696655E-2
2.569300E+10	-8.777771E-1	-2.592163E-1	2.485657E-2	-2.748871E-1	2.143860E-2	-2.740936E-1	-8.457947E-1	-3.906250E-2
2.591750E+10	-8.861084E-1	-2.490234E-1	2.293396E-2	-2.766876E-1	1.751709E-2	-2.735748E-1	-8.473206E-1	-2.478027E-2
2.614200E+10	-8.878174E-1	-2.416992E-1	1.771545E-2	-2.719727E-1	1.371765E-2	-2.713623E-1	-8.467102E-1	-1.074219E-2
2.636650E+10	-8.916931E-1	-2.368469E-1	1.428223E-2	-2.723541E-1	1.190186E-2	-2.694092E-1	-8.457031E-1	3.784180E-3
2.659100E+10	-8.903809E-1	-2.266846E-1	1.087952E-2	-2.737122E-1	8.636475E-3	-2.704163E-1	-8.430786E-1	1.443481E-2
2.681550E+10	-8.916016E-1	-2.219849E-1	7.385254E-3	-2.729340E-1	3.875732E-3	-2.698669E-1	-8.435974E-1	2.462769E-2
2.704000E+10	-8.941650E-1	-2.096863E-1	3.112793E-3	-2.694092E-1	1.373291E-3	-2.686920E-1	-8.418579E-1	4.495239E-2
2.726450E+10	-8.972778E-1	-2.047119E-1	-9.155273E-5	-2.691956E-1	-2.563477E-3	-2.683411E-1	-8.345032E-1	4.968262E-2
2.748900E+10	-8.978577E-1	-1.989136E-1	-4.852295E-3	-2.691345E-1	-5.630493E-3	-2.668152E-1	-8.384094E-1	6.109619E-2
2.771350E+10	-8.993225E-1	-1.930847E-1	-7.415771E-3	-2.699890E-1	-9.780884E-3	-2.649841E-1	-8.331909E-1	7.534790E-2
2.793800E+10	-9.024658E-1	-1.848450E-1	-1.406860E-2	-2.666779E-1	-1.118469E-2	-2.646027E-1	-8.311768E-1	8.569336E-2
2.816250E+10	-9.029541E-1	-1.780701E-1	-1.487732E-2	-2.671661E-1	-1.603699E-2	-2.632751E-1	-8.291321E-1	9.777832E-2
2.838700E+10	-9.051514E-1	-1.702271E-1	-1.837158E-2	-2.621613E-1	-1.991272E-2	-2.609863E-1	-8.254089E-1	1.113586E-1
2.861150E+10	-9.082642E-1	-1.629333E-1	-2.052307E-2	-2.649384E-1	-2.381897E-2	-2.602081E-1	-8.170166E-1	1.248779E-1
2.883600E+10	-9.092712E-1	-1.553345E-1	-2.627563E-2	-2.604218E-1	-2.699280E-2	-2.603149E-1	-8.198242E-1	1.313171E-1
2.906050E+10	-9.111328E-1	-1.488953E-1	-2.894592E-2	-2.598877E-1	-2.981567E-2	-2.588959E-1	-8.151245E-1	1.454163E-1
2.928500E+10	-9.140015E-1	-1.405334E-1	-3.146362E-2	-2.584839E-1	-3.332520E-2	-2.546539E-1	-8.107910E-1	1.515503E-1
2.950950E+10	-9.140625E-1	-1.352539E-1	-3.341675E-2	-2.568512E-1	-3.517151E-2	-2.522736E-1	-8.093872E-1	1.613159E-1
2.973400E+10	-9.188232E-1	-1.289368E-1	-3.654480E-2	-2.584229E-1	-3.631592E-2	-2.538757E-1	-8.094482E-1	1.750793E-1
2.995850E+10	-9.143066E-1	-1.198120E-1	-3.486633E-2	-2.534332E-1	-3.840637E-2	-2.518463E-1	-8.063965E-1	1.907959E-1
3.018300E+10	-9.146118E-1	-1.124573E-1	-4.122925E-2	-2.549591E-1	-4.267883E-2	-2.532806E-1	-7.995300E-1	2.049255E-1
3.040750E+10	-9.186401E-1	-1.058655E-1	-4.244995E-2	-2.536621E-1	-4.351044E-2	-2.491379E-1	-7.916260E-1	2.143250E-1
3.063200E+10	-9.158936E-1	-9.976196E-2	-4.835510E-2	-2.527161E-1	-5.080414E-2	-2.470856E-1	-7.922974E-1	2.254944E-1
3.085650E+10	-9.194336E-1	-9.359741E-2	-5.049133E-2	-2.523651E-1	-5.155945E-2	-2.495651E-1	-7.893372E-1	2.365723E-1
3.108100E+10	-9.214478E-1	-8.752441E-2	-5.059814E-2	-2.498627E-1	-5.420685E-2	-2.457581E-1	-7.814941E-1	2.500000E-1
3.130550E+10	-9.191895E-1	-8.346558E-2	-5.520630E-2	-2.470398E-1	-5.924225E-2	-2.438278E-1	-7.708435E-1	2.608337E-1
3.153000E+10	-9.235535E-1	-7.586670E-2	-5.880737E-2	-2.457352E-1	-6.026459E-2	-2.439117E-1	-7.686768E-1	2.700806E-1
3.175450E+10	-9.192200E-1	-6.774902E-2	-6.359100E-2	-2.476425E-1	-6.286621E-2	-2.397614E-1	-7.638855E-1	2.852783E-1
3.197900E+10	-9.240112E-1	-5.917358E-2	-6.990051E-2	-2.410736E-1	-6.510162E-2	-2.395325E-1	-7.559509E-1	2.911072E-1
3.220350E+10	-9.252625E-1	-5.340576E-2	-6.805420E-2	-2.435608E-1	-6.876373E-2	-2.399979E-1	-7.485046E-1	3.023987E-1
3.242800E+10	-9.246521E-1	-4.376221E-2	-6.975555E-2	-2.404022E-1	-7.447052E-2	-2.381210E-1	-7.425232E-1	3.160706E-1
3.265250E+10	-9.282837E-1	-3.741455E-2	-7.074738E-2	-2.395782E-1	-7.455444E-2	-2.347031E-1	-7.313843E-1	3.236084E-1
3.287700E+10	-9.259033E-1	-3.170776E-2	-7.614136E-2	-2.383423E-1	-7.899475E-2	-2.348633E-1	-7.333984E-1	3.277893E-1
3.310150E+10	-9.307556E-1	-2.658081E-2	-7.793427E-2	-2.346802E-1	-7.980347E-2	-2.302628E-1	-7.149048E-1	3.461914E-1
3.332600E+10	-9.241333E-1	-1.934814E-2	-8.098602E-2	-2.335434E-1	-8.068848E-2	-2.337646E-1	-7.144775E-1	3.489685E-1
3.355050E+10	-9.275513E-1	-1.455688E-2	-8.705902E-2	-2.287369E-1	-8.612061E-2	-2.287292E-1	-7.109375E-1	3.566895E-1
3.377500E+10	-9.269409E-1	-3.753662E-3	-8.447266E-2	-2.307739E-1	-8.377838E-2	-2.235107E-1	-6.986389E-1	3.703613E-1
3.399950E+10	-9.283447E-1	1.647949E-3	-8.876801E-2	-2.299805E-1	-8.766174E-2	-2.284698E-1	-6.994934E-1	3.774109E-1
3.422400E+10	-9.268799E-1	7.934570E-3	-8.551025E-2	-2.301178E-1	-9.101105E-2	-2.283478E-1	-6.884766E-1	3.956909E-1
3.444850E+10	-9.280396E-1	1.513672E-2	-9.155273E-2	-2.285461E-1	-9.069061E-2	-2.246933E-1	-6.800842E-1	3.988037E-1
3.467300E+10	-9.266052E-1	2.392578E-2	-9.146118E-2	-2.278137E-1	-9.549713E-2	-2.268448E-1	-6.741943E-1	4.053040E-1
3.489750E+10	-9.295349E-1	2.966309E-2	-1.000443E-1	-2.286987E-1	-9.665680E-2	-2.216873E-1	-6.683960E-1	4.216919E-1
3.512200E+10	-9.240723E-1	3.479004E-2	-1.032104E-1	-2.233124E-1	-1.039581E-1	-2.201691E-1	-6.531372E-1	4.297485E-1
3.534650E+10	-9.249268E-1	3.692627E-2	-1.024551E-1	-2.215500E-1	-1.032410E-1	-2.184372E-1	-6.512146E-1	4.309998E-1
3.557100E+10	-9.293213E-1	4.217529E-2	-1.009445E-1	-2.223129E-1	-1.052322E-1	-2.205811E-1	-6.311340E-1	4.495544E-1
3.579550E+10	-9.298401E-1	5.270386E-2	-1.093903E-1	-2.187271E-1	-1.094055E-1	-2.188644E-1	-6.305847E-1	4.554443E-1
3.602000E+10	-9.277649E-1	5.633545E-2	-1.122589E-1	-2.144775E-1	-1.138077E-1	-2.146454E-1	-6.146545E-1	4.661865E-1
3.624450E+10	-9.252319E-1	6.564331E-2	-1.116562E-1	-2.143784E-1	-1.107254E-1	-2.114182E-1	-6.113586E-1	4.676208E-1
3.646900E+10	-9.248657E-1	7.397461E-2	-1.110306E-1	-2.125244E-1	-1.181488E-1	-2.095871E-1	-5.944519E-1	4.841309E-1
3.669350E+10	-9.257812E-1	7.974243E-2	-1.183472E-1	-2.103424E-1	-1.173553E-1	-2.097702E-1	-5.909424E-1	4.897766E-1
3.691800E+10	-9.222412E-1	8.142090E-2	-1.220779E-1	-2.100601E-1	-1.245041E-1	-2.062607E-1	-5.776062E-1	4.974060E-1
3.714250E+10	-9.223938E-1	9.158325E-2	-1.218262E-1	-2.098618E-1	-1.232529E-1	-2.052612E-1	-5.625305E-1	5.030518E-1
3.736700E+10	-9.206848E-1	9.991455E-2	-1.268311E-1	-2.077789E-1	-1.266632E-1	-2.059937E-1	-5.565186E-1	5.043945E-1
3.759150E+10	-9.235535E-1	1.012878E-1	-1.275330E-1	-2.030029E-1	-1.244888E-1	-2.049713E-1	-5.439758E-1	5.190430E-1
3.781600E+10	-9.170532E-1	1.105347E-1	-1.344757E-1	-2.015152E-1	-1.332855E-1	-1.976624E-1	-5.294800E-1	5.219727E-1
3.804050E+10	-9.197083E-1	1.158142E-1	-1.383133E-1	-2.010040E-1	-1.324158E-1	-1.918716E-1	-5.180969E-1	5.321960E-1
3.826500E+10	-9.217834E-1	1.246338E-1	-1.407852E-1	-2.070236E-1	-1.357880E-1	-1.988144E-1	-5.084229E-1	5.390930E-1
3.848950E+10	-9.143677E-1	1.296997E-1	-1.439743E-1	-2.000580E-1	-1.375504E-1	-1.980209E-1	-4.921875E-1	5.457458E-1
3.871400E+10	-9.129944E-1	1.319275E-1	-1.460876E-1	-1.882706E-1	-1.423035E-1	-1.914825E-1	-4.808044E-1	5.481262E-1
3.893850E+10	-9.106445E-1	1.374817E-1	-1.438599E-1	-1.879272E-1	-1.466217E-1	-1.895447E-1	-4.682922E-1	5.531311E-1
