!Date: 10/28/2005, 12:46 PM

!Vgs = -4.000000E+0
!Vds = 1.250000E+1
!Ig = -4.005900E-5
!Id = 1.601900E-1

# HZ S RI R 50
1.000000E+8	9.656982E-1	-1.926575E-1	-1.654297E+1	1.503906E+0	2.384186E-3	8.666992E-3	5.829773E-1	-7.556152E-2
3.245000E+8	7.998047E-1	-5.249939E-1	-1.481055E+1	5.284180E+0	8.575439E-3	2.064133E-2	4.437256E-1	-2.436371E-1
5.490000E+8	5.612183E-1	-7.512207E-1	-1.244434E+1	7.387207E+0	1.892662E-2	2.857971E-2	3.508606E-1	-3.254242E-1
7.735000E+8	3.146362E-1	-8.668823E-1	-1.004395E+1	8.395996E+0	2.898216E-2	3.167343E-2	2.442474E-1	-3.721466E-1
9.980000E+8	9.942627E-2	-9.050598E-1	-7.938477E+0	8.700195E+0	3.754616E-2	3.236389E-2	1.559296E-1	-3.796539E-1
1.222500E+9	-8.145142E-2	-9.003906E-1	-6.224121E+0	8.621094E+0	4.393005E-2	3.048325E-2	8.830261E-2	-3.793793E-1
1.447000E+9	-2.305603E-1	-8.708496E-1	-4.837402E+0	8.325195E+0	4.999542E-2	2.888298E-2	3.233337E-2	-3.708954E-1
1.671500E+9	-3.476562E-1	-8.284302E-1	-3.726807E+0	7.894775E+0	5.403900E-2	2.633667E-2	-1.412964E-2	-3.602295E-1
1.896000E+9	-4.424133E-1	-7.796631E-1	-2.880615E+0	7.414551E+0	5.796242E-2	2.338982E-2	-5.186462E-2	-3.422699E-1
2.120500E+9	-5.159302E-1	-7.312317E-1	-2.218506E+0	6.971436E+0	6.123924E-2	2.085495E-2	-7.894897E-2	-3.275604E-1
2.345000E+9	-5.754089E-1	-6.809692E-1	-1.675049E+0	6.534668E+0	6.321716E-2	1.757431E-2	-1.022797E-1	-3.121796E-1
2.569500E+9	-6.198120E-1	-6.360474E-1	-1.241455E+0	6.125000E+0	6.501389E-2	1.490021E-2	-1.202850E-1	-2.998199E-1
2.794000E+9	-6.587524E-1	-5.971069E-1	-9.033203E-1	5.751709E+0	6.594849E-2	1.229477E-2	-1.342010E-1	-2.886963E-1
3.018500E+9	-6.890564E-1	-5.585327E-1	-6.076660E-1	5.410889E+0	6.662369E-2	1.007462E-2	-1.466827E-1	-2.796783E-1
3.243000E+9	-7.154541E-1	-5.237427E-1	-3.615723E-1	5.097656E+0	6.725693E-2	7.778168E-3	-1.592865E-1	-2.707825E-1
3.467500E+9	-7.381287E-1	-4.930420E-1	-1.589355E-1	4.812744E+0	6.822205E-2	5.191803E-3	-1.680756E-1	-2.643585E-1
3.692000E+9	-7.579651E-1	-4.640198E-1	1.391602E-2	4.542236E+0	6.869888E-2	4.062653E-3	-1.769867E-1	-2.590790E-1
3.916500E+9	-7.739258E-1	-4.337463E-1	1.599121E-1	4.296875E+0	6.966782E-2	1.567841E-3	-1.865387E-1	-2.534485E-1
4.141000E+9	-7.874451E-1	-4.084473E-1	2.834473E-1	4.069580E+0	6.945801E-2	-5.645752E-4	-1.935120E-1	-2.481995E-1
4.365500E+9	-7.975159E-1	-3.853149E-1	3.900146E-1	3.859863E+0	6.859970E-2	-1.285553E-3	-2.009354E-1	-2.444077E-1
4.590000E+9	-8.086548E-1	-3.637695E-1	4.820557E-1	3.662964E+0	6.932068E-2	-3.231049E-3	-2.076797E-1	-2.397537E-1
4.814500E+9	-8.182373E-1	-3.425903E-1	5.566406E-1	3.481323E+0	6.989670E-2	-5.252838E-3	-2.131882E-1	-2.368011E-1
5.039000E+9	-8.247986E-1	-3.226013E-1	6.260986E-1	3.314575E+0	6.976318E-2	-6.546021E-3	-2.197952E-1	-2.341309E-1
5.263500E+9	-8.314819E-1	-3.041077E-1	6.850586E-1	3.156372E+0	6.935883E-2	-8.590698E-3	-2.267456E-1	-2.301865E-1
5.488000E+9	-8.370361E-1	-2.887268E-1	7.312012E-1	3.010742E+0	6.956100E-2	-9.578705E-3	-2.315750E-1	-2.271042E-1
5.712500E+9	-8.432007E-1	-2.717896E-1	7.758789E-1	2.871948E+0	6.966782E-2	-1.086044E-2	-2.363586E-1	-2.259293E-1
5.937000E+9	-8.473206E-1	-2.552185E-1	8.140869E-1	2.745972E+0	6.905365E-2	-1.290512E-2	-2.417679E-1	-2.236786E-1
6.161500E+9	-8.511353E-1	-2.415161E-1	8.496094E-1	2.628662E+0	6.929779E-2	-1.399612E-2	-2.464447E-1	-2.208405E-1
6.386000E+9	-8.551941E-1	-2.278137E-1	8.813477E-1	2.512695E+0	6.840134E-2	-1.562500E-2	-2.502747E-1	-2.202911E-1
6.610500E+9	-8.579712E-1	-2.149048E-1	9.102783E-1	2.407104E+0	6.809616E-2	-1.714706E-2	-2.563477E-1	-2.203064E-1
6.835000E+9	-8.618469E-1	-2.025452E-1	9.317627E-1	2.303467E+0	6.769180E-2	-1.805878E-2	-2.614746E-1	-2.167816E-1
7.059500E+9	-8.634338E-1	-1.909485E-1	9.477539E-1	2.207397E+0	6.753540E-2	-1.972198E-2	-2.635498E-1	-2.178497E-1
7.284000E+9	-8.657227E-1	-1.795959E-1	9.661865E-1	2.114868E+0	6.679916E-2	-2.080154E-2	-2.703247E-1	-2.164917E-1
7.508500E+9	-8.684692E-1	-1.683960E-1	9.808350E-1	2.026489E+0	6.698227E-2	-2.206039E-2	-2.735901E-1	-2.131500E-1
7.733000E+9	-8.694153E-1	-1.571045E-1	9.916992E-1	1.944702E+0	6.589890E-2	-2.341461E-2	-2.775116E-1	-2.153320E-1
7.957500E+9	-8.712769E-1	-1.472168E-1	1.004761E+0	1.867065E+0	6.532669E-2	-2.455521E-2	-2.844696E-1	-2.137299E-1
8.182000E+9	-8.722534E-1	-1.370544E-1	1.014221E+0	1.792480E+0	6.542587E-2	-2.579880E-2	-2.896729E-1	-2.125549E-1
8.406500E+9	-8.730469E-1	-1.289978E-1	1.020020E+0	1.718262E+0	6.444931E-2	-2.662659E-2	-2.944794E-1	-2.100830E-1
8.631000E+9	-8.748169E-1	-1.187744E-1	1.027222E+0	1.649353E+0	6.394196E-2	-2.795029E-2	-2.999573E-1	-2.105255E-1
8.855500E+9	-8.754578E-1	-1.101074E-1	1.032654E+0	1.581604E+0	6.330872E-2	-2.845383E-2	-3.046417E-1	-2.094727E-1
9.080001E+9	-8.768311E-1	-1.028137E-1	1.036316E+0	1.519653E+0	6.237221E-2	-2.994728E-2	-3.084717E-1	-2.076416E-1
9.304500E+9	-8.762817E-1	-9.173584E-2	1.035767E+0	1.457825E+0	6.214142E-2	-3.166962E-2	-3.143311E-1	-2.057648E-1
9.529000E+9	-8.770142E-1	-8.599854E-2	1.037781E+0	1.398560E+0	6.172371E-2	-3.234863E-2	-3.201752E-1	-2.048035E-1
9.753500E+9	-8.775024E-1	-7.791138E-2	1.036194E+0	1.342834E+0	6.027603E-2	-3.330803E-2	-3.219604E-1	-2.024536E-1
9.978000E+9	-8.780823E-1	-7.012939E-2	1.034729E+0	1.290466E+0	5.951118E-2	-3.491020E-2	-3.266907E-1	-2.029877E-1
1.020250E+10	-8.786621E-1	-6.359863E-2	1.033997E+0	1.239380E+0	5.882835E-2	-3.504181E-2	-3.331604E-1	-2.001038E-1
1.042700E+10	-8.794556E-1	-5.508423E-2	1.033142E+0	1.190125E+0	5.795288E-2	-3.614807E-2	-3.366241E-1	-1.991272E-1
1.065150E+10	-8.784180E-1	-4.867554E-2	1.028320E+0	1.143433E+0	5.667877E-2	-3.759575E-2	-3.405151E-1	-1.983490E-1
1.087600E+10	-8.796387E-1	-4.202271E-2	1.025085E+0	1.097839E+0	5.661392E-2	-3.806496E-2	-3.462524E-1	-1.981201E-1
1.110050E+10	-8.799744E-1	-3.479004E-2	1.023376E+0	1.052917E+0	5.602264E-2	-3.857422E-2	-3.504333E-1	-1.958008E-1
1.132500E+10	-8.788757E-1	-2.899170E-2	1.019592E+0	1.011047E+0	5.524445E-2	-3.875542E-2	-3.540192E-1	-1.962433E-1
1.154950E+10	-8.789978E-1	-2.099609E-2	1.013611E+0	9.672241E-1	5.430794E-2	-3.950882E-2	-3.619690E-1	-1.929626E-1
1.177400E+10	-8.783875E-1	-1.553345E-2	1.008118E+0	9.309692E-1	5.246925E-2	-4.051018E-2	-3.648987E-1	-1.899414E-1
1.199850E+10	-8.778381E-1	-8.728027E-3	1.004028E+0	8.942261E-1	5.185699E-2	-4.155159E-2	-3.677521E-1	-1.895294E-1
1.222300E+10	-8.776245E-1	-3.021240E-3	9.974670E-1	8.540955E-1	5.169106E-2	-4.210854E-2	-3.737488E-1	-1.890259E-1
1.244750E+10	-8.774414E-1	1.983643E-3	9.893494E-1	8.173828E-1	5.022621E-2	-4.291344E-2	-3.778534E-1	-1.844635E-1
1.267200E+10	-8.781128E-1	8.209229E-3	9.823303E-1	7.845154E-1	4.987526E-2	-4.362869E-2	-3.814240E-1	-1.862946E-1
1.289650E+10	-8.766785E-1	1.239014E-2	9.742126E-1	7.511292E-1	4.898834E-2	-4.407120E-2	-3.885956E-1	-1.841125E-1
1.312100E+10	-8.767700E-1	1.840210E-2	9.668579E-1	7.195435E-1	4.816818E-2	-4.499817E-2	-3.925629E-1	-1.785583E-1
1.334550E+10	-8.769836E-1	2.371216E-2	9.591675E-1	6.896057E-1	4.644203E-2	-4.549026E-2	-3.951874E-1	-1.794128E-1
1.357000E+10	-8.750305E-1	2.880859E-2	9.509583E-1	6.593628E-1	4.517174E-2	-4.658318E-2	-4.022369E-1	-1.794739E-1
1.379450E+10	-8.749390E-1	3.408813E-2	9.425659E-1	6.305237E-1	4.445839E-2	-4.638100E-2	-4.061890E-1	-1.726379E-1
1.401900E+10	-8.748169E-1	3.970337E-2	9.353333E-1	6.060486E-1	4.442024E-2	-4.742622E-2	-4.078674E-1	-1.706085E-1
1.424350E+10	-8.745117E-1	4.443359E-2	9.252930E-1	5.772705E-1	4.327774E-2	-4.834557E-2	-4.155579E-1	-1.683502E-1
1.446800E+10	-8.739624E-1	5.075073E-2	9.191895E-1	5.516357E-1	4.127502E-2	-4.812241E-2	-4.186859E-1	-1.628571E-1
1.469250E+10	-8.718567E-1	5.535889E-2	9.106445E-1	5.261230E-1	4.097748E-2	-4.931641E-2	-4.196014E-1	-1.614685E-1
1.491700E+10	-8.710022E-1	6.088257E-2	9.018250E-1	5.008545E-1	4.023361E-2	-4.977989E-2	-4.262238E-1	-1.620026E-1
1.514150E+10	-8.709106E-1	6.481934E-2	8.936462E-1	4.769897E-1	3.920364E-2	-5.022430E-2	-4.313354E-1	-1.556549E-1
1.536600E+10	-8.683167E-1	7.064819E-2	8.838501E-1	4.540100E-1	3.809738E-2	-5.071831E-2	-4.315796E-1	-1.549835E-1
1.559050E+10	-8.692322E-1	7.470703E-2	8.750610E-1	4.319153E-1	3.672409E-2	-5.036545E-2	-4.374237E-1	-1.534882E-1
1.581500E+10	-8.688049E-1	7.992554E-2	8.646240E-1	4.085388E-1	3.606415E-2	-5.108643E-2	-4.429169E-1	-1.492920E-1
1.603950E+10	-8.677368E-1	8.337402E-2	8.569641E-1	3.898010E-1	3.453636E-2	-5.089760E-2	-4.440918E-1	-1.482086E-1
1.626400E+10	-8.670959E-1	8.966064E-2	8.471069E-1	3.705750E-1	3.469467E-2	-5.168343E-2	-4.522247E-1	-1.462250E-1
1.648850E+10	-8.654175E-1	9.255981E-2	8.377686E-1	3.499756E-1	3.308868E-2	-5.254936E-2	-4.546967E-1	-1.395264E-1
1.671300E+10	-8.643799E-1	9.799194E-2	8.280029E-1	3.313293E-1	3.216934E-2	-5.319023E-2	-4.571991E-1	-1.381683E-1
1.693750E+10	-8.644714E-1	1.007080E-1	8.194885E-1	3.149719E-1	3.232956E-2	-5.342484E-2	-4.625092E-1	-1.346130E-1
1.716200E+10	-8.628845E-1	1.064758E-1	8.091125E-1	2.969971E-1	3.083420E-2	-5.398369E-2	-4.650421E-1	-1.292114E-1
1.738650E+10	-8.620300E-1	1.104126E-1	8.005981E-1	2.814941E-1	2.862358E-2	-5.327225E-2	-4.669495E-1	-1.259918E-1
1.761100E+10	-8.626404E-1	1.150208E-1	7.920837E-1	2.639771E-1	2.830315E-2	-5.575371E-2	-4.731598E-1	-1.255951E-1
1.783550E+10	-8.611450E-1	1.191101E-1	7.820129E-1	2.487793E-1	2.622986E-2	-5.351257E-2	-4.771118E-1	-1.176758E-1
1.806000E+10	-8.591003E-1	1.239014E-1	7.728577E-1	2.348328E-1	2.557182E-2	-5.436897E-2	-4.795074E-1	-1.134033E-1
1.828450E+10	-8.592529E-1	1.274109E-1	7.650146E-1	2.199707E-1	2.613068E-2	-5.495644E-2	-4.821014E-1	-1.123352E-1
1.850900E+10	-8.581238E-1	1.312256E-1	7.560730E-1	2.046814E-1	2.378273E-2	-5.496979E-2	-4.865570E-1	-1.083374E-1
1.873350E+10	-8.571472E-1	1.367187E-1	7.476196E-1	1.899109E-1	2.164650E-2	-5.518532E-2	-4.890747E-1	-1.020813E-1
1.895800E+10	-8.543396E-1	1.391296E-1	7.366028E-1	1.769409E-1	2.210617E-2	-5.431938E-2	-4.922180E-1	-1.012115E-1
1.918250E+10	-8.540039E-1	1.438293E-1	7.285156E-1	1.621704E-1	2.119255E-2	-5.543518E-2	-4.966736E-1	-9.724426E-2
1.940700E+10	-8.521423E-1	1.477051E-1	7.196960E-1	1.480408E-1	1.819038E-2	-5.504227E-2	-4.984283E-1	-8.811951E-2
1.963150E+10	-8.513184E-1	1.502075E-1	7.096863E-1	1.374512E-1	1.816559E-2	-5.554008E-2	-5.003357E-1	-8.978271E-2
1.985600E+10	-8.509216E-1	1.553040E-1	7.000427E-1	1.260681E-1	1.636505E-2	-5.558205E-2	-5.057068E-1	-8.544922E-2
2.008050E+10	-8.493958E-1	1.565552E-1	6.896973E-1	1.146851E-1	1.471519E-2	-5.652046E-2	-5.082703E-1	-7.733154E-2
2.030500E+10	-8.477478E-1	1.616211E-1	6.809082E-1	1.041260E-1	1.376534E-2	-5.546570E-2	-5.092163E-1	-7.702637E-2
2.052950E+10	-8.447876E-1	1.657410E-1	6.728516E-1	9.533691E-2	1.439667E-2	-5.528450E-2	-5.110168E-1	-7.260132E-2
2.075400E+10	-8.453979E-1	1.685486E-1	6.658325E-1	8.444214E-2	1.258659E-2	-5.504417E-2	-5.150452E-1	-6.591797E-2
2.097850E+10	-8.442688E-1	1.724854E-1	6.562500E-1	7.565308E-2	1.173782E-2	-5.481529E-2	-5.146790E-1	-6.149292E-2
2.120300E+10	-8.446655E-1	1.746826E-1	6.474609E-1	6.658936E-2	9.983063E-3	-5.520439E-2	-5.188293E-1	-6.149292E-2
2.142750E+10	-8.425293E-1	1.784058E-1	6.377258E-1	5.535889E-2	9.325027E-3	-5.555725E-2	-5.238647E-1	-5.484009E-2
2.165200E+10	-8.416138E-1	1.845398E-1	6.325684E-1	4.769897E-2	9.252548E-3	-5.469131E-2	-5.254822E-1	-5.206299E-2
2.187650E+10	-8.392944E-1	1.888123E-1	6.235657E-1	3.729248E-2	6.235123E-3	-5.384636E-2	-5.299988E-1	-4.531860E-2
2.210100E+10	-8.383179E-1	1.899414E-1	6.139832E-1	2.786255E-2	7.816315E-3	-5.431175E-2	-5.325317E-1	-3.945923E-2
2.232550E+10	-8.389587E-1	1.945190E-1	6.070862E-1	2.139282E-2	3.536224E-3	-5.491638E-2	-5.307617E-1	-3.503418E-2
2.255000E+10	-8.364563E-1	1.972046E-1	5.951843E-1	1.385498E-2	3.082275E-3	-5.362129E-2	-5.356140E-1	-3.210449E-2
2.277450E+10	-8.342590E-1	2.026978E-1	5.906677E-1	6.072998E-3	2.063751E-3	-5.388832E-2	-5.390930E-1	-2.352905E-2
2.299900E+10	-8.342285E-1	2.051697E-1	5.827332E-1	-2.075195E-3	5.054474E-4	-5.333138E-2	-5.365601E-1	-2.142334E-2
2.322350E+10	-8.323669E-1	2.076416E-1	5.754089E-1	-9.155273E-3	-3.376007E-4	-5.339432E-2	-5.406799E-1	-1.684570E-2
2.344800E+10	-8.302307E-1	2.115784E-1	5.668335E-1	-1.391602E-2	-1.367569E-3	-5.343056E-2	-5.426331E-1	-9.796143E-3
2.367250E+10	-8.290405E-1	2.150269E-1	5.565796E-1	-2.203369E-2	-4.796982E-3	-5.241394E-2	-5.407410E-1	-5.187988E-3
2.389700E+10	-8.266602E-1	2.178955E-1	5.513916E-1	-2.844238E-2	-4.085541E-3	-5.077171E-2	-5.463867E-1	-1.708984E-3
2.412150E+10	-8.258667E-1	2.210999E-1	5.440674E-1	-3.408813E-2	-6.792068E-3	-5.170631E-2	-5.446167E-1	4.882812E-3
2.434600E+10	-8.237305E-1	2.259216E-1	5.345154E-1	-3.814697E-2	-5.960464E-3	-5.280495E-2	-5.455627E-1	7.995605E-3
2.457050E+10	-8.229370E-1	2.277222E-1	5.268860E-1	-4.660034E-2	-6.950378E-3	-5.077744E-2	-5.486755E-1	1.150513E-2
2.479500E+10	-8.232727E-1	2.316589E-1	5.196838E-1	-5.108643E-2	-8.388519E-3	-5.142593E-2	-5.479126E-1	2.017212E-2
2.501950E+10	-8.196106E-1	2.364502E-1	5.119934E-1	-5.551147E-2	-1.070213E-2	-5.019188E-2	-5.473938E-1	2.215576E-2
2.524400E+10	-8.182678E-1	2.397766E-1	5.066223E-1	-5.841064E-2	-1.175499E-2	-4.796791E-2	-5.492859E-1	2.670288E-2
2.546850E+10	-8.161926E-1	2.419434E-1	4.979401E-1	-6.570435E-2	-1.213455E-2	-4.830933E-2	-5.503540E-1	3.140259E-2
2.569300E+10	-8.129272E-1	2.445068E-1	4.927521E-1	-6.843567E-2	-1.488113E-2	-4.549217E-2	-5.514832E-1	3.518677E-2
2.591750E+10	-8.121643E-1	2.488403E-1	4.851837E-1	-7.424927E-2	-1.314354E-2	-4.600906E-2	-5.534058E-1	3.759766E-2
2.614200E+10	-8.106384E-1	2.504883E-1	4.779663E-1	-7.795715E-2	-1.509666E-2	-4.651260E-2	-5.554810E-1	4.501343E-2
2.636650E+10	-8.089905E-1	2.524109E-1	4.726715E-1	-7.887268E-2	-1.685333E-2	-4.463768E-2	-5.566711E-1	5.413818E-2
2.659100E+10	-8.086548E-1	2.560425E-1	4.668427E-1	-8.554077E-2	-1.723862E-2	-4.442406E-2	-5.554810E-1	5.725098E-2
2.681550E+10	-8.052368E-1	2.575989E-1	4.600525E-1	-8.772278E-2	-1.789474E-2	-4.439926E-2	-5.585022E-1	5.786133E-2
2.704000E+10	-8.056946E-1	2.644348E-1	4.503479E-1	-8.959961E-2	-1.963234E-2	-4.381943E-2	-5.617981E-1	7.009888E-2
2.726450E+10	-8.017273E-1	2.662048E-1	4.475403E-1	-9.692383E-2	-2.171707E-2	-4.120445E-2	-5.519409E-1	7.592773E-2
2.748900E+10	-7.994690E-1	2.672424E-1	4.420776E-1	-9.661865E-2	-2.348518E-2	-4.118538E-2	-5.564880E-1	7.550049E-2
2.771350E+10	-7.987366E-1	2.695312E-1	4.368744E-1	-1.013031E-1	-2.186775E-2	-3.968430E-2	-5.559082E-1	8.349609E-2
2.793800E+10	-7.948608E-1	2.708740E-1	4.307251E-1	-1.056671E-1	-2.548599E-2	-4.047775E-2	-5.584717E-1	8.248901E-2
2.816250E+10	-7.958374E-1	2.730713E-1	4.261475E-1	-1.089630E-1	-2.391052E-2	-3.800774E-2	-5.589905E-1	9.127808E-2
2.838700E+10	-7.938232E-1	2.767029E-1	4.186096E-1	-1.097565E-1	-2.613258E-2	-3.861046E-2	-5.592651E-1	9.524536E-2
2.861150E+10	-7.940063E-1	2.825623E-1	4.143829E-1	-1.106415E-1	-2.768707E-2	-3.644753E-2	-5.568237E-1	1.025085E-1
2.883600E+10	-7.904663E-1	2.830811E-1	4.079132E-1	-1.149750E-1	-2.586555E-2	-3.364372E-2	-5.579529E-1	1.045532E-1
2.906050E+10	-7.896118E-1	2.866516E-1	4.022980E-1	-1.150055E-1	-2.905273E-2	-3.403091E-2	-5.584717E-1	1.112671E-1
2.928500E+10	-7.876587E-1	2.904968E-1	3.994904E-1	-1.190796E-1	-3.076363E-2	-3.253937E-2	-5.550842E-1	1.148987E-1
2.950950E+10	-7.857056E-1	2.957458E-1	3.931580E-1	-1.210327E-1	-3.047657E-2	-3.003502E-2	-5.582581E-1	1.203613E-1
2.973400E+10	-7.866821E-1	2.955933E-1	3.919067E-1	-1.216125E-1	-2.846336E-2	-3.095627E-2	-5.628052E-1	1.239624E-1
2.995850E+10	-7.797852E-1	3.006592E-1	3.851624E-1	-1.238403E-1	-3.229332E-2	-3.047371E-2	-5.649414E-1	1.318970E-1
3.018300E+10	-7.777100E-1	2.986755E-1	3.838806E-1	-1.284943E-1	-3.030586E-2	-2.757645E-2	-5.611572E-1	1.380005E-1
3.040750E+10	-7.796021E-1	3.021240E-1	3.762512E-1	-1.315765E-1	-3.175163E-2	-2.446938E-2	-5.605774E-1	1.490173E-1
3.063200E+10	-7.757568E-1	3.032532E-1	3.741302E-1	-1.319122E-1	-3.338623E-2	-2.512932E-2	-5.644531E-1	1.515198E-1
3.085650E+10	-7.735291E-1	3.046570E-1	3.681793E-1	-1.349792E-1	-3.112221E-2	-2.430630E-2	-5.617676E-1	1.580811E-1
3.108100E+10	-7.756653E-1	3.079529E-1	3.688660E-1	-1.357117E-1	-3.683472E-2	-2.169991E-2	-5.635681E-1	1.618347E-1
3.130550E+10	-7.667542E-1	3.091125E-1	3.596802E-1	-1.398315E-1	-3.678131E-2	-2.277565E-2	-5.528259E-1	1.696167E-1
3.153000E+10	-7.691956E-1	3.156128E-1	3.522644E-1	-1.346130E-1	-3.622246E-2	-2.039909E-2	-5.547180E-1	1.732483E-1
3.175450E+10	-7.650146E-1	3.168945E-1	3.517914E-1	-1.378174E-1	-3.435516E-2	-2.025032E-2	-5.567932E-1	1.809692E-1
3.197900E+10	-7.660217E-1	3.187561E-1	3.458557E-1	-1.461639E-1	-3.542137E-2	-1.433182E-2	-5.498962E-1	1.844177E-1
3.220350E+10	-7.588501E-1	3.225708E-1	3.462067E-1	-1.501770E-1	-3.445244E-2	-1.642418E-2	-5.550537E-1	1.852112E-1
3.242800E+10	-7.649231E-1	3.220215E-1	3.484955E-1	-1.450043E-1	-3.822517E-2	-1.463127E-2	-5.530090E-1	1.969299E-1
3.265250E+10	-7.639771E-1	3.275146E-1	3.361053E-1	-1.474762E-1	-3.530312E-2	-1.088905E-2	-5.460815E-1	1.981201E-1
3.287700E+10	-7.599792E-1	3.299866E-1	3.377380E-1	-1.479340E-1	-3.645897E-2	-9.143829E-3	-5.511475E-1	2.056274E-1
3.310150E+10	-7.598877E-1	3.336487E-1	3.333893E-1	-1.480865E-1	-3.284264E-2	-8.768082E-3	-5.404358E-1	2.139587E-1
3.332600E+10	-7.533264E-1	3.351746E-1	3.277130E-1	-1.549377E-1	-3.607750E-2	-9.763718E-3	-5.445557E-1	2.142944E-1
3.355050E+10	-7.541809E-1	3.364258E-1	3.275299E-1	-1.527100E-1	-3.740692E-2	-4.949570E-3	-5.458069E-1	2.203674E-1
3.377500E+10	-7.507324E-1	3.393860E-1	3.235626E-1	-1.537933E-1	-3.824615E-2	-5.952835E-3	-5.416260E-1	2.264099E-1
3.399950E+10	-7.472229E-1	3.389893E-1	3.190918E-1	-1.598053E-1	-3.738976E-2	-4.695892E-3	-5.444641E-1	2.298889E-1
3.422400E+10	-7.487488E-1	3.446960E-1	3.157349E-1	-1.586761E-1	-3.967285E-2	9.593964E-4	-5.403748E-1	2.431641E-1
3.444850E+10	-7.439880E-1	3.472290E-1	3.115845E-1	-1.666718E-1	-3.562737E-2	-4.844666E-4	-5.394592E-1	2.435913E-1
3.467300E+10	-7.402649E-1	3.454285E-1	3.171387E-1	-1.604004E-1	-4.168129E-2	3.032684E-4	-5.421143E-1	2.571411E-1
3.489750E+10	-7.438660E-1	3.503418E-1	3.087769E-1	-1.662140E-1	-3.962517E-2	1.947403E-3	-5.378418E-1	2.648315E-1
3.512200E+10	-7.380981E-1	3.483887E-1	3.015747E-1	-1.702728E-1	-3.813362E-2	3.767014E-3	-5.317688E-1	2.642822E-1
3.534650E+10	-7.372437E-1	3.505859E-1	3.069153E-1	-1.697540E-1	-4.022217E-2	6.624222E-3	-5.350342E-1	2.693176E-1
3.557100E+10	-7.352600E-1	3.544312E-1	2.997894E-1	-1.718903E-1	-3.802299E-2	8.865356E-3	-5.250244E-1	2.801208E-1
3.579550E+10	-7.373352E-1	3.557129E-1	3.038635E-1	-1.728668E-1	-4.218864E-2	1.205444E-3	-5.223083E-1	2.839966E-1
3.602000E+10	-7.339478E-1	3.568115E-1	2.949829E-1	-1.778259E-1	-4.051018E-2	8.348465E-3	-5.235291E-1	2.880554E-1
3.624450E+10	-7.323608E-1	3.585815E-1	2.926636E-1	-1.772156E-1	-4.151535E-2	1.388168E-2	-5.215759E-1	2.982178E-1
3.646900E+10	-7.330933E-1	3.640137E-1	2.946167E-1	-1.784668E-1	-3.866577E-2	1.179886E-2	-5.132751E-1	3.011475E-1
3.669350E+10	-7.275696E-1	3.651733E-1	2.877655E-1	-1.796875E-1	-3.699493E-2	1.709366E-2	-5.163879E-1	3.094482E-1
3.691800E+10	-7.266541E-1	3.625793E-1	2.901611E-1	-1.811371E-1	-3.924370E-2	1.712036E-2	-5.178528E-1	3.247986E-1
3.714250E+10	-7.237854E-1	3.657532E-1	2.802887E-1	-1.879730E-1	-3.522301E-2	1.623917E-2	-5.061340E-1	3.270569E-1
3.736700E+10	-7.205811E-1	3.680420E-1	2.823029E-1	-1.831055E-1	-3.176117E-2	1.894379E-2	-5.038757E-1	3.218689E-1
3.759150E+10	-7.226257E-1	3.713379E-1	2.813110E-1	-1.873322E-1	-3.602791E-2	2.157211E-2	-4.998627E-1	3.378601E-1
3.781600E+10	-7.173157E-1	3.784790E-1	2.774506E-1	-1.893005E-1	-3.532600E-2	2.202988E-2	-5.012817E-1	3.416748E-1
3.804050E+10	-7.153015E-1	3.724060E-1	2.729950E-1	-1.950531E-1	-3.874016E-2	2.154160E-2	-4.882660E-1	3.533783E-1
3.826500E+10	-7.168884E-1	3.791809E-1	2.695618E-1	-1.935577E-1	-3.650665E-2	2.758408E-2	-4.806519E-1	3.568726E-1
3.848950E+10	-7.188416E-1	3.814697E-1	2.664490E-1	-1.943665E-1	-3.481865E-2	2.817345E-2	-4.815521E-1	3.608551E-1
3.871400E+10	-7.113037E-1	3.772278E-1	2.684174E-1	-1.989899E-1	-2.991581E-2	2.714634E-2	-4.712982E-1	3.694153E-1
3.893850E+10	-7.100220E-1	3.804016E-1	2.670593E-1	-1.958160E-1	-2.424526E-2	2.500343E-2	-4.625244E-1	3.722534E-1
3.916300E+10	-7.179871E-1	3.865356E-1	2.649231E-1	-1.988831E-1	-2.985954E-2	2.937031E-2	-4.619904E-1	3.765564E-1
