!Date: 10/28/2005, 12:46 PM

!Vgs = -5.000000E+0
!Vds = 1.000000E+1
!Ig = -6.277000E-5
!Id = 1.236600E-2

# HZ S RI R 50
1.000000E+8	9.830933E-1	-8.874512E-2	-3.441406E+0	1.696777E-1	4.725933E-3	1.026773E-2	8.466492E-1	-3.778076E-2
3.245000E+8	9.426575E-1	-2.487183E-1	-3.328003E+0	6.641846E-1	6.425858E-3	2.861214E-2	7.976379E-1	-1.323547E-1
5.490000E+8	8.777161E-1	-3.952332E-1	-3.144043E+0	1.038452E+0	1.582336E-2	4.578209E-2	7.716370E-1	-2.006531E-1
7.735000E+8	7.941284E-1	-5.221558E-1	-2.896362E+0	1.345703E+0	2.719879E-2	5.885696E-2	7.324829E-1	-2.628174E-1
9.980000E+8	6.991882E-1	-6.263428E-1	-2.619385E+0	1.598022E+0	3.986359E-2	6.977463E-2	6.927490E-1	-3.123169E-1
1.222500E+9	5.951233E-1	-7.096863E-1	-2.334351E+0	1.794312E+0	5.403519E-2	7.688904E-2	6.497192E-1	-3.576660E-1
1.447000E+9	4.890137E-1	-7.735291E-1	-2.060059E+0	1.935059E+0	6.718826E-2	8.232117E-2	6.083679E-1	-3.960876E-1
1.671500E+9	3.837280E-1	-8.189392E-1	-1.779053E+0	2.025513E+0	8.025360E-2	8.573914E-2	5.636902E-1	-4.285583E-1
1.896000E+9	2.836304E-1	-8.481750E-1	-1.521362E+0	2.078003E+0	9.399796E-2	8.661652E-2	5.207825E-1	-4.517212E-1
2.120500E+9	1.925659E-1	-8.638611E-1	-1.286255E+0	2.100464E+0	1.066818E-1	8.578110E-2	4.847870E-1	-4.733734E-1
2.345000E+9	1.018066E-1	-8.694763E-1	-1.057861E+0	2.084595E+0	1.184540E-1	8.190918E-2	4.468536E-1	-4.896851E-1
2.569500E+9	2.429199E-2	-8.639221E-1	-8.553467E-1	2.070801E+0	1.282349E-1	7.816315E-2	4.115295E-1	-5.034485E-1
2.794000E+9	-4.638672E-2	-8.570251E-1	-6.745605E-1	2.025024E+0	1.371307E-1	7.342529E-2	3.793640E-1	-5.146790E-1
3.018500E+9	-1.103821E-1	-8.446045E-1	-5.115356E-1	1.966858E+0	1.447830E-1	6.805420E-2	3.477173E-1	-5.245361E-1
3.243000E+9	-1.698303E-1	-8.286743E-1	-3.635254E-1	1.903931E+0	1.512909E-1	6.280518E-2	3.183289E-1	-5.335083E-1
3.467500E+9	-2.250977E-1	-8.113708E-1	-2.365112E-1	1.845215E+0	1.572723E-1	5.704498E-2	2.920532E-1	-5.397034E-1
3.692000E+9	-2.712097E-1	-7.920532E-1	-1.209106E-1	1.778259E+0	1.624985E-1	5.156708E-2	2.664185E-1	-5.477905E-1
3.916500E+9	-3.148804E-1	-7.712097E-1	-1.812744E-2	1.709290E+0	1.674347E-1	4.445648E-2	2.406311E-1	-5.534668E-1
4.141000E+9	-3.519592E-1	-7.508545E-1	7.385254E-2	1.634155E+0	1.711807E-1	3.869629E-2	2.158203E-1	-5.584717E-1
4.365500E+9	-3.868103E-1	-7.295532E-1	1.531372E-1	1.558350E+0	1.741180E-1	3.295898E-2	1.932678E-1	-5.632629E-1
4.590000E+9	-4.191895E-1	-7.091675E-1	2.230225E-1	1.491821E+0	1.775894E-1	2.777863E-2	1.708984E-1	-5.668335E-1
4.814500E+9	-4.478455E-1	-6.887817E-1	2.860718E-1	1.423096E+0	1.802368E-1	2.142334E-2	1.514282E-1	-5.725098E-1
5.039000E+9	-4.740906E-1	-6.685486E-1	3.420410E-1	1.362427E+0	1.820679E-1	1.521301E-2	1.294556E-1	-5.772400E-1
5.263500E+9	-4.973450E-1	-6.487732E-1	3.902588E-1	1.293884E+0	1.833496E-1	9.437561E-3	1.077881E-1	-5.794067E-1
5.488000E+9	-5.178223E-1	-6.304321E-1	4.309692E-1	1.230164E+0	1.844101E-1	4.135132E-3	8.877563E-2	-5.806580E-1
5.712500E+9	-5.385742E-1	-6.109009E-1	4.687500E-1	1.165283E+0	1.854172E-1	-1.182556E-3	7.077026E-2	-5.847473E-1
5.937000E+9	-5.567322E-1	-5.913086E-1	5.020142E-1	1.107727E+0	1.861725E-1	-7.011414E-3	5.181885E-2	-5.877075E-1
6.161500E+9	-5.726318E-1	-5.760803E-1	5.294800E-1	1.051636E+0	1.868286E-1	-1.188660E-2	3.454590E-2	-5.911865E-1
6.386000E+9	-5.889587E-1	-5.587158E-1	5.571289E-1	9.995422E-1	1.858444E-1	-1.702881E-2	1.538086E-2	-5.929871E-1
6.610500E+9	-6.012878E-1	-5.439453E-1	5.789490E-1	9.447327E-1	1.862488E-1	-2.216339E-2	-3.967285E-3	-5.963745E-1
6.835000E+9	-6.160278E-1	-5.281982E-1	5.971680E-1	8.947754E-1	1.865463E-1	-2.759552E-2	-2.191162E-2	-5.959167E-1
7.059500E+9	-6.263123E-1	-5.126343E-1	6.122437E-1	8.461304E-1	1.857071E-1	-3.170013E-2	-3.692627E-2	-5.994568E-1
7.284000E+9	-6.373596E-1	-4.992676E-1	6.241150E-1	7.951965E-1	1.845703E-1	-3.649139E-2	-5.700684E-2	-6.008606E-1
7.508500E+9	-6.490479E-1	-4.841614E-1	6.360779E-1	7.488403E-1	1.837921E-1	-4.144287E-2	-7.489014E-2	-5.990906E-1
7.733000E+9	-6.588440E-1	-4.693909E-1	6.430359E-1	7.052612E-1	1.830368E-1	-4.509735E-2	-8.993530E-2	-5.997009E-1
7.957500E+9	-6.682129E-1	-4.552612E-1	6.521301E-1	6.635437E-1	1.824417E-1	-4.975891E-2	-1.087036E-1	-6.016541E-1
8.182000E+9	-6.763611E-1	-4.423218E-1	6.587524E-1	6.255493E-1	1.808777E-1	-5.361176E-2	-1.242981E-1	-6.023254E-1
8.406500E+9	-6.836243E-1	-4.324036E-1	6.613464E-1	5.855103E-1	1.792908E-1	-5.766296E-2	-1.420288E-1	-6.004028E-1
8.631000E+9	-6.921692E-1	-4.192505E-1	6.651611E-1	5.476685E-1	1.773453E-1	-6.219482E-2	-1.591492E-1	-5.991211E-1
8.855500E+9	-6.986389E-1	-4.064636E-1	6.645813E-1	5.086670E-1	1.757660E-1	-6.624603E-2	-1.760864E-1	-5.976257E-1
9.080001E+9	-7.058411E-1	-3.966675E-1	6.673584E-1	4.751282E-1	1.744308E-1	-6.914520E-2	-1.904602E-1	-5.953674E-1
9.304500E+9	-7.133179E-1	-3.821106E-1	6.655579E-1	4.432983E-1	1.719513E-1	-7.292938E-2	-2.077942E-1	-5.943604E-1
9.529000E+9	-7.178650E-1	-3.748779E-1	6.643066E-1	4.117126E-1	1.709366E-1	-7.633972E-2	-2.235413E-1	-5.914001E-1
9.753500E+9	-7.236633E-1	-3.645325E-1	6.607971E-1	3.811340E-1	1.690292E-1	-7.925415E-2	-2.377319E-1	-5.870972E-1
9.978000E+9	-7.286377E-1	-3.540955E-1	6.572876E-1	3.507996E-1	1.664734E-1	-8.267212E-2	-2.530823E-1	-5.851135E-1
1.020250E+10	-7.344971E-1	-3.457336E-1	6.535034E-1	3.223572E-1	1.646423E-1	-8.640289E-2	-2.691345E-1	-5.817566E-1
1.042700E+10	-7.401123E-1	-3.337708E-1	6.489563E-1	2.958374E-1	1.633148E-1	-8.896637E-2	-2.832336E-1	-5.783386E-1
1.065150E+10	-7.439270E-1	-3.258057E-1	6.444397E-1	2.720642E-1	1.600113E-1	-9.196472E-2	-2.975769E-1	-5.759277E-1
1.087600E+10	-7.482605E-1	-3.163452E-1	6.387024E-1	2.464905E-1	1.584625E-1	-9.449005E-2	-3.124084E-1	-5.712280E-1
1.110050E+10	-7.522583E-1	-3.066711E-1	6.321716E-1	2.218323E-1	1.558228E-1	-9.727478E-2	-3.275757E-1	-5.668640E-1
1.132500E+10	-7.564697E-1	-2.978516E-1	6.251221E-1	1.989136E-1	1.538239E-1	-1.000290E-1	-3.399353E-1	-5.626526E-1
1.154950E+10	-7.611389E-1	-2.879028E-1	6.185913E-1	1.769714E-1	1.514740E-1	-1.032028E-1	-3.573608E-1	-5.572205E-1
1.177400E+10	-7.636414E-1	-2.802734E-1	6.136780E-1	1.569519E-1	1.504822E-1	-1.050568E-1	-3.686218E-1	-5.512085E-1
1.199850E+10	-7.681885E-1	-2.730713E-1	6.054687E-1	1.365051E-1	1.469040E-1	-1.066818E-1	-3.818970E-1	-5.481567E-1
1.222300E+10	-7.704468E-1	-2.648315E-1	5.961914E-1	1.163635E-1	1.446762E-1	-1.093140E-1	-3.963623E-1	-5.431824E-1
1.244750E+10	-7.741089E-1	-2.566833E-1	5.875549E-1	9.649658E-2	1.419220E-1	-1.109543E-1	-4.098511E-1	-5.330505E-1
1.267200E+10	-7.775879E-1	-2.492371E-1	5.786133E-1	7.958984E-2	1.395416E-1	-1.140518E-1	-4.198914E-1	-5.307007E-1
1.289650E+10	-7.799988E-1	-2.406616E-1	5.711670E-1	6.378174E-2	1.382370E-1	-1.160889E-1	-4.347229E-1	-5.246887E-1
1.312100E+10	-7.833862E-1	-2.337646E-1	5.628357E-1	4.681396E-2	1.345215E-1	-1.173706E-1	-4.462891E-1	-5.158081E-1
1.334550E+10	-7.860413E-1	-2.271423E-1	5.536804E-1	3.189087E-2	1.332169E-1	-1.201248E-1	-4.574280E-1	-5.120850E-1
1.357000E+10	-7.890320E-1	-2.180786E-1	5.446777E-1	1.614380E-2	1.293945E-1	-1.216278E-1	-4.707031E-1	-5.050964E-1
1.379450E+10	-7.906494E-1	-2.126465E-1	5.375671E-1	4.058838E-3	1.282883E-1	-1.235657E-1	-4.831238E-1	-4.946747E-1
1.401900E+10	-7.928772E-1	-2.062073E-1	5.278931E-1	-9.979248E-3	1.262665E-1	-1.248627E-1	-4.906158E-1	-4.889526E-1
1.424350E+10	-7.947693E-1	-1.979980E-1	5.176392E-1	-2.462769E-2	1.221848E-1	-1.266632E-1	-5.057373E-1	-4.829712E-1
1.446800E+10	-7.961426E-1	-1.917114E-1	5.093079E-1	-3.811646E-2	1.196747E-1	-1.288528E-1	-5.154724E-1	-4.718933E-1
1.469250E+10	-7.991943E-1	-1.835632E-1	5.006714E-1	-4.901123E-2	1.184387E-1	-1.294632E-1	-5.229797E-1	-4.654846E-1
1.491700E+10	-8.015137E-1	-1.784668E-1	4.922485E-1	-6.094360E-2	1.146317E-1	-1.315689E-1	-5.354309E-1	-4.592896E-1
1.514150E+10	-8.033142E-1	-1.723022E-1	4.819489E-1	-7.202148E-2	1.134109E-1	-1.327209E-1	-5.458984E-1	-4.478760E-1
1.536600E+10	-8.048401E-1	-1.654053E-1	4.724884E-1	-8.363342E-2	1.100616E-1	-1.332550E-1	-5.542297E-1	-4.406738E-1
1.559050E+10	-8.069153E-1	-1.580811E-1	4.613953E-1	-9.365845E-2	1.079330E-1	-1.347809E-1	-5.669250E-1	-4.351501E-1
1.581500E+10	-8.088379E-1	-1.513672E-1	4.526215E-1	-1.035919E-1	1.052704E-1	-1.373520E-1	-5.759888E-1	-4.232483E-1
1.603950E+10	-8.111267E-1	-1.453857E-1	4.443512E-1	-1.120911E-1	1.022797E-1	-1.379166E-1	-5.832520E-1	-4.150085E-1
1.626400E+10	-8.117676E-1	-1.390991E-1	4.362946E-1	-1.204529E-1	1.002502E-1	-1.387177E-1	-5.950623E-1	-4.070129E-1
1.648850E+10	-8.138733E-1	-1.346436E-1	4.265900E-1	-1.292877E-1	9.787750E-2	-1.402588E-1	-6.030579E-1	-3.951721E-1
1.671300E+10	-8.155518E-1	-1.276550E-1	4.174347E-1	-1.369324E-1	9.324646E-2	-1.405487E-1	-6.102600E-1	-3.875732E-1
1.693750E+10	-8.161926E-1	-1.218262E-1	4.062958E-1	-1.440277E-1	9.175110E-2	-1.419754E-1	-6.213074E-1	-3.795471E-1
1.716200E+10	-8.189697E-1	-1.147156E-1	3.987885E-1	-1.518707E-1	8.975220E-2	-1.419373E-1	-6.277771E-1	-3.670349E-1
1.738650E+10	-8.195190E-1	-1.106567E-1	3.893433E-1	-1.566315E-1	8.705902E-2	-1.435852E-1	-6.329041E-1	-3.586731E-1
1.761100E+10	-8.207397E-1	-1.037903E-1	3.817596E-1	-1.646118E-1	8.444214E-2	-1.440353E-1	-6.441650E-1	-3.509521E-1
1.783550E+10	-8.230896E-1	-9.753418E-2	3.704376E-1	-1.719208E-1	8.170319E-2	-1.449890E-1	-6.520081E-1	-3.385315E-1
1.806000E+10	-8.242493E-1	-9.249878E-2	3.632965E-1	-1.771393E-1	8.004761E-2	-1.458588E-1	-6.576538E-1	-3.293457E-1
1.828450E+10	-8.239746E-1	-8.709717E-2	3.559875E-1	-1.822510E-1	7.756042E-2	-1.472321E-1	-6.647034E-1	-3.217773E-1
1.850900E+10	-8.255920E-1	-8.233643E-2	3.464813E-1	-1.877136E-1	7.573700E-2	-1.468658E-1	-6.717834E-1	-3.102112E-1
1.873350E+10	-8.273926E-1	-7.675171E-2	3.396912E-1	-1.928558E-1	7.358551E-2	-1.484146E-1	-6.760254E-1	-2.984924E-1
1.895800E+10	-8.264465E-1	-7.012939E-2	3.296967E-1	-1.982422E-1	7.083893E-2	-1.479950E-1	-6.831665E-1	-2.912292E-1
1.918250E+10	-8.290405E-1	-6.491089E-2	3.213501E-1	-2.020721E-1	6.692505E-2	-1.495667E-1	-6.913147E-1	-2.812500E-1
1.940700E+10	-8.286438E-1	-5.960083E-2	3.122559E-1	-2.063751E-1	6.534576E-2	-1.493912E-1	-6.951599E-1	-2.658997E-1
1.963150E+10	-8.306274E-1	-5.377197E-2	3.053131E-1	-2.111816E-1	6.256104E-2	-1.478729E-1	-6.972656E-1	-2.604065E-1
1.985600E+10	-8.312988E-1	-4.977417E-2	3.000946E-1	-2.143555E-1	6.061554E-2	-1.507797E-1	-7.046204E-1	-2.484436E-1
2.008050E+10	-8.323059E-1	-4.486084E-2	2.867432E-1	-2.177887E-1	5.812073E-2	-1.512527E-1	-7.123413E-1	-2.356567E-1
2.030500E+10	-8.328857E-1	-3.848267E-2	2.807007E-1	-2.201691E-1	5.400085E-2	-1.513062E-1	-7.125549E-1	-2.279663E-1
2.052950E+10	-8.320618E-1	-3.311157E-2	2.736511E-1	-2.240601E-1	5.287170E-2	-1.505280E-1	-7.213440E-1	-2.168884E-1
2.075400E+10	-8.330994E-1	-2.862549E-2	2.665863E-1	-2.250519E-1	5.072784E-2	-1.510162E-1	-7.233887E-1	-2.051086E-1
2.097850E+10	-8.358765E-1	-2.307129E-2	2.578278E-1	-2.290192E-1	4.736328E-2	-1.507568E-1	-7.239075E-1	-1.946106E-1
2.120300E+10	-8.347168E-1	-1.788330E-2	2.508545E-1	-2.330017E-1	4.582977E-2	-1.491165E-1	-7.310486E-1	-1.903687E-1
2.142750E+10	-8.374023E-1	-1.065063E-2	2.428589E-1	-2.348099E-1	4.396820E-2	-1.519089E-1	-7.356567E-1	-1.744690E-1
2.165200E+10	-8.358154E-1	-5.920410E-3	2.343216E-1	-2.380142E-1	4.123688E-2	-1.503220E-1	-7.381287E-1	-1.655273E-1
2.187650E+10	-8.375549E-1	-2.166748E-3	2.302246E-1	-2.376633E-1	3.961182E-2	-1.502075E-1	-7.438354E-1	-1.537781E-1
2.210100E+10	-8.394775E-1	4.028320E-3	2.223587E-1	-2.410583E-1	3.627014E-2	-1.508560E-1	-7.470093E-1	-1.410522E-1
2.232550E+10	-8.369141E-1	9.124756E-3	2.148666E-1	-2.431946E-1	3.691101E-2	-1.509323E-1	-7.481384E-1	-1.299438E-1
2.255000E+10	-8.405151E-1	1.580811E-2	2.058334E-1	-2.445068E-1	3.259277E-2	-1.497421E-1	-7.545776E-1	-1.230164E-1
2.277450E+10	-8.387146E-1	1.980591E-2	2.018280E-1	-2.458801E-1	3.068542E-2	-1.499786E-1	-7.582092E-1	-1.071777E-1
2.299900E+10	-8.380737E-1	2.508545E-2	1.951752E-1	-2.481766E-1	2.700043E-2	-1.519775E-1	-7.568665E-1	-9.771729E-2
2.322350E+10	-8.385010E-1	3.048706E-2	1.888275E-1	-2.482529E-1	2.646637E-2	-1.525345E-1	-7.608948E-1	-8.923340E-2
2.344800E+10	-8.387451E-1	3.564453E-2	1.820068E-1	-2.504425E-1	2.375793E-2	-1.528854E-1	-7.622986E-1	-7.373047E-2
2.367250E+10	-8.400879E-1	4.238892E-2	1.726685E-1	-2.520752E-1	2.310181E-2	-1.529922E-1	-7.588806E-1	-6.219482E-2
2.389700E+10	-8.379211E-1	4.614258E-2	1.668549E-1	-2.505798E-1	1.781464E-2	-1.520996E-1	-7.641907E-1	-5.285645E-2
2.412150E+10	-8.395081E-1	4.852295E-2	1.587219E-1	-2.533264E-1	1.471710E-2	-1.520081E-1	-7.647095E-1	-3.738403E-2
2.434600E+10	-8.392334E-1	5.621338E-2	1.539764E-1	-2.534485E-1	1.449585E-2	-1.510391E-1	-7.647400E-1	-2.633667E-2
2.457050E+10	-8.379517E-1	5.862427E-2	1.486053E-1	-2.552032E-1	1.336670E-2	-1.517487E-1	-7.661438E-1	-1.986694E-2
2.479500E+10	-8.377991E-1	6.585693E-2	1.416779E-1	-2.557373E-1	7.141113E-3	-1.503830E-1	-7.631226E-1	-4.760742E-3
2.501950E+10	-8.376465E-1	6.915283E-2	1.338501E-1	-2.554321E-1	7.514954E-3	-1.508560E-1	-7.599182E-1	1.342773E-3
2.524400E+10	-8.378906E-1	7.424927E-2	1.280975E-1	-2.545471E-1	4.348755E-3	-1.475067E-1	-7.647400E-1	1.309204E-2
2.546850E+10	-8.373413E-1	8.059692E-2	1.223602E-1	-2.544861E-1	9.536743E-4	-1.491623E-1	-7.620850E-1	2.468872E-2
2.569300E+10	-8.368530E-1	8.303833E-2	1.177216E-1	-2.525635E-1	2.288818E-5	-1.465683E-1	-7.612305E-1	3.170776E-2
2.591750E+10	-8.387451E-1	9.030151E-2	1.116486E-1	-2.530975E-1	-1.289368E-3	-1.490402E-1	-7.641602E-1	4.425049E-2
2.614200E+10	-8.377075E-1	9.579468E-2	1.055908E-1	-2.532501E-1	-3.707886E-3	-1.469040E-1	-7.632446E-1	5.648804E-2
2.636650E+10	-8.368530E-1	9.927368E-2	1.013031E-1	-2.529144E-1	-4.936218E-3	-1.468048E-1	-7.627869E-1	6.927490E-2
2.659100E+10	-8.342590E-1	1.037598E-1	9.535217E-2	-2.528839E-1	-8.300781E-3	-1.463852E-1	-7.569885E-1	7.818604E-2
2.681550E+10	-8.348694E-1	1.062927E-1	9.149170E-2	-2.521210E-1	-9.269714E-3	-1.460724E-1	-7.603149E-1	8.621216E-2
2.704000E+10	-8.327026E-1	1.123352E-1	8.203125E-2	-2.526550E-1	-1.094055E-2	-1.463089E-1	-7.567139E-1	1.046753E-1
2.726450E+10	-8.327942E-1	1.158142E-1	8.079529E-2	-2.527618E-1	-1.535797E-2	-1.459656E-1	-7.470093E-1	1.132507E-1
2.748900E+10	-8.314819E-1	1.234741E-1	7.241058E-2	-2.477570E-1	-1.448822E-2	-1.447296E-1	-7.535706E-1	1.181030E-1
2.771350E+10	-8.320923E-1	1.239014E-1	6.895447E-2	-2.495956E-1	-2.112579E-2	-1.463013E-1	-7.474670E-1	1.343384E-1
2.793800E+10	-8.324890E-1	1.315002E-1	6.481934E-2	-2.488632E-1	-2.076721E-2	-1.426468E-1	-7.424316E-1	1.409302E-1
2.816250E+10	-8.282471E-1	1.338501E-1	5.817413E-2	-2.491760E-1	-2.364349E-2	-1.423340E-1	-7.415771E-1	1.491699E-1
2.838700E+10	-8.314514E-1	1.396179E-1	5.177307E-2	-2.457047E-1	-2.297211E-2	-1.413574E-1	-7.386475E-1	1.609802E-1
2.861150E+10	-8.291321E-1	1.457825E-1	4.839325E-2	-2.471695E-1	-3.070068E-2	-1.408539E-1	-7.357178E-1	1.728516E-1
2.883600E+10	-8.281860E-1	1.509094E-1	3.970337E-2	-2.442245E-1	-2.667999E-2	-1.398010E-1	-7.302246E-1	1.766663E-1
2.906050E+10	-8.299255E-1	1.554260E-1	3.851318E-2	-2.412567E-1	-3.020477E-2	-1.395111E-1	-7.291260E-1	1.927795E-1
2.928500E+10	-8.266602E-1	1.618347E-1	3.445435E-2	-2.430038E-1	-3.207397E-2	-1.390076E-1	-7.223816E-1	1.971741E-1
2.950950E+10	-8.236694E-1	1.650085E-1	2.944183E-2	-2.366791E-1	-3.440094E-2	-1.366348E-1	-7.247925E-1	2.072754E-1
2.973400E+10	-8.258362E-1	1.701660E-1	2.665710E-2	-2.376251E-1	-3.468323E-2	-1.385193E-1	-7.222900E-1	2.177429E-1
2.995850E+10	-8.212280E-1	1.746826E-1	2.378845E-2	-2.359238E-1	-3.749847E-2	-1.370926E-1	-7.189941E-1	2.267456E-1
3.018300E+10	-8.209839E-1	1.787109E-1	1.641083E-2	-2.353516E-1	-4.032898E-2	-1.365356E-1	-7.138672E-1	2.424316E-1
3.040750E+10	-8.193665E-1	1.806641E-1	1.284790E-2	-2.312622E-1	-3.989410E-2	-1.367493E-1	-7.082520E-1	2.517090E-1
3.063200E+10	-8.164673E-1	1.869202E-1	9.513855E-3	-2.344131E-1	-4.802704E-2	-1.373444E-1	-7.058105E-1	2.616882E-1
3.085650E+10	-8.168945E-1	1.866760E-1	4.287720E-3	-2.333984E-1	-4.511261E-2	-1.332932E-1	-6.967163E-1	2.687378E-1
3.108100E+10	-8.145447E-1	1.947327E-1	6.713867E-4	-2.298889E-1	-4.937744E-2	-1.325073E-1	-6.916199E-1	2.817993E-1
3.130550E+10	-8.147583E-1	2.006531E-1	-5.111694E-3	-2.289581E-1	-5.216980E-2	-1.347504E-1	-6.816101E-1	2.894287E-1
3.153000E+10	-8.157043E-1	1.996155E-1	-1.020813E-2	-2.240829E-1	-5.126190E-2	-1.332855E-1	-6.808167E-1	2.969360E-1
3.175450E+10	-8.147583E-1	2.096252E-1	-1.484680E-2	-2.247925E-1	-5.361176E-2	-1.289825E-1	-6.752625E-1	3.125000E-1
3.197900E+10	-8.126526E-1	2.122192E-1	-1.606750E-2	-2.188034E-1	-5.751801E-2	-1.291428E-1	-6.572571E-1	3.164062E-1
3.220350E+10	-8.129883E-1	2.168274E-1	-2.111053E-2	-2.233429E-1	-5.892944E-2	-1.300354E-1	-6.601257E-1	3.304443E-1
3.242800E+10	-8.113098E-1	2.250061E-1	-2.519989E-2	-2.182465E-1	-6.329346E-2	-1.252975E-1	-6.500854E-1	3.347778E-1
3.265250E+10	-8.091736E-1	2.249756E-1	-2.505493E-2	-2.192230E-1	-6.678009E-2	-1.290512E-1	-6.412354E-1	3.434753E-1
3.287700E+10	-8.043213E-1	2.312012E-1	-2.799988E-2	-2.141342E-1	-6.789398E-2	-1.244011E-1	-6.415710E-1	3.472290E-1
3.310150E+10	-8.030701E-1	2.336426E-1	-3.300476E-2	-2.127686E-1	-6.998444E-2	-1.241798E-1	-6.301880E-1	3.566284E-1
3.332600E+10	-7.965698E-1	2.407837E-1	-3.807068E-2	-2.056732E-1	-7.302856E-2	-1.256790E-1	-6.218872E-1	3.613586E-1
3.355050E+10	-7.971802E-1	2.462769E-1	-4.076385E-2	-2.044601E-1	-7.218170E-2	-1.195068E-1	-6.141968E-1	3.704834E-1
3.377500E+10	-7.977600E-1	2.530823E-1	-4.431915E-2	-1.997528E-1	-7.170486E-2	-1.171074E-1	-6.094360E-1	3.761292E-1
3.399950E+10	-7.944946E-1	2.551880E-1	-4.573822E-2	-2.016907E-1	-7.789993E-2	-1.190300E-1	-6.074829E-1	3.825073E-1
3.422400E+10	-7.925415E-1	2.570496E-1	-5.337524E-2	-2.029724E-1	-7.748795E-2	-1.133881E-1	-6.049500E-1	3.945923E-1
3.444850E+10	-7.921448E-1	2.567444E-1	-5.635071E-2	-2.003860E-1	-7.739639E-2	-1.152306E-1	-5.885925E-1	4.044495E-1
3.467300E+10	-7.874756E-1	2.656860E-1	-5.184174E-2	-1.969910E-1	-8.239746E-2	-1.156006E-1	-5.865173E-1	4.099426E-1
3.489750E+10	-7.870178E-1	2.672119E-1	-6.145477E-2	-1.943054E-1	-8.622742E-2	-1.151466E-1	-5.733948E-1	4.212646E-1
3.512200E+10	-7.834778E-1	2.697144E-1	-6.387329E-2	-1.924820E-1	-8.629990E-2	-1.086349E-1	-5.661011E-1	4.248047E-1
3.534650E+10	-7.841797E-1	2.733154E-1	-6.413269E-2	-1.930847E-1	-9.147263E-2	-1.136742E-1	-5.589905E-1	4.354858E-1
3.557100E+10	-7.842712E-1	2.835693E-1	-7.112122E-2	-1.924286E-1	-9.053040E-2	-1.095123E-1	-5.490417E-1	4.426270E-1
3.579550E+10	-7.802124E-1	2.816772E-1	-7.869720E-2	-1.848526E-1	-8.894730E-2	-1.038208E-1	-5.321045E-1	4.457703E-1
3.602000E+10	-7.778931E-1	2.896118E-1	-7.844543E-2	-1.819611E-1	-9.158325E-2	-1.122856E-1	-5.272522E-1	4.531250E-1
3.624450E+10	-7.757874E-1	2.932739E-1	-7.859039E-2	-1.778336E-1	-9.932327E-2	-1.078339E-1	-5.197754E-1	4.555664E-1
3.646900E+10	-7.738342E-1	2.983398E-1	-8.602905E-2	-1.753693E-1	-9.821701E-2	-1.006699E-1	-5.082703E-1	4.661255E-1
3.669350E+10	-7.654114E-1	2.977295E-1	-8.923340E-2	-1.725693E-1	-1.033173E-1	-1.018677E-1	-5.007324E-1	4.723511E-1
3.691800E+10	-7.655334E-1	3.017578E-1	-9.162140E-2	-1.709442E-1	-1.039734E-1	-9.964371E-2	-4.880676E-1	4.803619E-1
3.714250E+10	-7.608948E-1	3.006592E-1	-9.371185E-2	-1.702576E-1	-1.017914E-1	-9.519196E-2	-4.737549E-1	4.798431E-1
3.736700E+10	-7.555237E-1	3.090820E-1	-9.478760E-2	-1.669388E-1	-1.105003E-1	-9.623337E-2	-4.699249E-1	4.823303E-1
3.759150E+10	-7.576599E-1	3.106689E-1	-9.730530E-2	-1.644058E-1	-1.079521E-1	-9.317017E-2	-4.537506E-1	4.922028E-1
3.781600E+10	-7.513123E-1	3.168335E-1	-1.028290E-1	-1.576233E-1	-1.124878E-1	-9.084320E-2	-4.497070E-1	4.986267E-1
3.804050E+10	-7.513733E-1	3.232117E-1	-1.078339E-1	-1.538162E-1	-1.111946E-1	-8.730698E-2	-4.290009E-1	4.968109E-1
3.826500E+10	-7.485046E-1	3.225403E-1	-1.047287E-1	-1.546249E-1	-1.174812E-1	-8.548355E-2	-4.205627E-1	5.065002E-1
3.848950E+10	-7.456665E-1	3.267212E-1	-1.083145E-1	-1.522446E-1	-1.189499E-1	-7.787323E-2	-4.120178E-1	5.125122E-1
3.871400E+10	-7.420959E-1	3.244019E-1	-1.043549E-1	-1.468735E-1	-1.159554E-1	-8.155060E-2	-3.972168E-1	5.099487E-1
3.893850E+10	-7.425232E-1	3.347778E-1	-1.124115E-1	-1.441269E-1	-1.149979E-1	-7.256699E-2	-3.801880E-1	5.156250E-1
