!Date: 10/28/2005, 12:46 PM

!Vgs = -8.000000E+0
!Vds = 1.000000E+1
!Ig = -1.319200E-4
!Id = 1.789300E-3

# HZ S RI R 50
1.000000E+8	9.901733E-1	-3.646851E-2	-1.491928E-2	1.098967E-2	2.337456E-3	1.090002E-2	9.855042E-1	-4.486084E-3
3.245000E+8	9.788818E-1	-1.010437E-1	-1.055717E-2	3.444481E-2	5.559921E-3	3.265381E-2	9.669800E-1	-8.630371E-2
5.490000E+8	9.655151E-1	-1.630859E-1	-3.944397E-3	5.660820E-2	1.224899E-2	5.385208E-2	9.618835E-1	-1.401367E-1
7.735000E+8	9.486389E-1	-2.247925E-1	5.378723E-3	7.729340E-2	2.097321E-2	7.314682E-2	9.459229E-1	-1.950684E-1
9.980000E+8	9.291382E-1	-2.819214E-1	1.628876E-2	9.574127E-2	3.125763E-2	9.097672E-2	9.287415E-1	-2.436523E-1
1.222500E+9	9.061584E-1	-3.385620E-1	2.881241E-2	1.126060E-1	4.313660E-2	1.071472E-1	9.098511E-1	-2.938538E-1
1.447000E+9	8.794556E-1	-3.925476E-1	4.219055E-2	1.280823E-1	5.600357E-2	1.217422E-1	8.878479E-1	-3.410950E-1
1.671500E+9	8.501892E-1	-4.432678E-1	5.648041E-2	1.429291E-1	6.956482E-2	1.358490E-1	8.628540E-1	-3.840332E-1
1.896000E+9	8.191223E-1	-4.902039E-1	7.419586E-2	1.566010E-1	8.656311E-2	1.488800E-1	8.397217E-1	-4.236755E-1
2.120500E+9	7.861328E-1	-5.351562E-1	9.266663E-2	1.669922E-1	1.044922E-1	1.584015E-1	8.147888E-1	-4.654236E-1
2.345000E+9	7.490845E-1	-5.778503E-1	1.123734E-1	1.743698E-1	1.228638E-1	1.651001E-1	7.854614E-1	-5.040588E-1
2.569500E+9	7.132568E-1	-6.140442E-1	1.306305E-1	1.795578E-1	1.410522E-1	1.701126E-1	7.575684E-1	-5.408630E-1
2.794000E+9	6.754150E-1	-6.503906E-1	1.498489E-1	1.839905E-1	1.584854E-1	1.738892E-1	7.270203E-1	-5.733032E-1
3.018500E+9	6.360779E-1	-6.820679E-1	1.675568E-1	1.851425E-1	1.769180E-1	1.752472E-1	6.953125E-1	-6.052551E-1
3.243000E+9	5.969543E-1	-7.113647E-1	1.868744E-1	1.854401E-1	1.948395E-1	1.749649E-1	6.620789E-1	-6.370239E-1
3.467500E+9	5.577087E-1	-7.379150E-1	2.044678E-1	1.842651E-1	2.121582E-1	1.737823E-1	6.288147E-1	-6.616821E-1
3.692000E+9	5.178528E-1	-7.618408E-1	2.222137E-1	1.816254E-1	2.282486E-1	1.712799E-1	5.956726E-1	-6.892700E-1
3.916500E+9	4.775696E-1	-7.826843E-1	2.391205E-1	1.769638E-1	2.449951E-1	1.668015E-1	5.592651E-1	-7.106323E-1
4.141000E+9	4.391174E-1	-8.013916E-1	2.555542E-1	1.717834E-1	2.608337E-1	1.611938E-1	5.278625E-1	-7.312927E-1
4.365500E+9	4.016724E-1	-8.181763E-1	2.714844E-1	1.653290E-1	2.753906E-1	1.545410E-1	4.949036E-1	-7.521973E-1
4.590000E+9	3.617249E-1	-8.332825E-1	2.858429E-1	1.574707E-1	2.896881E-1	1.470032E-1	4.581299E-1	-7.686768E-1
4.814500E+9	3.240051E-1	-8.452454E-1	2.999420E-1	1.485596E-1	3.026581E-1	1.382904E-1	4.261475E-1	-7.836304E-1
5.039000E+9	2.868958E-1	-8.562927E-1	3.136444E-1	1.381531E-1	3.155212E-1	1.285553E-1	3.920288E-1	-8.000793E-1
5.263500E+9	2.496948E-1	-8.636169E-1	3.255157E-1	1.281738E-1	3.265381E-1	1.183167E-1	3.570557E-1	-8.110962E-1
5.488000E+9	2.153015E-1	-8.701782E-1	3.354034E-1	1.170502E-1	3.370209E-1	1.069183E-1	3.259583E-1	-8.215942E-1
5.712500E+9	1.797791E-1	-8.770142E-1	3.459930E-1	1.049805E-1	3.471527E-1	9.542847E-2	2.939148E-1	-8.329468E-1
5.937000E+9	1.466064E-1	-8.785095E-1	3.548889E-1	9.295654E-2	3.553162E-1	8.346558E-2	2.601929E-1	-8.418579E-1
6.161500E+9	1.146240E-1	-8.829651E-1	3.618927E-1	8.071899E-2	3.623657E-1	7.112122E-2	2.300720E-1	-8.487854E-1
6.386000E+9	8.154297E-2	-8.855896E-1	3.690186E-1	6.803894E-2	3.690033E-1	5.839539E-2	1.974182E-1	-8.552551E-1
6.610500E+9	5.227661E-2	-8.857117E-1	3.748474E-1	5.503845E-2	3.741913E-1	4.623413E-2	1.644592E-1	-8.605652E-1
6.835000E+9	2.099609E-2	-8.858032E-1	3.801575E-1	4.258728E-2	3.792725E-1	3.411865E-2	1.353760E-1	-8.629761E-1
7.059500E+9	-7.049561E-3	-8.839111E-1	3.833466E-1	3.074646E-2	3.830719E-1	2.249146E-2	1.072083E-1	-8.655396E-1
7.284000E+9	-3.570557E-2	-8.827820E-1	3.875885E-1	1.728821E-2	3.861237E-1	9.140015E-3	7.531738E-2	-8.677979E-1
7.508500E+9	-6.387329E-2	-8.796082E-1	3.907166E-1	4.592896E-3	3.887177E-1	-3.112793E-3	4.693604E-2	-8.663635E-1
7.733000E+9	-8.990479E-2	-8.756104E-1	3.918152E-1	-8.422852E-3	3.899536E-1	-1.536560E-2	2.026367E-2	-8.668518E-1
7.957500E+9	-1.161194E-1	-8.717041E-1	3.925629E-1	-1.977539E-2	3.910217E-1	-2.737427E-2	-9.918213E-3	-8.667908E-1
8.182000E+9	-1.401367E-1	-8.675842E-1	3.942261E-1	-3.215027E-2	3.921051E-1	-3.898621E-2	-3.662109E-2	-8.658752E-1
8.406500E+9	-1.641846E-1	-8.623962E-1	3.935242E-1	-4.415894E-2	3.910828E-1	-5.110168E-2	-6.369019E-2	-8.614807E-1
8.631000E+9	-1.884155E-1	-8.578491E-1	3.936310E-1	-5.624390E-2	3.916016E-1	-6.184387E-2	-8.966064E-2	-8.598328E-1
8.855500E+9	-2.102661E-1	-8.515625E-1	3.923035E-1	-6.721497E-2	3.896027E-1	-7.356262E-2	-1.156921E-1	-8.557434E-1
9.080001E+9	-2.319336E-1	-8.468018E-1	3.909302E-1	-7.771301E-2	3.884735E-1	-8.375549E-2	-1.398621E-1	-8.493652E-1
9.304500E+9	-2.543640E-1	-8.392029E-1	3.881378E-1	-8.894348E-2	3.855591E-1	-9.510803E-2	-1.675415E-1	-8.449707E-1
9.529000E+9	-2.736511E-1	-8.335571E-1	3.871002E-1	-9.866333E-2	3.833160E-1	-1.050720E-1	-1.889954E-1	-8.388672E-1
9.753500E+9	-2.947998E-1	-8.264160E-1	3.841705E-1	-1.094055E-1	3.807831E-1	-1.152954E-1	-2.095337E-1	-8.309937E-1
9.978000E+9	-3.129578E-1	-8.186340E-1	3.809509E-1	-1.195526E-1	3.772583E-1	-1.247559E-1	-2.317200E-1	-8.280334E-1
1.020250E+10	-3.326111E-1	-8.121338E-1	3.773804E-1	-1.290894E-1	3.743744E-1	-1.342621E-1	-2.561646E-1	-8.188782E-1
1.042700E+10	-3.499146E-1	-8.045349E-1	3.735046E-1	-1.389465E-1	3.709412E-1	-1.434784E-1	-2.767639E-1	-8.120728E-1
1.065150E+10	-3.670044E-1	-7.958984E-1	3.693237E-1	-1.471863E-1	3.661041E-1	-1.529999E-1	-2.968140E-1	-8.037720E-1
1.087600E+10	-3.851013E-1	-7.885132E-1	3.641357E-1	-1.567688E-1	3.619080E-1	-1.601257E-1	-3.182373E-1	-7.964172E-1
1.110050E+10	-4.012756E-1	-7.805481E-1	3.605194E-1	-1.650543E-1	3.566284E-1	-1.694946E-1	-3.390808E-1	-7.874146E-1
1.132500E+10	-4.182739E-1	-7.721252E-1	3.554230E-1	-1.728058E-1	3.516388E-1	-1.766052E-1	-3.563538E-1	-7.806702E-1
1.154950E+10	-4.334106E-1	-7.632141E-1	3.511505E-1	-1.807098E-1	3.466797E-1	-1.836090E-1	-3.783875E-1	-7.689209E-1
1.177400E+10	-4.476624E-1	-7.561340E-1	3.459015E-1	-1.884003E-1	3.426056E-1	-1.916046E-1	-3.953552E-1	-7.588196E-1
1.199850E+10	-4.631042E-1	-7.471619E-1	3.403625E-1	-1.957550E-1	3.369446E-1	-1.990509E-1	-4.123230E-1	-7.516479E-1
1.222300E+10	-4.765930E-1	-7.388916E-1	3.353424E-1	-2.031860E-1	3.320923E-1	-2.054443E-1	-4.304504E-1	-7.409363E-1
1.244750E+10	-4.914856E-1	-7.309570E-1	3.297272E-1	-2.088623E-1	3.255157E-1	-2.122955E-1	-4.491882E-1	-7.277832E-1
1.267200E+10	-5.049133E-1	-7.210693E-1	3.247223E-1	-2.151794E-1	3.200836E-1	-2.182465E-1	-4.632568E-1	-7.205200E-1
1.289650E+10	-5.161133E-1	-7.127991E-1	3.181305E-1	-2.210083E-1	3.139038E-1	-2.238617E-1	-4.816589E-1	-7.093201E-1
1.312100E+10	-5.299377E-1	-7.047424E-1	3.119965E-1	-2.270966E-1	3.087616E-1	-2.307129E-1	-4.971619E-1	-6.960449E-1
1.334550E+10	-5.421753E-1	-6.952820E-1	3.067322E-1	-2.337036E-1	3.030396E-1	-2.356567E-1	-5.093689E-1	-6.882019E-1
1.357000E+10	-5.553589E-1	-6.857910E-1	3.013916E-1	-2.391968E-1	2.962494E-1	-2.415161E-1	-5.258789E-1	-6.779175E-1
1.379450E+10	-5.650024E-1	-6.788635E-1	2.937164E-1	-2.436371E-1	2.918243E-1	-2.447205E-1	-5.420227E-1	-6.635132E-1
1.401900E+10	-5.752563E-1	-6.697083E-1	2.880402E-1	-2.486267E-1	2.857971E-1	-2.492218E-1	-5.516663E-1	-6.535339E-1
1.424350E+10	-5.872498E-1	-6.617737E-1	2.817078E-1	-2.527618E-1	2.797394E-1	-2.538605E-1	-5.668945E-1	-6.414795E-1
1.446800E+10	-5.962830E-1	-6.534119E-1	2.766571E-1	-2.570801E-1	2.737579E-1	-2.593231E-1	-5.801086E-1	-6.270752E-1
1.469250E+10	-6.072998E-1	-6.441650E-1	2.705688E-1	-2.613220E-1	2.667847E-1	-2.637787E-1	-5.901794E-1	-6.173706E-1
1.491700E+10	-6.169128E-1	-6.347351E-1	2.642975E-1	-2.657471E-1	2.608337E-1	-2.668152E-1	-6.059570E-1	-6.075134E-1
1.514150E+10	-6.271667E-1	-6.266479E-1	2.572327E-1	-2.691193E-1	2.542725E-1	-2.710419E-1	-6.175232E-1	-5.908203E-1
1.536600E+10	-6.368103E-1	-6.164551E-1	2.523956E-1	-2.728729E-1	2.488098E-1	-2.744751E-1	-6.263123E-1	-5.801697E-1
1.559050E+10	-6.467590E-1	-6.086731E-1	2.456818E-1	-2.761536E-1	2.437439E-1	-2.758636E-1	-6.398010E-1	-5.706482E-1
1.581500E+10	-6.548157E-1	-6.008606E-1	2.391357E-1	-2.787476E-1	2.356262E-1	-2.803802E-1	-6.514893E-1	-5.544739E-1
1.603950E+10	-6.645508E-1	-5.917358E-1	2.327118E-1	-2.814484E-1	2.313690E-1	-2.841797E-1	-6.598511E-1	-5.444641E-1
1.626400E+10	-6.733398E-1	-5.833435E-1	2.280884E-1	-2.838287E-1	2.240448E-1	-2.853394E-1	-6.719360E-1	-5.321350E-1
1.648850E+10	-6.811829E-1	-5.750732E-1	2.214966E-1	-2.876282E-1	2.171478E-1	-2.870941E-1	-6.814880E-1	-5.178528E-1
1.671300E+10	-6.890564E-1	-5.655518E-1	2.149353E-1	-2.897491E-1	2.118225E-1	-2.895203E-1	-6.903687E-1	-5.057983E-1
1.693750E+10	-6.959229E-1	-5.574341E-1	2.086487E-1	-2.919922E-1	2.067871E-1	-2.925873E-1	-6.994324E-1	-4.938049E-1
1.716200E+10	-7.041626E-1	-5.493469E-1	2.034912E-1	-2.928925E-1	2.005615E-1	-2.943573E-1	-7.081604E-1	-4.782104E-1
1.738650E+10	-7.126465E-1	-5.411377E-1	1.970062E-1	-2.953949E-1	1.944122E-1	-2.966766E-1	-7.144775E-1	-4.666443E-1
1.761100E+10	-7.191772E-1	-5.313110E-1	1.919403E-1	-2.979126E-1	1.878510E-1	-2.984009E-1	-7.264709E-1	-4.573059E-1
1.783550E+10	-7.276306E-1	-5.232239E-1	1.849365E-1	-2.985992E-1	1.821594E-1	-2.988739E-1	-7.329712E-1	-4.407959E-1
1.806000E+10	-7.345581E-1	-5.156555E-1	1.799622E-1	-3.006439E-1	1.762238E-1	-3.010254E-1	-7.383423E-1	-4.277344E-1
1.828450E+10	-7.399902E-1	-5.070496E-1	1.746063E-1	-3.029480E-1	1.723785E-1	-3.014832E-1	-7.466125E-1	-4.190674E-1
1.850900E+10	-7.455444E-1	-4.989014E-1	1.696625E-1	-3.016968E-1	1.655579E-1	-3.025360E-1	-7.546997E-1	-4.040833E-1
1.873350E+10	-7.538147E-1	-4.903870E-1	1.635895E-1	-3.053894E-1	1.597443E-1	-3.054657E-1	-7.603760E-1	-3.881226E-1
1.895800E+10	-7.580261E-1	-4.805298E-1	1.580200E-1	-3.060303E-1	1.539307E-1	-3.048706E-1	-7.657471E-1	-3.794556E-1
1.918250E+10	-7.647705E-1	-4.750366E-1	1.530762E-1	-3.062744E-1	1.494293E-1	-3.067474E-1	-7.747192E-1	-3.658447E-1
1.940700E+10	-7.705994E-1	-4.650574E-1	1.463318E-1	-3.073425E-1	1.426086E-1	-3.078308E-1	-7.789917E-1	-3.468933E-1
1.963150E+10	-7.775269E-1	-4.560547E-1	1.397552E-1	-3.072662E-1	1.376343E-1	-3.088379E-1	-7.822571E-1	-3.400574E-1
1.985600E+10	-7.819519E-1	-4.476929E-1	1.360168E-1	-3.067932E-1	1.337280E-1	-3.078613E-1	-7.894897E-1	-3.277588E-1
2.008050E+10	-7.877197E-1	-4.420471E-1	1.303711E-1	-3.086395E-1	1.277313E-1	-3.087311E-1	-7.944031E-1	-3.111572E-1
2.030500E+10	-7.925110E-1	-4.323730E-1	1.258087E-1	-3.086395E-1	1.218109E-1	-3.085022E-1	-7.954102E-1	-3.009644E-1
2.052950E+10	-7.982788E-1	-4.243469E-1	1.213684E-1	-3.106079E-1	1.167755E-1	-3.093872E-1	-8.030701E-1	-2.878418E-1
2.075400E+10	-8.031006E-1	-4.181213E-1	1.153717E-1	-3.098907E-1	1.130371E-1	-3.093109E-1	-8.078613E-1	-2.741394E-1
2.097850E+10	-8.095398E-1	-4.090271E-1	1.091766E-1	-3.104401E-1	1.091766E-1	-3.107452E-1	-8.064270E-1	-2.611694E-1
2.120300E+10	-8.129578E-1	-4.003601E-1	1.048126E-1	-3.097076E-1	1.036072E-1	-3.081818E-1	-8.147583E-1	-2.544250E-1
2.142750E+10	-8.189087E-1	-3.929443E-1	9.941101E-2	-3.087921E-1	9.765625E-2	-3.090973E-1	-8.183899E-1	-2.357788E-1
2.165200E+10	-8.238831E-1	-3.832397E-1	9.446716E-2	-3.083649E-1	9.371948E-2	-3.076324E-1	-8.211975E-1	-2.266235E-1
2.187650E+10	-8.263855E-1	-3.744202E-1	9.269714E-2	-3.072205E-1	8.937073E-2	-3.083191E-1	-8.247986E-1	-2.134705E-1
2.210100E+10	-8.316650E-1	-3.664551E-1	8.511353E-2	-3.085175E-1	8.329773E-2	-3.079071E-1	-8.313904E-1	-1.990356E-1
2.232550E+10	-8.359375E-1	-3.578491E-1	8.110046E-2	-3.089447E-1	8.100891E-2	-3.092957E-1	-8.310852E-1	-1.842957E-1
2.255000E+10	-8.416443E-1	-3.490295E-1	7.778931E-2	-3.080750E-1	7.524109E-2	-3.097229E-1	-8.337708E-1	-1.765442E-1
2.277450E+10	-8.430481E-1	-3.413391E-1	7.067871E-2	-3.069611E-1	6.994629E-2	-3.075409E-1	-8.368835E-1	-1.584778E-1
2.299900E+10	-8.470154E-1	-3.343506E-1	6.814575E-2	-3.076630E-1	6.521606E-2	-3.066864E-1	-8.367310E-1	-1.469116E-1
2.322350E+10	-8.510132E-1	-3.276062E-1	6.333923E-2	-3.090057E-1	6.214905E-2	-3.079834E-1	-8.415222E-1	-1.362610E-1
2.344800E+10	-8.533630E-1	-3.180542E-1	5.873108E-2	-3.070221E-1	5.664062E-2	-3.077850E-1	-8.447266E-1	-1.212769E-1
2.367250E+10	-8.565369E-1	-3.080139E-1	5.421448E-2	-3.059998E-1	5.043030E-2	-3.059235E-1	-8.397827E-1	-1.073608E-1
2.389700E+10	-8.576355E-1	-3.010254E-1	4.841614E-2	-3.065491E-1	4.605103E-2	-3.057251E-1	-8.446960E-1	-9.750366E-2
2.412150E+10	-8.619995E-1	-2.960815E-1	4.573059E-2	-3.049164E-1	4.119873E-2	-3.053589E-1	-8.449707E-1	-7.736206E-2
2.434600E+10	-8.619690E-1	-2.890320E-1	3.948975E-2	-3.047485E-1	3.941345E-2	-3.045044E-1	-8.406982E-1	-6.900024E-2
2.457050E+10	-8.642883E-1	-2.825623E-1	3.454590E-2	-3.047180E-1	3.512573E-2	-3.028412E-1	-8.471375E-1	-5.578613E-2
2.479500E+10	-8.695679E-1	-2.747803E-1	3.201294E-2	-3.028412E-1	3.054810E-2	-3.022461E-1	-8.443298E-1	-4.110718E-2
2.501950E+10	-8.713074E-1	-2.708130E-1	2.677917E-2	-3.027191E-1	2.604675E-2	-3.018036E-1	-8.397217E-1	-3.045654E-2
2.524400E+10	-8.769836E-1	-2.624512E-1	2.412415E-2	-2.983246E-1	2.162170E-2	-2.985687E-1	-8.414917E-1	-1.956177E-2
2.546850E+10	-8.787231E-1	-2.544250E-1	2.005005E-2	-2.995300E-1	1.879883E-2	-2.974854E-1	-8.382568E-1	-6.927490E-3
2.569300E+10	-8.810730E-1	-2.467346E-1	1.618958E-2	-2.981110E-1	1.405334E-2	-2.968292E-1	-8.385315E-1	1.068115E-3
2.591750E+10	-8.854980E-1	-2.376099E-1	1.156616E-2	-2.981873E-1	9.735107E-3	-2.944489E-1	-8.432922E-1	1.547241E-2
2.614200E+10	-8.859863E-1	-2.312012E-1	1.068115E-2	-2.921906E-1	8.270264E-3	-2.945557E-1	-8.402405E-1	3.186035E-2
2.636650E+10	-8.898315E-1	-2.244568E-1	5.508423E-3	-2.937164E-1	3.707886E-3	-2.946320E-1	-8.395386E-1	4.208374E-2
2.659100E+10	-8.894653E-1	-2.167053E-1	2.502441E-3	-2.929687E-1	7.629395E-5	-2.926025E-1	-8.336792E-1	5.279541E-2
2.681550E+10	-8.924866E-1	-2.116699E-1	-2.227783E-3	-2.925415E-1	-4.455566E-3	-2.911835E-1	-8.341675E-1	6.320190E-2
2.704000E+10	-8.968811E-1	-2.015381E-1	-4.058838E-3	-2.895660E-1	-8.132935E-3	-2.910461E-1	-8.353882E-1	8.270264E-2
2.726450E+10	-8.967285E-1	-1.932678E-1	-8.789062E-3	-2.901001E-1	-9.750366E-3	-2.890778E-1	-8.260193E-1	9.088135E-2
2.748900E+10	-9.002075E-1	-1.889648E-1	-1.124573E-2	-2.888336E-1	-1.452637E-2	-2.889404E-1	-8.302612E-1	9.930420E-2
2.771350E+10	-9.016113E-1	-1.800537E-1	-1.730347E-2	-2.860870E-1	-1.783752E-2	-2.873077E-1	-8.222656E-1	1.143494E-1
2.793800E+10	-9.040222E-1	-1.727600E-1	-2.049255E-2	-2.851562E-1	-2.243042E-2	-2.861328E-1	-8.230286E-1	1.246033E-1
2.816250E+10	-9.055786E-1	-1.666260E-1	-2.328491E-2	-2.838898E-1	-2.548218E-2	-2.834320E-1	-8.155823E-1	1.352234E-1
2.838700E+10	-9.046936E-1	-1.571960E-1	-2.764893E-2	-2.848816E-1	-2.770996E-2	-2.829895E-1	-8.172302E-1	1.501160E-1
2.861150E+10	-9.104004E-1	-1.511841E-1	-3.314209E-2	-2.834625E-1	-3.489685E-2	-2.835846E-1	-8.083801E-1	1.609192E-1
2.883600E+10	-9.113464E-1	-1.438904E-1	-3.430176E-2	-2.796326E-1	-3.645325E-2	-2.778168E-1	-8.081665E-1	1.669006E-1
2.906050E+10	-9.109192E-1	-1.381226E-1	-3.753662E-2	-2.793579E-1	-3.660583E-2	-2.777863E-1	-8.023376E-1	1.803894E-1
2.928500E+10	-9.156799E-1	-1.307678E-1	-4.032898E-2	-2.778931E-1	-4.209900E-2	-2.766571E-1	-7.969971E-1	1.910706E-1
2.950950E+10	-9.161682E-1	-1.208801E-1	-4.331970E-2	-2.731781E-1	-4.689026E-2	-2.732544E-1	-7.987366E-1	1.977539E-1
2.973400E+10	-9.189148E-1	-1.143494E-1	-4.405212E-2	-2.725525E-1	-4.333496E-2	-2.733307E-1	-7.936401E-1	2.133789E-1
2.995850E+10	-9.160461E-1	-1.052551E-1	-4.850769E-2	-2.755585E-1	-4.985046E-2	-2.710266E-1	-7.930908E-1	2.233582E-1
3.018300E+10	-9.181213E-1	-1.010437E-1	-5.412292E-2	-2.728119E-1	-5.221558E-2	-2.702179E-1	-7.836609E-1	2.386780E-1
3.040750E+10	-9.185181E-1	-9.277344E-2	-5.567932E-2	-2.670593E-1	-5.563354E-2	-2.663116E-1	-7.825317E-1	2.466736E-1
3.063200E+10	-9.190979E-1	-8.853149E-2	-5.746460E-2	-2.664032E-1	-5.938721E-2	-2.681885E-1	-7.771606E-1	2.612915E-1
3.085650E+10	-9.205627E-1	-8.105469E-2	-6.497192E-2	-2.685394E-1	-6.161499E-2	-2.661133E-1	-7.728271E-1	2.722778E-1
3.108100E+10	-9.226379E-1	-7.150269E-2	-6.411743E-2	-2.670746E-1	-6.367493E-2	-2.653351E-1	-7.628174E-1	2.823792E-1
3.130550E+10	-9.201660E-1	-7.135010E-2	-6.755066E-2	-2.620544E-1	-6.781006E-2	-2.638855E-1	-7.532043E-1	2.962646E-1
3.153000E+10	-9.229431E-1	-6.497192E-2	-6.719971E-2	-2.615967E-1	-6.970215E-2	-2.586365E-1	-7.526855E-1	3.018494E-1
3.175450E+10	-9.210815E-1	-5.545044E-2	-7.266235E-2	-2.581635E-1	-7.394409E-2	-2.603149E-1	-7.493286E-1	3.151855E-1
3.197900E+10	-9.235840E-1	-4.916382E-2	-7.914734E-2	-2.551880E-1	-7.929993E-2	-2.553711E-1	-7.310791E-1	3.249817E-1
3.220350E+10	-9.262085E-1	-4.064941E-2	-7.859802E-2	-2.588196E-1	-7.803345E-2	-2.594910E-1	-7.259216E-1	3.332214E-1
3.242800E+10	-9.288635E-1	-3.530884E-2	-8.248901E-2	-2.563782E-1	-8.186340E-2	-2.555237E-1	-7.231140E-1	3.472900E-1
3.265250E+10	-9.289856E-1	-2.642822E-2	-8.674622E-2	-2.522888E-1	-8.854675E-2	-2.521820E-1	-7.108459E-1	3.551331E-1
3.287700E+10	-9.278870E-1	-2.056885E-2	-8.612061E-2	-2.491684E-1	-8.457947E-2	-2.497482E-1	-7.088318E-1	3.638000E-1
3.310150E+10	-9.273987E-1	-1.379395E-2	-9.031677E-2	-2.501373E-1	-9.220886E-2	-2.481003E-1	-6.965637E-1	3.727417E-1
3.332600E+10	-9.261475E-1	-4.394531E-3	-9.378815E-2	-2.487106E-1	-9.088898E-2	-2.432251E-1	-6.887512E-1	3.806152E-1
3.355050E+10	-9.246216E-1	2.441406E-4	-9.623718E-2	-2.437286E-1	-9.403229E-2	-2.451859E-1	-6.921387E-1	3.856201E-1
3.377500E+10	-9.297485E-1	7.629395E-3	-9.951782E-2	-2.459869E-1	-9.967041E-2	-2.434692E-1	-6.777344E-1	3.971252E-1
3.399950E+10	-9.293213E-1	1.159668E-2	-9.719849E-2	-2.381363E-1	-9.912872E-2	-2.415695E-1	-6.741028E-1	4.046936E-1
3.422400E+10	-9.273682E-1	2.230835E-2	-1.017303E-1	-2.407990E-1	-9.762573E-2	-2.391586E-1	-6.653748E-1	4.193420E-1
3.444850E+10	-9.255676E-1	2.838135E-2	-1.054382E-1	-2.409744E-1	-1.024017E-1	-2.387085E-1	-6.570740E-1	4.273376E-1
3.467300E+10	-9.255371E-1	3.494263E-2	-1.035767E-1	-2.395020E-1	-1.058807E-1	-2.373352E-1	-6.545410E-1	4.358826E-1
3.489750E+10	-9.298401E-1	4.244995E-2	-1.076508E-1	-2.373123E-1	-1.122360E-1	-2.322464E-1	-6.428833E-1	4.494629E-1
3.512200E+10	-9.250793E-1	4.510498E-2	-1.136627E-1	-2.333450E-1	-1.153488E-1	-2.338028E-1	-6.272278E-1	4.553223E-1
3.534650E+10	-9.240112E-1	4.998779E-2	-1.185608E-1	-2.353134E-1	-1.161957E-1	-2.332916E-1	-6.260376E-1	4.621277E-1
3.557100E+10	-9.252319E-1	5.654907E-2	-1.176300E-1	-2.324448E-1	-1.165466E-1	-2.350769E-1	-6.080017E-1	4.767761E-1
3.579550E+10	-9.268494E-1	6.582642E-2	-1.226654E-1	-2.280502E-1	-1.234360E-1	-2.310715E-1	-5.949097E-1	4.813843E-1
3.602000E+10	-9.257507E-1	7.171631E-2	-1.229858E-1	-2.306366E-1	-1.270218E-1	-2.241516E-1	-5.897217E-1	4.844666E-1
3.624450E+10	-9.254456E-1	7.821655E-2	-1.235809E-1	-2.220764E-1	-1.291580E-1	-2.224350E-1	-5.815735E-1	4.940186E-1
3.646900E+10	-9.216309E-1	8.901978E-2	-1.259232E-1	-2.241669E-1	-1.306534E-1	-2.180557E-1	-5.734863E-1	4.990540E-1
3.669350E+10	-9.217224E-1	8.929443E-2	-1.313629E-1	-2.227478E-1	-1.326675E-1	-2.229767E-1	-5.598755E-1	5.092163E-1
3.691800E+10	-9.243164E-1	9.567261E-2	-1.333923E-1	-2.187729E-1	-1.290054E-1	-2.199554E-1	-5.488281E-1	5.174866E-1
3.714250E+10	-9.233704E-1	1.017151E-1	-1.352158E-1	-2.191162E-1	-1.352158E-1	-2.135086E-1	-5.350037E-1	5.281067E-1
3.736700E+10	-9.187012E-1	1.091309E-1	-1.356964E-1	-2.156219E-1	-1.391983E-1	-2.147522E-1	-5.268860E-1	5.249023E-1
3.759150E+10	-9.230347E-1	1.167297E-1	-1.408768E-1	-2.173080E-1	-1.361313E-1	-2.181702E-1	-5.142517E-1	5.406799E-1
3.781600E+10	-9.227600E-1	1.266174E-1	-1.443481E-1	-2.137527E-1	-1.450043E-1	-2.079163E-1	-5.021667E-1	5.484619E-1
3.804050E+10	-9.211731E-1	1.273193E-1	-1.418686E-1	-2.080002E-1	-1.444778E-1	-2.091904E-1	-4.888000E-1	5.517883E-1
3.826500E+10	-9.111938E-1	1.376953E-1	-1.471024E-1	-2.064972E-1	-1.486359E-1	-2.085342E-1	-4.748230E-1	5.586243E-1
3.848950E+10	-9.141235E-1	1.389160E-1	-1.483917E-1	-2.101669E-1	-1.541748E-1	-2.020645E-1	-4.563599E-1	5.692139E-1
3.871400E+10	-9.126282E-1	1.431274E-1	-1.527100E-1	-2.077103E-1	-1.542282E-1	-2.030640E-1	-4.479370E-1	5.649109E-1
3.893850E+10	-9.138489E-1	1.568604E-1	-1.581421E-1	-1.975098E-1	-1.554184E-1	-2.018204E-1	-4.355469E-1	5.711365E-1
