!Date: 10/28/2005, 12:46 PM

!Vgs = -7.000000E+0
!Vds = 7.500000E+0
!Ig = -8.373100E-5
!Id = 1.592100E-3

# HZ S RI R 50
1.000000E+8	9.888611E-1	-3.857422E-2	-2.380276E-2	1.013470E-2	1.894474E-3	1.071215E-2	9.810181E-1	-9.277344E-3
3.245000E+8	9.784851E-1	-1.067200E-1	-1.994705E-2	3.749657E-2	6.187439E-3	3.523445E-2	9.620056E-1	-8.883667E-2
5.490000E+8	9.635620E-1	-1.724243E-1	-1.230431E-2	6.208992E-2	1.286507E-2	5.796051E-2	9.560852E-1	-1.444397E-1
7.735000E+8	9.450989E-1	-2.378540E-1	-1.876831E-3	8.415604E-2	2.248001E-2	7.811356E-2	9.400330E-1	-2.014160E-1
9.980000E+8	9.237671E-1	-2.980347E-1	1.058578E-2	1.046524E-1	3.403091E-2	9.672546E-2	9.214172E-1	-2.508850E-1
1.222500E+9	8.976440E-1	-3.568420E-1	2.453995E-2	1.231956E-1	4.719543E-2	1.135101E-1	9.011230E-1	-3.021545E-1
1.447000E+9	8.686218E-1	-4.130249E-1	4.006195E-2	1.395035E-1	6.141663E-2	1.284409E-1	8.775635E-1	-3.501282E-1
1.671500E+9	8.362122E-1	-4.653931E-1	5.649567E-2	1.551361E-1	7.646179E-2	1.432190E-1	8.511658E-1	-3.939514E-1
1.896000E+9	8.013916E-1	-5.136108E-1	7.614136E-2	1.688843E-1	9.436798E-2	1.562576E-1	8.269958E-1	-4.339294E-1
2.120500E+9	7.657776E-1	-5.588379E-1	9.701538E-2	1.792755E-1	1.140900E-1	1.658325E-1	8.005066E-1	-4.758911E-1
2.345000E+9	7.256470E-1	-6.022034E-1	1.182785E-1	1.863251E-1	1.340103E-1	1.723862E-1	7.702332E-1	-5.150146E-1
2.569500E+9	6.862183E-1	-6.384583E-1	1.387253E-1	1.910706E-1	1.535797E-1	1.765060E-1	7.404175E-1	-5.507812E-1
2.794000E+9	6.453247E-1	-6.742554E-1	1.591263E-1	1.947098E-1	1.726456E-1	1.792526E-1	7.088318E-1	-5.832214E-1
3.018500E+9	6.040649E-1	-7.051086E-1	1.796799E-1	1.950684E-1	1.911545E-1	1.791916E-1	6.758423E-1	-6.159363E-1
3.243000E+9	5.622253E-1	-7.335510E-1	1.993637E-1	1.939621E-1	2.102966E-1	1.779251E-1	6.406250E-1	-6.450195E-1
3.467500E+9	5.200806E-1	-7.581482E-1	2.183990E-1	1.920547E-1	2.278061E-1	1.757889E-1	6.069641E-1	-6.708679E-1
3.692000E+9	4.789429E-1	-7.808838E-1	2.368393E-1	1.879501E-1	2.451248E-1	1.717987E-1	5.725708E-1	-6.968079E-1
3.916500E+9	4.359741E-1	-8.002014E-1	2.547150E-1	1.817474E-1	2.618256E-1	1.654663E-1	5.358276E-1	-7.174377E-1
4.141000E+9	3.963318E-1	-8.166809E-1	2.716370E-1	1.754913E-1	2.777100E-1	1.591187E-1	5.029907E-1	-7.367249E-1
4.365500E+9	3.573303E-1	-8.320007E-1	2.873383E-1	1.673584E-1	2.925720E-1	1.511078E-1	4.689941E-1	-7.559509E-1
4.590000E+9	3.163452E-1	-8.453064E-1	3.028870E-1	1.577606E-1	3.065643E-1	1.421356E-1	4.329224E-1	-7.721863E-1
4.814500E+9	2.776794E-1	-8.547668E-1	3.163147E-1	1.480408E-1	3.200684E-1	1.327057E-1	4.000549E-1	-7.863770E-1
5.039000E+9	2.391663E-1	-8.639832E-1	3.296509E-1	1.365051E-1	3.322449E-1	1.212311E-1	3.659668E-1	-8.010864E-1
5.263500E+9	2.018127E-1	-8.692932E-1	3.417206E-1	1.247711E-1	3.431549E-1	1.096039E-1	3.310852E-1	-8.115845E-1
5.488000E+9	1.670227E-1	-8.745422E-1	3.517609E-1	1.124115E-1	3.527527E-1	9.809875E-2	2.994690E-1	-8.210449E-1
5.712500E+9	1.305847E-1	-8.787842E-1	3.619385E-1	9.948730E-2	3.619232E-1	8.573914E-2	2.671204E-1	-8.309326E-1
5.937000E+9	9.783936E-2	-8.791199E-1	3.704071E-1	8.605957E-2	3.698273E-1	7.214355E-2	2.335815E-1	-8.389893E-1
6.161500E+9	6.622314E-2	-8.814392E-1	3.777466E-1	7.254028E-2	3.769226E-1	5.952454E-2	2.026062E-1	-8.455811E-1
6.386000E+9	3.259277E-2	-8.818665E-1	3.838043E-1	5.903625E-2	3.825378E-1	4.580688E-2	1.705017E-1	-8.510132E-1
6.610500E+9	3.387451E-3	-8.810425E-1	3.891754E-1	4.528809E-2	3.869171E-1	3.295898E-2	1.383362E-1	-8.556213E-1
6.835000E+9	-2.764893E-2	-8.795776E-1	3.934631E-1	3.204346E-2	3.908844E-1	1.983643E-2	1.087036E-1	-8.575134E-1
7.059500E+9	-5.532837E-2	-8.766479E-1	3.970337E-1	1.861572E-2	3.940430E-1	8.026123E-3	8.047485E-2	-8.601685E-1
7.284000E+9	-8.413696E-2	-8.741150E-1	3.993378E-1	5.722046E-3	3.966064E-1	-5.661011E-3	4.873657E-2	-8.605347E-1
7.508500E+9	-1.111755E-1	-8.693848E-1	4.011993E-1	-7.934570E-3	3.979034E-1	-1.846313E-2	2.053833E-2	-8.587341E-1
7.733000E+9	-1.365662E-1	-8.638306E-1	4.020996E-1	-2.125549E-2	3.980713E-1	-3.131104E-2	-6.072998E-3	-8.595581E-1
7.957500E+9	-1.618958E-1	-8.589478E-1	4.023437E-1	-3.367615E-2	3.990936E-1	-4.315186E-2	-3.536987E-2	-8.590393E-1
8.182000E+9	-1.858826E-1	-8.537292E-1	4.027557E-1	-4.570007E-2	3.991547E-1	-5.534363E-2	-6.140137E-2	-8.558044E-1
8.406500E+9	-2.097778E-1	-8.477783E-1	4.023132E-1	-5.799866E-2	3.969727E-1	-6.713867E-2	-8.886719E-2	-8.519592E-1
8.631000E+9	-2.336121E-1	-8.416443E-1	4.006500E-1	-7.061768E-2	3.964844E-1	-7.890320E-2	-1.152954E-1	-8.500977E-1
8.855500E+9	-2.543945E-1	-8.350525E-1	3.988953E-1	-8.230591E-2	3.936157E-1	-9.016418E-2	-1.407471E-1	-8.438110E-1
9.080001E+9	-2.750244E-1	-8.286743E-1	3.965912E-1	-9.330750E-2	3.918304E-1	-1.004333E-1	-1.643677E-1	-8.379211E-1
9.304500E+9	-2.977600E-1	-8.194885E-1	3.939819E-1	-1.038513E-1	3.879700E-1	-1.112671E-1	-1.894226E-1	-8.331299E-1
9.529000E+9	-3.156433E-1	-8.139648E-1	3.908691E-1	-1.147766E-1	3.860016E-1	-1.215210E-1	-2.135010E-1	-8.259583E-1
9.753500E+9	-3.355408E-1	-8.057861E-1	3.866119E-1	-1.257324E-1	3.818665E-1	-1.319275E-1	-2.346802E-1	-8.182678E-1
9.978000E+9	-3.547058E-1	-7.970886E-1	3.836823E-1	-1.352386E-1	3.783875E-1	-1.407623E-1	-2.563782E-1	-8.137817E-1
1.020250E+10	-3.721313E-1	-7.900391E-1	3.792419E-1	-1.446991E-1	3.742065E-1	-1.509705E-1	-2.799683E-1	-8.035583E-1
1.042700E+10	-3.903198E-1	-7.817993E-1	3.745117E-1	-1.539917E-1	3.692474E-1	-1.602325E-1	-3.002625E-1	-7.974243E-1
1.065150E+10	-4.064941E-1	-7.724304E-1	3.697052E-1	-1.630096E-1	3.645935E-1	-1.681061E-1	-3.194885E-1	-7.892151E-1
1.087600E+10	-4.233093E-1	-7.645264E-1	3.650360E-1	-1.716003E-1	3.598633E-1	-1.764069E-1	-3.413391E-1	-7.804260E-1
1.110050E+10	-4.388123E-1	-7.554321E-1	3.592834E-1	-1.804352E-1	3.546448E-1	-1.851807E-1	-3.607788E-1	-7.713928E-1
1.132500E+10	-4.544678E-1	-7.473450E-1	3.539429E-1	-1.868439E-1	3.480072E-1	-1.921539E-1	-3.783264E-1	-7.627258E-1
1.154950E+10	-4.702148E-1	-7.383423E-1	3.484650E-1	-1.951752E-1	3.435059E-1	-1.997223E-1	-4.007568E-1	-7.518921E-1
1.177400E+10	-4.835510E-1	-7.298584E-1	3.424530E-1	-2.028351E-1	3.378754E-1	-2.064819E-1	-4.164734E-1	-7.412109E-1
1.199850E+10	-4.985962E-1	-7.215576E-1	3.374023E-1	-2.104797E-1	3.318634E-1	-2.139893E-1	-4.331665E-1	-7.341309E-1
1.222300E+10	-5.110474E-1	-7.124634E-1	3.320923E-1	-2.167358E-1	3.273010E-1	-2.194214E-1	-4.530640E-1	-7.232361E-1
1.244750E+10	-5.245667E-1	-7.035828E-1	3.253784E-1	-2.233582E-1	3.211365E-1	-2.263184E-1	-4.683228E-1	-7.099609E-1
1.267200E+10	-5.379333E-1	-6.941528E-1	3.198395E-1	-2.290497E-1	3.146362E-1	-2.312927E-1	-4.828186E-1	-7.022705E-1
1.289650E+10	-5.483398E-1	-6.853027E-1	3.133087E-1	-2.340698E-1	3.079834E-1	-2.368469E-1	-5.007935E-1	-6.903992E-1
1.312100E+10	-5.612488E-1	-6.772156E-1	3.074341E-1	-2.403870E-1	3.026123E-1	-2.425232E-1	-5.165405E-1	-6.764526E-1
1.334550E+10	-5.741577E-1	-6.676636E-1	3.005981E-1	-2.454376E-1	2.955475E-1	-2.475891E-1	-5.285645E-1	-6.680908E-1
1.357000E+10	-5.861511E-1	-6.579895E-1	2.954407E-1	-2.502747E-1	2.890930E-1	-2.526703E-1	-5.452271E-1	-6.575012E-1
1.379450E+10	-5.948792E-1	-6.506958E-1	2.882385E-1	-2.554169E-1	2.841949E-1	-2.576141E-1	-5.589600E-1	-6.436462E-1
1.401900E+10	-6.049500E-1	-6.414185E-1	2.829285E-1	-2.603149E-1	2.785645E-1	-2.617493E-1	-5.689392E-1	-6.338196E-1
1.424350E+10	-6.164551E-1	-6.320801E-1	2.753448E-1	-2.631836E-1	2.714233E-1	-2.662354E-1	-5.844727E-1	-6.217346E-1
1.446800E+10	-6.253357E-1	-6.237488E-1	2.686310E-1	-2.679596E-1	2.666473E-1	-2.697144E-1	-5.978088E-1	-6.052856E-1
1.469250E+10	-6.350098E-1	-6.146240E-1	2.634583E-1	-2.726440E-1	2.588806E-1	-2.733612E-1	-6.062317E-1	-5.964966E-1
1.491700E+10	-6.452637E-1	-6.070251E-1	2.559662E-1	-2.751312E-1	2.532806E-1	-2.770386E-1	-6.205750E-1	-5.856934E-1
1.514150E+10	-6.542053E-1	-5.963745E-1	2.484894E-1	-2.788239E-1	2.457886E-1	-2.806396E-1	-6.337585E-1	-5.696716E-1
1.536600E+10	-6.632385E-1	-5.873108E-1	2.434235E-1	-2.822723E-1	2.390900E-1	-2.826233E-1	-6.419373E-1	-5.596924E-1
1.559050E+10	-6.719971E-1	-5.792542E-1	2.378387E-1	-2.844543E-1	2.335052E-1	-2.857208E-1	-6.546326E-1	-5.488586E-1
1.581500E+10	-6.805725E-1	-5.701294E-1	2.296753E-1	-2.876434E-1	2.264557E-1	-2.889557E-1	-6.663208E-1	-5.323181E-1
1.603950E+10	-6.889038E-1	-5.618286E-1	2.245636E-1	-2.910767E-1	2.208099E-1	-2.916870E-1	-6.739807E-1	-5.222168E-1
1.626400E+10	-6.964111E-1	-5.536804E-1	2.180786E-1	-2.919617E-1	2.153015E-1	-2.937927E-1	-6.847839E-1	-5.093994E-1
1.648850E+10	-7.044067E-1	-5.441589E-1	2.117310E-1	-2.945404E-1	2.076569E-1	-2.956238E-1	-6.950684E-1	-4.950562E-1
1.671300E+10	-7.119751E-1	-5.354004E-1	2.073822E-1	-2.976379E-1	2.025909E-1	-2.976379E-1	-7.023315E-1	-4.833069E-1
1.693750E+10	-7.188721E-1	-5.278320E-1	1.987152E-1	-2.988739E-1	1.957703E-1	-3.000336E-1	-7.137146E-1	-4.701233E-1
1.716200E+10	-7.266846E-1	-5.184326E-1	1.950226E-1	-3.008881E-1	1.904449E-1	-3.009949E-1	-7.206116E-1	-4.560547E-1
1.738650E+10	-7.339172E-1	-5.097961E-1	1.864929E-1	-3.028412E-1	1.843262E-1	-3.029785E-1	-7.268066E-1	-4.433289E-1
1.761100E+10	-7.410889E-1	-5.022278E-1	1.810608E-1	-3.028259E-1	1.788025E-1	-3.035736E-1	-7.365723E-1	-4.338684E-1
1.783550E+10	-7.480469E-1	-4.912415E-1	1.752472E-1	-3.047943E-1	1.718903E-1	-3.057098E-1	-7.444153E-1	-4.169922E-1
1.806000E+10	-7.541809E-1	-4.851685E-1	1.690369E-1	-3.074188E-1	1.673126E-1	-3.078918E-1	-7.498474E-1	-4.058838E-1
1.828450E+10	-7.612305E-1	-4.756775E-1	1.636963E-1	-3.067322E-1	1.614838E-1	-3.074646E-1	-7.578125E-1	-3.947754E-1
1.850900E+10	-7.650452E-1	-4.671631E-1	1.598969E-1	-3.081970E-1	1.559601E-1	-3.083801E-1	-7.660828E-1	-3.789062E-1
1.873350E+10	-7.733765E-1	-4.585571E-1	1.520844E-1	-3.096313E-1	1.500854E-1	-3.101959E-1	-7.700806E-1	-3.637085E-1
1.895800E+10	-7.776489E-1	-4.513550E-1	1.466827E-1	-3.093109E-1	1.455231E-1	-3.098450E-1	-7.757874E-1	-3.566284E-1
1.918250E+10	-7.857666E-1	-4.429016E-1	1.416473E-1	-3.110504E-1	1.390228E-1	-3.098450E-1	-7.839355E-1	-3.438110E-1
1.940700E+10	-7.890625E-1	-4.328003E-1	1.355896E-1	-3.124237E-1	1.346741E-1	-3.110657E-1	-7.868347E-1	-3.241882E-1
1.963150E+10	-7.956848E-1	-4.254456E-1	1.297913E-1	-3.125458E-1	1.276855E-1	-3.106079E-1	-7.910156E-1	-3.157043E-1
1.985600E+10	-7.987061E-1	-4.174805E-1	1.255951E-1	-3.117981E-1	1.237946E-1	-3.109741E-1	-7.961121E-1	-3.021851E-1
2.008050E+10	-8.055725E-1	-4.102478E-1	1.201935E-1	-3.124084E-1	1.172638E-1	-3.119354E-1	-8.018188E-1	-2.845154E-1
2.030500E+10	-8.108215E-1	-4.004822E-1	1.149902E-1	-3.123474E-1	1.123199E-1	-3.109131E-1	-8.036804E-1	-2.746887E-1
2.052950E+10	-8.152771E-1	-3.937378E-1	1.093903E-1	-3.123016E-1	1.072388E-1	-3.114929E-1	-8.110657E-1	-2.650452E-1
2.075400E+10	-8.188477E-1	-3.868713E-1	1.044922E-1	-3.128510E-1	1.028900E-1	-3.109131E-1	-8.129883E-1	-2.490234E-1
2.097850E+10	-8.243103E-1	-3.775024E-1	9.948730E-2	-3.132324E-1	9.786987E-2	-3.114014E-1	-8.145752E-1	-2.358704E-1
2.120300E+10	-8.270264E-1	-3.682251E-1	9.402466E-2	-3.114777E-1	9.210205E-2	-3.108673E-1	-8.194275E-1	-2.293091E-1
2.142750E+10	-8.335571E-1	-3.625488E-1	9.068298E-2	-3.110199E-1	8.750916E-2	-3.109589E-1	-8.273621E-1	-2.122192E-1
2.165200E+10	-8.382263E-1	-3.540649E-1	8.290100E-2	-3.085327E-1	8.363342E-2	-3.102722E-1	-8.293152E-1	-1.992187E-1
2.187650E+10	-8.401489E-1	-3.436584E-1	8.071899E-2	-3.096771E-1	7.803345E-2	-3.087158E-1	-8.297119E-1	-1.893005E-1
2.210100E+10	-8.432922E-1	-3.336487E-1	7.402039E-2	-3.099670E-1	7.373047E-2	-3.088531E-1	-8.353271E-1	-1.740417E-1
2.232550E+10	-8.513489E-1	-3.269958E-1	7.127380E-2	-3.101044E-1	7.061768E-2	-3.099670E-1	-8.350830E-1	-1.593018E-1
2.255000E+10	-8.529358E-1	-3.195801E-1	6.613159E-2	-3.102570E-1	6.628418E-2	-3.072662E-1	-8.403320E-1	-1.479492E-1
2.277450E+10	-8.558044E-1	-3.107300E-1	6.101990E-2	-3.091431E-1	6.011963E-2	-3.090210E-1	-8.415833E-1	-1.332092E-1
2.299900E+10	-8.614197E-1	-3.032837E-1	5.760193E-2	-3.081970E-1	5.657959E-2	-3.081818E-1	-8.395081E-1	-1.208801E-1
2.322350E+10	-8.616638E-1	-2.933960E-1	5.221558E-2	-3.066864E-1	5.203247E-2	-3.077087E-1	-8.442993E-1	-1.102295E-1
2.344800E+10	-8.630981E-1	-2.880554E-1	4.765320E-2	-3.057709E-1	4.643250E-2	-3.080444E-1	-8.463440E-1	-9.631348E-2
2.367250E+10	-8.669739E-1	-2.785645E-1	4.183960E-2	-3.054047E-1	4.164124E-2	-3.071442E-1	-8.444519E-1	-8.001709E-2
2.389700E+10	-8.675232E-1	-2.700195E-1	3.887939E-2	-3.052368E-1	3.747559E-2	-3.045502E-1	-8.480225E-1	-6.820679E-2
2.412150E+10	-8.725281E-1	-2.660217E-1	3.503418E-2	-3.030548E-1	3.167725E-2	-3.039398E-1	-8.450012E-1	-5.297852E-2
2.434600E+10	-8.733521E-1	-2.589111E-1	3.149414E-2	-3.011017E-1	2.932739E-2	-3.006287E-1	-8.443298E-1	-4.272461E-2
2.457050E+10	-8.753052E-1	-2.541809E-1	2.799988E-2	-3.021240E-1	2.673340E-2	-3.017273E-1	-8.474731E-1	-3.121948E-2
2.479500E+10	-8.800659E-1	-2.454529E-1	2.404785E-2	-3.010559E-1	2.143860E-2	-3.020477E-1	-8.453064E-1	-1.464844E-2
2.501950E+10	-8.827209E-1	-2.382812E-1	2.003479E-2	-3.014374E-1	1.773071E-2	-3.005371E-1	-8.410645E-1	-5.859375E-3
2.524400E+10	-8.864136E-1	-2.295227E-1	1.420593E-2	-2.972717E-1	1.245117E-2	-2.988281E-1	-8.436890E-1	6.591797E-3
2.546850E+10	-8.880005E-1	-2.220459E-1	1.005554E-2	-2.969055E-1	7.965088E-3	-2.976837E-1	-8.400879E-1	1.907349E-2
2.569300E+10	-8.909607E-1	-2.142639E-1	8.407593E-3	-2.939758E-1	4.852295E-3	-2.948608E-1	-8.385925E-1	2.658081E-2
2.591750E+10	-8.964539E-1	-2.077026E-1	2.746582E-3	-2.947845E-1	1.693726E-3	-2.935181E-1	-8.383484E-1	4.132080E-2
2.614200E+10	-8.949280E-1	-1.977844E-1	2.197266E-3	-2.920074E-1	-2.746582E-4	-2.933350E-1	-8.384705E-1	5.624390E-2
2.636650E+10	-8.975220E-1	-1.935425E-1	-2.410889E-3	-2.922211E-1	-5.905151E-3	-2.904358E-1	-8.371582E-1	6.781006E-2
2.659100E+10	-8.989563E-1	-1.853027E-1	-6.408691E-3	-2.911377E-1	-7.019043E-3	-2.904358E-1	-8.312683E-1	8.148193E-2
2.681550E+10	-9.008789E-1	-1.799927E-1	-8.544922E-3	-2.879791E-1	-1.138306E-2	-2.891083E-1	-8.335571E-1	8.932495E-2
2.704000E+10	-9.022522E-1	-1.701050E-1	-1.466370E-2	-2.857208E-1	-1.393127E-2	-2.889099E-1	-8.299561E-1	1.106567E-1
2.726450E+10	-9.038086E-1	-1.649780E-1	-1.670837E-2	-2.889404E-1	-1.812744E-2	-2.858887E-1	-8.193665E-1	1.166992E-1
2.748900E+10	-9.072876E-1	-1.561584E-1	-1.875305E-2	-2.857513E-1	-2.082825E-2	-2.844849E-1	-8.214417E-1	1.244507E-1
2.771350E+10	-9.085083E-1	-1.467590E-1	-2.462769E-2	-2.856445E-1	-2.590942E-2	-2.820587E-1	-8.202515E-1	1.387024E-1
2.793800E+10	-9.100952E-1	-1.446838E-1	-2.693176E-2	-2.826233E-1	-3.059387E-2	-2.845154E-1	-8.144531E-1	1.487732E-1
2.816250E+10	-9.130249E-1	-1.356812E-1	-3.434753E-2	-2.824860E-1	-3.172302E-2	-2.822723E-1	-8.133240E-1	1.632385E-1
2.838700E+10	-9.108887E-1	-1.283569E-1	-3.491211E-2	-2.815857E-1	-3.494263E-2	-2.800140E-1	-8.110352E-1	1.741333E-1
2.861150E+10	-9.161682E-1	-1.232605E-1	-4.010010E-2	-2.790985E-1	-4.196167E-2	-2.786865E-1	-8.060913E-1	1.845093E-1
2.883600E+10	-9.163818E-1	-1.126709E-1	-4.261780E-2	-2.762299E-1	-4.362488E-2	-2.758331E-1	-7.987671E-1	1.890259E-1
2.906050E+10	-9.158020E-1	-1.077576E-1	-4.541016E-2	-2.735596E-1	-4.621887E-2	-2.748871E-1	-7.953491E-1	2.055054E-1
2.928500E+10	-9.176025E-1	-9.930420E-2	-5.104065E-2	-2.727966E-1	-5.104065E-2	-2.753754E-1	-7.921753E-1	2.120972E-1
2.950950E+10	-9.176941E-1	-9.393311E-2	-5.049133E-2	-2.683258E-1	-5.250549E-2	-2.727356E-1	-7.890930E-1	2.259827E-1
2.973400E+10	-9.227295E-1	-8.630371E-2	-5.409241E-2	-2.717896E-1	-5.409241E-2	-2.682495E-1	-7.833557E-1	2.390747E-1
2.995850E+10	-9.192810E-1	-7.669067E-2	-5.821228E-2	-2.667694E-1	-5.731201E-2	-2.690735E-1	-7.780457E-1	2.465515E-1
3.018300E+10	-9.203491E-1	-7.089233E-2	-6.089783E-2	-2.682037E-1	-6.065369E-2	-2.681274E-1	-7.770081E-1	2.630005E-1
3.040750E+10	-9.232788E-1	-6.475830E-2	-6.266785E-2	-2.651672E-1	-6.129456E-2	-2.640076E-1	-7.769470E-1	2.729187E-1
3.063200E+10	-9.198608E-1	-6.039429E-2	-6.452942E-2	-2.613983E-1	-6.863403E-2	-2.638702E-1	-7.672729E-1	2.849121E-1
3.085650E+10	-9.240417E-1	-5.209351E-2	-6.765747E-2	-2.641449E-1	-6.715393E-2	-2.634735E-1	-7.651978E-1	2.980347E-1
3.108100E+10	-9.258728E-1	-4.495239E-2	-7.214355E-2	-2.598114E-1	-7.237244E-2	-2.597198E-1	-7.570190E-1	3.069458E-1
3.130550E+10	-9.252319E-1	-4.129028E-2	-7.688904E-2	-2.585297E-1	-7.766724E-2	-2.568512E-1	-7.468262E-1	3.181458E-1
3.153000E+10	-9.263916E-1	-3.256226E-2	-7.565308E-2	-2.561951E-1	-7.696533E-2	-2.577972E-1	-7.418823E-1	3.219910E-1
3.175450E+10	-9.233398E-1	-2.615356E-2	-7.998657E-2	-2.565918E-1	-8.154297E-2	-2.555695E-1	-7.304382E-1	3.403015E-1
3.197900E+10	-9.248352E-1	-1.693726E-2	-8.903503E-2	-2.538910E-1	-8.398437E-2	-2.519531E-1	-7.213745E-1	3.482361E-1
3.220350E+10	-9.246521E-1	-1.254272E-2	-8.709717E-2	-2.509155E-1	-8.839417E-2	-2.535553E-1	-7.184448E-1	3.591003E-1
3.242800E+10	-9.302368E-1	-2.288818E-3	-9.121704E-2	-2.490234E-1	-9.130859E-2	-2.520905E-1	-7.112427E-1	3.690491E-1
3.265250E+10	-9.301453E-1	4.608154E-3	-9.333801E-2	-2.477264E-1	-9.564209E-2	-2.503662E-1	-7.007751E-1	3.760986E-1
3.287700E+10	-9.276123E-1	6.927490E-3	-9.489441E-2	-2.496567E-1	-9.044647E-2	-2.468414E-1	-7.007141E-1	3.821411E-1
3.310150E+10	-9.296875E-1	1.785278E-2	-9.810638E-2	-2.427521E-1	-9.742737E-2	-2.428131E-1	-6.844177E-1	3.934631E-1
3.332600E+10	-9.243774E-1	2.651978E-2	-9.857941E-2	-2.408142E-1	-9.886169E-2	-2.454758E-1	-6.726990E-1	4.029236E-1
3.355050E+10	-9.273071E-1	2.972412E-2	-9.994507E-2	-2.401123E-1	-1.009521E-1	-2.420349E-1	-6.719971E-1	4.087830E-1
3.377500E+10	-9.251099E-1	3.988647E-2	-1.050949E-1	-2.377548E-1	-1.011505E-1	-2.327957E-1	-6.634216E-1	4.146423E-1
3.399950E+10	-9.235840E-1	4.260254E-2	-1.023636E-1	-2.398453E-1	-1.045303E-1	-2.361755E-1	-6.607056E-1	4.248047E-1
3.422400E+10	-9.276733E-1	5.157471E-2	-1.061325E-1	-2.363586E-1	-1.079483E-1	-2.347870E-1	-6.510620E-1	4.423828E-1
3.444850E+10	-9.255371E-1	5.908203E-2	-1.114883E-1	-2.335052E-1	-1.107330E-1	-2.328186E-1	-6.389160E-1	4.458923E-1
3.467300E+10	-9.244385E-1	6.179810E-2	-1.115799E-1	-2.335205E-1	-1.121902E-1	-2.318268E-1	-6.398926E-1	4.586487E-1
3.489750E+10	-9.260864E-1	7.028198E-2	-1.164169E-1	-2.305222E-1	-1.129608E-1	-2.307739E-1	-6.251221E-1	4.714050E-1
3.512200E+10	-9.255371E-1	7.623291E-2	-1.199417E-1	-2.296753E-1	-1.160660E-1	-2.316132E-1	-6.137695E-1	4.741516E-1
3.534650E+10	-9.251709E-1	8.233643E-2	-1.179657E-1	-2.287369E-1	-1.226425E-1	-2.245331E-1	-6.060181E-1	4.850769E-1
3.557100E+10	-9.270020E-1	8.941650E-2	-1.222076E-1	-2.251434E-1	-1.231155E-1	-2.214890E-1	-5.915222E-1	4.937744E-1
3.579550E+10	-9.238892E-1	9.506226E-2	-1.271362E-1	-2.259598E-1	-1.289291E-1	-2.261429E-1	-5.753479E-1	4.978638E-1
3.602000E+10	-9.249268E-1	1.004333E-1	-1.255646E-1	-2.219238E-1	-1.306839E-1	-2.240601E-1	-5.711365E-1	5.082397E-1
3.624450E+10	-9.256287E-1	1.098022E-1	-1.296539E-1	-2.166214E-1	-1.316986E-1	-2.216034E-1	-5.635071E-1	5.181580E-1
3.646900E+10	-9.198303E-1	1.155396E-1	-1.348343E-1	-2.176208E-1	-1.338654E-1	-2.192383E-1	-5.567627E-1	5.228271E-1
3.669350E+10	-9.190369E-1	1.203003E-1	-1.369858E-1	-2.157822E-1	-1.345825E-1	-2.123642E-1	-5.387573E-1	5.335999E-1
3.691800E+10	-9.172058E-1	1.263123E-1	-1.418762E-1	-2.140884E-1	-1.372604E-1	-2.153091E-1	-5.273743E-1	5.359802E-1
3.714250E+10	-9.167175E-1	1.318359E-1	-1.403503E-1	-2.154083E-1	-1.410828E-1	-2.084122E-1	-5.156860E-1	5.440369E-1
3.736700E+10	-9.154053E-1	1.389771E-1	-1.395645E-1	-2.117386E-1	-1.410904E-1	-2.113342E-1	-5.040894E-1	5.462646E-1
3.759150E+10	-9.175720E-1	1.450195E-1	-1.431580E-1	-2.101364E-1	-1.484146E-1	-2.053452E-1	-4.959106E-1	5.542603E-1
3.781600E+10	-9.169312E-1	1.520386E-1	-1.464691E-1	-2.057495E-1	-1.493530E-1	-2.029495E-1	-4.819641E-1	5.623779E-1
3.804050E+10	-9.133911E-1	1.563721E-1	-1.497421E-1	-2.022400E-1	-1.500015E-1	-2.051086E-1	-4.689331E-1	5.664978E-1
3.826500E+10	-9.124451E-1	1.666565E-1	-1.520538E-1	-2.025986E-1	-1.488342E-1	-2.022400E-1	-4.500427E-1	5.716858E-1
3.848950E+10	-9.108276E-1	1.691895E-1	-1.577988E-1	-1.995926E-1	-1.560059E-1	-2.022705E-1	-4.420471E-1	5.762634E-1
3.871400E+10	-9.053955E-1	1.757202E-1	-1.583633E-1	-1.959457E-1	-1.575851E-1	-1.898041E-1	-4.266357E-1	5.843811E-1
3.893850E+10	-9.120178E-1	1.828308E-1	-1.608353E-1	-1.922760E-1	-1.596222E-1	-1.976852E-1	-4.137878E-1	5.840149E-1
