!Date: 10/28/2005, 12:46 PM

!Vgs = -3.000000E+0
!Vds = 1.250000E+1
!Ig = -2.830400E-5
!Id = 3.708000E-1

# HZ S RI R 50
1.000000E+8	9.538879E-1	-1.875916E-1	-1.657910E+1	1.003906E+0	1.623392E-3	4.792452E-3	5.375366E-1	-4.858398E-2
3.245000E+8	7.862549E-1	-5.456238E-1	-1.488477E+1	5.441406E+0	9.051323E-3	2.097034E-2	3.611755E-1	-2.404785E-1
5.490000E+8	5.278625E-1	-7.751160E-1	-1.233594E+1	7.622559E+0	1.894283E-2	2.845383E-2	2.747650E-1	-3.152618E-1
7.735000E+8	2.730103E-1	-8.812561E-1	-9.802734E+0	8.549316E+0	2.921009E-2	3.104019E-2	1.635742E-1	-3.630829E-1
9.980000E+8	5.426025E-2	-9.081116E-1	-7.645508E+0	8.743652E+0	3.767204E-2	3.118324E-2	7.542419E-2	-3.601990E-1
1.222500E+9	-1.266785E-1	-8.932190E-1	-5.925781E+0	8.574219E+0	4.400253E-2	2.921677E-2	1.325989E-2	-3.566742E-1
1.447000E+9	-2.721558E-1	-8.577576E-1	-4.564941E+0	8.207520E+0	4.922485E-2	2.701950E-2	-4.202271E-2	-3.444672E-1
1.671500E+9	-3.855896E-1	-8.118286E-1	-3.505371E+0	7.737793E+0	5.337906E-2	2.458954E-2	-8.355713E-2	-3.308258E-1
1.896000E+9	-4.757385E-1	-7.594604E-1	-2.701172E+0	7.236572E+0	5.677032E-2	2.195168E-2	-1.168671E-1	-3.118134E-1
2.120500E+9	-5.450439E-1	-7.091064E-1	-2.072021E+0	6.781250E+0	5.917358E-2	1.863289E-2	-1.412506E-1	-2.966614E-1
2.345000E+9	-6.010742E-1	-6.582642E-1	-1.559082E+0	6.342041E+0	6.136894E-2	1.594543E-2	-1.623840E-1	-2.810211E-1
2.569500E+9	-6.431885E-1	-6.135254E-1	-1.152100E+0	5.930664E+0	6.275177E-2	1.366425E-2	-1.773834E-1	-2.681732E-1
2.794000E+9	-6.792297E-1	-5.747070E-1	-8.366699E-1	5.566406E+0	6.375885E-2	1.100159E-2	-1.906738E-1	-2.569275E-1
3.018500E+9	-7.079163E-1	-5.364685E-1	-5.632324E-1	5.225586E+0	6.423950E-2	8.930206E-3	-2.007446E-1	-2.462997E-1
3.243000E+9	-7.323914E-1	-5.019531E-1	-3.347168E-1	4.920654E+0	6.499863E-2	6.675720E-3	-2.111511E-1	-2.386322E-1
3.467500E+9	-7.534180E-1	-4.721680E-1	-1.464844E-1	4.643799E+0	6.533432E-2	4.837036E-3	-2.191391E-1	-2.305222E-1
3.692000E+9	-7.714844E-1	-4.429932E-1	1.489258E-2	4.381104E+0	6.611252E-2	3.223419E-3	-2.263794E-1	-2.251816E-1
3.916500E+9	-7.860718E-1	-4.137573E-1	1.489258E-1	4.141602E+0	6.634903E-2	9.651184E-4	-2.355423E-1	-2.193451E-1
4.141000E+9	-7.987061E-1	-3.892822E-1	2.631836E-1	3.923340E+0	6.645966E-2	-7.591248E-4	-2.410965E-1	-2.133942E-1
4.365500E+9	-8.084106E-1	-3.664856E-1	3.620605E-1	3.720703E+0	6.646347E-2	-2.040863E-3	-2.467804E-1	-2.098312E-1
4.590000E+9	-8.184204E-1	-3.447266E-1	4.482422E-1	3.531006E+0	6.649017E-2	-3.654480E-3	-2.531891E-1	-2.048035E-1
4.814500E+9	-8.269043E-1	-3.248291E-1	5.167236E-1	3.358032E+0	6.673813E-2	-5.001068E-3	-2.574005E-1	-2.022247E-1
5.039000E+9	-8.327637E-1	-3.053589E-1	5.791016E-1	3.197998E+0	6.690979E-2	-6.984711E-3	-2.631683E-1	-1.985016E-1
5.263500E+9	-8.394470E-1	-2.875977E-1	6.348877E-1	3.047119E+0	6.644058E-2	-8.197784E-3	-2.685699E-1	-1.942596E-1
5.488000E+9	-8.442688E-1	-2.718201E-1	6.790771E-1	2.909058E+0	6.637573E-2	-9.571075E-3	-2.727966E-1	-1.914062E-1
5.712500E+9	-8.503113E-1	-2.562866E-1	7.211914E-1	2.774780E+0	6.635284E-2	-1.104736E-2	-2.766418E-1	-1.886444E-1
5.937000E+9	-8.539734E-1	-2.397156E-1	7.568359E-1	2.653564E+0	6.662750E-2	-1.200867E-2	-2.816315E-1	-1.870728E-1
6.161500E+9	-8.569641E-1	-2.270813E-1	7.889404E-1	2.543335E+0	6.616974E-2	-1.365662E-2	-2.852173E-1	-1.827393E-1
6.386000E+9	-8.612366E-1	-2.131042E-1	8.182373E-1	2.432617E+0	6.587601E-2	-1.509476E-2	-2.879181E-1	-1.818848E-1
6.610500E+9	-8.633423E-1	-2.005310E-1	8.453369E-1	2.330688E+0	6.538773E-2	-1.632690E-2	-2.929993E-1	-1.824188E-1
6.835000E+9	-8.673706E-1	-1.884766E-1	8.657227E-1	2.230713E+0	6.498718E-2	-1.760864E-2	-2.973785E-1	-1.770782E-1
7.059500E+9	-8.690796E-1	-1.773987E-1	8.797607E-1	2.140747E+0	6.427002E-2	-1.860809E-2	-2.975311E-1	-1.783295E-1
7.284000E+9	-8.695984E-1	-1.668091E-1	8.974609E-1	2.053711E+0	6.422424E-2	-1.971054E-2	-3.052979E-1	-1.775970E-1
7.508500E+9	-8.728027E-1	-1.555481E-1	9.114380E-1	1.969421E+0	6.325150E-2	-2.090454E-2	-3.054352E-1	-1.742249E-1
7.733000E+9	-8.725891E-1	-1.446228E-1	9.212646E-1	1.892517E+0	6.335068E-2	-2.218246E-2	-3.114014E-1	-1.758423E-1
7.957500E+9	-8.749390E-1	-1.350098E-1	9.334717E-1	1.818665E+0	6.261826E-2	-2.287292E-2	-3.151550E-1	-1.732483E-1
8.182000E+9	-8.761597E-1	-1.254578E-1	9.438477E-1	1.748840E+0	6.220818E-2	-2.362633E-2	-3.200531E-1	-1.733856E-1
8.406500E+9	-8.767395E-1	-1.166992E-1	9.498291E-1	1.678772E+0	6.167984E-2	-2.513695E-2	-3.225250E-1	-1.695404E-1
8.631000E+9	-8.780823E-1	-1.067505E-1	9.581299E-1	1.612000E+0	6.139755E-2	-2.653122E-2	-3.274536E-1	-1.703033E-1
8.855500E+9	-8.786621E-1	-9.881592E-2	9.619751E-1	1.548096E+0	6.052589E-2	-2.735138E-2	-3.320160E-1	-1.680908E-1
9.080001E+9	-8.793030E-1	-9.091187E-2	9.646606E-1	1.488892E+0	6.043434E-2	-2.852440E-2	-3.341370E-1	-1.660767E-1
9.304500E+9	-8.793945E-1	-8.010864E-2	9.661865E-1	1.431396E+0	5.903625E-2	-2.954292E-2	-3.386688E-1	-1.651459E-1
9.529000E+9	-8.795776E-1	-7.525635E-2	9.677734E-1	1.374756E+0	5.853844E-2	-3.078651E-2	-3.433075E-1	-1.639404E-1
9.753500E+9	-8.802490E-1	-6.719971E-2	9.684448E-1	1.322510E+0	5.787086E-2	-3.167152E-2	-3.456116E-1	-1.607208E-1
9.978000E+9	-8.799744E-1	-5.953979E-2	9.670410E-1	1.272583E+0	5.701828E-2	-3.208923E-2	-3.500671E-1	-1.612549E-1
1.020250E+10	-8.808289E-1	-5.310059E-2	9.660034E-1	1.224060E+0	5.711937E-2	-3.373718E-2	-3.537292E-1	-1.583405E-1
1.042700E+10	-8.817139E-1	-4.492187E-2	9.649048E-1	1.177185E+0	5.555725E-2	-3.410149E-2	-3.563843E-1	-1.577759E-1
1.065150E+10	-8.805847E-1	-3.823853E-2	9.633179E-1	1.133423E+0	5.434418E-2	-3.475380E-2	-3.606415E-1	-1.572571E-1
1.087600E+10	-8.812866E-1	-3.173828E-2	9.603882E-1	1.089783E+0	5.390739E-2	-3.563881E-2	-3.646545E-1	-1.556854E-1
1.110050E+10	-8.815613E-1	-2.468872E-2	9.598389E-1	1.047302E+0	5.268097E-2	-3.695869E-2	-3.674011E-1	-1.528778E-1
1.132500E+10	-8.809814E-1	-1.803589E-2	9.559937E-1	1.006958E+0	5.330276E-2	-3.683472E-2	-3.703461E-1	-1.541443E-1
1.154950E+10	-8.808594E-1	-1.153564E-2	9.514160E-1	9.663391E-1	5.155182E-2	-3.784561E-2	-3.777313E-1	-1.513062E-1
1.177400E+10	-8.799744E-1	-6.134033E-3	9.467773E-1	9.302368E-1	5.110741E-2	-3.817749E-2	-3.784485E-1	-1.480103E-1
1.199850E+10	-8.799744E-1	1.525879E-4	9.422607E-1	8.948975E-1	5.002975E-2	-3.926849E-2	-3.817291E-1	-1.477356E-1
1.222300E+10	-8.796387E-1	6.286621E-3	9.364929E-1	8.592529E-1	4.957008E-2	-4.067230E-2	-3.865967E-1	-1.472015E-1
1.244750E+10	-8.790588E-1	1.113892E-2	9.299011E-1	8.232727E-1	4.930496E-2	-4.003716E-2	-3.898773E-1	-1.432343E-1
1.267200E+10	-8.791199E-1	1.699829E-2	9.236755E-1	7.915344E-1	4.769135E-2	-4.133224E-2	-3.928528E-1	-1.434937E-1
1.289650E+10	-8.770142E-1	2.218628E-2	9.167175E-1	7.599182E-1	4.663467E-2	-4.176712E-2	-3.987579E-1	-1.429443E-1
1.312100E+10	-8.777771E-1	2.743530E-2	9.105530E-1	7.291260E-1	4.565811E-2	-4.221344E-2	-4.020233E-1	-1.377258E-1
1.334550E+10	-8.774109E-1	3.311157E-2	9.048157E-1	7.012939E-1	4.565048E-2	-4.336739E-2	-4.040527E-1	-1.375885E-1
1.357000E+10	-8.753662E-1	3.747559E-2	8.980103E-1	6.714172E-1	4.537010E-2	-4.234886E-2	-4.103699E-1	-1.370239E-1
1.379450E+10	-8.762817E-1	4.238892E-2	8.908386E-1	6.454163E-1	4.380608E-2	-4.346275E-2	-4.138489E-1	-1.311493E-1
1.401900E+10	-8.752136E-1	4.757690E-2	8.829651E-1	6.215820E-1	4.231071E-2	-4.393387E-2	-4.142456E-1	-1.323547E-1
1.424350E+10	-8.734436E-1	5.322266E-2	8.757935E-1	5.936584E-1	4.281998E-2	-4.501152E-2	-4.211731E-1	-1.295624E-1
1.446800E+10	-8.750916E-1	5.877686E-2	8.705444E-1	5.698547E-1	4.088211E-2	-4.657936E-2	-4.231567E-1	-1.230927E-1
1.469250E+10	-8.716736E-1	6.283569E-2	8.629761E-1	5.458679E-1	3.977013E-2	-4.687881E-2	-4.232330E-1	-1.218109E-1
1.491700E+10	-8.725891E-1	6.796265E-2	8.557434E-1	5.218811E-1	3.882027E-2	-4.612541E-2	-4.296722E-1	-1.231384E-1
1.514150E+10	-8.716431E-1	7.220459E-2	8.465271E-1	4.981384E-1	3.775597E-2	-4.727554E-2	-4.329376E-1	-1.173859E-1
1.536600E+10	-8.703613E-1	7.809448E-2	8.387756E-1	4.762268E-1	3.819466E-2	-4.624939E-2	-4.326019E-1	-1.155396E-1
1.559050E+10	-8.686218E-1	8.139038E-2	8.308105E-1	4.548035E-1	3.612709E-2	-4.704475E-2	-4.386597E-1	-1.157227E-1
1.581500E+10	-8.691406E-1	8.645630E-2	8.215942E-1	4.332581E-1	3.544617E-2	-4.776382E-2	-4.431763E-1	-1.113129E-1
1.603950E+10	-8.672180E-1	9.274292E-2	8.144531E-1	4.164124E-1	3.384209E-2	-4.875946E-2	-4.434814E-1	-1.099548E-1
1.626400E+10	-8.664856E-1	9.594727E-2	8.067932E-1	3.958740E-1	3.384399E-2	-4.888344E-2	-4.501343E-1	-1.062469E-1
1.648850E+10	-8.661194E-1	9.942627E-2	7.965393E-1	3.775940E-1	3.206635E-2	-4.997063E-2	-4.524231E-1	-1.023407E-1
1.671300E+10	-8.651428E-1	1.049194E-1	7.889404E-1	3.588257E-1	3.132057E-2	-4.914474E-2	-4.557037E-1	-1.004639E-1
1.693750E+10	-8.641663E-1	1.084595E-1	7.815857E-1	3.419495E-1	2.996826E-2	-4.983330E-2	-4.600067E-1	-9.912109E-2
1.716200E+10	-8.617554E-1	1.120300E-1	7.728271E-1	3.260498E-1	2.905083E-2	-4.968071E-2	-4.639893E-1	-9.315491E-2
1.738650E+10	-8.627625E-1	1.180115E-1	7.655029E-1	3.114929E-1	2.835655E-2	-5.046272E-2	-4.642487E-1	-9.091187E-2
1.761100E+10	-8.609009E-1	1.206970E-1	7.560120E-1	2.938232E-1	2.818489E-2	-4.944801E-2	-4.689178E-1	-8.938599E-2
1.783550E+10	-8.591919E-1	1.249084E-1	7.478943E-1	2.791138E-1	2.614021E-2	-5.011177E-2	-4.725037E-1	-8.297729E-2
1.806000E+10	-8.587646E-1	1.306152E-1	7.413025E-1	2.641907E-1	2.489281E-2	-5.087852E-2	-4.724121E-1	-7.925415E-2
1.828450E+10	-8.572388E-1	1.343994E-1	7.328796E-1	2.500610E-1	2.458954E-2	-5.073166E-2	-4.758301E-1	-7.991028E-2
1.850900E+10	-8.569336E-1	1.376648E-1	7.258301E-1	2.366333E-1	2.206802E-2	-5.110931E-2	-4.800568E-1	-7.571411E-2
1.873350E+10	-8.559875E-1	1.401978E-1	7.155762E-1	2.207336E-1	2.273750E-2	-5.118752E-2	-4.819641E-1	-6.967163E-2
1.895800E+10	-8.533936E-1	1.438293E-1	7.085876E-1	2.083740E-1	2.108002E-2	-5.100632E-2	-4.834290E-1	-6.968689E-2
1.918250E+10	-8.533020E-1	1.489563E-1	7.018738E-1	1.953125E-1	1.959229E-2	-5.102539E-2	-4.876404E-1	-6.567383E-2
1.940700E+10	-8.497925E-1	1.520996E-1	6.917114E-1	1.836548E-1	1.915359E-2	-5.198097E-2	-4.872742E-1	-5.757141E-2
1.963150E+10	-8.503113E-1	1.565247E-1	6.835327E-1	1.715698E-1	1.889610E-2	-5.178070E-2	-4.913635E-1	-5.740356E-2
1.985600E+10	-8.488464E-1	1.599731E-1	6.751099E-1	1.616211E-1	1.683235E-2	-5.222702E-2	-4.955750E-1	-5.358887E-2
2.008050E+10	-8.479004E-1	1.627197E-1	6.659241E-1	1.489868E-1	1.472855E-2	-5.182266E-2	-4.966278E-1	-4.646301E-2
2.030500E+10	-8.471375E-1	1.667175E-1	6.598511E-1	1.397705E-1	1.646233E-2	-5.128479E-2	-4.982758E-1	-4.653931E-2
2.052950E+10	-8.444824E-1	1.704407E-1	6.525574E-1	1.302795E-1	1.338005E-2	-5.272865E-2	-5.013428E-1	-4.339600E-2
2.075400E+10	-8.435059E-1	1.741638E-1	6.443176E-1	1.199646E-1	1.202011E-2	-5.068970E-2	-5.039673E-1	-3.903198E-2
2.097850E+10	-8.433533E-1	1.781921E-1	6.367493E-1	1.113586E-1	1.229095E-2	-5.245781E-2	-5.030212E-1	-3.399658E-2
2.120300E+10	-8.399963E-1	1.799011E-1	6.280518E-1	1.017151E-1	9.439468E-3	-5.054092E-2	-5.068665E-1	-3.274536E-2
2.142750E+10	-8.402100E-1	1.853638E-1	6.200562E-1	9.143066E-2	9.235382E-3	-5.192947E-2	-5.117493E-1	-2.636719E-2
2.165200E+10	-8.380737E-1	1.895752E-1	6.125183E-1	8.279419E-2	6.589890E-3	-5.030823E-2	-5.107422E-1	-2.346802E-2
2.187650E+10	-8.360291E-1	1.922607E-1	6.061096E-1	7.522583E-2	7.022858E-3	-5.034256E-2	-5.160217E-1	-2.142334E-2
2.210100E+10	-8.381958E-1	1.958618E-1	5.978394E-1	6.414795E-2	6.580353E-3	-5.200577E-2	-5.173035E-1	-1.196289E-2
2.232550E+10	-8.347168E-1	1.995850E-1	5.916748E-1	5.895996E-2	5.079269E-3	-5.010414E-2	-5.163879E-1	-8.361816E-3
2.255000E+10	-8.341675E-1	2.028809E-1	5.824585E-1	5.194092E-2	4.367828E-3	-5.016136E-2	-5.179749E-1	-7.476807E-3
2.277450E+10	-8.321228E-1	2.080688E-1	5.768738E-1	4.309082E-2	3.414154E-3	-5.133438E-2	-5.230408E-1	3.967285E-4
2.299900E+10	-8.319397E-1	2.084961E-1	5.708618E-1	3.515625E-2	3.702164E-3	-4.953003E-2	-5.224915E-1	2.960205E-3
2.322350E+10	-8.306885E-1	2.146606E-1	5.665283E-1	2.709961E-2	1.344681E-3	-4.783630E-2	-5.249329E-1	5.340576E-3
2.344800E+10	-8.287659E-1	2.150879E-1	5.559082E-1	2.331543E-2	-5.359650E-4	-4.815102E-2	-5.274963E-1	1.406860E-2
2.367250E+10	-8.267212E-1	2.208862E-1	5.479126E-1	1.483154E-2	-5.435944E-4	-4.828644E-2	-5.255127E-1	1.721191E-2
2.389700E+10	-8.244019E-1	2.227783E-1	5.428162E-1	9.857178E-3	-4.245758E-3	-4.865837E-2	-5.317688E-1	1.824951E-2
2.412150E+10	-8.238831E-1	2.257690E-1	5.340881E-1	-2.746582E-4	-3.101349E-3	-4.811096E-2	-5.292053E-1	2.813721E-2
2.434600E+10	-8.225098E-1	2.292175E-1	5.280151E-1	-3.723145E-3	-3.570557E-3	-4.721069E-2	-5.271301E-1	2.862549E-2
2.457050E+10	-8.232727E-1	2.319946E-1	5.226746E-1	-1.031494E-2	-7.095337E-3	-4.832268E-2	-5.325623E-1	3.350830E-2
2.479500E+10	-8.180847E-1	2.335205E-1	5.157471E-1	-1.620483E-2	-6.851196E-3	-4.693985E-2	-5.313416E-1	4.101562E-2
2.501950E+10	-8.151550E-1	2.375488E-1	5.093384E-1	-2.084351E-2	-9.084702E-3	-4.445839E-2	-5.270386E-1	4.132080E-2
2.524400E+10	-8.163147E-1	2.396851E-1	5.010376E-1	-2.478027E-2	-7.995605E-3	-4.332924E-2	-5.318909E-1	4.516602E-2
2.546850E+10	-8.139038E-1	2.463684E-1	4.961243E-1	-2.758789E-2	-1.206779E-2	-4.380035E-2	-5.322876E-1	5.126953E-2
2.569300E+10	-8.110352E-1	2.461243E-1	4.890289E-1	-3.305054E-2	-1.181793E-2	-4.303551E-2	-5.325012E-1	5.349731E-2
2.591750E+10	-8.116150E-1	2.495117E-1	4.851227E-1	-3.959656E-2	-1.234245E-2	-4.183006E-2	-5.354004E-1	5.520630E-2
2.614200E+10	-8.113098E-1	2.523193E-1	4.781036E-1	-4.138184E-2	-1.359177E-2	-4.226494E-2	-5.361023E-1	6.344604E-2
2.636650E+10	-8.082581E-1	2.525940E-1	4.723663E-1	-4.734802E-2	-1.530838E-2	-3.952217E-2	-5.385437E-1	6.964111E-2
2.659100E+10	-8.060303E-1	2.573547E-1	4.661102E-1	-4.895020E-2	-1.536179E-2	-4.116821E-2	-5.355835E-1	7.220459E-2
2.681550E+10	-8.049316E-1	2.595215E-1	4.607391E-1	-5.413818E-2	-1.536942E-2	-4.011726E-2	-5.407410E-1	7.702637E-2
2.704000E+10	-8.032227E-1	2.643738E-1	4.535065E-1	-5.877686E-2	-1.766396E-2	-3.731537E-2	-5.417786E-1	8.731079E-2
2.726450E+10	-8.007202E-1	2.684326E-1	4.518280E-1	-6.297302E-2	-1.649284E-2	-3.712463E-2	-5.331726E-1	8.688354E-2
2.748900E+10	-7.969055E-1	2.663879E-1	4.474792E-1	-6.440735E-2	-1.832390E-2	-3.826523E-2	-5.379944E-1	8.914185E-2
2.771350E+10	-7.970581E-1	2.738037E-1	4.406891E-1	-6.961060E-2	-2.066231E-2	-3.435135E-2	-5.416870E-1	9.994507E-2
2.793800E+10	-7.945862E-1	2.719421E-1	4.345703E-1	-7.354736E-2	-2.258492E-2	-3.557014E-2	-5.371704E-1	9.762573E-2
2.816250E+10	-7.942810E-1	2.772827E-1	4.297028E-1	-7.501221E-2	-2.196884E-2	-3.608513E-2	-5.396423E-1	1.045532E-1
2.838700E+10	-7.913818E-1	2.782898E-1	4.263153E-1	-7.849121E-2	-2.216625E-2	-3.119946E-2	-5.416260E-1	1.088257E-1
2.861150E+10	-7.925110E-1	2.807617E-1	4.232178E-1	-8.149719E-2	-2.298546E-2	-3.074074E-2	-5.382080E-1	1.154480E-1
2.883600E+10	-7.888184E-1	2.842712E-1	4.150238E-1	-8.454895E-2	-2.466011E-2	-3.092480E-2	-5.370483E-1	1.167297E-1
2.906050E+10	-7.874756E-1	2.862854E-1	4.131775E-1	-8.473206E-2	-2.607250E-2	-2.948952E-2	-5.382996E-1	1.233826E-1
2.928500E+10	-7.866516E-1	2.896118E-1	4.040070E-1	-8.988953E-2	-2.543640E-2	-2.905178E-2	-5.358276E-1	1.293335E-1
2.950950E+10	-7.838440E-1	2.956238E-1	4.043121E-1	-9.149170E-2	-2.679825E-2	-2.792454E-2	-5.419922E-1	1.307068E-1
2.973400E+10	-7.857666E-1	2.951355E-1	3.993073E-1	-9.103394E-2	-2.432632E-2	-2.616501E-2	-5.447693E-1	1.367187E-1
2.995850E+10	-7.783508E-1	2.988281E-1	3.957062E-1	-9.423828E-2	-2.928734E-2	-2.730560E-2	-5.461731E-1	1.443481E-1
3.018300E+10	-7.774658E-1	2.978821E-1	3.904114E-1	-1.002350E-1	-2.449226E-2	-2.435493E-2	-5.443115E-1	1.507874E-1
3.040750E+10	-7.774963E-1	2.995911E-1	3.863983E-1	-1.026917E-1	-2.826691E-2	-2.380371E-2	-5.418701E-1	1.526489E-1
3.063200E+10	-7.720337E-1	3.048706E-1	3.840790E-1	-1.042938E-1	-2.950382E-2	-2.094936E-2	-5.423279E-1	1.627808E-1
3.085650E+10	-7.690125E-1	3.065186E-1	3.769073E-1	-1.059265E-1	-2.965164E-2	-2.080441E-2	-5.367432E-1	1.639404E-1
3.108100E+10	-7.685547E-1	3.117981E-1	3.752899E-1	-1.088715E-1	-2.835274E-2	-2.213573E-2	-5.393066E-1	1.730652E-1
3.130550E+10	-7.639771E-1	3.094788E-1	3.735352E-1	-1.116028E-1	-3.048515E-2	-2.221584E-2	-5.328979E-1	1.783142E-1
3.153000E+10	-7.682190E-1	3.126831E-1	3.647003E-1	-1.142273E-1	-3.248024E-2	-1.932526E-2	-5.374451E-1	1.794434E-1
3.175450E+10	-7.659302E-1	3.126526E-1	3.686829E-1	-1.169739E-1	-2.993298E-2	-1.648426E-2	-5.394592E-1	1.921997E-1
3.197900E+10	-7.621460E-1	3.214722E-1	3.588867E-1	-1.150208E-1	-2.868938E-2	-1.395416E-2	-5.288391E-1	1.885986E-1
3.220350E+10	-7.632446E-1	3.224182E-1	3.603973E-1	-1.201630E-1	-3.533554E-2	-9.737015E-3	-5.298767E-1	1.957703E-1
3.242800E+10	-7.614746E-1	3.279419E-1	3.577423E-1	-1.211548E-1	-3.289795E-2	-1.109886E-2	-5.325623E-1	2.069397E-1
3.265250E+10	-7.602539E-1	3.299255E-1	3.544769E-1	-1.215515E-1	-3.383064E-2	-1.128197E-2	-5.285339E-1	2.078247E-1
3.287700E+10	-7.557068E-1	3.311157E-1	3.493042E-1	-1.298523E-1	-3.048801E-2	-1.142216E-2	-5.321655E-1	2.115173E-1
3.310150E+10	-7.585449E-1	3.309326E-1	3.482208E-1	-1.284943E-1	-3.401566E-2	-9.204865E-3	-5.254211E-1	2.180481E-1
3.332600E+10	-7.558594E-1	3.302917E-1	3.374634E-1	-1.297150E-1	-3.302574E-2	-4.978180E-3	-5.277405E-1	2.247620E-1
3.355050E+10	-7.515869E-1	3.334656E-1	3.410034E-1	-1.337738E-1	-3.633881E-2	-6.082535E-3	-5.285034E-1	2.284241E-1
3.377500E+10	-7.521362E-1	3.396301E-1	3.386383E-1	-1.335297E-1	-2.782822E-2	-5.618095E-3	-5.231934E-1	2.321777E-1
3.399950E+10	-7.489624E-1	3.426514E-1	3.326569E-1	-1.363983E-1	-2.993011E-2	-6.446838E-3	-5.238342E-1	2.371521E-1
3.422400E+10	-7.474060E-1	3.436279E-1	3.339996E-1	-1.377411E-1	-3.145790E-2	-1.689911E-3	-5.264893E-1	2.497559E-1
3.444850E+10	-7.448120E-1	3.460999E-1	3.313446E-1	-1.429596E-1	-2.980995E-2	1.306534E-4	-5.170593E-1	2.509460E-1
3.467300E+10	-7.439270E-1	3.444519E-1	3.343964E-1	-1.432953E-1	-2.854156E-2	-6.427765E-4	-5.220337E-1	2.582703E-1
3.489750E+10	-7.439270E-1	3.456726E-1	3.203430E-1	-1.466217E-1	-3.125954E-2	3.482819E-3	-5.176392E-1	2.663879E-1
3.512200E+10	-7.437134E-1	3.480225E-1	3.221741E-1	-1.486206E-1	-3.249359E-2	-1.163483E-3	-5.111694E-1	2.650452E-1
3.534650E+10	-7.400208E-1	3.565369E-1	3.164978E-1	-1.493683E-1	-3.122616E-2	6.186485E-3	-5.101929E-1	2.716980E-1
3.557100E+10	-7.373352E-1	3.540955E-1	3.146667E-1	-1.491089E-1	-2.946186E-2	4.705429E-3	-5.027466E-1	2.835388E-1
3.579550E+10	-7.327576E-1	3.569641E-1	3.162842E-1	-1.550903E-1	-2.905464E-2	4.207611E-3	-5.016785E-1	2.846069E-1
3.602000E+10	-7.329102E-1	3.577271E-1	3.126831E-1	-1.563263E-1	-3.330612E-2	1.205254E-2	-5.045776E-1	2.886658E-1
3.624450E+10	-7.334595E-1	3.600769E-1	3.105621E-1	-1.628113E-1	-3.048611E-2	8.258820E-3	-5.030823E-1	3.011475E-1
3.646900E+10	-7.315674E-1	3.663940E-1	3.117828E-1	-1.640778E-1	-2.765751E-2	1.689339E-2	-5.017090E-1	3.086548E-1
3.669350E+10	-7.292480E-1	3.624268E-1	3.084869E-1	-1.605377E-1	-2.991867E-2	1.610470E-2	-4.912262E-1	3.089142E-1
3.691800E+10	-7.275696E-1	3.658447E-1	3.038025E-1	-1.681366E-1	-3.217888E-2	1.605415E-2	-4.884033E-1	3.227386E-1
3.714250E+10	-7.231445E-1	3.651428E-1	3.012390E-1	-1.728973E-1	-2.866364E-2	1.609612E-2	-4.861755E-1	3.291016E-1
3.736700E+10	-7.198181E-1	3.706055E-1	2.958832E-1	-1.748810E-1	-2.899742E-2	1.642513E-2	-4.845734E-1	3.258514E-1
3.759150E+10	-7.212830E-1	3.739319E-1	2.945404E-1	-1.729126E-1	-2.833843E-2	2.043819E-2	-4.751282E-1	3.350220E-1
3.781600E+10	-7.150269E-1	3.754578E-1	2.962646E-1	-1.788788E-1	-2.862835E-2	1.714325E-2	-4.736481E-1	3.410797E-1
3.804050E+10	-7.174988E-1	3.729858E-1	2.884674E-1	-1.762695E-1	-2.825928E-2	2.266979E-2	-4.676361E-1	3.463745E-1
3.826500E+10	-7.178650E-1	3.800049E-1	2.921906E-1	-1.797333E-1	-2.612305E-2	1.810932E-2	-4.651184E-1	3.550873E-1
3.848950E+10	-7.147827E-1	3.775940E-1	2.865143E-1	-1.856079E-1	-2.168560E-2	2.251434E-2	-4.584351E-1	3.599548E-1
3.871400E+10	-7.058411E-1	3.790283E-1	2.867279E-1	-1.899567E-1	-2.350616E-2	2.051926E-2	-4.527740E-1	3.645477E-1
3.893850E+10	-7.133789E-1	3.808289E-1	2.819977E-1	-1.956024E-1	-2.233696E-2	3.028488E-2	-4.442596E-1	3.707733E-1
3.916300E+10	-7.172546E-1	3.850098E-1	2.798920E-1	-1.936951E-1	-2.108288E-2	2.712059E-2	-4.446564E-1	3.723145E-1
