!Date: 10/28/2005, 12:46 PM

!Vgs = -8.000000E+0
!Vds = 5.000000E+0
!Ig = -9.602400E-5
!Id = 1.385000E-3

# HZ S RI R 50
1.000000E+8	9.905396E-1	-3.732300E-2	-7.934093E-3	1.153755E-2	2.532005E-3	1.218843E-2	9.866943E-1	-6.286621E-3
3.245000E+8	9.786682E-1	-1.048584E-1	-3.293991E-3	3.859329E-2	6.534576E-3	3.686905E-2	9.680176E-1	-9.036255E-2
5.490000E+8	9.641113E-1	-1.696777E-1	4.428864E-3	6.194496E-2	1.366615E-2	6.053543E-2	9.618225E-1	-1.477966E-1
7.735000E+8	9.460449E-1	-2.332153E-1	1.494980E-2	8.430481E-2	2.407837E-2	8.242798E-2	9.447632E-1	-2.054749E-1
9.980000E+8	9.249573E-1	-2.921448E-1	2.726364E-2	1.046181E-1	3.589249E-2	1.017647E-1	9.254150E-1	-2.563477E-1
1.222500E+9	8.995972E-1	-3.503418E-1	4.167938E-2	1.227074E-1	4.942703E-2	1.193810E-1	9.043274E-1	-3.085632E-1
1.447000E+9	8.711853E-1	-4.052734E-1	5.707550E-2	1.388550E-1	6.471252E-2	1.355667E-1	8.797302E-1	-3.571472E-1
1.671500E+9	8.396912E-1	-4.566956E-1	7.341766E-2	1.545639E-1	8.090973E-2	1.503143E-1	8.523254E-1	-4.019470E-1
1.896000E+9	8.061523E-1	-5.041809E-1	9.295654E-2	1.686325E-1	9.963989E-2	1.640396E-1	8.269348E-1	-4.426270E-1
2.120500E+9	7.710876E-1	-5.485840E-1	1.142120E-1	1.784973E-1	1.202469E-1	1.736984E-1	7.986145E-1	-4.854126E-1
2.345000E+9	7.323608E-1	-5.913696E-1	1.353149E-1	1.858978E-1	1.410980E-1	1.807861E-1	7.678223E-1	-5.242920E-1
2.569500E+9	6.938782E-1	-6.270447E-1	1.562347E-1	1.898575E-1	1.615753E-1	1.852112E-1	7.372437E-1	-5.603027E-1
2.794000E+9	6.537170E-1	-6.628418E-1	1.770782E-1	1.928864E-1	1.810760E-1	1.876373E-1	7.047729E-1	-5.928650E-1
3.018500E+9	6.134033E-1	-6.924438E-1	1.965408E-1	1.933212E-1	2.017822E-1	1.882782E-1	6.694336E-1	-6.255188E-1
3.243000E+9	5.728760E-1	-7.207031E-1	2.170639E-1	1.921997E-1	2.211304E-1	1.873322E-1	6.335449E-1	-6.539307E-1
3.467500E+9	5.323181E-1	-7.464600E-1	2.365494E-1	1.896820E-1	2.396164E-1	1.847000E-1	5.992432E-1	-6.797485E-1
3.692000E+9	4.919128E-1	-7.685242E-1	2.547607E-1	1.854095E-1	2.577209E-1	1.805267E-1	5.629578E-1	-7.045898E-1
3.916500E+9	4.500732E-1	-7.879944E-1	2.730255E-1	1.792908E-1	2.748566E-1	1.739807E-1	5.264282E-1	-7.244263E-1
4.141000E+9	4.112549E-1	-8.041992E-1	2.896881E-1	1.730499E-1	2.916260E-1	1.673584E-1	4.926453E-1	-7.433777E-1
4.365500E+9	3.731079E-1	-8.203125E-1	3.052063E-1	1.641541E-1	3.077850E-1	1.591644E-1	4.584656E-1	-7.618103E-1
4.590000E+9	3.332825E-1	-8.338928E-1	3.209534E-1	1.548767E-1	3.221436E-1	1.501160E-1	4.218750E-1	-7.774963E-1
4.814500E+9	2.957458E-1	-8.439026E-1	3.348846E-1	1.440887E-1	3.363037E-1	1.395111E-1	3.878784E-1	-7.910156E-1
5.039000E+9	2.584534E-1	-8.531799E-1	3.478851E-1	1.327667E-1	3.491058E-1	1.274567E-1	3.537292E-1	-8.048401E-1
5.263500E+9	2.212524E-1	-8.588562E-1	3.598175E-1	1.200867E-1	3.604584E-1	1.161041E-1	3.187256E-1	-8.146057E-1
5.488000E+9	1.876831E-1	-8.648682E-1	3.705444E-1	1.080627E-1	3.705139E-1	1.035767E-1	2.868042E-1	-8.238831E-1
5.712500E+9	1.517944E-1	-8.696289E-1	3.803558E-1	9.507751E-2	3.805084E-1	9.057617E-2	2.539368E-1	-8.326721E-1
5.937000E+9	1.190186E-1	-8.704529E-1	3.879395E-1	8.085632E-2	3.891754E-1	7.637024E-2	2.205811E-1	-8.404846E-1
6.161500E+9	8.825684E-2	-8.734436E-1	3.954163E-1	6.703186E-2	3.952789E-1	6.349182E-2	1.893005E-1	-8.462219E-1
6.386000E+9	5.590820E-2	-8.742981E-1	4.018097E-1	5.320740E-2	4.015045E-1	4.922485E-2	1.568909E-1	-8.507996E-1
6.610500E+9	2.658081E-2	-8.742981E-1	4.068146E-1	3.871155E-2	4.066010E-1	3.549194E-2	1.242981E-1	-8.544312E-1
6.835000E+9	-3.509521E-3	-8.735046E-1	4.116669E-1	2.589417E-2	4.104767E-1	2.177429E-2	9.451294E-2	-8.557434E-1
7.059500E+9	-3.079224E-2	-8.708191E-1	4.145966E-1	1.301575E-2	4.135590E-1	9.780884E-3	6.781006E-2	-8.562927E-1
7.284000E+9	-5.899048E-2	-8.684387E-1	4.169312E-1	-1.739502E-3	4.167786E-1	-4.989624E-3	3.503418E-2	-8.569641E-1
7.508500E+9	-8.709717E-2	-8.652344E-1	4.195251E-1	-1.548767E-2	4.184113E-1	-1.870728E-2	7.141113E-3	-8.544617E-1
7.733000E+9	-1.119080E-1	-8.601685E-1	4.199982E-1	-2.798462E-2	4.189301E-1	-3.141785E-2	-1.889038E-2	-8.546448E-1
7.957500E+9	-1.368408E-1	-8.564148E-1	4.203949E-1	-4.161072E-2	4.188538E-1	-4.368591E-2	-4.730225E-2	-8.532715E-1
8.182000E+9	-1.601868E-1	-8.513489E-1	4.196014E-1	-5.369568E-2	4.192963E-1	-5.728149E-2	-7.345581E-2	-8.501892E-1
8.406500E+9	-1.840820E-1	-8.463745E-1	4.181061E-1	-6.631470E-2	4.178009E-1	-6.909180E-2	-1.007080E-1	-8.463745E-1
8.631000E+9	-2.079163E-1	-8.397522E-1	4.184875E-1	-7.888794E-2	4.157257E-1	-8.174133E-2	-1.269836E-1	-8.423462E-1
8.855500E+9	-2.287903E-1	-8.347778E-1	4.160156E-1	-9.123230E-2	4.143829E-1	-9.385681E-2	-1.530457E-1	-8.372192E-1
9.080001E+9	-2.497864E-1	-8.294067E-1	4.132233E-1	-1.024170E-1	4.117737E-1	-1.043549E-1	-1.760864E-1	-8.303528E-1
9.304500E+9	-2.702942E-1	-8.216858E-1	4.106750E-1	-1.135101E-1	4.085693E-1	-1.157532E-1	-2.023315E-1	-8.193359E-1
9.529000E+9	-2.902527E-1	-8.154602E-1	4.075775E-1	-1.241760E-1	4.056854E-1	-1.265411E-1	-2.235718E-1	-8.176575E-1
9.753500E+9	-3.101807E-1	-8.084717E-1	4.031219E-1	-1.353455E-1	4.015350E-1	-1.365204E-1	-2.446594E-1	-8.103333E-1
9.978000E+9	-3.277588E-1	-7.998962E-1	3.989868E-1	-1.450653E-1	3.974762E-1	-1.469116E-1	-2.663269E-1	-8.042603E-1
1.020250E+10	-3.464050E-1	-7.937927E-1	3.953705E-1	-1.548157E-1	3.936462E-1	-1.570282E-1	-2.885742E-1	-7.951660E-1
1.042700E+10	-3.636780E-1	-7.851868E-1	3.904419E-1	-1.654205E-1	3.892059E-1	-1.671143E-1	-3.088074E-1	-7.869568E-1
1.065150E+10	-3.805847E-1	-7.771912E-1	3.855286E-1	-1.741791E-1	3.836365E-1	-1.748810E-1	-3.280640E-1	-7.792969E-1
1.087600E+10	-3.968506E-1	-7.694702E-1	3.808136E-1	-1.829987E-1	3.785553E-1	-1.841125E-1	-3.482666E-1	-7.704773E-1
1.110050E+10	-4.137573E-1	-7.611694E-1	3.748474E-1	-1.909332E-1	3.729553E-1	-1.932526E-1	-3.691406E-1	-7.612000E-1
1.132500E+10	-4.289551E-1	-7.536011E-1	3.684082E-1	-1.989899E-1	3.679047E-1	-2.006836E-1	-3.857117E-1	-7.529297E-1
1.154950E+10	-4.445190E-1	-7.447205E-1	3.634796E-1	-2.056580E-1	3.614349E-1	-2.073517E-1	-4.063721E-1	-7.415771E-1
1.177400E+10	-4.582214E-1	-7.376709E-1	3.579559E-1	-2.142639E-1	3.560791E-1	-2.148437E-1	-4.228210E-1	-7.308960E-1
1.199850E+10	-4.735107E-1	-7.297363E-1	3.525391E-1	-2.222900E-1	3.503571E-1	-2.230225E-1	-4.386292E-1	-7.226257E-1
1.222300E+10	-4.865112E-1	-7.212830E-1	3.466339E-1	-2.276306E-1	3.437500E-1	-2.294464E-1	-4.576721E-1	-7.116699E-1
1.244750E+10	-5.003967E-1	-7.115784E-1	3.391571E-1	-2.347107E-1	3.376312E-1	-2.356567E-1	-4.737244E-1	-6.989746E-1
1.267200E+10	-5.127869E-1	-7.041016E-1	3.343658E-1	-2.422333E-1	3.318634E-1	-2.420654E-1	-4.875793E-1	-6.915283E-1
1.289650E+10	-5.249329E-1	-6.949463E-1	3.268585E-1	-2.469788E-1	3.250427E-1	-2.476044E-1	-5.047913E-1	-6.800537E-1
1.312100E+10	-5.375366E-1	-6.865234E-1	3.206329E-1	-2.529907E-1	3.184357E-1	-2.537384E-1	-5.191345E-1	-6.667175E-1
1.334550E+10	-5.496216E-1	-6.778870E-1	3.152008E-1	-2.591248E-1	3.133087E-1	-2.587738E-1	-5.322876E-1	-6.578674E-1
1.357000E+10	-5.630798E-1	-6.689758E-1	3.091125E-1	-2.638092E-1	3.048553E-1	-2.652588E-1	-5.476685E-1	-6.477051E-1
1.379450E+10	-5.712585E-1	-6.615601E-1	3.020325E-1	-2.684631E-1	3.007507E-1	-2.683105E-1	-5.604553E-1	-6.313782E-1
1.401900E+10	-5.817566E-1	-6.531677E-1	2.949219E-1	-2.736511E-1	2.944031E-1	-2.727203E-1	-5.709839E-1	-6.214600E-1
1.424350E+10	-5.934753E-1	-6.441345E-1	2.883453E-1	-2.778625E-1	2.861633E-1	-2.785492E-1	-5.879211E-1	-6.121521E-1
1.446800E+10	-6.037903E-1	-6.368408E-1	2.810669E-1	-2.816772E-1	2.803345E-1	-2.818756E-1	-5.997314E-1	-5.947876E-1
1.469250E+10	-6.129761E-1	-6.268311E-1	2.751770E-1	-2.852783E-1	2.741089E-1	-2.868958E-1	-6.094055E-1	-5.859070E-1
1.491700E+10	-6.235657E-1	-6.191101E-1	2.675323E-1	-2.893219E-1	2.673035E-1	-2.904205E-1	-6.231689E-1	-5.753784E-1
1.514150E+10	-6.320190E-1	-6.092834E-1	2.611847E-1	-2.928314E-1	2.599640E-1	-2.928009E-1	-6.343384E-1	-5.595703E-1
1.536600E+10	-6.423950E-1	-6.006470E-1	2.539673E-1	-2.960205E-1	2.535248E-1	-2.970276E-1	-6.416016E-1	-5.486450E-1
1.559050E+10	-6.514893E-1	-5.933228E-1	2.472076E-1	-2.996216E-1	2.469025E-1	-3.000031E-1	-6.558533E-1	-5.375366E-1
1.581500E+10	-6.595154E-1	-5.846558E-1	2.405548E-1	-3.019714E-1	2.402344E-1	-3.036652E-1	-6.661682E-1	-5.212708E-1
1.603950E+10	-6.685181E-1	-5.772400E-1	2.351227E-1	-3.056183E-1	2.342682E-1	-3.050537E-1	-6.730957E-1	-5.126038E-1
1.626400E+10	-6.776428E-1	-5.670166E-1	2.283783E-1	-3.073883E-1	2.267914E-1	-3.079376E-1	-6.864624E-1	-5.007324E-1
1.648850E+10	-6.848145E-1	-5.586243E-1	2.223816E-1	-3.095856E-1	2.212524E-1	-3.094482E-1	-6.951904E-1	-4.850464E-1
1.671300E+10	-6.927185E-1	-5.494385E-1	2.163544E-1	-3.124084E-1	2.145233E-1	-3.116760E-1	-7.022095E-1	-4.734192E-1
1.693750E+10	-7.006226E-1	-5.419617E-1	2.098389E-1	-3.138123E-1	2.086487E-1	-3.129120E-1	-7.115784E-1	-4.607239E-1
1.716200E+10	-7.077637E-1	-5.338745E-1	2.028809E-1	-3.160858E-1	2.023621E-1	-3.152161E-1	-7.190247E-1	-4.447021E-1
1.738650E+10	-7.153931E-1	-5.245361E-1	1.958923E-1	-3.182678E-1	1.959991E-1	-3.160706E-1	-7.250977E-1	-4.333496E-1
1.761100E+10	-7.228699E-1	-5.182190E-1	1.905670E-1	-3.192291E-1	1.897736E-1	-3.185425E-1	-7.355957E-1	-4.230957E-1
1.783550E+10	-7.305603E-1	-5.080261E-1	1.841125E-1	-3.199768E-1	1.833649E-1	-3.196106E-1	-7.432251E-1	-4.076538E-1
1.806000E+10	-7.360229E-1	-5.013733E-1	1.799774E-1	-3.214264E-1	1.770935E-1	-3.224335E-1	-7.485657E-1	-3.960266E-1
1.828450E+10	-7.427368E-1	-4.909058E-1	1.734161E-1	-3.227081E-1	1.732788E-1	-3.220215E-1	-7.543945E-1	-3.847961E-1
1.850900E+10	-7.500916E-1	-4.839172E-1	1.668091E-1	-3.233795E-1	1.666870E-1	-3.233185E-1	-7.635498E-1	-3.712463E-1
1.873350E+10	-7.565308E-1	-4.758301E-1	1.626434E-1	-3.248749E-1	1.596527E-1	-3.253937E-1	-7.677002E-1	-3.553772E-1
1.895800E+10	-7.609253E-1	-4.664307E-1	1.577301E-1	-3.252258E-1	1.544189E-1	-3.260345E-1	-7.735901E-1	-3.478394E-1
1.918250E+10	-7.665710E-1	-4.603271E-1	1.501465E-1	-3.269653E-1	1.474915E-1	-3.276672E-1	-7.808228E-1	-3.338013E-1
1.940700E+10	-7.734985E-1	-4.501343E-1	1.441040E-1	-3.259888E-1	1.436768E-1	-3.272247E-1	-7.835999E-1	-3.155212E-1
1.963150E+10	-7.793884E-1	-4.434204E-1	1.363068E-1	-3.272552E-1	1.362000E-1	-3.262482E-1	-7.888184E-1	-3.064880E-1
1.985600E+10	-7.830811E-1	-4.354858E-1	1.317902E-1	-3.273010E-1	1.324158E-1	-3.258514E-1	-7.944031E-1	-2.941589E-1
2.008050E+10	-7.896423E-1	-4.267273E-1	1.266632E-1	-3.290100E-1	1.245728E-1	-3.282166E-1	-7.990723E-1	-2.782593E-1
2.030500E+10	-7.950134E-1	-4.194641E-1	1.218719E-1	-3.269196E-1	1.206207E-1	-3.268890E-1	-8.007812E-1	-2.690735E-1
2.052950E+10	-8.001099E-1	-4.111938E-1	1.183472E-1	-3.282623E-1	1.152496E-1	-3.276062E-1	-8.059692E-1	-2.554626E-1
2.075400E+10	-8.055725E-1	-4.043884E-1	1.108246E-1	-3.274231E-1	1.110229E-1	-3.278809E-1	-8.095093E-1	-2.407837E-1
2.097850E+10	-8.104553E-1	-3.958435E-1	1.070404E-1	-3.282166E-1	1.058197E-1	-3.264618E-1	-8.104248E-1	-2.294006E-1
2.120300E+10	-8.142395E-1	-3.861694E-1	1.008148E-1	-3.262787E-1	1.004028E-1	-3.276062E-1	-8.164062E-1	-2.208252E-1
2.142750E+10	-8.204346E-1	-3.798218E-1	9.455872E-2	-3.249512E-1	9.506226E-2	-3.258820E-1	-8.211670E-1	-2.054749E-1
2.165200E+10	-8.240967E-1	-3.701477E-1	9.036255E-2	-3.245697E-1	8.859253E-2	-3.251190E-1	-8.223572E-1	-1.929321E-1
2.187650E+10	-8.273010E-1	-3.620300E-1	8.842468E-2	-3.267059E-1	8.535767E-2	-3.249207E-1	-8.275146E-1	-1.802063E-1
2.210100E+10	-8.328857E-1	-3.527527E-1	8.163452E-2	-3.254395E-1	8.146667E-2	-3.233795E-1	-8.298035E-1	-1.657104E-1
2.232550E+10	-8.383179E-1	-3.454285E-1	7.672119E-2	-3.234711E-1	7.585144E-2	-3.253174E-1	-8.318787E-1	-1.513977E-1
2.255000E+10	-8.430481E-1	-3.379517E-1	7.192993E-2	-3.251343E-1	7.022095E-2	-3.249969E-1	-8.360596E-1	-1.443787E-1
2.277450E+10	-8.444824E-1	-3.275452E-1	6.779480E-2	-3.237915E-1	6.567383E-2	-3.242645E-1	-8.381348E-1	-1.260681E-1
2.299900E+10	-8.489075E-1	-3.217773E-1	6.182861E-2	-3.242493E-1	6.230164E-2	-3.253937E-1	-8.359375E-1	-1.153564E-1
2.322350E+10	-8.521729E-1	-3.128662E-1	5.722046E-2	-3.241425E-1	5.703735E-2	-3.239288E-1	-8.403625E-1	-1.060486E-1
2.344800E+10	-8.532104E-1	-3.055420E-1	5.180359E-2	-3.237000E-1	5.261230E-2	-3.240814E-1	-8.431091E-1	-8.700562E-2
2.367250E+10	-8.575745E-1	-2.957764E-1	4.629517E-2	-3.204193E-1	4.829407E-2	-3.207397E-1	-8.411865E-1	-7.534790E-2
2.389700E+10	-8.595276E-1	-2.880249E-1	4.054260E-2	-3.228149E-1	4.136658E-2	-3.214417E-1	-8.442078E-1	-6.442261E-2
2.412150E+10	-8.619690E-1	-2.824707E-1	3.594971E-2	-3.210449E-1	3.733826E-2	-3.198395E-1	-8.406372E-1	-4.714966E-2
2.434600E+10	-8.623047E-1	-2.764282E-1	3.309631E-2	-3.186340E-1	3.300476E-2	-3.186035E-1	-8.398437E-1	-3.662109E-2
2.457050E+10	-8.666687E-1	-2.710876E-1	2.934265E-2	-3.163147E-1	3.047180E-2	-3.185730E-1	-8.424683E-1	-2.645874E-2
2.479500E+10	-8.716125E-1	-2.632141E-1	2.581787E-2	-3.169556E-1	2.517700E-2	-3.173676E-1	-8.408813E-1	-9.796143E-3
2.501950E+10	-8.708801E-1	-2.545471E-1	2.076721E-2	-3.164978E-1	1.977539E-2	-3.157959E-1	-8.364563E-1	6.103516E-5
2.524400E+10	-8.767090E-1	-2.479858E-1	1.762390E-2	-3.150177E-1	1.531982E-2	-3.130646E-1	-8.365479E-1	1.168823E-2
2.546850E+10	-8.782654E-1	-2.405396E-1	1.258850E-2	-3.118744E-1	1.258850E-2	-3.103333E-1	-8.345032E-1	2.560425E-2
2.569300E+10	-8.822632E-1	-2.342224E-1	1.004028E-2	-3.099060E-1	9.597778E-3	-3.108368E-1	-8.333435E-1	3.384399E-2
2.591750E+10	-8.854370E-1	-2.252808E-1	4.669189E-3	-3.103943E-1	2.639771E-3	-3.120117E-1	-8.360596E-1	4.583740E-2
2.614200E+10	-8.879089E-1	-2.171631E-1	-1.525879E-4	-3.066711E-1	1.800537E-3	-3.084259E-1	-8.330994E-1	5.969238E-2
2.636650E+10	-8.892822E-1	-2.136536E-1	-1.403809E-3	-3.088226E-1	-2.334595E-3	-3.057251E-1	-8.347168E-1	7.305908E-2
2.659100E+10	-8.907776E-1	-2.041016E-1	-6.301880E-3	-3.076630E-1	-7.568359E-3	-3.045349E-1	-8.275452E-1	8.370972E-2
2.681550E+10	-8.935547E-1	-1.988220E-1	-1.014709E-2	-3.051300E-1	-1.084900E-2	-3.049316E-1	-8.270569E-1	9.210205E-2
2.704000E+10	-8.939209E-1	-1.886292E-1	-1.260376E-2	-3.034210E-1	-1.358032E-2	-3.009644E-1	-8.254089E-1	1.113586E-1
2.726450E+10	-8.960571E-1	-1.794739E-1	-1.745605E-2	-3.016968E-1	-1.615906E-2	-3.036804E-1	-8.171997E-1	1.207581E-1
2.748900E+10	-8.991699E-1	-1.737061E-1	-2.255249E-2	-3.002319E-1	-2.177429E-2	-3.020172E-1	-8.190002E-1	1.272888E-1
2.771350E+10	-9.021301E-1	-1.683960E-1	-2.474976E-2	-2.967224E-1	-2.603149E-2	-2.978821E-1	-8.165894E-1	1.441956E-1
2.793800E+10	-9.045105E-1	-1.607971E-1	-2.613831E-2	-2.981415E-1	-2.679443E-2	-2.985992E-1	-8.119507E-1	1.526794E-1
2.816250E+10	-9.061279E-1	-1.540222E-1	-3.155518E-2	-2.966614E-1	-3.121948E-2	-2.966003E-1	-8.094177E-1	1.657715E-1
2.838700E+10	-9.052429E-1	-1.463013E-1	-3.482056E-2	-2.934265E-1	-3.579712E-2	-2.958069E-1	-8.031006E-1	1.778259E-1
2.861150E+10	-9.113770E-1	-1.417236E-1	-4.100037E-2	-2.924194E-1	-4.154968E-2	-2.933044E-1	-7.986145E-1	1.878052E-1
2.883600E+10	-9.085388E-1	-1.318665E-1	-4.270935E-2	-2.910309E-1	-4.235840E-2	-2.891235E-1	-7.963257E-1	1.936340E-1
2.906050E+10	-9.097290E-1	-1.249695E-1	-4.635620E-2	-2.893677E-1	-4.696655E-2	-2.890472E-1	-7.931213E-1	2.095642E-1
2.928500E+10	-9.156799E-1	-1.154175E-1	-4.855347E-2	-2.869568E-1	-4.870605E-2	-2.851562E-1	-7.866516E-1	2.178345E-1
2.950950E+10	-9.145203E-1	-1.095276E-1	-5.474854E-2	-2.823792E-1	-5.186462E-2	-2.836761E-1	-7.857056E-1	2.278442E-1
2.973400E+10	-9.168091E-1	-1.041260E-1	-5.563354E-2	-2.822876E-1	-5.343628E-2	-2.830811E-1	-7.797546E-1	2.396240E-1
2.995850E+10	-9.148254E-1	-9.582520E-2	-5.758667E-2	-2.808838E-1	-5.744934E-2	-2.819214E-1	-7.781677E-1	2.523804E-1
3.018300E+10	-9.161987E-1	-8.825684E-2	-5.918884E-2	-2.815094E-1	-6.242371E-2	-2.804413E-1	-7.731628E-1	2.629395E-1
3.040750E+10	-9.200439E-1	-8.309937E-2	-6.393433E-2	-2.808228E-1	-6.463623E-2	-2.789001E-1	-7.660522E-1	2.713013E-1
3.063200E+10	-9.174805E-1	-7.409668E-2	-6.340027E-2	-2.767944E-1	-6.623840E-2	-2.779388E-1	-7.617493E-1	2.864685E-1
3.085650E+10	-9.185181E-1	-6.741333E-2	-7.199097E-2	-2.780762E-1	-6.941223E-2	-2.781525E-1	-7.557983E-1	2.975464E-1
3.108100E+10	-9.209900E-1	-5.822754E-2	-7.133484E-2	-2.801361E-1	-7.641602E-2	-2.763062E-1	-7.516174E-1	3.111572E-1
3.130550E+10	-9.212952E-1	-5.584717E-2	-7.832336E-2	-2.742920E-1	-7.575989E-2	-2.697449E-1	-7.432251E-1	3.206787E-1
3.153000E+10	-9.223633E-1	-5.001831E-2	-8.071899E-2	-2.724609E-1	-7.965088E-2	-2.715302E-1	-7.355652E-1	3.293457E-1
3.175450E+10	-9.220581E-1	-4.214478E-2	-7.939148E-2	-2.683411E-1	-8.245850E-2	-2.660980E-1	-7.322083E-1	3.430481E-1
3.197900E+10	-9.224548E-1	-3.488159E-2	-8.467102E-2	-2.659454E-1	-8.497620E-2	-2.724152E-1	-7.173462E-1	3.517151E-1
3.220350E+10	-9.248047E-1	-3.042603E-2	-9.030151E-2	-2.701416E-1	-8.842468E-2	-2.640076E-1	-7.123108E-1	3.630981E-1
3.242800E+10	-9.219360E-1	-2.548218E-2	-9.199524E-2	-2.630463E-1	-9.030151E-2	-2.619324E-1	-7.079163E-1	3.713989E-1
3.265250E+10	-9.275818E-1	-1.562500E-2	-9.722900E-2	-2.621307E-1	-9.306335E-2	-2.587280E-1	-6.944885E-1	3.799744E-1
3.287700E+10	-9.244385E-1	-9.948730E-3	-9.700012E-2	-2.558289E-1	-9.529114E-2	-2.603455E-1	-6.913757E-1	3.882446E-1
3.310150E+10	-9.271240E-1	-1.251221E-3	-1.001892E-1	-2.555084E-1	-9.841919E-2	-2.568359E-1	-6.805115E-1	3.946533E-1
3.332600E+10	-9.259033E-1	4.547119E-3	-1.040955E-1	-2.555389E-1	-1.001587E-1	-2.555542E-1	-6.744995E-1	4.014893E-1
3.355050E+10	-9.266968E-1	1.196289E-2	-1.033783E-1	-2.512512E-1	-1.025848E-1	-2.549591E-1	-6.651611E-1	4.113159E-1
3.377500E+10	-9.231567E-1	2.050781E-2	-1.045380E-1	-2.511139E-1	-1.068649E-1	-2.493286E-1	-6.615601E-1	4.186401E-1
3.399950E+10	-9.252625E-1	2.789307E-2	-1.064758E-1	-2.505951E-1	-1.049500E-1	-2.501984E-1	-6.570435E-1	4.248352E-1
3.422400E+10	-9.245300E-1	3.067017E-2	-1.127930E-1	-2.463760E-1	-1.118546E-1	-2.473373E-1	-6.490479E-1	4.430847E-1
3.444850E+10	-9.260559E-1	4.171753E-2	-1.135178E-1	-2.447128E-1	-1.152878E-1	-2.455063E-1	-6.366577E-1	4.468384E-1
3.467300E+10	-9.250183E-1	4.812622E-2	-1.163940E-1	-2.434845E-1	-1.141663E-1	-2.449417E-1	-6.321411E-1	4.579163E-1
3.489750E+10	-9.281921E-1	5.615234E-2	-1.186829E-1	-2.427444E-1	-1.180038E-1	-2.410126E-1	-6.173706E-1	4.694214E-1
3.512200E+10	-9.246216E-1	5.761719E-2	-1.245346E-1	-2.419510E-1	-1.186676E-1	-2.390823E-1	-6.076660E-1	4.705200E-1
3.534650E+10	-9.272461E-1	6.225586E-2	-1.262054E-1	-2.377777E-1	-1.232910E-1	-2.416000E-1	-6.067200E-1	4.815979E-1
3.557100E+10	-9.226990E-1	7.058716E-2	-1.250076E-1	-2.406921E-1	-1.279221E-1	-2.382278E-1	-5.879822E-1	4.914551E-1
3.579550E+10	-9.242859E-1	7.296753E-2	-1.322861E-1	-2.360611E-1	-1.305237E-1	-2.369995E-1	-5.811462E-1	5.012207E-1
3.602000E+10	-9.281616E-1	8.465576E-2	-1.340332E-1	-2.305527E-1	-1.318665E-1	-2.357788E-1	-5.711670E-1	5.082397E-1
3.624450E+10	-9.229736E-1	9.054565E-2	-1.367340E-1	-2.332764E-1	-1.381760E-1	-2.328796E-1	-5.669861E-1	5.165710E-1
3.646900E+10	-9.212341E-1	1.012878E-1	-1.370621E-1	-2.278519E-1	-1.363449E-1	-2.281342E-1	-5.510864E-1	5.256042E-1
3.669350E+10	-9.194336E-1	1.076355E-1	-1.413498E-1	-2.305527E-1	-1.421432E-1	-2.307663E-1	-5.342407E-1	5.342102E-1
3.691800E+10	-9.197693E-1	1.107788E-1	-1.415100E-1	-2.260437E-1	-1.382294E-1	-2.266006E-1	-5.268555E-1	5.390625E-1
3.714250E+10	-9.154663E-1	1.156921E-1	-1.474152E-1	-2.219086E-1	-1.476898E-1	-2.202225E-1	-5.126343E-1	5.444336E-1
3.736700E+10	-9.162292E-1	1.237183E-1	-1.483002E-1	-2.190018E-1	-1.494217E-1	-2.243347E-1	-5.062866E-1	5.489502E-1
3.759150E+10	-9.124146E-1	1.303711E-1	-1.500092E-1	-2.162857E-1	-1.492996E-1	-2.206268E-1	-4.950867E-1	5.526733E-1
3.781600E+10	-9.134827E-1	1.343689E-1	-1.525269E-1	-2.193909E-1	-1.506271E-1	-2.164536E-1	-4.825134E-1	5.601807E-1
3.804050E+10	-9.162292E-1	1.416016E-1	-1.513290E-1	-2.097244E-1	-1.552277E-1	-2.154617E-1	-4.640808E-1	5.676575E-1
3.826500E+10	-9.118347E-1	1.463623E-1	-1.573792E-1	-2.130127E-1	-1.561661E-1	-2.121811E-1	-4.526062E-1	5.744629E-1
3.848950E+10	-9.089050E-1	1.481018E-1	-1.575775E-1	-2.116318E-1	-1.603851E-1	-2.097778E-1	-4.392090E-1	5.812073E-1
3.871400E+10	-9.075928E-1	1.606140E-1	-1.665497E-1	-2.102280E-1	-1.653442E-1	-2.040405E-1	-4.292603E-1	5.792542E-1
3.893850E+10	-9.098206E-1	1.642456E-1	-1.652527E-1	-2.012177E-1	-1.626053E-1	-2.053375E-1	-4.144897E-1	5.868530E-1
