!Date: 10/28/2005, 12:46 PM

!Vgs = -3.000000E+0
!Vds = 1.750000E+1
!Ig = -3.438800E-5
!Id = 3.696300E-1

# HZ S RI R 50
1.000000E+8	9.690247E-1	-1.780090E-1	-1.660645E+1	8.964844E-1	7.677078E-5	6.238699E-3	5.929565E-1	-4.046631E-2
3.245000E+8	8.006897E-1	-5.284424E-1	-1.508154E+1	5.284668E+0	8.037567E-3	1.877022E-2	4.264374E-1	-2.294922E-1
5.490000E+8	5.599976E-1	-7.561340E-1	-1.268164E+1	7.509277E+0	1.709843E-2	2.667046E-2	3.487854E-1	-3.065491E-1
7.735000E+8	3.142395E-1	-8.707275E-1	-1.020557E+1	8.528320E+0	2.632618E-2	2.982616E-2	2.416229E-1	-3.587646E-1
9.980000E+8	9.750366E-2	-9.060669E-1	-8.040527E+0	8.820801E+0	3.471184E-2	3.019142E-2	1.544647E-1	-3.598633E-1
1.222500E+9	-8.410645E-2	-8.997803E-1	-6.294434E+0	8.725586E+0	4.109383E-2	2.859116E-2	9.216309E-2	-3.606415E-1
1.447000E+9	-2.327271E-1	-8.701477E-1	-4.888672E+0	8.409668E+0	4.601860E-2	2.680397E-2	3.657532E-2	-3.519897E-1
1.671500E+9	-3.496399E-1	-8.283997E-1	-3.779297E+0	7.971924E+0	5.044556E-2	2.442360E-2	-5.523682E-3	-3.416595E-1
1.896000E+9	-4.445190E-1	-7.786865E-1	-2.930908E+0	7.487061E+0	5.395508E-2	2.163124E-2	-4.104614E-2	-3.243713E-1
2.120500E+9	-5.166321E-1	-7.304687E-1	-2.264893E+0	7.041016E+0	5.611229E-2	1.909065E-2	-6.562805E-2	-3.105621E-1
2.345000E+9	-5.762024E-1	-6.801147E-1	-1.716797E+0	6.603516E+0	5.814171E-2	1.640511E-2	-8.755493E-2	-2.966461E-1
2.569500E+9	-6.211243E-1	-6.355591E-1	-1.279541E+0	6.190186E+0	5.970192E-2	1.393318E-2	-1.038208E-1	-2.859650E-1
2.794000E+9	-6.596069E-1	-5.964355E-1	-9.377441E-1	5.820312E+0	6.122589E-2	1.143646E-2	-1.176453E-1	-2.751617E-1
3.018500E+9	-6.906128E-1	-5.583191E-1	-6.381836E-1	5.470947E+0	6.185150E-2	9.632111E-3	-1.295624E-1	-2.662964E-1
3.243000E+9	-7.166443E-1	-5.232239E-1	-3.906250E-1	5.158691E+0	6.204987E-2	7.284164E-3	-1.401825E-1	-2.602844E-1
3.467500E+9	-7.396851E-1	-4.930115E-1	-1.855469E-1	4.870605E+0	6.270981E-2	5.592346E-3	-1.491852E-1	-2.534943E-1
3.692000E+9	-7.593079E-1	-4.627380E-1	-8.789062E-3	4.598877E+0	6.343842E-2	4.142761E-3	-1.560211E-1	-2.494202E-1
3.916500E+9	-7.747803E-1	-4.334106E-1	1.386719E-1	4.350830E+0	6.386185E-2	2.109528E-3	-1.667633E-1	-2.449112E-1
4.141000E+9	-7.882385E-1	-4.077148E-1	2.646484E-1	4.123291E+0	6.427765E-2	2.632141E-4	-1.725616E-1	-2.397461E-1
4.365500E+9	-7.986755E-1	-3.850098E-1	3.725586E-1	3.910522E+0	6.371307E-2	-1.346588E-3	-1.797256E-1	-2.372131E-1
4.590000E+9	-8.097839E-1	-3.627014E-1	4.659424E-1	3.711548E+0	6.400299E-2	-2.902985E-3	-1.861801E-1	-2.335968E-1
4.814500E+9	-8.188171E-1	-3.415527E-1	5.417480E-1	3.529907E+0	6.449890E-2	-4.524231E-3	-1.918564E-1	-2.310715E-1
5.039000E+9	-8.253784E-1	-3.225403E-1	6.116943E-1	3.360962E+0	6.444168E-2	-5.981445E-3	-1.983566E-1	-2.290649E-1
5.263500E+9	-8.329773E-1	-3.036499E-1	6.713867E-1	3.202759E+0	6.427765E-2	-7.007599E-3	-2.044907E-1	-2.259674E-1
5.488000E+9	-8.385620E-1	-2.876282E-1	7.216797E-1	3.056885E+0	6.428909E-2	-8.140564E-3	-2.088394E-1	-2.239304E-1
5.712500E+9	-8.439941E-1	-2.713318E-1	7.672119E-1	2.915161E+0	6.434631E-2	-1.004410E-2	-2.138748E-1	-2.222748E-1
5.937000E+9	-8.486023E-1	-2.543335E-1	8.060303E-1	2.787231E+0	6.404495E-2	-1.120377E-2	-2.201004E-1	-2.213516E-1
6.161500E+9	-8.529663E-1	-2.414246E-1	8.422852E-1	2.669922E+0	6.399536E-2	-1.266861E-2	-2.240295E-1	-2.186661E-1
6.386000E+9	-8.570251E-1	-2.267456E-1	8.734131E-1	2.554077E+0	6.340027E-2	-1.345825E-2	-2.272110E-1	-2.190552E-1
6.610500E+9	-8.592529E-1	-2.141113E-1	9.040527E-1	2.445801E+0	6.348419E-2	-1.519394E-2	-2.338486E-1	-2.194290E-1
6.835000E+9	-8.627625E-1	-2.015381E-1	9.263916E-1	2.340942E+0	6.280899E-2	-1.698303E-2	-2.383499E-1	-2.162170E-1
7.059500E+9	-8.641357E-1	-1.906738E-1	9.433594E-1	2.244385E+0	6.301498E-2	-1.775742E-2	-2.397614E-1	-2.188187E-1
7.284000E+9	-8.665466E-1	-1.791077E-1	9.614258E-1	2.151978E+0	6.237602E-2	-1.862144E-2	-2.484055E-1	-2.170258E-1
7.508500E+9	-8.695679E-1	-1.677856E-1	9.755859E-1	2.063232E+0	6.127930E-2	-2.033997E-2	-2.505951E-1	-2.142944E-1
7.733000E+9	-8.706055E-1	-1.567383E-1	9.879150E-1	1.980896E+0	6.153488E-2	-2.045631E-2	-2.566223E-1	-2.177124E-1
7.957500E+9	-8.726196E-1	-1.469116E-1	1.001526E+0	1.903015E+0	6.084442E-2	-2.213478E-2	-2.616730E-1	-2.158966E-1
8.182000E+9	-8.739929E-1	-1.361389E-1	1.013062E+0	1.827942E+0	6.079483E-2	-2.308846E-2	-2.672272E-1	-2.175140E-1
8.406500E+9	-8.741455E-1	-1.277771E-1	1.019165E+0	1.753235E+0	5.972290E-2	-2.415657E-2	-2.709503E-1	-2.142334E-1
8.631000E+9	-8.765564E-1	-1.177673E-1	1.027527E+0	1.682373E+0	5.953026E-2	-2.520180E-2	-2.762299E-1	-2.156372E-1
8.855500E+9	-8.763733E-1	-1.091003E-1	1.031616E+0	1.614075E+0	5.879021E-2	-2.623367E-2	-2.818909E-1	-2.129364E-1
9.080001E+9	-8.773804E-1	-1.013794E-1	1.035889E+0	1.551941E+0	5.807686E-2	-2.704430E-2	-2.855530E-1	-2.124786E-1
9.304500E+9	-8.776855E-1	-9.112549E-2	1.036682E+0	1.489441E+0	5.674934E-2	-2.845001E-2	-2.904053E-1	-2.124176E-1
9.529000E+9	-8.782043E-1	-8.489990E-2	1.038452E+0	1.429871E+0	5.669212E-2	-2.907372E-2	-2.967224E-1	-2.109680E-1
9.753500E+9	-8.784790E-1	-7.727051E-2	1.038330E+0	1.373352E+0	5.576706E-2	-3.048515E-2	-2.997742E-1	-2.097778E-1
9.978000E+9	-8.795776E-1	-6.976318E-2	1.036255E+0	1.321167E+0	5.570221E-2	-3.168106E-2	-3.043823E-1	-2.094574E-1
1.020250E+10	-8.798523E-1	-6.250000E-2	1.035767E+0	1.269165E+0	5.408859E-2	-3.167725E-2	-3.096161E-1	-2.075195E-1
1.042700E+10	-8.801270E-1	-5.505371E-2	1.034851E+0	1.219421E+0	5.415344E-2	-3.256226E-2	-3.136597E-1	-2.078400E-1
1.065150E+10	-8.786316E-1	-4.779053E-2	1.032227E+0	1.172424E+0	5.278969E-2	-3.356934E-2	-3.184204E-1	-2.069702E-1
1.087600E+10	-8.795471E-1	-4.074097E-2	1.028809E+0	1.126221E+0	5.329132E-2	-3.444481E-2	-3.238831E-1	-2.053986E-1
1.110050E+10	-8.805542E-1	-3.308105E-2	1.027283E+0	1.080261E+0	5.301476E-2	-3.510284E-2	-3.281860E-1	-2.043152E-1
1.132500E+10	-8.793335E-1	-2.734375E-2	1.022583E+0	1.038086E+0	5.085945E-2	-3.540230E-2	-3.322144E-1	-2.045898E-1
1.154950E+10	-8.800964E-1	-1.995850E-2	1.017883E+0	9.949341E-1	5.045319E-2	-3.624344E-2	-3.401489E-1	-2.016754E-1
1.177400E+10	-8.781738E-1	-1.422119E-2	1.012085E+0	9.560547E-1	4.970741E-2	-3.684616E-2	-3.438110E-1	-1.988220E-1
1.199850E+10	-8.789673E-1	-8.056641E-3	1.008179E+0	9.187012E-1	4.859924E-2	-3.773308E-2	-3.456421E-1	-2.004700E-1
1.222300E+10	-8.783569E-1	-1.556396E-3	1.001404E+0	8.794556E-1	4.855537E-2	-3.784180E-2	-3.520050E-1	-2.000122E-1
1.244750E+10	-8.768616E-1	2.990723E-3	9.941711E-1	8.424988E-1	4.724503E-2	-3.877258E-2	-3.571320E-1	-1.951294E-1
1.267200E+10	-8.792114E-1	9.857178E-3	9.873657E-1	8.094482E-1	4.686356E-2	-3.927612E-2	-3.607941E-1	-1.972961E-1
1.289650E+10	-8.766479E-1	1.467896E-2	9.798889E-1	7.751465E-1	4.554749E-2	-4.069519E-2	-3.670959E-1	-1.961060E-1
1.312100E+10	-8.761597E-1	1.950073E-2	9.720459E-1	7.438049E-1	4.470253E-2	-4.050827E-2	-3.716736E-1	-1.915131E-1
1.334550E+10	-8.770447E-1	2.563477E-2	9.653015E-1	7.128601E-1	4.370308E-2	-4.167747E-2	-3.736115E-1	-1.916504E-1
1.357000E+10	-8.744202E-1	2.978516E-2	9.579163E-1	6.814880E-1	4.307747E-2	-4.161644E-2	-3.808899E-1	-1.916504E-1
1.379450E+10	-8.754578E-1	3.564453E-2	9.500732E-1	6.541443E-1	4.189682E-2	-4.265976E-2	-3.862915E-1	-1.860809E-1
1.401900E+10	-8.737488E-1	4.028320E-2	9.432373E-1	6.283569E-1	4.098892E-2	-4.368591E-2	-3.881836E-1	-1.856384E-1
1.424350E+10	-8.734436E-1	4.638672E-2	9.337463E-1	5.992737E-1	4.066277E-2	-4.378700E-2	-3.948212E-1	-1.844788E-1
1.446800E+10	-8.734741E-1	5.123901E-2	9.265137E-1	5.726929E-1	3.994179E-2	-4.374123E-2	-3.985901E-1	-1.779633E-1
1.469250E+10	-8.709412E-1	5.657959E-2	9.178772E-1	5.470581E-1	3.918076E-2	-4.444504E-2	-4.003448E-1	-1.773376E-1
1.491700E+10	-8.713684E-1	6.134033E-2	9.104919E-1	5.225525E-1	3.710365E-2	-4.440308E-2	-4.058075E-1	-1.771851E-1
1.514150E+10	-8.684998E-1	6.579590E-2	9.002380E-1	4.985962E-1	3.663445E-2	-4.570580E-2	-4.109344E-1	-1.710510E-1
1.536600E+10	-8.682251E-1	7.086182E-2	8.908081E-1	4.755249E-1	3.604126E-2	-4.534340E-2	-4.119415E-1	-1.701508E-1
1.559050E+10	-8.671265E-1	7.568359E-2	8.831787E-1	4.519958E-1	3.552628E-2	-4.648209E-2	-4.176178E-1	-1.699677E-1
1.581500E+10	-8.663330E-1	8.016968E-2	8.736572E-1	4.306335E-1	3.414154E-2	-4.716110E-2	-4.232178E-1	-1.646423E-1
1.603950E+10	-8.661194E-1	8.523560E-2	8.655090E-1	4.097290E-1	3.377914E-2	-4.783821E-2	-4.236450E-1	-1.638031E-1
1.626400E+10	-8.648071E-1	8.923340E-2	8.557739E-1	3.893738E-1	3.240204E-2	-4.686928E-2	-4.337158E-1	-1.626282E-1
1.648850E+10	-8.646240E-1	9.292603E-2	8.458252E-1	3.705139E-1	3.092957E-2	-4.731369E-2	-4.367828E-1	-1.564026E-1
1.671300E+10	-8.627319E-1	9.817505E-2	8.355408E-1	3.502197E-1	3.004646E-2	-4.845238E-2	-4.392395E-1	-1.539764E-1
1.693750E+10	-8.628235E-1	1.024170E-1	8.284912E-1	3.327942E-1	2.894974E-2	-4.814339E-2	-4.444427E-1	-1.536713E-1
1.716200E+10	-8.611755E-1	1.071167E-1	8.193054E-1	3.157349E-1	2.865028E-2	-4.870796E-2	-4.481354E-1	-1.474762E-1
1.738650E+10	-8.599854E-1	1.106262E-1	8.119507E-1	3.009033E-1	2.676773E-2	-4.852295E-2	-4.504852E-1	-1.443176E-1
1.761100E+10	-8.583679E-1	1.149597E-1	8.010864E-1	2.822571E-1	2.589035E-2	-4.949379E-2	-4.567871E-1	-1.434784E-1
1.783550E+10	-8.582764E-1	1.202087E-1	7.924805E-1	2.663879E-1	2.429390E-2	-4.887199E-2	-4.609375E-1	-1.368713E-1
1.806000E+10	-8.575439E-1	1.233521E-1	7.840271E-1	2.507019E-1	2.349281E-2	-4.957771E-2	-4.619751E-1	-1.343994E-1
1.828450E+10	-8.556213E-1	1.282043E-1	7.739868E-1	2.373962E-1	2.494812E-2	-4.859734E-2	-4.649658E-1	-1.329346E-1
1.850900E+10	-8.544006E-1	1.310120E-1	7.678223E-1	2.220764E-1	2.259254E-2	-5.050850E-2	-4.716797E-1	-1.284943E-1
1.873350E+10	-8.551636E-1	1.363831E-1	7.579041E-1	2.066956E-1	2.190018E-2	-4.994774E-2	-4.718933E-1	-1.218262E-1
1.895800E+10	-8.516846E-1	1.392822E-1	7.485657E-1	1.921997E-1	2.099228E-2	-5.047989E-2	-4.759216E-1	-1.230927E-1
1.918250E+10	-8.509216E-1	1.426086E-1	7.386169E-1	1.786804E-1	1.903915E-2	-5.159187E-2	-4.818878E-1	-1.193390E-1
1.940700E+10	-8.482666E-1	1.481323E-1	7.290649E-1	1.644287E-1	1.873589E-2	-5.009270E-2	-4.831238E-1	-1.103821E-1
1.963150E+10	-8.503723E-1	1.523743E-1	7.217102E-1	1.529236E-1	1.803398E-2	-5.020142E-2	-4.855042E-1	-1.099854E-1
1.985600E+10	-8.482056E-1	1.539307E-1	7.119751E-1	1.421204E-1	1.551819E-2	-5.075645E-2	-4.905396E-1	-1.071930E-1
2.008050E+10	-8.458557E-1	1.575623E-1	7.032166E-1	1.301575E-1	1.466370E-2	-5.117226E-2	-4.942017E-1	-9.928894E-2
2.030500E+10	-8.455811E-1	1.615295E-1	6.946106E-1	1.197205E-1	1.527214E-2	-4.946518E-2	-4.934082E-1	-9.649658E-2
2.052950E+10	-8.450623E-1	1.643372E-1	6.836548E-1	1.094971E-1	1.291275E-2	-5.143356E-2	-4.991455E-1	-9.475708E-2
2.075400E+10	-8.430176E-1	1.671143E-1	6.800842E-1	9.838867E-2	1.240540E-2	-5.051422E-2	-5.014038E-1	-8.926392E-2
2.097850E+10	-8.435974E-1	1.713257E-1	6.689453E-1	8.758545E-2	1.048660E-2	-5.055428E-2	-5.015259E-1	-8.392334E-2
2.120300E+10	-8.394165E-1	1.740723E-1	6.594543E-1	7.934570E-2	1.037788E-2	-5.003929E-2	-5.069275E-1	-8.493042E-2
2.142750E+10	-8.396301E-1	1.779785E-1	6.514587E-1	6.817627E-2	8.657455E-3	-4.978561E-2	-5.111389E-1	-7.788086E-2
2.165200E+10	-8.388672E-1	1.836243E-1	6.435547E-1	5.804443E-2	8.153915E-3	-4.929733E-2	-5.132751E-1	-7.382202E-2
2.187650E+10	-8.372803E-1	1.842041E-1	6.330566E-1	5.273437E-2	6.265640E-3	-5.022049E-2	-5.157776E-1	-7.055664E-2
2.210100E+10	-8.362122E-1	1.889648E-1	6.267090E-1	4.064941E-2	7.087708E-3	-4.937744E-2	-5.203552E-1	-6.213379E-2
2.232550E+10	-8.333435E-1	1.915283E-1	6.213379E-1	3.421021E-2	4.428864E-3	-4.980278E-2	-5.206299E-1	-5.844116E-2
2.255000E+10	-8.351135E-1	1.952515E-1	6.111145E-1	2.645874E-2	3.498077E-3	-4.926109E-2	-5.229492E-1	-5.566406E-2
2.277450E+10	-8.320923E-1	2.001343E-1	6.040649E-1	1.623535E-2	1.174927E-3	-4.778290E-2	-5.284729E-1	-4.803467E-2
2.299900E+10	-8.293152E-1	2.011414E-1	5.958252E-1	9.063721E-3	1.207352E-3	-5.025101E-2	-5.279236E-1	-4.595947E-2
2.322350E+10	-8.281555E-1	2.065125E-1	5.892334E-1	1.037598E-3	1.312256E-3	-4.767990E-2	-5.303345E-1	-4.244995E-2
2.344800E+10	-8.260193E-1	2.083130E-1	5.797729E-1	-4.333496E-3	-1.762390E-3	-4.830551E-2	-5.331726E-1	-3.683472E-2
2.367250E+10	-8.271484E-1	2.140503E-1	5.710754E-1	-1.199341E-2	-3.183365E-3	-4.874611E-2	-5.313721E-1	-3.051758E-2
2.389700E+10	-8.226929E-1	2.152100E-1	5.666809E-1	-2.044678E-2	-3.137589E-3	-4.819489E-2	-5.370483E-1	-2.761841E-2
2.412150E+10	-8.236694E-1	2.178040E-1	5.588074E-1	-2.539062E-2	-4.985809E-3	-4.796219E-2	-5.357056E-1	-1.864624E-2
2.434600E+10	-8.217163E-1	2.231140E-1	5.494690E-1	-3.118896E-2	-5.588531E-3	-4.681969E-2	-5.365601E-1	-1.647949E-2
2.457050E+10	-8.178101E-1	2.251282E-1	5.447693E-1	-3.713989E-2	-9.075165E-3	-4.677010E-2	-5.405884E-1	-1.214600E-2
2.479500E+10	-8.189087E-1	2.287292E-1	5.350342E-1	-4.412842E-2	-8.695602E-3	-4.612160E-2	-5.390320E-1	-5.004883E-3
2.501950E+10	-8.152771E-1	2.311401E-1	5.275879E-1	-4.885864E-2	-9.027481E-3	-4.294395E-2	-5.394592E-1	-3.417969E-3
2.524400E+10	-8.152771E-1	2.326660E-1	5.193787E-1	-5.416870E-2	-1.053810E-2	-4.279137E-2	-5.410461E-1	6.713867E-4
2.546850E+10	-8.113403E-1	2.378235E-1	5.123596E-1	-5.621338E-2	-1.018715E-2	-4.154396E-2	-5.423279E-1	6.652832E-3
2.569300E+10	-8.101501E-1	2.379761E-1	5.057678E-1	-6.161499E-2	-1.200294E-2	-4.277611E-2	-5.465088E-1	8.941650E-3
2.591750E+10	-8.102112E-1	2.437134E-1	4.990845E-1	-6.591797E-2	-1.320267E-2	-3.969193E-2	-5.481873E-1	1.235962E-2
2.614200E+10	-8.071289E-1	2.465820E-1	4.945679E-1	-7.049561E-2	-1.337814E-2	-4.207802E-2	-5.520630E-1	2.053833E-2
2.636650E+10	-8.070679E-1	2.475891E-1	4.888916E-1	-7.405090E-2	-1.417351E-2	-4.082298E-2	-5.531311E-1	2.731323E-2
2.659100E+10	-8.040771E-1	2.517700E-1	4.803467E-1	-7.939148E-2	-1.512146E-2	-3.892517E-2	-5.500488E-1	3.079224E-2
2.681550E+10	-8.032227E-1	2.521973E-1	4.754333E-1	-8.355713E-2	-1.594353E-2	-3.801918E-2	-5.553589E-1	3.265381E-2
2.704000E+10	-8.032227E-1	2.581177E-1	4.685974E-1	-8.769226E-2	-1.732826E-2	-3.725433E-2	-5.554199E-1	4.473877E-2
2.726450E+10	-8.002014E-1	2.618103E-1	4.635773E-1	-9.367371E-2	-1.660538E-2	-3.915787E-2	-5.495300E-1	4.727173E-2
2.748900E+10	-7.973633E-1	2.626038E-1	4.575500E-1	-9.577942E-2	-1.861763E-2	-3.792572E-2	-5.533447E-1	4.916382E-2
2.771350E+10	-7.965393E-1	2.649231E-1	4.511108E-1	-9.791565E-2	-1.945496E-2	-3.516960E-2	-5.540466E-1	5.612183E-2
2.793800E+10	-7.947388E-1	2.681580E-1	4.460449E-1	-1.033325E-1	-2.172470E-2	-3.691673E-2	-5.571594E-1	5.886841E-2
2.816250E+10	-7.945862E-1	2.712402E-1	4.404449E-1	-1.033478E-1	-1.892471E-2	-3.581238E-2	-5.584717E-1	6.451416E-2
2.838700E+10	-7.918396E-1	2.702332E-1	4.341888E-1	-1.061554E-1	-2.376366E-2	-3.374672E-2	-5.580750E-1	7.150269E-2
2.861150E+10	-7.895508E-1	2.748108E-1	4.300232E-1	-1.124115E-1	-2.550888E-2	-3.141022E-2	-5.542908E-1	7.479858E-2
2.883600E+10	-7.878113E-1	2.777710E-1	4.232025E-1	-1.122742E-1	-2.454472E-2	-2.955246E-2	-5.548096E-1	7.739258E-2
2.906050E+10	-7.882080E-1	2.820740E-1	4.172668E-1	-1.150665E-1	-2.601433E-2	-3.134155E-2	-5.568542E-1	8.673096E-2
2.928500E+10	-7.856750E-1	2.860107E-1	4.168091E-1	-1.169128E-1	-2.428055E-2	-2.599907E-2	-5.560303E-1	8.932495E-2
2.950950E+10	-7.828674E-1	2.868042E-1	4.087524E-1	-1.230164E-1	-2.707481E-2	-2.808380E-2	-5.619202E-1	9.524536E-2
2.973400E+10	-7.825623E-1	2.857056E-1	4.069672E-1	-1.234436E-1	-2.934361E-2	-2.771091E-2	-5.591431E-1	1.023560E-1
2.995850E+10	-7.809448E-1	2.933044E-1	3.988953E-1	-1.266785E-1	-2.549648E-2	-2.837944E-2	-5.612793E-1	1.085815E-1
3.018300E+10	-7.760925E-1	2.934875E-1	3.960571E-1	-1.305695E-1	-2.685070E-2	-2.406216E-2	-5.627747E-1	1.149292E-1
3.040750E+10	-7.767639E-1	2.968750E-1	3.936462E-1	-1.300964E-1	-2.552891E-2	-2.170944E-2	-5.639954E-1	1.170349E-1
3.063200E+10	-7.745667E-1	3.007507E-1	3.864899E-1	-1.334839E-1	-2.784157E-2	-2.438736E-2	-5.635986E-1	1.289673E-1
3.085650E+10	-7.733765E-1	3.014221E-1	3.843842E-1	-1.376801E-1	-2.837753E-2	-2.142334E-2	-5.607300E-1	1.325073E-1
3.108100E+10	-7.696533E-1	3.010559E-1	3.764648E-1	-1.368103E-1	-3.048897E-2	-2.059174E-2	-5.601807E-1	1.376343E-1
3.130550E+10	-7.693176E-1	3.072815E-1	3.694000E-1	-1.424408E-1	-3.163719E-2	-1.563072E-2	-5.574341E-1	1.449585E-1
3.153000E+10	-7.707214E-1	3.075256E-1	3.699036E-1	-1.438751E-1	-3.372955E-2	-1.448822E-2	-5.583496E-1	1.438599E-1
3.175450E+10	-7.656250E-1	3.099976E-1	3.649139E-1	-1.445465E-1	-3.361320E-2	-1.524544E-2	-5.604858E-1	1.567383E-1
3.197900E+10	-7.634888E-1	3.126526E-1	3.581390E-1	-1.496124E-1	-2.992058E-2	-1.573277E-2	-5.560913E-1	1.612854E-1
3.220350E+10	-7.648926E-1	3.165588E-1	3.552246E-1	-1.539764E-1	-3.203964E-2	-1.688385E-2	-5.567322E-1	1.678162E-1
3.242800E+10	-7.624512E-1	3.183289E-1	3.546600E-1	-1.529999E-1	-3.359413E-2	-1.491547E-2	-5.570679E-1	1.719666E-1
3.265250E+10	-7.609863E-1	3.225708E-1	3.497467E-1	-1.548462E-1	-3.175545E-2	-6.099701E-3	-5.491028E-1	1.746216E-1
3.287700E+10	-7.613831E-1	3.274231E-1	3.463287E-1	-1.577606E-1	-3.103542E-2	-8.818626E-3	-5.550842E-1	1.818848E-1
3.310150E+10	-7.586975E-1	3.230286E-1	3.445129E-1	-1.591492E-1	-3.021145E-2	-8.152008E-3	-5.462952E-1	1.870422E-1
3.332600E+10	-7.551575E-1	3.295593E-1	3.342743E-1	-1.586914E-1	-3.461075E-2	-7.879257E-3	-5.505676E-1	1.900940E-1
3.355050E+10	-7.539368E-1	3.306580E-1	3.394012E-1	-1.636200E-1	-3.258324E-2	-3.656387E-3	-5.464172E-1	1.999207E-1
3.377500E+10	-7.508545E-1	3.318787E-1	3.307037E-1	-1.620178E-1	-2.836037E-2	-3.499985E-3	-5.424500E-1	2.056885E-1
3.399950E+10	-7.459717E-1	3.344421E-1	3.256226E-1	-1.652374E-1	-3.728104E-2	-1.098633E-3	-5.468140E-1	2.052917E-1
3.422400E+10	-7.494507E-1	3.381958E-1	3.255920E-1	-1.682892E-1	-3.440285E-2	-3.013611E-4	-5.480652E-1	2.213135E-1
3.444850E+10	-7.502747E-1	3.372803E-1	3.229828E-1	-1.720581E-1	-3.514099E-2	5.245209E-4	-5.447388E-1	2.216187E-1
3.467300E+10	-7.455750E-1	3.386841E-1	3.296051E-1	-1.712952E-1	-3.639030E-2	2.864838E-3	-5.451965E-1	2.329712E-1
3.489750E+10	-7.429810E-1	3.440857E-1	3.149872E-1	-1.743164E-1	-3.319931E-2	5.064011E-3	-5.443726E-1	2.403259E-1
3.512200E+10	-7.439880E-1	3.459473E-1	3.097382E-1	-1.737061E-1	-3.106499E-2	2.010345E-3	-5.355225E-1	2.388000E-1
3.534650E+10	-7.394104E-1	3.454895E-1	3.106384E-1	-1.782379E-1	-2.992535E-2	3.640175E-3	-5.383606E-1	2.503357E-1
3.557100E+10	-7.400208E-1	3.465881E-1	3.018951E-1	-1.824951E-1	-3.058147E-2	5.465508E-3	-5.317688E-1	2.583313E-1
3.579550E+10	-7.373962E-1	3.482666E-1	3.082733E-1	-1.832733E-1	-3.054523E-2	1.175499E-2	-5.294495E-1	2.654114E-1
3.602000E+10	-7.372131E-1	3.482971E-1	3.031616E-1	-1.864166E-1	-3.537941E-2	7.572174E-3	-5.302124E-1	2.669983E-1
3.624450E+10	-7.346497E-1	3.583069E-1	2.987518E-1	-1.800537E-1	-3.807831E-2	7.663727E-3	-5.293579E-1	2.783203E-1
3.646900E+10	-7.346497E-1	3.575439E-1	2.971649E-1	-1.931915E-1	-3.407478E-2	1.701355E-2	-5.234680E-1	2.888794E-1
3.669350E+10	-7.290649E-1	3.604431E-1	2.939758E-1	-1.890717E-1	-3.469086E-2	1.501465E-2	-5.173035E-1	2.884521E-1
3.691800E+10	-7.297363E-1	3.598938E-1	2.860565E-1	-1.923218E-1	-3.181267E-2	1.547241E-2	-5.162659E-1	2.991333E-1
3.714250E+10	-7.279358E-1	3.608093E-1	2.842560E-1	-1.927948E-1	-3.545189E-2	2.029610E-2	-5.049438E-1	2.982483E-1
3.736700E+10	-7.242126E-1	3.653259E-1	2.835541E-1	-1.964722E-1	-2.928543E-2	1.896763E-2	-5.063171E-1	3.013306E-1
3.759150E+10	-7.243042E-1	3.656921E-1	2.795868E-1	-1.956787E-1	-3.323174E-2	1.765060E-2	-5.015259E-1	3.093262E-1
3.781600E+10	-7.217407E-1	3.682861E-1	2.769928E-1	-2.007446E-1	-2.900219E-2	2.300644E-2	-5.030212E-1	3.182068E-1
3.804050E+10	-7.197876E-1	3.690796E-1	2.731171E-1	-1.988220E-1	-2.932453E-2	1.950455E-2	-4.899292E-1	3.251801E-1
3.826500E+10	-7.129517E-1	3.669434E-1	2.778320E-1	-1.994324E-1	-2.799225E-2	2.214241E-2	-4.933624E-1	3.359070E-1
3.848950E+10	-7.160950E-1	3.755188E-1	2.694244E-1	-2.024689E-1	-2.774048E-2	2.432251E-2	-4.867554E-1	3.396759E-1
3.871400E+10	-7.176208E-1	3.711853E-1	2.615356E-1	-2.046356E-1	-2.617168E-2	2.286434E-2	-4.792023E-1	3.421173E-1
3.893850E+10	-7.164612E-1	3.785400E-1	2.626648E-1	-2.117615E-1	-2.451706E-2	2.699471E-2	-4.714813E-1	3.499298E-1
3.916300E+10	-7.108459E-1	3.776855E-1	2.657776E-1	-2.084503E-1	-2.847862E-2	2.745628E-2	-4.702911E-1	3.507843E-1
