!Date: 10/28/2005, 12:46 PM

!Vgs = -8.000000E+0
!Vds = 7.500000E+0
!Ig = -1.067500E-4
!Id = 1.560500E-3

# HZ S RI R 50
1.000000E+8	9.906921E-1	-3.622437E-2	-1.108027E-2	1.245737E-2	2.013683E-3	1.012373E-2	9.899597E-1	-1.174927E-2
3.245000E+8	9.791870E-1	-1.022034E-1	-6.433487E-3	3.594780E-2	5.949020E-3	3.474998E-2	9.686584E-1	-8.807373E-2
5.490000E+8	9.652405E-1	-1.659546E-1	4.730225E-4	5.930710E-2	1.272392E-2	5.726051E-2	9.620667E-1	-1.442566E-1
7.735000E+8	9.479980E-1	-2.286682E-1	1.024246E-2	8.008575E-2	2.210617E-2	7.713318E-2	9.455566E-1	-1.999207E-1
9.980000E+8	9.276428E-1	-2.867432E-1	2.192307E-2	9.956741E-2	3.305817E-2	9.590149E-2	9.278870E-1	-2.495422E-1
1.222500E+9	9.037170E-1	-3.440247E-1	3.466034E-2	1.173172E-1	4.596329E-2	1.130257E-1	9.076843E-1	-2.998962E-1
1.447000E+9	8.763733E-1	-3.979797E-1	4.908752E-2	1.328812E-1	5.975342E-2	1.278687E-1	8.844604E-1	-3.485413E-1
1.671500E+9	8.459473E-1	-4.494629E-1	6.454468E-2	1.481323E-1	7.469940E-2	1.427231E-1	8.582458E-1	-3.921204E-1
1.896000E+9	8.135681E-1	-4.964294E-1	8.296204E-2	1.621857E-1	9.259796E-2	1.559906E-1	8.342590E-1	-4.317627E-1
2.120500E+9	7.798767E-1	-5.411072E-1	1.028137E-1	1.720200E-1	1.112976E-1	1.658630E-1	8.079529E-1	-4.746704E-1
2.345000E+9	7.417603E-1	-5.839844E-1	1.227036E-1	1.796875E-1	1.315765E-1	1.727753E-1	7.778015E-1	-5.133667E-1
2.569500E+9	7.049255E-1	-6.205139E-1	1.428146E-1	1.849213E-1	1.503677E-1	1.777649E-1	7.486572E-1	-5.495911E-1
2.794000E+9	6.661987E-1	-6.560364E-1	1.622620E-1	1.881332E-1	1.690598E-1	1.806641E-1	7.171021E-1	-5.827942E-1
3.018500E+9	6.266479E-1	-6.871338E-1	1.815262E-1	1.891937E-1	1.878357E-1	1.818924E-1	6.837769E-1	-6.140442E-1
3.243000E+9	5.862427E-1	-7.156067E-1	2.012558E-1	1.887283E-1	2.070236E-1	1.813889E-1	6.495056E-1	-6.451416E-1
3.467500E+9	5.468750E-1	-7.422180E-1	2.190399E-1	1.870041E-1	2.253571E-1	1.794739E-1	6.161499E-1	-6.700439E-1
3.692000E+9	5.066528E-1	-7.647095E-1	2.369385E-1	1.836166E-1	2.423859E-1	1.757812E-1	5.825500E-1	-6.969299E-1
3.916500E+9	4.654846E-1	-7.855530E-1	2.546082E-1	1.782684E-1	2.589417E-1	1.705017E-1	5.448608E-1	-7.177124E-1
4.141000E+9	4.270935E-1	-8.032532E-1	2.718658E-1	1.726685E-1	2.753601E-1	1.647949E-1	5.124817E-1	-7.368164E-1
4.365500E+9	3.888855E-1	-8.191223E-1	2.878571E-1	1.652222E-1	2.905273E-1	1.572876E-1	4.785156E-1	-7.576904E-1
4.590000E+9	3.487549E-1	-8.340759E-1	3.022308E-1	1.564484E-1	3.047333E-1	1.484680E-1	4.409180E-1	-7.736816E-1
4.814500E+9	3.116760E-1	-8.445435E-1	3.161621E-1	1.468201E-1	3.184052E-1	1.393280E-1	4.086609E-1	-7.877502E-1
5.039000E+9	2.741699E-1	-8.549805E-1	3.293610E-1	1.359558E-1	3.316345E-1	1.291046E-1	3.745117E-1	-8.034668E-1
5.263500E+9	2.370911E-1	-8.619385E-1	3.417664E-1	1.247864E-1	3.427124E-1	1.177673E-1	3.392334E-1	-8.138123E-1
5.488000E+9	2.028198E-1	-8.680725E-1	3.520508E-1	1.130371E-1	3.529663E-1	1.056976E-1	3.085022E-1	-8.233032E-1
5.712500E+9	1.665649E-1	-8.735352E-1	3.619080E-1	1.007690E-1	3.623199E-1	9.368896E-2	2.753906E-1	-8.344116E-1
5.937000E+9	1.341858E-1	-8.754883E-1	3.703613E-1	8.758545E-2	3.713989E-1	8.068848E-2	2.416077E-1	-8.414917E-1
6.161500E+9	1.025696E-1	-8.792419E-1	3.783722E-1	7.484436E-2	3.783417E-1	6.811523E-2	2.110901E-1	-8.484192E-1
6.386000E+9	7.009888E-2	-8.808289E-1	3.844757E-1	6.126404E-2	3.843079E-1	5.493164E-2	1.787109E-1	-8.536682E-1
6.610500E+9	4.086304E-2	-8.814392E-1	3.902130E-1	4.789734E-2	3.896484E-1	4.168701E-2	1.459656E-1	-8.582458E-1
6.835000E+9	9.918213E-3	-8.808594E-1	3.945618E-1	3.552246E-2	3.944550E-1	2.890015E-2	1.161499E-1	-8.605652E-1
7.059500E+9	-1.785278E-2	-8.785400E-1	3.982239E-1	2.223206E-2	3.976593E-1	1.699829E-2	8.859253E-2	-8.622437E-1
7.284000E+9	-4.617310E-2	-8.759766E-1	4.013977E-1	8.865356E-3	4.004822E-1	3.143311E-3	5.703735E-2	-8.636780E-1
7.508500E+9	-7.363892E-2	-8.732300E-1	4.035187E-1	-4.776001E-3	4.029236E-1	-9.933472E-3	2.865601E-2	-8.616028E-1
7.733000E+9	-1.000366E-1	-8.691711E-1	4.049225E-1	-1.736450E-2	4.040833E-1	-2.191162E-2	1.708984E-3	-8.622742E-1
7.957500E+9	-1.251221E-1	-8.651123E-1	4.058533E-1	-2.999878E-2	4.044647E-1	-3.477478E-2	-2.688599E-2	-8.612061E-1
8.182000E+9	-1.493225E-1	-8.607178E-1	4.067993E-1	-4.202271E-2	4.052124E-1	-4.673767E-2	-5.236816E-2	-8.598633E-1
8.406500E+9	-1.729126E-1	-8.551941E-1	4.055939E-1	-5.432129E-2	4.043121E-1	-5.926514E-2	-8.105469E-2	-8.542480E-1
8.631000E+9	-1.973572E-1	-8.495483E-1	4.046478E-1	-6.700134E-2	4.030914E-1	-7.154846E-2	-1.065979E-1	-8.522644E-1
8.855500E+9	-2.184448E-1	-8.448486E-1	4.042511E-1	-7.797241E-2	4.015350E-1	-8.264160E-2	-1.325989E-1	-8.476562E-1
9.080001E+9	-2.396545E-1	-8.398132E-1	4.020996E-1	-8.882141E-2	4.003448E-1	-9.272766E-2	-1.559143E-1	-8.412781E-1
9.304500E+9	-2.615051E-1	-8.311157E-1	3.989105E-1	-1.002808E-1	3.969421E-1	-1.037750E-1	-1.806641E-1	-8.353577E-1
9.529000E+9	-2.810974E-1	-8.250122E-1	3.971100E-1	-1.111908E-1	3.936768E-1	-1.150360E-1	-2.044373E-1	-8.293762E-1
9.753500E+9	-3.016663E-1	-8.181458E-1	3.942871E-1	-1.215057E-1	3.910217E-1	-1.247559E-1	-2.255249E-1	-8.225708E-1
9.978000E+9	-3.191833E-1	-8.111572E-1	3.906403E-1	-1.309967E-1	3.869171E-1	-1.344452E-1	-2.479553E-1	-8.176880E-1
1.020250E+10	-3.380432E-1	-8.048706E-1	3.862915E-1	-1.410217E-1	3.842468E-1	-1.444550E-1	-2.709656E-1	-8.078003E-1
1.042700E+10	-3.568726E-1	-7.959595E-1	3.822937E-1	-1.510315E-1	3.799591E-1	-1.537933E-1	-2.906189E-1	-8.005676E-1
1.065150E+10	-3.728027E-1	-7.879944E-1	3.778534E-1	-1.596069E-1	3.750153E-1	-1.622620E-1	-3.109131E-1	-7.929687E-1
1.087600E+10	-3.899841E-1	-7.796631E-1	3.723755E-1	-1.679993E-1	3.704681E-1	-1.715546E-1	-3.322144E-1	-7.844238E-1
1.110050E+10	-4.069519E-1	-7.714844E-1	3.673248E-1	-1.767426E-1	3.646698E-1	-1.790924E-1	-3.531494E-1	-7.763367E-1
1.132500E+10	-4.224854E-1	-7.641296E-1	3.625336E-1	-1.844788E-1	3.600922E-1	-1.864471E-1	-3.698120E-1	-7.685242E-1
1.154950E+10	-4.382935E-1	-7.550049E-1	3.574371E-1	-1.926727E-1	3.541718E-1	-1.953888E-1	-3.911438E-1	-7.573242E-1
1.177400E+10	-4.528198E-1	-7.477722E-1	3.514709E-1	-1.998138E-1	3.491058E-1	-2.028046E-1	-4.075317E-1	-7.462769E-1
1.199850E+10	-4.689026E-1	-7.396240E-1	3.468475E-1	-2.080231E-1	3.440704E-1	-2.095947E-1	-4.240112E-1	-7.388611E-1
1.222300E+10	-4.810791E-1	-7.307434E-1	3.409424E-1	-2.145233E-1	3.382263E-1	-2.159424E-1	-4.430542E-1	-7.278137E-1
1.244750E+10	-4.959717E-1	-7.223206E-1	3.346863E-1	-2.221222E-1	3.325958E-1	-2.237091E-1	-4.602661E-1	-7.155457E-1
1.267200E+10	-5.084839E-1	-7.140198E-1	3.301086E-1	-2.273102E-1	3.275757E-1	-2.290497E-1	-4.747314E-1	-7.082214E-1
1.289650E+10	-5.209351E-1	-7.052917E-1	3.228607E-1	-2.327728E-1	3.203125E-1	-2.341309E-1	-4.917908E-1	-6.976013E-1
1.312100E+10	-5.337524E-1	-6.969299E-1	3.175507E-1	-2.390442E-1	3.139801E-1	-2.409058E-1	-5.075684E-1	-6.827393E-1
1.334550E+10	-5.457764E-1	-6.875000E-1	3.114014E-1	-2.454224E-1	3.085937E-1	-2.460785E-1	-5.193176E-1	-6.751709E-1
1.357000E+10	-5.587463E-1	-6.786499E-1	3.048401E-1	-2.491608E-1	3.002167E-1	-2.518311E-1	-5.364685E-1	-6.648254E-1
1.379450E+10	-5.670166E-1	-6.722717E-1	2.988434E-1	-2.549744E-1	2.965851E-1	-2.550354E-1	-5.501404E-1	-6.492920E-1
1.401900E+10	-5.783081E-1	-6.628723E-1	2.931061E-1	-2.591095E-1	2.894897E-1	-2.619781E-1	-5.604553E-1	-6.395569E-1
1.424350E+10	-5.903320E-1	-6.529541E-1	2.858276E-1	-2.637329E-1	2.838135E-1	-2.658844E-1	-5.761414E-1	-6.281128E-1
1.446800E+10	-5.998535E-1	-6.454468E-1	2.796021E-1	-2.691193E-1	2.771606E-1	-2.697449E-1	-5.893250E-1	-6.134644E-1
1.469250E+10	-6.097717E-1	-6.359863E-1	2.736664E-1	-2.729797E-1	2.704315E-1	-2.739410E-1	-5.983276E-1	-6.037292E-1
1.491700E+10	-6.205750E-1	-6.289062E-1	2.662201E-1	-2.768250E-1	2.643890E-1	-2.771301E-1	-6.125488E-1	-5.937500E-1
1.514150E+10	-6.296692E-1	-6.191406E-1	2.598572E-1	-2.798767E-1	2.579041E-1	-2.809296E-1	-6.257019E-1	-5.773621E-1
1.536600E+10	-6.395569E-1	-6.106873E-1	2.540894E-1	-2.829132E-1	2.516022E-1	-2.849426E-1	-6.339722E-1	-5.658875E-1
1.559050E+10	-6.481323E-1	-6.015930E-1	2.469788E-1	-2.870026E-1	2.438965E-1	-2.863312E-1	-6.461487E-1	-5.554810E-1
1.581500E+10	-6.572876E-1	-5.926514E-1	2.402344E-1	-2.909546E-1	2.380371E-1	-2.904053E-1	-6.581726E-1	-5.411377E-1
1.603950E+10	-6.665344E-1	-5.848083E-1	2.350311E-1	-2.930298E-1	2.327423E-1	-2.944489E-1	-6.664124E-1	-5.296021E-1
1.626400E+10	-6.749573E-1	-5.762939E-1	2.290039E-1	-2.947083E-1	2.258911E-1	-2.960358E-1	-6.778259E-1	-5.185547E-1
1.648850E+10	-6.836243E-1	-5.677185E-1	2.221222E-1	-2.990265E-1	2.197418E-1	-2.985077E-1	-6.868286E-1	-5.036926E-1
1.671300E+10	-6.910706E-1	-5.586548E-1	2.154236E-1	-2.996368E-1	2.138367E-1	-3.009033E-1	-6.942139E-1	-4.922791E-1
1.693750E+10	-6.973877E-1	-5.512695E-1	2.108002E-1	-3.032074E-1	2.078857E-1	-3.028564E-1	-7.059937E-1	-4.791260E-1
1.716200E+10	-7.064514E-1	-5.429993E-1	2.035370E-1	-3.037415E-1	2.016907E-1	-3.040314E-1	-7.129822E-1	-4.641418E-1
1.738650E+10	-7.134094E-1	-5.340881E-1	1.974487E-1	-3.061218E-1	1.952667E-1	-3.058319E-1	-7.194824E-1	-4.523315E-1
1.761100E+10	-7.196350E-1	-5.257568E-1	1.921234E-1	-3.077698E-1	1.896057E-1	-3.069000E-1	-7.282410E-1	-4.420166E-1
1.783550E+10	-7.278137E-1	-5.164490E-1	1.859131E-1	-3.097229E-1	1.842957E-1	-3.082581E-1	-7.383423E-1	-4.275513E-1
1.806000E+10	-7.357483E-1	-5.093689E-1	1.795959E-1	-3.111115E-1	1.780853E-1	-3.112488E-1	-7.426758E-1	-4.143066E-1
1.828450E+10	-7.416382E-1	-5.020752E-1	1.742401E-1	-3.118286E-1	1.728973E-1	-3.120575E-1	-7.521362E-1	-4.049988E-1
1.850900E+10	-7.490540E-1	-4.922485E-1	1.694641E-1	-3.117371E-1	1.673889E-1	-3.128357E-1	-7.593689E-1	-3.886108E-1
1.873350E+10	-7.553711E-1	-4.846191E-1	1.631317E-1	-3.155365E-1	1.598969E-1	-3.148041E-1	-7.640381E-1	-3.754272E-1
1.895800E+10	-7.600403E-1	-4.772034E-1	1.571655E-1	-3.143005E-1	1.548767E-1	-3.144379E-1	-7.684631E-1	-3.654175E-1
1.918250E+10	-7.675171E-1	-4.677124E-1	1.513062E-1	-3.165436E-1	1.499329E-1	-3.164215E-1	-7.757263E-1	-3.530273E-1
1.940700E+10	-7.736816E-1	-4.584351E-1	1.449890E-1	-3.161774E-1	1.434021E-1	-3.159027E-1	-7.814331E-1	-3.339844E-1
1.963150E+10	-7.804871E-1	-4.500732E-1	1.393738E-1	-3.167419E-1	1.380463E-1	-3.176422E-1	-7.836304E-1	-3.264771E-1
1.985600E+10	-7.828369E-1	-4.427795E-1	1.342773E-1	-3.164368E-1	1.332092E-1	-3.171692E-1	-7.927246E-1	-3.142395E-1
2.008050E+10	-7.899475E-1	-4.360657E-1	1.292877E-1	-3.179169E-1	1.276398E-1	-3.173218E-1	-7.971802E-1	-2.955322E-1
2.030500E+10	-7.938538E-1	-4.275208E-1	1.226654E-1	-3.169250E-1	1.221771E-1	-3.176880E-1	-7.994690E-1	-2.857971E-1
2.052950E+10	-7.998047E-1	-4.203186E-1	1.170349E-1	-3.181763E-1	1.159515E-1	-3.176575E-1	-8.060608E-1	-2.751160E-1
2.075400E+10	-8.041382E-1	-4.123230E-1	1.124725E-1	-3.185425E-1	1.130066E-1	-3.185577E-1	-8.078918E-1	-2.602844E-1
2.097850E+10	-8.082886E-1	-4.039612E-1	1.082001E-1	-3.187256E-1	1.064606E-1	-3.180389E-1	-8.092041E-1	-2.486267E-1
2.120300E+10	-8.128052E-1	-3.943176E-1	1.040344E-1	-3.177338E-1	1.011353E-1	-3.174286E-1	-8.161926E-1	-2.396545E-1
2.142750E+10	-8.197632E-1	-3.886414E-1	9.857178E-2	-3.183746E-1	9.710693E-2	-3.177948E-1	-8.200684E-1	-2.221069E-1
2.165200E+10	-8.244324E-1	-3.781433E-1	9.532166E-2	-3.161926E-1	9.097290E-2	-3.175812E-1	-8.216858E-1	-2.112427E-1
2.187650E+10	-8.287964E-1	-3.699646E-1	8.853149E-2	-3.176422E-1	8.818054E-2	-3.178864E-1	-8.263245E-1	-2.011108E-1
2.210100E+10	-8.345947E-1	-3.602905E-1	8.332825E-2	-3.174286E-1	8.374023E-2	-3.158569E-1	-8.304443E-1	-1.840820E-1
2.232550E+10	-8.367920E-1	-3.542480E-1	7.864380E-2	-3.160706E-1	7.882690E-2	-3.170929E-1	-8.305969E-1	-1.707153E-1
2.255000E+10	-8.415222E-1	-3.456116E-1	7.481384E-2	-3.153534E-1	7.220459E-2	-3.159943E-1	-8.352356E-1	-1.612549E-1
2.277450E+10	-8.455505E-1	-3.355713E-1	6.979370E-2	-3.146667E-1	6.819153E-2	-3.154144E-1	-8.379517E-1	-1.459961E-1
2.299900E+10	-8.485413E-1	-3.281555E-1	6.640625E-2	-3.148651E-1	6.350708E-2	-3.158417E-1	-8.373108E-1	-1.325684E-1
2.322350E+10	-8.530884E-1	-3.206482E-1	6.167603E-2	-3.155365E-1	6.047058E-2	-3.153534E-1	-8.423157E-1	-1.230774E-1
2.344800E+10	-8.532104E-1	-3.141785E-1	5.734253E-2	-3.142853E-1	5.610657E-2	-3.139801E-1	-8.428345E-1	-1.062317E-1
2.367250E+10	-8.565369E-1	-3.031616E-1	5.136108E-2	-3.131256E-1	5.062866E-2	-3.135529E-1	-8.399658E-1	-9.216309E-2
2.389700E+10	-8.598328E-1	-2.964172E-1	4.747009E-2	-3.146210E-1	4.434204E-2	-3.133087E-1	-8.461609E-1	-8.245850E-2
2.412150E+10	-8.618774E-1	-2.897339E-1	4.220581E-2	-3.123779E-1	3.985596E-2	-3.130646E-1	-8.436584E-1	-6.500244E-2
2.434600E+10	-8.623657E-1	-2.828979E-1	3.739929E-2	-3.105164E-1	3.640747E-2	-3.097534E-1	-8.426208E-1	-5.471802E-2
2.457050E+10	-8.658752E-1	-2.773743E-1	3.353882E-2	-3.086548E-1	3.065491E-2	-3.092194E-1	-8.450012E-1	-4.312134E-2
2.479500E+10	-8.686523E-1	-2.690735E-1	2.919006E-2	-3.100281E-1	2.671814E-2	-3.097839E-1	-8.426208E-1	-2.719116E-2
2.501950E+10	-8.721619E-1	-2.632141E-1	2.595520E-2	-3.078308E-1	2.355957E-2	-3.089447E-1	-8.390503E-1	-1.861572E-2
2.524400E+10	-8.769531E-1	-2.559204E-1	2.005005E-2	-3.077545E-1	1.704407E-2	-3.069611E-1	-8.394470E-1	-8.056641E-3
2.546850E+10	-8.786011E-1	-2.480774E-1	1.727295E-2	-3.072357E-1	1.586914E-2	-3.043213E-1	-8.376465E-1	6.286621E-3
2.569300E+10	-8.819580E-1	-2.436523E-1	1.298523E-2	-3.024597E-1	1.271057E-2	-3.019867E-1	-8.370972E-1	1.519775E-2
2.591750E+10	-8.876038E-1	-2.329102E-1	1.213074E-2	-3.027649E-1	9.567261E-3	-2.993622E-1	-8.356323E-1	2.746582E-2
2.614200E+10	-8.863831E-1	-2.237244E-1	7.949829E-3	-3.006134E-1	5.340576E-3	-3.005066E-1	-8.380737E-1	4.153442E-2
2.636650E+10	-8.932495E-1	-2.185059E-1	1.983643E-3	-3.011017E-1	9.307861E-4	-3.007812E-1	-8.372192E-1	5.587769E-2
2.659100E+10	-8.908081E-1	-2.099304E-1	-1.617432E-3	-2.982025E-1	-1.586914E-3	-2.982941E-1	-8.312378E-1	6.585693E-2
2.681550E+10	-8.934631E-1	-2.060242E-1	-5.676270E-3	-2.983093E-1	-6.072998E-3	-2.968903E-1	-8.324585E-1	7.577515E-2
2.704000E+10	-8.979492E-1	-1.955261E-1	-8.453369E-3	-2.944489E-1	-8.605957E-3	-2.968445E-1	-8.305664E-1	9.497070E-2
2.726450E+10	-8.965454E-1	-1.929321E-1	-1.289368E-2	-2.959900E-1	-1.351929E-2	-2.972107E-1	-8.236389E-1	1.039734E-1
2.748900E+10	-8.981934E-1	-1.831970E-1	-1.428223E-2	-2.953339E-1	-1.618958E-2	-2.947083E-1	-8.250732E-1	1.109314E-1
2.771350E+10	-9.010620E-1	-1.761475E-1	-1.931763E-2	-2.921906E-1	-2.166748E-2	-2.917938E-1	-8.197327E-1	1.279297E-1
2.793800E+10	-9.066162E-1	-1.695251E-1	-2.140808E-2	-2.944183E-1	-2.464294E-2	-2.891083E-1	-8.170166E-1	1.369629E-1
2.816250E+10	-9.057312E-1	-1.593628E-1	-2.595520E-2	-2.904205E-1	-2.824402E-2	-2.885590E-1	-8.132935E-1	1.453857E-1
2.838700E+10	-9.071655E-1	-1.525879E-1	-2.934265E-2	-2.886810E-1	-3.039551E-2	-2.874908E-1	-8.107300E-1	1.602478E-1
2.861150E+10	-9.068298E-1	-1.452332E-1	-3.366089E-2	-2.883759E-1	-3.811646E-2	-2.889404E-1	-8.023987E-1	1.708374E-1
2.883600E+10	-9.088440E-1	-1.395569E-1	-3.642273E-2	-2.846985E-1	-3.999329E-2	-2.869415E-1	-8.024292E-1	1.781006E-1
2.906050E+10	-9.120178E-1	-1.337280E-1	-4.121399E-2	-2.831268E-1	-4.290771E-2	-2.798309E-1	-7.966919E-1	1.949158E-1
2.928500E+10	-9.109802E-1	-1.271057E-1	-4.185486E-2	-2.815704E-1	-4.450989E-2	-2.813568E-1	-7.920227E-1	2.010803E-1
2.950950E+10	-9.151001E-1	-1.176453E-1	-4.705811E-2	-2.817688E-1	-4.521179E-2	-2.813873E-1	-7.894592E-1	2.114868E-1
2.973400E+10	-9.165039E-1	-1.138916E-1	-4.847717E-2	-2.783051E-1	-5.065918E-2	-2.767944E-1	-7.886963E-1	2.256165E-1
2.995850E+10	-9.145508E-1	-1.026917E-1	-5.203247E-2	-2.774200E-1	-5.526733E-2	-2.769318E-1	-7.896729E-1	2.338257E-1
3.018300E+10	-9.170837E-1	-9.552002E-2	-5.532837E-2	-2.757263E-1	-5.633545E-2	-2.747345E-1	-7.828979E-1	2.527466E-1
3.040750E+10	-9.181519E-1	-8.956909E-2	-5.752563E-2	-2.731628E-1	-5.938721E-2	-2.739258E-1	-7.713928E-1	2.613220E-1
3.063200E+10	-9.188232E-1	-8.242798E-2	-6.051636E-2	-2.729187E-1	-6.111145E-2	-2.707672E-1	-7.761536E-1	2.733765E-1
3.085650E+10	-9.215088E-1	-7.626343E-2	-6.509399E-2	-2.707367E-1	-6.632996E-2	-2.728424E-1	-7.625732E-1	2.840881E-1
3.108100E+10	-9.211121E-1	-7.031250E-2	-6.674194E-2	-2.721405E-1	-6.674194E-2	-2.696686E-1	-7.579041E-1	2.933655E-1
3.130550E+10	-9.168091E-1	-6.497192E-2	-7.402039E-2	-2.708130E-1	-6.907654E-2	-2.688446E-1	-7.521057E-1	3.029480E-1
3.153000E+10	-9.217224E-1	-5.737305E-2	-7.562256E-2	-2.698975E-1	-7.615662E-2	-2.650757E-1	-7.518616E-1	3.117065E-1
3.175450E+10	-9.237671E-1	-5.038452E-2	-7.511902E-2	-2.631378E-1	-7.637024E-2	-2.636871E-1	-7.409973E-1	3.297119E-1
3.197900E+10	-9.252625E-1	-4.360962E-2	-8.038330E-2	-2.644348E-1	-8.392334E-2	-2.638397E-1	-7.263184E-1	3.358765E-1
3.220350E+10	-9.259033E-1	-3.594971E-2	-8.059692E-2	-2.617950E-1	-8.573914E-2	-2.600403E-1	-7.210693E-1	3.487854E-1
3.242800E+10	-9.296875E-1	-2.804565E-2	-8.653259E-2	-2.620087E-1	-9.014893E-2	-2.581940E-1	-7.190552E-1	3.572998E-1
3.265250E+10	-9.316101E-1	-2.011108E-2	-9.193420E-2	-2.599335E-1	-9.301758E-2	-2.613983E-1	-7.027893E-1	3.636780E-1
3.287700E+10	-9.291077E-1	-1.788330E-2	-9.097290E-2	-2.562714E-1	-9.129333E-2	-2.549133E-1	-7.028503E-1	3.717041E-1
3.310150E+10	-9.255371E-1	-1.202393E-2	-9.623718E-2	-2.538910E-1	-9.434509E-2	-2.534180E-1	-6.901855E-1	3.847351E-1
3.332600E+10	-9.263611E-1	-1.800537E-3	-9.982300E-2	-2.501221E-1	-9.814453E-2	-2.501373E-1	-6.845093E-1	3.881836E-1
3.355050E+10	-9.267273E-1	6.774902E-3	-9.810638E-2	-2.476578E-1	-9.483337E-2	-2.472076E-1	-6.804504E-1	3.991699E-1
3.377500E+10	-9.286804E-1	1.467896E-2	-1.023865E-1	-2.463989E-1	-1.017685E-1	-2.432556E-1	-6.709900E-1	4.057007E-1
3.399950E+10	-9.266968E-1	1.794434E-2	-1.034164E-1	-2.452087E-1	-1.039505E-1	-2.426300E-1	-6.699524E-1	4.152527E-1
3.422400E+10	-9.286194E-1	2.713013E-2	-1.075516E-1	-2.414703E-1	-1.036224E-1	-2.396774E-1	-6.615601E-1	4.268188E-1
3.444850E+10	-9.259644E-1	3.460693E-2	-1.061096E-1	-2.430496E-1	-1.083374E-1	-2.418747E-1	-6.466980E-1	4.356995E-1
3.467300E+10	-9.220276E-1	4.153442E-2	-1.092758E-1	-2.418060E-1	-1.084366E-1	-2.415085E-1	-6.463928E-1	4.431458E-1
3.489750E+10	-9.274597E-1	4.504395E-2	-1.150208E-1	-2.380981E-1	-1.124649E-1	-2.370911E-1	-6.345825E-1	4.548035E-1
3.512200E+10	-9.270020E-1	5.017090E-2	-1.154404E-1	-2.394104E-1	-1.167374E-1	-2.348938E-1	-6.206665E-1	4.613953E-1
3.534650E+10	-9.260559E-1	5.419922E-2	-1.178970E-1	-2.365112E-1	-1.212540E-1	-2.337112E-1	-6.172485E-1	4.747009E-1
3.557100E+10	-9.225159E-1	6.579590E-2	-1.244202E-1	-2.329330E-1	-1.208344E-1	-2.352753E-1	-5.998840E-1	4.856262E-1
3.579550E+10	-9.269104E-1	6.973267E-2	-1.234360E-1	-2.336578E-1	-1.215973E-1	-2.352066E-1	-5.911255E-1	4.945679E-1
3.602000E+10	-9.301758E-1	7.476807E-2	-1.296082E-1	-2.274551E-1	-1.269150E-1	-2.281265E-1	-5.815735E-1	4.945984E-1
3.624450E+10	-9.244995E-1	7.864380E-2	-1.320267E-1	-2.292709E-1	-1.316528E-1	-2.309723E-1	-5.785217E-1	4.992371E-1
3.646900E+10	-9.252930E-1	9.237671E-2	-1.332932E-1	-2.289658E-1	-1.333694E-1	-2.268753E-1	-5.619812E-1	5.135193E-1
3.669350E+10	-9.237671E-1	9.609985E-2	-1.334152E-1	-2.232285E-1	-1.348267E-1	-2.279816E-1	-5.463867E-1	5.167542E-1
3.691800E+10	-9.245300E-1	1.011353E-1	-1.361542E-1	-2.237396E-1	-1.380692E-1	-2.230072E-1	-5.390625E-1	5.217285E-1
3.714250E+10	-9.192810E-1	1.096802E-1	-1.426544E-1	-2.207184E-1	-1.391144E-1	-2.237320E-1	-5.252991E-1	5.350647E-1
3.736700E+10	-9.171448E-1	1.138916E-1	-1.406326E-1	-2.208481E-1	-1.432266E-1	-2.183228E-1	-5.141907E-1	5.343933E-1
3.759150E+10	-9.179687E-1	1.218567E-1	-1.438675E-1	-2.176895E-1	-1.470032E-1	-2.196503E-1	-5.036316E-1	5.427551E-1
3.781600E+10	-9.151001E-1	1.290894E-1	-1.462250E-1	-2.125702E-1	-1.496353E-1	-2.091293E-1	-4.963074E-1	5.516357E-1
3.804050E+10	-9.192810E-1	1.330261E-1	-1.486282E-1	-2.158737E-1	-1.497345E-1	-2.105942E-1	-4.810486E-1	5.616455E-1
3.826500E+10	-9.163208E-1	1.430054E-1	-1.490784E-1	-2.093582E-1	-1.557541E-1	-2.115479E-1	-4.657593E-1	5.679321E-1
3.848950E+10	-9.094543E-1	1.458435E-1	-1.559830E-1	-2.087860E-1	-1.597977E-1	-2.117310E-1	-4.506836E-1	5.716553E-1
3.871400E+10	-9.161682E-1	1.457214E-1	-1.539841E-1	-2.056122E-1	-1.561203E-1	-2.053833E-1	-4.387817E-1	5.726624E-1
3.893850E+10	-9.160767E-1	1.572266E-1	-1.561890E-1	-2.042236E-1	-1.589127E-1	-2.056351E-1	-4.224243E-1	5.720825E-1
