!Date: 10/28/2005, 12:46 PM

!Vgs = -8.000000E+0
!Vds = 1.500000E+1
!Ig = -1.728900E-4
!Id = 2.209600E-3

# HZ S RI R 50
1.000000E+8	9.892883E-1	-3.625488E-2	-2.454567E-2	1.300430E-2	1.868248E-3	1.104021E-2	9.826965E-1	-7.080078E-3
3.245000E+8	9.786377E-1	-9.841919E-2	-2.156448E-2	3.227234E-2	5.866051E-3	2.975559E-2	9.648437E-1	-8.291626E-2
5.490000E+8	9.656067E-1	-1.597595E-1	-1.514626E-2	5.361176E-2	1.104355E-2	4.901123E-2	9.593201E-1	-1.357422E-1
7.735000E+8	9.497375E-1	-2.205505E-1	-6.809235E-3	7.254410E-2	1.890182E-2	6.669617E-2	9.448853E-1	-1.877441E-1
9.980000E+8	9.313965E-1	-2.762146E-1	3.196716E-3	9.080505E-2	2.829361E-2	8.303833E-2	9.287415E-1	-2.348022E-1
1.222500E+9	9.093323E-1	-3.320007E-1	1.430893E-2	1.071930E-1	3.833389E-2	9.780121E-2	9.108582E-1	-2.828674E-1
1.447000E+9	8.839417E-1	-3.851318E-1	2.714920E-2	1.222763E-1	4.981232E-2	1.114578E-1	8.902588E-1	-3.286438E-1
1.671500E+9	8.558960E-1	-4.353638E-1	4.036713E-2	1.370087E-1	6.219101E-2	1.248436E-1	8.666687E-1	-3.706970E-1
1.896000E+9	8.255005E-1	-4.822693E-1	5.656433E-2	1.501389E-1	7.739258E-2	1.372757E-1	8.461609E-1	-4.099731E-1
2.120500E+9	7.944641E-1	-5.267334E-1	7.428741E-2	1.606827E-1	9.341431E-2	1.462708E-1	8.222961E-1	-4.510498E-1
2.345000E+9	7.589722E-1	-5.697937E-1	9.250641E-2	1.685638E-1	1.106186E-1	1.530533E-1	7.952271E-1	-4.888916E-1
2.569500E+9	7.233276E-1	-6.067505E-1	1.105881E-1	1.738586E-1	1.267548E-1	1.587448E-1	7.695618E-1	-5.241699E-1
2.794000E+9	6.867981E-1	-6.432800E-1	1.278000E-1	1.781311E-1	1.430130E-1	1.620636E-1	7.402039E-1	-5.573120E-1
3.018500E+9	6.492310E-1	-6.756287E-1	1.452942E-1	1.815567E-1	1.594849E-1	1.643829E-1	7.104492E-1	-5.898132E-1
3.243000E+9	6.107788E-1	-7.055054E-1	1.633224E-1	1.819077E-1	1.758652E-1	1.646957E-1	6.780701E-1	-6.218262E-1
3.467500E+9	5.723267E-1	-7.331543E-1	1.804352E-1	1.821289E-1	1.916428E-1	1.643677E-1	6.480103E-1	-6.477661E-1
3.692000E+9	5.329895E-1	-7.579346E-1	1.967010E-1	1.800995E-1	2.075119E-1	1.621933E-1	6.160583E-1	-6.753235E-1
3.916500E+9	4.934387E-1	-7.791748E-1	2.135239E-1	1.763840E-1	2.225342E-1	1.582565E-1	5.806885E-1	-6.984863E-1
4.141000E+9	4.550781E-1	-7.992554E-1	2.296448E-1	1.728287E-1	2.372513E-1	1.543808E-1	5.502930E-1	-7.190552E-1
4.365500E+9	4.184570E-1	-8.171387E-1	2.447510E-1	1.671753E-1	2.515564E-1	1.490021E-1	5.179749E-1	-7.409363E-1
4.590000E+9	3.785706E-1	-8.335571E-1	2.588959E-1	1.606903E-1	2.650604E-1	1.422424E-1	4.824524E-1	-7.584229E-1
4.814500E+9	3.409424E-1	-8.461304E-1	2.730560E-1	1.527710E-1	2.774506E-1	1.350708E-1	4.519958E-1	-7.744446E-1
5.039000E+9	3.035583E-1	-8.576050E-1	2.864532E-1	1.434784E-1	2.899780E-1	1.264954E-1	4.183655E-1	-7.919312E-1
5.263500E+9	2.662659E-1	-8.659668E-1	2.986298E-1	1.345062E-1	3.011932E-1	1.177216E-1	3.847656E-1	-8.042603E-1
5.488000E+9	2.320251E-1	-8.739624E-1	3.092041E-1	1.244202E-1	3.110504E-1	1.079102E-1	3.544006E-1	-8.156433E-1
5.712500E+9	1.954041E-1	-8.806152E-1	3.197632E-1	1.135406E-1	3.204956E-1	9.759521E-2	3.221436E-1	-8.278809E-1
5.937000E+9	1.619568E-1	-8.839722E-1	3.291779E-1	1.020203E-1	3.291473E-1	8.586121E-2	2.887573E-1	-8.380127E-1
6.161500E+9	1.308289E-1	-8.888550E-1	3.369446E-1	9.086609E-2	3.367615E-1	7.527161E-2	2.587280E-1	-8.466797E-1
6.386000E+9	9.667969E-2	-8.911743E-1	3.442993E-1	7.856750E-2	3.434601E-1	6.346130E-2	2.265015E-1	-8.546143E-1
6.610500E+9	6.671143E-2	-8.930359E-1	3.506927E-1	6.710815E-2	3.487396E-1	5.247498E-2	1.939697E-1	-8.610229E-1
6.835000E+9	3.588867E-2	-8.937683E-1	3.562012E-1	5.569458E-2	3.546143E-1	4.144287E-2	1.646118E-1	-8.646545E-1
7.059500E+9	7.171631E-3	-8.916626E-1	3.605499E-1	4.432678E-2	3.583221E-1	3.111267E-2	1.368408E-1	-8.677979E-1
7.284000E+9	-2.185059E-2	-8.911743E-1	3.644257E-1	3.123474E-2	3.614655E-1	1.887512E-2	1.049500E-1	-8.710327E-1
7.508500E+9	-5.026245E-2	-8.886414E-1	3.683929E-1	1.985168E-2	3.648071E-1	6.973267E-3	7.571411E-2	-8.717651E-1
7.733000E+9	-7.717896E-2	-8.854370E-1	3.705902E-1	7.125854E-3	3.660431E-1	-4.104614E-3	4.925537E-2	-8.729553E-1
7.957500E+9	-1.039734E-1	-8.814697E-1	3.717194E-1	-4.013062E-3	3.682251E-1	-1.542664E-2	2.020264E-2	-8.737488E-1
8.182000E+9	-1.275330E-1	-8.779297E-1	3.740997E-1	-1.551819E-2	3.693848E-1	-2.694702E-2	-5.981445E-3	-8.730774E-1
8.406500E+9	-1.531067E-1	-8.726196E-1	3.743744E-1	-2.719116E-2	3.691864E-1	-3.813171E-2	-3.469849E-2	-8.706360E-1
8.631000E+9	-1.778259E-1	-8.683777E-1	3.742828E-1	-3.880310E-2	3.694000E-1	-4.905701E-2	-6.152344E-2	-8.696594E-1
8.855500E+9	-2.002258E-1	-8.624878E-1	3.746796E-1	-4.954529E-2	3.687897E-1	-5.946350E-2	-8.752441E-2	-8.656616E-1
9.080001E+9	-2.214050E-1	-8.576965E-1	3.737030E-1	-5.978394E-2	3.674622E-1	-6.974792E-2	-1.116638E-1	-8.604431E-1
9.304500E+9	-2.446289E-1	-8.502197E-1	3.715515E-1	-7.086182E-2	3.654633E-1	-7.868958E-2	-1.369934E-1	-8.562927E-1
9.529000E+9	-2.645264E-1	-8.445435E-1	3.704681E-1	-8.036804E-2	3.644714E-1	-8.976746E-2	-1.620483E-1	-8.514099E-1
9.753500E+9	-2.860718E-1	-8.377380E-1	3.688965E-1	-9.120178E-2	3.620758E-1	-9.904480E-2	-1.835632E-1	-8.450012E-1
9.978000E+9	-3.046570E-1	-8.295593E-1	3.650665E-1	-1.011658E-1	3.589478E-1	-1.085663E-1	-2.061462E-1	-8.399963E-1
1.020250E+10	-3.244324E-1	-8.238220E-1	3.635254E-1	-1.106110E-1	3.578339E-1	-1.180878E-1	-2.300415E-1	-8.323364E-1
1.042700E+10	-3.438110E-1	-8.153076E-1	3.602142E-1	-1.204071E-1	3.535461E-1	-1.271820E-1	-2.509460E-1	-8.268738E-1
1.065150E+10	-3.608093E-1	-8.070068E-1	3.558502E-1	-1.285095E-1	3.495331E-1	-1.348724E-1	-2.719116E-1	-8.202209E-1
1.087600E+10	-3.779907E-1	-7.985840E-1	3.523560E-1	-1.370087E-1	3.453064E-1	-1.427917E-1	-2.942200E-1	-8.112183E-1
1.110050E+10	-3.950806E-1	-7.911682E-1	3.479614E-1	-1.460571E-1	3.417511E-1	-1.516418E-1	-3.138733E-1	-8.049622E-1
1.132500E+10	-4.113159E-1	-7.837524E-1	3.441925E-1	-1.536102E-1	3.375854E-1	-1.579590E-1	-3.326721E-1	-7.961731E-1
1.154950E+10	-4.282837E-1	-7.745972E-1	3.395996E-1	-1.606598E-1	3.331451E-1	-1.671143E-1	-3.557129E-1	-7.877502E-1
1.177400E+10	-4.423828E-1	-7.672729E-1	3.351898E-1	-1.690979E-1	3.291626E-1	-1.737213E-1	-3.729858E-1	-7.763672E-1
1.199850E+10	-4.581299E-1	-7.583618E-1	3.309021E-1	-1.758728E-1	3.249969E-1	-1.802216E-1	-3.903503E-1	-7.692871E-1
1.222300E+10	-4.717102E-1	-7.494202E-1	3.248444E-1	-1.828308E-1	3.191681E-1	-1.877899E-1	-4.100342E-1	-7.599792E-1
1.244750E+10	-4.867859E-1	-7.412415E-1	3.205261E-1	-1.901398E-1	3.140259E-1	-1.943970E-1	-4.275208E-1	-7.475586E-1
1.267200E+10	-5.007935E-1	-7.323608E-1	3.168182E-1	-1.957703E-1	3.099365E-1	-2.003479E-1	-4.425354E-1	-7.412720E-1
1.289650E+10	-5.120239E-1	-7.239075E-1	3.108521E-1	-2.020111E-1	3.037415E-1	-2.063751E-1	-4.615479E-1	-7.294006E-1
1.312100E+10	-5.261230E-1	-7.157898E-1	3.054810E-1	-2.093658E-1	2.985077E-1	-2.116394E-1	-4.783020E-1	-7.169495E-1
1.334550E+10	-5.388489E-1	-7.064819E-1	3.000336E-1	-2.139893E-1	2.932587E-1	-2.173309E-1	-4.907837E-1	-7.080078E-1
1.357000E+10	-5.521240E-1	-6.967468E-1	2.953033E-1	-2.191467E-1	2.870483E-1	-2.237091E-1	-5.086060E-1	-6.990662E-1
1.379450E+10	-5.613403E-1	-6.891479E-1	2.883453E-1	-2.254486E-1	2.834320E-1	-2.260590E-1	-5.238037E-1	-6.831055E-1
1.401900E+10	-5.716553E-1	-6.804199E-1	2.843323E-1	-2.289734E-1	2.781677E-1	-2.318878E-1	-5.333252E-1	-6.742554E-1
1.424350E+10	-5.832214E-1	-6.710815E-1	2.768250E-1	-2.333374E-1	2.722931E-1	-2.363281E-1	-5.514526E-1	-6.639404E-1
1.446800E+10	-5.942993E-1	-6.627197E-1	2.711792E-1	-2.384644E-1	2.662964E-1	-2.404327E-1	-5.654907E-1	-6.486206E-1
1.469250E+10	-6.046448E-1	-6.542358E-1	2.655182E-1	-2.429657E-1	2.597809E-1	-2.457581E-1	-5.738525E-1	-6.395264E-1
1.491700E+10	-6.159973E-1	-6.450500E-1	2.595673E-1	-2.474823E-1	2.539825E-1	-2.484131E-1	-5.906677E-1	-6.292725E-1
1.514150E+10	-6.252747E-1	-6.357422E-1	2.540894E-1	-2.503967E-1	2.485962E-1	-2.523499E-1	-6.034241E-1	-6.142883E-1
1.536600E+10	-6.356201E-1	-6.264648E-1	2.481842E-1	-2.549133E-1	2.423706E-1	-2.563934E-1	-6.123047E-1	-6.029358E-1
1.559050E+10	-6.439209E-1	-6.188965E-1	2.427979E-1	-2.580261E-1	2.366028E-1	-2.590485E-1	-6.249084E-1	-5.917969E-1
1.581500E+10	-6.529846E-1	-6.090088E-1	2.349091E-1	-2.610321E-1	2.303467E-1	-2.624664E-1	-6.390686E-1	-5.776062E-1
1.603950E+10	-6.619263E-1	-6.001587E-1	2.299805E-1	-2.656860E-1	2.250214E-1	-2.649384E-1	-6.476135E-1	-5.662842E-1
1.626400E+10	-6.718140E-1	-5.917358E-1	2.254028E-1	-2.666321E-1	2.192688E-1	-2.671814E-1	-6.609497E-1	-5.544128E-1
1.648850E+10	-6.793823E-1	-5.835571E-1	2.189026E-1	-2.701416E-1	2.131805E-1	-2.709351E-1	-6.702881E-1	-5.403748E-1
1.671300E+10	-6.892395E-1	-5.745544E-1	2.137756E-1	-2.736511E-1	2.082977E-1	-2.739716E-1	-6.796570E-1	-5.294495E-1
1.693750E+10	-6.953735E-1	-5.677795E-1	2.070923E-1	-2.740936E-1	2.029724E-1	-2.761688E-1	-6.885071E-1	-5.162354E-1
1.716200E+10	-7.033691E-1	-5.579529E-1	2.015533E-1	-2.778625E-1	1.976929E-1	-2.777863E-1	-6.985168E-1	-5.008850E-1
1.738650E+10	-7.101746E-1	-5.487061E-1	1.960297E-1	-2.796631E-1	1.901855E-1	-2.786560E-1	-7.052612E-1	-4.889832E-1
1.761100E+10	-7.184753E-1	-5.408325E-1	1.902924E-1	-2.809448E-1	1.857300E-1	-2.815094E-1	-7.145691E-1	-4.802856E-1
1.783550E+10	-7.270508E-1	-5.316162E-1	1.843109E-1	-2.831268E-1	1.785736E-1	-2.819672E-1	-7.249756E-1	-4.653320E-1
1.806000E+10	-7.326965E-1	-5.251160E-1	1.793518E-1	-2.855835E-1	1.756744E-1	-2.847748E-1	-7.306213E-1	-4.515686E-1
1.828450E+10	-7.395020E-1	-5.135803E-1	1.739349E-1	-2.857361E-1	1.690521E-1	-2.858276E-1	-7.387390E-1	-4.414673E-1
1.850900E+10	-7.451477E-1	-5.059204E-1	1.691589E-1	-2.869568E-1	1.644592E-1	-2.885284E-1	-7.482300E-1	-4.268799E-1
1.873350E+10	-7.532349E-1	-4.965515E-1	1.628418E-1	-2.901001E-1	1.599121E-1	-2.888947E-1	-7.520142E-1	-4.118958E-1
1.895800E+10	-7.572021E-1	-4.891968E-1	1.579590E-1	-2.908936E-1	1.548615E-1	-2.908630E-1	-7.585144E-1	-4.039001E-1
1.918250E+10	-7.643433E-1	-4.808350E-1	1.528473E-1	-2.897797E-1	1.479950E-1	-2.915192E-1	-7.669373E-1	-3.898926E-1
1.940700E+10	-7.712097E-1	-4.729004E-1	1.467438E-1	-2.918701E-1	1.428070E-1	-2.914581E-1	-7.725830E-1	-3.717041E-1
1.963150E+10	-7.763367E-1	-4.637756E-1	1.412354E-1	-2.923889E-1	1.375732E-1	-2.928314E-1	-7.762451E-1	-3.629761E-1
1.985600E+10	-7.824402E-1	-4.562073E-1	1.377869E-1	-2.925720E-1	1.314850E-1	-2.938080E-1	-7.856140E-1	-3.507080E-1
2.008050E+10	-7.872009E-1	-4.486084E-1	1.307831E-1	-2.928772E-1	1.267853E-1	-2.926331E-1	-7.885742E-1	-3.341064E-1
2.030500E+10	-7.931824E-1	-4.387817E-1	1.253510E-1	-2.942963E-1	1.248322E-1	-2.930450E-1	-7.918091E-1	-3.246460E-1
2.052950E+10	-7.966309E-1	-4.318542E-1	1.208191E-1	-2.941132E-1	1.174774E-1	-2.946625E-1	-7.974548E-1	-3.123474E-1
2.075400E+10	-8.038940E-1	-4.241333E-1	1.160278E-1	-2.952881E-1	1.132202E-1	-2.937317E-1	-8.037415E-1	-2.976685E-1
2.097850E+10	-8.079529E-1	-4.162598E-1	1.111908E-1	-2.961121E-1	1.073303E-1	-2.947998E-1	-8.031921E-1	-2.851562E-1
2.120300E+10	-8.108826E-1	-4.074402E-1	1.055603E-1	-2.948608E-1	1.031494E-1	-2.933807E-1	-8.113098E-1	-2.764587E-1
2.142750E+10	-8.183594E-1	-4.005737E-1	1.018677E-1	-2.947998E-1	9.915161E-2	-2.937775E-1	-8.149719E-1	-2.608948E-1
2.165200E+10	-8.226929E-1	-3.916626E-1	9.548950E-2	-2.949219E-1	9.416199E-2	-2.947083E-1	-8.195801E-1	-2.475891E-1
2.187650E+10	-8.257446E-1	-3.826599E-1	9.382629E-2	-2.947235E-1	8.958435E-2	-2.940674E-1	-8.223877E-1	-2.368469E-1
2.210100E+10	-8.324890E-1	-3.732300E-1	8.950806E-2	-2.964783E-1	8.488464E-2	-2.942047E-1	-8.308105E-1	-2.203064E-1
2.232550E+10	-8.341675E-1	-3.676758E-1	8.422852E-2	-2.950287E-1	8.128357E-2	-2.961121E-1	-8.301392E-1	-2.068481E-1
2.255000E+10	-8.400269E-1	-3.580017E-1	7.907104E-2	-2.959442E-1	7.649231E-2	-2.936859E-1	-8.356018E-1	-1.987915E-1
2.277450E+10	-8.430176E-1	-3.481445E-1	7.545471E-2	-2.965546E-1	6.945801E-2	-2.941589E-1	-8.358459E-1	-1.809082E-1
2.299900E+10	-8.461304E-1	-3.399048E-1	6.967163E-2	-2.951355E-1	6.654358E-2	-2.933197E-1	-8.367310E-1	-1.689453E-1
2.322350E+10	-8.505554E-1	-3.327026E-1	6.610107E-2	-2.961578E-1	6.153870E-2	-2.925262E-1	-8.429871E-1	-1.581116E-1
2.344800E+10	-8.539429E-1	-3.253174E-1	6.263733E-2	-2.952271E-1	5.929565E-2	-2.944641E-1	-8.442383E-1	-1.420593E-1
2.367250E+10	-8.574219E-1	-3.146362E-1	5.842590E-2	-2.939606E-1	5.386353E-2	-2.950134E-1	-8.420410E-1	-1.298828E-1
2.389700E+10	-8.582764E-1	-3.081665E-1	5.357361E-2	-2.938080E-1	4.928589E-2	-2.921143E-1	-8.460083E-1	-1.197815E-1
2.412150E+10	-8.610535E-1	-3.031921E-1	4.783630E-2	-2.920532E-1	4.447937E-2	-2.923279E-1	-8.477478E-1	-1.005249E-1
2.434600E+10	-8.616943E-1	-2.925110E-1	4.188538E-2	-2.901917E-1	4.194641E-2	-2.903748E-1	-8.438721E-1	-9.158325E-2
2.457050E+10	-8.650208E-1	-2.887268E-1	4.051208E-2	-2.918854E-1	3.608704E-2	-2.908173E-1	-8.486938E-1	-7.772827E-2
2.479500E+10	-8.686829E-1	-2.808228E-1	3.739929E-2	-2.886047E-1	3.430176E-2	-2.904053E-1	-8.484802E-1	-6.170654E-2
2.501950E+10	-8.710937E-1	-2.747498E-1	3.042603E-2	-2.906494E-1	2.967834E-2	-2.903748E-1	-8.438416E-1	-5.279541E-2
2.524400E+10	-8.760681E-1	-2.692871E-1	2.796936E-2	-2.889252E-1	2.597046E-2	-2.870941E-1	-8.453979E-1	-4.272461E-2
2.546850E+10	-8.773804E-1	-2.600098E-1	2.407837E-2	-2.885895E-1	2.197266E-2	-2.853546E-1	-8.418884E-1	-2.801514E-2
2.569300E+10	-8.827515E-1	-2.534180E-1	1.992798E-2	-2.861633E-1	1.853943E-2	-2.846527E-1	-8.439941E-1	-1.873779E-2
2.591750E+10	-8.840942E-1	-2.438049E-1	1.657104E-2	-2.851715E-1	1.405334E-2	-2.840881E-1	-8.432007E-1	-4.974365E-3
2.614200E+10	-8.863831E-1	-2.359619E-1	1.379395E-2	-2.820740E-1	1.216125E-2	-2.819366E-1	-8.445740E-1	8.117676E-3
2.636650E+10	-8.904114E-1	-2.317505E-1	1.048279E-2	-2.830353E-1	6.973267E-3	-2.823181E-1	-8.446655E-1	2.252197E-2
2.659100E+10	-8.908386E-1	-2.234802E-1	5.508423E-3	-2.821198E-1	3.219604E-3	-2.809143E-1	-8.397827E-1	3.341675E-2
2.681550E+10	-8.923340E-1	-2.174072E-1	2.319336E-3	-2.814331E-1	4.119873E-4	-2.815399E-1	-8.397217E-1	4.251099E-2
2.704000E+10	-8.944702E-1	-2.072449E-1	-1.174927E-3	-2.794800E-1	-3.234863E-3	-2.799835E-1	-8.394165E-1	6.430054E-2
2.726450E+10	-8.947144E-1	-2.045593E-1	-4.821777E-3	-2.815399E-1	-4.638672E-3	-2.770844E-1	-8.312683E-1	6.756592E-2
2.748900E+10	-8.987427E-1	-1.945801E-1	-7.110596E-3	-2.772675E-1	-1.071167E-2	-2.776031E-1	-8.344116E-1	8.074951E-2
2.771350E+10	-9.013367E-1	-1.875916E-1	-1.391602E-2	-2.764282E-1	-1.513672E-2	-2.759399E-1	-8.283081E-1	9.155273E-2
2.793800E+10	-9.043274E-1	-1.829224E-1	-1.457214E-2	-2.754211E-1	-1.643372E-2	-2.741241E-1	-8.291016E-1	1.040344E-1
2.816250E+10	-9.061279E-1	-1.742554E-1	-1.858521E-2	-2.733002E-1	-2.177429E-2	-2.731476E-1	-8.263550E-1	1.182861E-1
2.838700E+10	-9.068298E-1	-1.675110E-1	-1.963806E-2	-2.720642E-1	-2.516174E-2	-2.703400E-1	-8.178406E-1	1.294861E-1
2.861150E+10	-9.108582E-1	-1.590576E-1	-2.503967E-2	-2.736816E-1	-2.946472E-2	-2.684479E-1	-8.187256E-1	1.414490E-1
2.883600E+10	-9.122009E-1	-1.500244E-1	-2.938843E-2	-2.708740E-1	-3.018188E-2	-2.683868E-1	-8.113708E-1	1.466980E-1
2.906050E+10	-9.114075E-1	-1.440125E-1	-3.172302E-2	-2.694092E-1	-3.401184E-2	-2.677612E-1	-8.098145E-1	1.620178E-1
2.928500E+10	-9.126587E-1	-1.356506E-1	-3.392029E-2	-2.663574E-1	-3.631592E-2	-2.658539E-1	-8.056641E-1	1.715393E-1
2.950950E+10	-9.150391E-1	-1.286011E-1	-3.697205E-2	-2.647095E-1	-3.675842E-2	-2.639618E-1	-8.069153E-1	1.809082E-1
2.973400E+10	-9.154968E-1	-1.236572E-1	-3.958130E-2	-2.634125E-1	-4.106140E-2	-2.619629E-1	-7.983093E-1	1.939087E-1
2.995850E+10	-9.189758E-1	-1.139832E-1	-4.223633E-2	-2.614746E-1	-4.524231E-2	-2.634125E-1	-7.978821E-1	2.071228E-1
3.018300E+10	-9.146729E-1	-1.084595E-1	-4.544067E-2	-2.621002E-1	-4.963684E-2	-2.612610E-1	-7.939148E-1	2.211914E-1
3.040750E+10	-9.179077E-1	-1.031494E-1	-4.789734E-2	-2.609253E-1	-5.278015E-2	-2.597351E-1	-7.917480E-1	2.287292E-1
3.063200E+10	-9.172668E-1	-9.304810E-2	-5.331421E-2	-2.602081E-1	-5.569458E-2	-2.593079E-1	-7.872925E-1	2.411804E-1
3.085650E+10	-9.204712E-1	-8.639526E-2	-5.603027E-2	-2.611389E-1	-5.772400E-2	-2.576752E-1	-7.828674E-1	2.551880E-1
3.108100E+10	-9.219360E-1	-8.160400E-2	-5.757141E-2	-2.581177E-1	-5.960083E-2	-2.553406E-1	-7.731934E-1	2.652588E-1
3.130550E+10	-9.190063E-1	-7.516479E-2	-6.471252E-2	-2.567596E-1	-6.158447E-2	-2.518768E-1	-7.645264E-1	2.764893E-1
3.153000E+10	-9.251404E-1	-7.006836E-2	-6.599426E-2	-2.519836E-1	-6.893921E-2	-2.543640E-1	-7.615662E-1	2.834167E-1
3.175450E+10	-9.222717E-1	-6.323242E-2	-6.592560E-2	-2.490311E-1	-6.955719E-2	-2.466354E-1	-7.559204E-1	3.011475E-1
3.197900E+10	-9.221497E-1	-5.078125E-2	-6.866455E-2	-2.481918E-1	-7.585144E-2	-2.539825E-1	-7.431946E-1	3.113098E-1
3.220350E+10	-9.293213E-1	-4.562378E-2	-7.756042E-2	-2.487183E-1	-7.797241E-2	-2.477264E-1	-7.383118E-1	3.211365E-1
3.242800E+10	-9.266663E-1	-4.501343E-2	-7.542419E-2	-2.429886E-1	-7.988739E-2	-2.491379E-1	-7.324219E-1	3.320923E-1
3.265250E+10	-9.301453E-1	-2.865601E-2	-7.861328E-2	-2.465515E-1	-8.134460E-2	-2.415237E-1	-7.219849E-1	3.380737E-1
3.287700E+10	-9.255981E-1	-2.328491E-2	-8.055115E-2	-2.408066E-1	-8.191681E-2	-2.410660E-1	-7.196655E-1	3.467407E-1
3.310150E+10	-9.276123E-1	-2.127075E-2	-8.635712E-2	-2.411499E-1	-8.566284E-2	-2.403336E-1	-7.090759E-1	3.591003E-1
3.332600E+10	-9.273987E-1	-1.193237E-2	-8.780670E-2	-2.389984E-1	-8.742523E-2	-2.369995E-1	-7.035828E-1	3.613281E-1
3.355050E+10	-9.266663E-1	-6.866455E-3	-9.257507E-2	-2.362366E-1	-9.059143E-2	-2.357864E-1	-7.027283E-1	3.724976E-1
3.377500E+10	-9.280396E-1	4.089355E-3	-9.403992E-2	-2.329483E-1	-9.097290E-2	-2.340088E-1	-6.892700E-1	3.825989E-1
3.399950E+10	-9.276428E-1	6.561279E-3	-9.080505E-2	-2.344818E-1	-9.394836E-2	-2.356644E-1	-6.824951E-1	3.890991E-1
3.422400E+10	-9.285278E-1	1.589966E-2	-9.667969E-2	-2.333832E-1	-9.732056E-2	-2.326736E-1	-6.808167E-1	4.031372E-1
3.444850E+10	-9.273376E-1	2.056885E-2	-9.598541E-2	-2.339172E-1	-9.607697E-2	-2.325439E-1	-6.693726E-1	4.132080E-1
3.467300E+10	-9.252930E-1	3.036499E-2	-1.011124E-1	-2.338104E-1	-1.035767E-1	-2.320175E-1	-6.675110E-1	4.185181E-1
3.489750E+10	-9.297485E-1	3.170776E-2	-1.039581E-1	-2.294312E-1	-1.035080E-1	-2.274475E-1	-6.517334E-1	4.321289E-1
3.512200E+10	-9.246216E-1	3.811646E-2	-1.049423E-1	-2.275009E-1	-1.046829E-1	-2.256012E-1	-6.391296E-1	4.380798E-1
3.534650E+10	-9.262390E-1	4.263306E-2	-1.038132E-1	-2.287216E-1	-1.097183E-1	-2.265015E-1	-6.404419E-1	4.454041E-1
3.557100E+10	-9.254456E-1	5.230713E-2	-1.065750E-1	-2.219849E-1	-1.094055E-1	-2.257462E-1	-6.248474E-1	4.608459E-1
3.579550E+10	-9.270935E-1	5.810547E-2	-1.099396E-1	-2.225189E-1	-1.119995E-1	-2.238617E-1	-6.101074E-1	4.680786E-1
3.602000E+10	-9.289856E-1	6.854248E-2	-1.168365E-1	-2.264709E-1	-1.146698E-1	-2.202530E-1	-6.038208E-1	4.712524E-1
3.624450E+10	-9.291077E-1	7.312012E-2	-1.198578E-1	-2.206650E-1	-1.188126E-1	-2.205124E-1	-5.977478E-1	4.804382E-1
3.646900E+10	-9.252014E-1	8.032227E-2	-1.196365E-1	-2.168274E-1	-1.254807E-1	-2.165375E-1	-5.871582E-1	4.903564E-1
3.669350E+10	-9.227295E-1	8.355713E-2	-1.253281E-1	-2.175674E-1	-1.238403E-1	-2.129822E-1	-5.749817E-1	4.969482E-1
3.691800E+10	-9.241943E-1	9.136963E-2	-1.274872E-1	-2.161026E-1	-1.306381E-1	-2.137756E-1	-5.588989E-1	5.059204E-1
3.714250E+10	-9.206238E-1	9.323120E-2	-1.287384E-1	-2.126083E-1	-1.247482E-1	-2.165298E-1	-5.515442E-1	5.122986E-1
3.736700E+10	-9.212952E-1	1.032715E-1	-1.325760E-1	-2.094955E-1	-1.367111E-1	-2.092133E-1	-5.419312E-1	5.190430E-1
3.759150E+10	-9.201965E-1	1.148071E-1	-1.291733E-1	-2.117996E-1	-1.341705E-1	-2.112503E-1	-5.297546E-1	5.243530E-1
3.781600E+10	-9.170532E-1	1.148682E-1	-1.372070E-1	-2.057343E-1	-1.372452E-1	-2.035751E-1	-5.166626E-1	5.406494E-1
3.804050E+10	-9.213562E-1	1.210327E-1	-1.413879E-1	-2.001419E-1	-1.421890E-1	-1.992950E-1	-5.077820E-1	5.410461E-1
3.826500E+10	-9.171448E-1	1.306458E-1	-1.361313E-1	-2.018127E-1	-1.424103E-1	-2.024689E-1	-4.928284E-1	5.493469E-1
3.848950E+10	-9.164734E-1	1.327515E-1	-1.437607E-1	-2.042923E-1	-1.439285E-1	-1.986465E-1	-4.816284E-1	5.579224E-1
3.871400E+10	-9.115906E-1	1.365967E-1	-1.444092E-1	-1.982956E-1	-1.458282E-1	-1.969223E-1	-4.643555E-1	5.534058E-1
3.893850E+10	-9.108276E-1	1.483459E-1	-1.462860E-1	-1.955109E-1	-1.443176E-1	-1.939850E-1	-4.524536E-1	5.628357E-1
