!Date: 10/28/2005, 12:46 PM

!Vgs = 0.000000E+0
!Vds = 1.750000E+1
!Ig = -2.738400E-5
!Id = 8.485400E-1

# HZ S RI R 50
1.000000E+8	9.604187E-1	-1.595764E-1	-1.176807E+1	-1.074219E-1	2.136230E-4	7.924557E-3	5.923157E-1	7.629395E-3
3.245000E+8	8.135071E-1	-4.801025E-1	-1.104590E+1	3.603027E+0	9.499550E-3	2.474499E-2	3.621521E-1	-2.224579E-1
5.490000E+8	6.001587E-1	-7.075806E-1	-9.448242E+0	5.247070E+0	2.130318E-2	3.498459E-2	3.096313E-1	-2.877655E-1
7.735000E+8	3.783569E-1	-8.321533E-1	-7.711914E+0	6.053223E+0	3.303528E-2	3.971672E-2	2.012024E-1	-3.541718E-1
9.980000E+8	1.733093E-1	-8.780823E-1	-6.157959E+0	6.349854E+0	4.352760E-2	4.074478E-2	1.139069E-1	-3.510284E-1
1.222500E+9	-5.035400E-3	-8.829041E-1	-4.886719E+0	6.357178E+0	5.235100E-2	3.929520E-2	5.471802E-2	-3.582916E-1
1.447000E+9	-1.525879E-1	-8.631287E-1	-3.845947E+0	6.170898E+0	5.926132E-2	3.717232E-2	-6.149292E-3	-3.494263E-1
1.671500E+9	-2.709351E-1	-8.291321E-1	-3.021484E+0	5.899170E+0	6.540680E-2	3.473282E-2	-4.731750E-2	-3.388214E-1
1.896000E+9	-3.683777E-1	-7.856445E-1	-2.377197E+0	5.583984E+0	7.005310E-2	3.168106E-2	-8.366394E-2	-3.226776E-1
2.120500E+9	-4.432678E-1	-7.404480E-1	-1.858887E+0	5.281250E+0	7.406235E-2	2.811050E-2	-1.100922E-1	-3.120270E-1
2.345000E+9	-5.058594E-1	-6.933594E-1	-1.423828E+0	4.975098E+0	7.710648E-2	2.450180E-2	-1.361694E-1	-2.961884E-1
2.569500E+9	-5.534058E-1	-6.505127E-1	-1.080566E+0	4.678955E+0	7.894135E-2	2.134323E-2	-1.517029E-1	-2.830505E-1
2.794000E+9	-5.941467E-1	-6.130676E-1	-8.037109E-1	4.413818E+0	8.084869E-2	1.826477E-2	-1.689911E-1	-2.741241E-1
3.018500E+9	-6.284180E-1	-5.758057E-1	-5.700684E-1	4.154541E+0	8.238220E-2	1.524353E-2	-1.806335E-1	-2.600708E-1
3.243000E+9	-6.555176E-1	-5.413513E-1	-3.735352E-1	3.927490E+0	8.298874E-2	1.263809E-2	-1.905060E-1	-2.556305E-1
3.467500E+9	-6.806641E-1	-5.118713E-1	-2.076416E-1	3.715576E+0	8.373642E-2	1.023102E-2	-2.029724E-1	-2.459412E-1
3.692000E+9	-7.020264E-1	-4.824829E-1	-6.591797E-2	3.514526E+0	8.478928E-2	7.858276E-3	-2.085571E-1	-2.400360E-1
3.916500E+9	-7.182922E-1	-4.539185E-1	5.383301E-2	3.329712E+0	8.519363E-2	5.226135E-3	-2.214813E-1	-2.362671E-1
4.141000E+9	-7.338257E-1	-4.290466E-1	1.536865E-1	3.159546E+0	8.587265E-2	3.616333E-3	-2.265320E-1	-2.269974E-1
4.365500E+9	-7.466125E-1	-4.064636E-1	2.446289E-1	3.000000E+0	8.607483E-2	1.350403E-3	-2.333069E-1	-2.254410E-1
4.590000E+9	-7.579041E-1	-3.843689E-1	3.190918E-1	2.850342E+0	8.637238E-2	-6.790161E-4	-2.415543E-1	-2.184525E-1
4.814500E+9	-7.677917E-1	-3.637390E-1	3.817139E-1	2.713867E+0	8.647156E-2	-2.815247E-3	-2.445221E-1	-2.147598E-1
5.039000E+9	-7.755127E-1	-3.439636E-1	4.388428E-1	2.586304E+0	8.660889E-2	-5.046844E-3	-2.514801E-1	-2.126465E-1
5.263500E+9	-7.840881E-1	-3.255920E-1	4.897461E-1	2.468872E+0	8.657455E-2	-6.523132E-3	-2.575226E-1	-2.077484E-1
5.488000E+9	-7.900696E-1	-3.088684E-1	5.329590E-1	2.357422E+0	8.659363E-2	-8.117676E-3	-2.622986E-1	-2.051239E-1
5.712500E+9	-7.965393E-1	-2.931519E-1	5.699463E-1	2.249634E+0	8.702850E-2	-9.830475E-3	-2.660522E-1	-2.027588E-1
5.937000E+9	-8.015747E-1	-2.767334E-1	6.037598E-1	2.151978E+0	8.660507E-2	-1.165009E-2	-2.710876E-1	-2.000732E-1
6.161500E+9	-8.058472E-1	-2.640381E-1	6.336670E-1	2.061401E+0	8.645248E-2	-1.351547E-2	-2.763519E-1	-1.964569E-1
6.386000E+9	-8.111267E-1	-2.491760E-1	6.605225E-1	1.973511E+0	8.583069E-2	-1.522827E-2	-2.775879E-1	-1.951141E-1
6.610500E+9	-8.138733E-1	-2.369080E-1	6.845093E-1	1.889038E+0	8.569336E-2	-1.662064E-2	-2.853088E-1	-1.954193E-1
6.835000E+9	-8.181458E-1	-2.243347E-1	7.042236E-1	1.809265E+0	8.531189E-2	-1.827240E-2	-2.876740E-1	-1.889648E-1
7.059500E+9	-8.210144E-1	-2.135010E-1	7.182617E-1	1.735596E+0	8.465958E-2	-1.955032E-2	-2.878113E-1	-1.924133E-1
7.284000E+9	-8.233337E-1	-2.021484E-1	7.327881E-1	1.664429E+0	8.436203E-2	-2.117157E-2	-2.969360E-1	-1.887665E-1
7.508500E+9	-8.262939E-1	-1.908264E-1	7.432251E-1	1.596985E+0	8.431625E-2	-2.249146E-2	-2.942810E-1	-1.873779E-1
7.733000E+9	-8.275452E-1	-1.795349E-1	7.559814E-1	1.535034E+0	8.378601E-2	-2.392960E-2	-3.034668E-1	-1.890259E-1
7.957500E+9	-8.304138E-1	-1.696167E-1	7.683716E-1	1.477112E+0	8.344650E-2	-2.505875E-2	-3.050385E-1	-1.857452E-1
8.182000E+9	-8.320618E-1	-1.604919E-1	7.794189E-1	1.418945E+0	8.281326E-2	-2.637863E-2	-3.121033E-1	-1.875458E-1
8.406500E+9	-8.327637E-1	-1.517029E-1	7.852173E-1	1.360291E+0	8.226013E-2	-2.788544E-2	-3.154449E-1	-1.816559E-1
8.631000E+9	-8.350220E-1	-1.418457E-1	7.932129E-1	1.305176E+0	8.203506E-2	-2.885056E-2	-3.191223E-1	-1.828461E-1
8.855500E+9	-8.355408E-1	-1.329041E-1	7.966309E-1	1.253296E+0	8.118439E-2	-3.119659E-2	-3.244934E-1	-1.807098E-1
9.080001E+9	-8.369446E-1	-1.253662E-1	8.007812E-1	1.205261E+0	8.038330E-2	-3.170776E-2	-3.256989E-1	-1.780243E-1
9.304500E+9	-8.370056E-1	-1.152954E-1	8.034058E-1	1.158508E+0	7.839966E-2	-3.299713E-2	-3.306732E-1	-1.792755E-1
9.529000E+9	-8.373718E-1	-1.088562E-1	8.056641E-1	1.112427E+0	7.947540E-2	-3.446579E-2	-3.369751E-1	-1.760864E-1
9.753500E+9	-8.388672E-1	-1.014709E-1	8.060303E-1	1.067993E+0	7.852554E-2	-3.536224E-2	-3.382416E-1	-1.733093E-1
9.978000E+9	-8.394165E-1	-9.347534E-2	8.071899E-1	1.028015E+0	7.756805E-2	-3.630066E-2	-3.419800E-1	-1.737518E-1
1.020250E+10	-8.402100E-1	-8.670044E-2	8.070984E-1	9.884033E-1	7.663727E-2	-3.733063E-2	-3.468628E-1	-1.715851E-1
1.042700E+10	-8.413391E-1	-7.879639E-2	8.091125E-1	9.496155E-1	7.577133E-2	-3.868866E-2	-3.494720E-1	-1.692810E-1
1.065150E+10	-8.404236E-1	-7.260132E-2	8.066711E-1	9.136658E-1	7.537460E-2	-3.990173E-2	-3.532257E-1	-1.693726E-1
1.087600E+10	-8.416443E-1	-6.475830E-2	8.049622E-1	8.775330E-1	7.486343E-2	-4.030228E-2	-3.577118E-1	-1.675568E-1
1.110050E+10	-8.422546E-1	-5.847168E-2	8.047485E-1	8.413696E-1	7.403183E-2	-4.205704E-2	-3.603821E-1	-1.653290E-1
1.132500E+10	-8.415527E-1	-5.200195E-2	8.025818E-1	8.088684E-1	7.234573E-2	-4.294968E-2	-3.644867E-1	-1.660767E-1
1.154950E+10	-8.414917E-1	-4.479980E-2	7.992554E-1	7.752380E-1	7.222748E-2	-4.330063E-2	-3.711548E-1	-1.621399E-1
1.177400E+10	-8.417664E-1	-3.887939E-2	7.963257E-1	7.448730E-1	7.115173E-2	-4.497910E-2	-3.731995E-1	-1.598969E-1
1.199850E+10	-8.424988E-1	-3.308105E-2	7.937317E-1	7.157898E-1	7.011795E-2	-4.548264E-2	-3.772430E-1	-1.595917E-1
1.222300E+10	-8.425293E-1	-2.694702E-2	7.886963E-1	6.854858E-1	6.932449E-2	-4.620361E-2	-3.801880E-1	-1.587982E-1
1.244750E+10	-8.416748E-1	-2.145386E-2	7.845764E-1	6.577148E-1	6.827927E-2	-4.764938E-2	-3.847656E-1	-1.548004E-1
1.267200E+10	-8.429565E-1	-1.583862E-2	7.802734E-1	6.301575E-1	6.765366E-2	-4.759979E-2	-3.870850E-1	-1.552277E-1
1.289650E+10	-8.411560E-1	-1.095581E-2	7.737427E-1	6.046753E-1	6.701660E-2	-4.899979E-2	-3.939362E-1	-1.523132E-1
1.312100E+10	-8.414917E-1	-5.645752E-3	7.693176E-1	5.790100E-1	6.615829E-2	-4.927063E-2	-3.968811E-1	-1.492462E-1
1.334550E+10	-8.413696E-1	-3.356934E-4	7.644043E-1	5.559998E-1	6.497192E-2	-5.015945E-2	-3.993073E-1	-1.473083E-1
1.357000E+10	-8.393250E-1	4.394531E-3	7.593079E-1	5.303955E-1	6.398773E-2	-5.153275E-2	-4.039307E-1	-1.483917E-1
1.379450E+10	-8.412476E-1	1.080322E-2	7.533264E-1	5.073547E-1	6.335449E-2	-5.151367E-2	-4.105835E-1	-1.434326E-1
1.401900E+10	-8.404236E-1	1.492310E-2	7.493286E-1	4.881287E-1	6.205750E-2	-5.282402E-2	-4.105835E-1	-1.443481E-1
1.424350E+10	-8.390198E-1	2.081299E-2	7.421875E-1	4.645691E-1	6.050110E-2	-5.288124E-2	-4.148254E-1	-1.401672E-1
1.446800E+10	-8.390503E-1	2.514648E-2	7.374878E-1	4.450073E-1	6.042099E-2	-5.327606E-2	-4.194336E-1	-1.350250E-1
1.469250E+10	-8.373108E-1	3.030396E-2	7.315674E-1	4.234924E-1	5.842590E-2	-5.384445E-2	-4.194946E-1	-1.323242E-1
1.491700E+10	-8.367920E-1	3.427124E-2	7.239990E-1	4.046021E-1	5.881310E-2	-5.506325E-2	-4.250488E-1	-1.332550E-1
1.514150E+10	-8.366699E-1	3.906250E-2	7.185669E-1	3.850098E-1	5.695343E-2	-5.620956E-2	-4.290924E-1	-1.279755E-1
1.536600E+10	-8.362732E-1	4.556274E-2	7.116699E-1	3.669434E-1	5.660820E-2	-5.558586E-2	-4.301453E-1	-1.256714E-1
1.559050E+10	-8.358154E-1	4.879761E-2	7.055969E-1	3.481445E-1	5.479431E-2	-5.648041E-2	-4.356995E-1	-1.271210E-1
1.581500E+10	-8.341370E-1	5.313110E-2	6.987915E-1	3.301697E-1	5.537224E-2	-5.808640E-2	-4.401398E-1	-1.213226E-1
1.603950E+10	-8.347778E-1	5.755615E-2	6.929626E-1	3.146973E-1	5.359268E-2	-5.696106E-2	-4.397125E-1	-1.200562E-1
1.626400E+10	-8.332825E-1	6.323242E-2	6.843567E-1	2.987671E-1	5.329895E-2	-5.800629E-2	-4.454803E-1	-1.189270E-1
1.648850E+10	-8.328857E-1	6.607056E-2	6.784668E-1	2.826843E-1	5.159760E-2	-5.920792E-2	-4.496460E-1	-1.135101E-1
1.671300E+10	-8.319092E-1	7.083130E-2	6.719971E-1	2.667847E-1	5.089188E-2	-5.945015E-2	-4.517517E-1	-1.103668E-1
1.693750E+10	-8.323975E-1	7.516479E-2	6.660156E-1	2.524109E-1	4.882050E-2	-6.072426E-2	-4.564362E-1	-1.087494E-1
1.716200E+10	-8.298950E-1	7.958984E-2	6.589050E-1	2.385559E-1	4.852486E-2	-6.017113E-2	-4.600067E-1	-1.033783E-1
1.738650E+10	-8.284912E-1	8.447266E-2	6.522827E-1	2.268982E-1	4.696083E-2	-6.031990E-2	-4.620972E-1	-9.986877E-2
1.761100E+10	-8.288269E-1	8.843994E-2	6.442871E-1	2.123413E-1	4.672241E-2	-6.180954E-2	-4.653778E-1	-9.904480E-2
1.783550E+10	-8.274536E-1	9.252930E-2	6.357117E-1	1.995544E-1	4.286575E-2	-6.187439E-2	-4.700317E-1	-9.376526E-2
1.806000E+10	-8.282471E-1	9.588623E-2	6.313782E-1	1.865540E-1	4.337311E-2	-6.146812E-2	-4.704437E-1	-8.868408E-2
1.828450E+10	-8.262024E-1	9.951782E-2	6.252747E-1	1.761169E-1	4.343796E-2	-6.338501E-2	-4.738312E-1	-9.013367E-2
1.850900E+10	-8.241882E-1	1.028748E-1	6.181030E-1	1.629333E-1	4.165077E-2	-6.212425E-2	-4.770050E-1	-8.354187E-2
1.873350E+10	-8.252258E-1	1.077576E-1	6.115417E-1	1.510315E-1	4.095840E-2	-6.395340E-2	-4.781952E-1	-7.855225E-2
1.895800E+10	-8.237305E-1	1.116028E-1	6.031494E-1	1.397095E-1	4.042435E-2	-6.380081E-2	-4.806213E-1	-7.908630E-2
1.918250E+10	-8.231201E-1	1.153564E-1	5.969849E-1	1.278076E-1	3.922653E-2	-6.324387E-2	-4.866791E-1	-7.327271E-2
1.940700E+10	-8.212585E-1	1.192322E-1	5.889587E-1	1.181641E-1	3.794861E-2	-6.455612E-2	-4.870148E-1	-6.584167E-2
1.963150E+10	-8.207703E-1	1.207886E-1	5.825195E-1	1.074219E-1	3.619003E-2	-6.395340E-2	-4.876099E-1	-6.654358E-2
1.985600E+10	-8.196716E-1	1.253662E-1	5.760803E-1	9.936523E-2	3.553391E-2	-6.443405E-2	-4.949493E-1	-6.379700E-2
2.008050E+10	-8.193970E-1	1.283875E-1	5.691833E-1	8.923340E-2	3.362274E-2	-6.390381E-2	-4.956360E-1	-5.419922E-2
2.030500E+10	-8.173523E-1	1.329041E-1	5.635986E-1	8.120728E-2	3.469849E-2	-6.555176E-2	-4.936523E-1	-5.439758E-2
2.052950E+10	-8.161316E-1	1.351318E-1	5.553894E-1	6.896973E-2	3.344345E-2	-6.526566E-2	-5.003357E-1	-5.285645E-2
2.075400E+10	-8.149414E-1	1.372375E-1	5.503235E-1	6.262207E-2	3.190613E-2	-6.636429E-2	-5.020142E-1	-4.504395E-2
2.097850E+10	-8.146057E-1	1.414795E-1	5.436096E-1	5.474854E-2	2.800751E-2	-6.620789E-2	-4.992523E-1	-4.275513E-2
2.120300E+10	-8.118286E-1	1.453552E-1	5.373840E-1	4.669189E-2	2.801895E-2	-6.526184E-2	-5.066223E-1	-4.217529E-2
2.142750E+10	-8.127441E-1	1.478882E-1	5.298157E-1	3.750610E-2	2.675247E-2	-6.368256E-2	-5.100403E-1	-3.176880E-2
2.165200E+10	-8.123169E-1	1.524658E-1	5.240479E-1	3.097534E-2	2.743912E-2	-6.445694E-2	-5.083923E-1	-3.082275E-2
2.187650E+10	-8.104553E-1	1.547241E-1	5.172119E-1	2.349854E-2	2.694702E-2	-6.579590E-2	-5.142517E-1	-2.761841E-2
2.210100E+10	-8.110352E-1	1.592407E-1	5.105896E-1	1.434326E-2	2.373505E-2	-6.497192E-2	-5.170593E-1	-1.947021E-2
2.232550E+10	-8.085327E-1	1.633301E-1	5.044861E-1	1.068115E-2	2.438736E-2	-6.540298E-2	-5.146484E-1	-1.406860E-2
2.255000E+10	-8.082581E-1	1.669312E-1	4.975586E-1	4.425049E-4	2.320862E-2	-6.571198E-2	-5.176392E-1	-1.269531E-2
2.277450E+10	-8.060303E-1	1.698608E-1	4.911652E-1	-3.829956E-3	2.101517E-2	-6.643677E-2	-5.192261E-1	-6.408691E-3
2.299900E+10	-8.063354E-1	1.723022E-1	4.860687E-1	-9.765625E-3	1.845932E-2	-6.529236E-2	-5.197449E-1	-2.960205E-3
2.322350E+10	-8.032837E-1	1.767578E-1	4.821777E-1	-1.756287E-2	1.972580E-2	-6.538773E-2	-5.240479E-1	-7.019043E-4
2.344800E+10	-8.023682E-1	1.778259E-1	4.741821E-1	-2.340698E-2	1.789093E-2	-6.693268E-2	-5.247803E-1	9.613037E-3
2.367250E+10	-8.030396E-1	1.828003E-1	4.655304E-1	-2.920532E-2	1.618195E-2	-6.441879E-2	-5.205994E-1	1.400757E-2
2.389700E+10	-7.997742E-1	1.853638E-1	4.598694E-1	-3.550720E-2	1.406479E-2	-6.492615E-2	-5.258789E-1	1.580811E-2
2.412150E+10	-8.007812E-1	1.896057E-1	4.534607E-1	-4.231262E-2	1.325226E-2	-6.330490E-2	-5.265503E-1	2.520752E-2
2.434600E+10	-7.972717E-1	1.927795E-1	4.485931E-1	-4.505920E-2	1.376343E-2	-6.622314E-2	-5.253601E-1	2.410889E-2
2.457050E+10	-7.981567E-1	1.951599E-1	4.422455E-1	-5.157471E-2	1.133728E-2	-6.492996E-2	-5.293579E-1	2.975464E-2
2.479500E+10	-7.971191E-1	2.003479E-1	4.345856E-1	-5.540466E-2	1.072693E-2	-6.468964E-2	-5.268555E-1	3.826904E-2
2.501950E+10	-7.922974E-1	2.015381E-1	4.309998E-1	-6.051636E-2	8.644104E-3	-6.344223E-2	-5.234375E-1	3.878784E-2
2.524400E+10	-7.922363E-1	2.041016E-1	4.243164E-1	-6.501770E-2	6.874084E-3	-6.256866E-2	-5.281067E-1	4.446411E-2
2.546850E+10	-7.922668E-1	2.089233E-1	4.179840E-1	-6.878662E-2	6.877899E-3	-6.289291E-2	-5.257263E-1	4.852295E-2
2.569300E+10	-7.882690E-1	2.095947E-1	4.133301E-1	-7.336426E-2	5.842209E-3	-6.223679E-2	-5.267334E-1	5.029297E-2
2.591750E+10	-7.888794E-1	2.137146E-1	4.087677E-1	-7.890320E-2	6.156921E-3	-6.055260E-2	-5.308533E-1	5.465698E-2
2.614200E+10	-7.863464E-1	2.171326E-1	4.024811E-1	-7.981873E-2	3.553391E-3	-6.023979E-2	-5.323486E-1	6.173706E-2
2.636650E+10	-7.846375E-1	2.174072E-1	3.966370E-1	-8.367920E-2	3.755569E-3	-6.209755E-2	-5.333557E-1	6.964111E-2
2.659100E+10	-7.846375E-1	2.217712E-1	3.924408E-1	-8.827209E-2	2.811432E-3	-6.117249E-2	-5.291443E-1	7.238770E-2
2.681550E+10	-7.826233E-1	2.237244E-1	3.882141E-1	-9.158325E-2	-2.384186E-4	-5.947876E-2	-5.334778E-1	7.452393E-2
2.704000E+10	-7.835083E-1	2.269897E-1	3.788147E-1	-9.417725E-2	7.209778E-4	-5.916786E-2	-5.346375E-1	8.819580E-2
2.726450E+10	-7.793884E-1	2.308960E-1	3.763428E-1	-9.895325E-2	-4.138947E-4	-5.816078E-2	-5.274963E-1	8.688354E-2
2.748900E+10	-7.774963E-1	2.330933E-1	3.710937E-1	-1.023254E-1	-1.535416E-3	-6.009293E-2	-5.290527E-1	9.158325E-2
2.771350E+10	-7.733765E-1	2.338257E-1	3.653412E-1	-1.060638E-1	-3.940582E-3	-5.862999E-2	-5.275574E-1	9.594727E-2
2.793800E+10	-7.726746E-1	2.373047E-1	3.620453E-1	-1.079407E-1	-1.773834E-3	-5.794144E-2	-5.284424E-1	1.023865E-1
2.816250E+10	-7.745972E-1	2.404785E-1	3.554077E-1	-1.102905E-1	-4.247665E-3	-6.005287E-2	-5.296631E-1	1.049194E-1
2.838700E+10	-7.736816E-1	2.435913E-1	3.509827E-1	-1.129761E-1	-7.625580E-3	-5.624390E-2	-5.295105E-1	1.096191E-1
2.861150E+10	-7.700195E-1	2.467651E-1	3.460236E-1	-1.177521E-1	-7.631302E-3	-5.728149E-2	-5.249939E-1	1.183777E-1
2.883600E+10	-7.694702E-1	2.502136E-1	3.391418E-1	-1.188202E-1	-9.634018E-3	-5.530739E-2	-5.284424E-1	1.172485E-1
2.906050E+10	-7.685547E-1	2.516785E-1	3.343964E-1	-1.194000E-1	-6.477356E-3	-5.313683E-2	-5.267944E-1	1.264343E-1
2.928500E+10	-7.684021E-1	2.557068E-1	3.318329E-1	-1.209564E-1	-1.075745E-2	-5.146408E-2	-5.263672E-1	1.284180E-1
2.950950E+10	-7.660522E-1	2.582703E-1	3.281708E-1	-1.252899E-1	-1.072884E-2	-5.149078E-2	-5.303650E-1	1.335754E-1
2.973400E+10	-7.643738E-1	2.587280E-1	3.256836E-1	-1.272888E-1	-8.949280E-3	-5.002975E-2	-5.268555E-1	1.375122E-1
2.995850E+10	-7.608643E-1	2.643127E-1	3.184662E-1	-1.291962E-1	-9.765625E-3	-5.181313E-2	-5.238953E-1	1.466980E-1
3.018300E+10	-7.560425E-1	2.653809E-1	3.138733E-1	-1.326141E-1	-1.330757E-2	-5.001831E-2	-5.260925E-1	1.557312E-1
3.040750E+10	-7.560730E-1	2.693481E-1	3.109283E-1	-1.378174E-1	-1.132965E-2	-4.806900E-2	-5.242615E-1	1.580505E-1
3.063200E+10	-7.566528E-1	2.688599E-1	3.029022E-1	-1.392059E-1	-1.287842E-2	-4.820442E-2	-5.268250E-1	1.633606E-1
3.085650E+10	-7.540283E-1	2.728271E-1	3.047333E-1	-1.428833E-1	-1.268387E-2	-4.788399E-2	-5.215454E-1	1.685181E-1
3.108100E+10	-7.532349E-1	2.743835E-1	3.025055E-1	-1.375275E-1	-1.832581E-2	-4.521751E-2	-5.198364E-1	1.751709E-1
3.130550E+10	-7.506409E-1	2.760315E-1	2.942657E-1	-1.394958E-1	-1.847267E-2	-4.986000E-2	-5.141296E-1	1.806030E-1
3.153000E+10	-7.518921E-1	2.777710E-1	2.949524E-1	-1.457214E-1	-1.186180E-2	-4.625702E-2	-5.142517E-1	1.802368E-1
3.175450E+10	-7.491150E-1	2.832947E-1	2.871704E-1	-1.457825E-1	-1.960945E-2	-4.625511E-2	-5.164185E-1	1.952515E-1
3.197900E+10	-7.526550E-1	2.835693E-1	2.812195E-1	-1.462860E-1	-1.964188E-2	-4.688644E-2	-5.037537E-1	1.956177E-1
3.220350E+10	-7.487793E-1	2.853394E-1	2.799835E-1	-1.482849E-1	-2.252960E-2	-4.319191E-2	-5.095520E-1	1.996155E-1
3.242800E+10	-7.486877E-1	2.882996E-1	2.772064E-1	-1.505127E-1	-1.757431E-2	-4.250145E-2	-5.079346E-1	2.058105E-1
3.265250E+10	-7.438354E-1	2.957458E-1	2.731934E-1	-1.557770E-1	-2.006531E-2	-3.985596E-2	-4.991760E-1	2.028809E-1
3.287700E+10	-7.433777E-1	2.968750E-1	2.670441E-1	-1.508179E-1	-2.140999E-2	-3.637886E-2	-5.042419E-1	2.110901E-1
3.310150E+10	-7.387390E-1	2.957153E-1	2.616119E-1	-1.567078E-1	-2.129364E-2	-3.780556E-2	-4.995270E-1	2.160339E-1
3.332600E+10	-7.381287E-1	3.043518E-1	2.579803E-1	-1.560211E-1	-2.108765E-2	-3.979683E-2	-4.972076E-1	2.211914E-1
3.355050E+10	-7.357483E-1	3.020630E-1	2.606049E-1	-1.599121E-1	-2.198029E-2	-3.645515E-2	-5.030823E-1	2.260437E-1
3.377500E+10	-7.350464E-1	3.055420E-1	2.566833E-1	-1.588745E-1	-2.408600E-2	-3.513336E-2	-4.918060E-1	2.263947E-1
3.399950E+10	-7.297058E-1	3.086548E-1	2.521973E-1	-1.585693E-1	-2.681541E-2	-3.800964E-2	-5.017700E-1	2.361755E-1
3.422400E+10	-7.306519E-1	3.123779E-1	2.493668E-1	-1.627884E-1	-1.978874E-2	-3.585434E-2	-4.926300E-1	2.466583E-1
3.444850E+10	-7.298889E-1	3.112183E-1	2.445908E-1	-1.639099E-1	-2.179527E-2	-3.119469E-2	-4.875031E-1	2.430725E-1
3.467300E+10	-7.290649E-1	3.143616E-1	2.494125E-1	-1.625671E-1	-2.420807E-2	-3.680420E-2	-4.886627E-1	2.566223E-1
3.489750E+10	-7.261658E-1	3.185730E-1	2.413177E-1	-1.667709E-1	-2.423954E-2	-3.088856E-2	-4.844513E-1	2.629395E-1
3.512200E+10	-7.282715E-1	3.157349E-1	2.388916E-1	-1.675415E-1	-2.307510E-2	-2.820587E-2	-4.758148E-1	2.581329E-1
3.534650E+10	-7.212524E-1	3.208923E-1	2.342606E-1	-1.666336E-1	-2.314758E-2	-2.661419E-2	-4.756927E-1	2.668152E-1
3.557100E+10	-7.258606E-1	3.198242E-1	2.300797E-1	-1.695709E-1	-2.636528E-2	-3.091335E-2	-4.694366E-1	2.785950E-1
3.579550E+10	-7.217102E-1	3.207703E-1	2.280502E-1	-1.672592E-1	-2.088547E-2	-2.849102E-2	-4.606171E-1	2.778320E-1
3.602000E+10	-7.191772E-1	3.265686E-1	2.213364E-1	-1.695709E-1	-2.675724E-2	-2.343559E-2	-4.647827E-1	2.831879E-1
3.624450E+10	-7.128906E-1	3.280029E-1	2.206421E-1	-1.752625E-1	-2.316189E-2	-2.133751E-2	-4.672852E-1	2.834320E-1
3.646900E+10	-7.138062E-1	3.309021E-1	2.186508E-1	-1.772919E-1	-2.584171E-2	-2.846050E-2	-4.579315E-1	2.925262E-1
3.669350E+10	-7.118530E-1	3.341064E-1	2.120972E-1	-1.752167E-1	-2.509880E-2	-2.365303E-2	-4.460449E-1	2.979736E-1
3.691800E+10	-7.117310E-1	3.349609E-1	2.107620E-1	-1.792984E-1	-2.725506E-2	-2.062607E-2	-4.450531E-1	3.054962E-1
3.714250E+10	-7.100525E-1	3.368835E-1	2.052078E-1	-1.788864E-1	-2.697182E-2	-2.270699E-2	-4.415283E-1	3.116608E-1
3.736700E+10	-7.043457E-1	3.372803E-1	2.066345E-1	-1.813202E-1	-2.544594E-2	-1.694202E-2	-4.328613E-1	3.079681E-1
3.759150E+10	-7.042847E-1	3.414917E-1	2.086563E-1	-1.781769E-1	-2.881145E-2	-1.701450E-2	-4.402771E-1	3.154755E-1
3.781600E+10	-7.019043E-1	3.454895E-1	2.028427E-1	-1.806412E-1	-2.526760E-2	-1.626110E-2	-4.333954E-1	3.219757E-1
3.804050E+10	-7.030334E-1	3.438110E-1	2.002106E-1	-1.853714E-1	-2.300930E-2	-1.632690E-2	-4.198914E-1	3.256989E-1
3.826500E+10	-7.021179E-1	3.438110E-1	1.963120E-1	-1.821747E-1	-2.764416E-2	-1.464844E-2	-4.154205E-1	3.329620E-1
3.848950E+10	-6.928406E-1	3.445435E-1	1.973343E-1	-1.859207E-1	-3.070736E-2	-1.554775E-2	-4.049835E-1	3.361053E-1
3.871400E+10	-6.959229E-1	3.511353E-1	1.949463E-1	-1.883392E-1	-2.408218E-2	-1.337528E-2	-4.040222E-1	3.391418E-1
3.893850E+10	-6.904907E-1	3.612671E-1	1.864166E-1	-1.855316E-1	-2.438450E-2	-1.149940E-2	-3.971252E-1	3.442841E-1
3.916300E+10	-6.965332E-1	3.516541E-1	1.856613E-1	-1.817017E-1	-2.920628E-2	-6.585121E-3	-3.973541E-1	3.406830E-1
