!Date: 10/28/2005, 12:46 PM

!Vgs = -6.000000E+0
!Vds = 1.500000E+1
!Ig = -1.111200E-4
!Id = 4.790600E-3

# HZ S RI R 50
1.000000E+8	9.895935E-1	-4.122925E-2	-3.142853E-1	4.714966E-3	1.833439E-3	8.890629E-3	9.422302E-1	-1.293945E-2
3.245000E+8	9.763489E-1	-1.154785E-1	-3.187256E-1	5.435181E-2	5.470276E-3	2.908325E-2	9.126892E-1	-8.941650E-2
5.490000E+8	9.595337E-1	-1.874390E-1	-3.107452E-1	9.854126E-2	1.097870E-2	4.745674E-2	9.060669E-1	-1.394043E-1
7.735000E+8	9.379883E-1	-2.580261E-1	-2.954865E-1	1.402435E-1	1.900101E-2	6.432724E-2	8.887939E-1	-1.904297E-1
9.980000E+8	9.133911E-1	-3.225708E-1	-2.747345E-1	1.772308E-1	2.845001E-2	7.977676E-2	8.710632E-1	-2.353210E-1
1.222500E+9	8.833618E-1	-3.854980E-1	-2.514648E-1	2.113647E-1	3.900528E-2	9.366989E-2	8.524170E-1	-2.821350E-1
1.447000E+9	8.502502E-1	-4.448853E-1	-2.257309E-1	2.410889E-1	5.087280E-2	1.059875E-1	8.311768E-1	-3.266296E-1
1.671500E+9	8.134766E-1	-4.998779E-1	-1.990967E-1	2.682648E-1	6.292343E-2	1.178207E-1	8.071594E-1	-3.665466E-1
1.896000E+9	7.742920E-1	-5.504456E-1	-1.690674E-1	2.920990E-1	7.834625E-2	1.288681E-1	7.850647E-1	-4.031677E-1
2.120500E+9	7.334290E-1	-5.974731E-1	-1.372070E-1	3.126831E-1	9.416199E-2	1.365662E-1	7.610474E-1	-4.415588E-1
2.345000E+9	6.877747E-1	-6.413879E-1	-1.050110E-1	3.290100E-1	1.111298E-1	1.420898E-1	7.340698E-1	-4.776917E-1
2.569500E+9	6.439514E-1	-6.773987E-1	-7.156372E-2	3.406830E-1	1.262283E-1	1.452637E-1	7.069702E-1	-5.117187E-1
2.794000E+9	5.981445E-1	-7.122498E-1	-3.906250E-2	3.507996E-1	1.419449E-1	1.476822E-1	6.786804E-1	-5.426636E-1
3.018500E+9	5.523376E-1	-7.429199E-1	-7.446289E-3	3.555145E-1	1.573715E-1	1.481781E-1	6.484070E-1	-5.725403E-1
3.243000E+9	5.065613E-1	-7.694092E-1	2.403259E-2	3.593140E-1	1.726379E-1	1.469650E-1	6.167297E-1	-5.995789E-1
3.467500E+9	4.608154E-1	-7.932739E-1	5.430603E-2	3.604126E-1	1.869965E-1	1.447372E-1	5.868530E-1	-6.239014E-1
3.692000E+9	4.156189E-1	-8.131104E-1	8.387756E-2	3.584747E-1	2.012482E-1	1.416550E-1	5.545349E-1	-6.490479E-1
3.916500E+9	3.695374E-1	-8.297119E-1	1.130066E-1	3.544006E-1	2.143936E-1	1.368637E-1	5.215454E-1	-6.688538E-1
4.141000E+9	3.267517E-1	-8.439026E-1	1.405182E-1	3.485413E-1	2.273254E-1	1.321411E-1	4.923096E-1	-6.867676E-1
4.365500E+9	2.853088E-1	-8.560486E-1	1.661682E-1	3.404541E-1	2.397003E-1	1.259003E-1	4.616089E-1	-7.053833E-1
4.590000E+9	2.419434E-1	-8.666992E-1	1.899414E-1	3.309174E-1	2.515564E-1	1.189270E-1	4.291382E-1	-7.205811E-1
4.814500E+9	2.015991E-1	-8.732910E-1	2.126617E-1	3.200684E-1	2.622681E-1	1.113281E-1	3.990479E-1	-7.356873E-1
5.039000E+9	1.615295E-1	-8.790283E-1	2.340698E-1	3.080750E-1	2.723846E-1	1.027069E-1	3.686523E-1	-7.503967E-1
5.263500E+9	1.226501E-1	-8.815613E-1	2.543793E-1	2.944336E-1	2.813263E-1	9.268188E-2	3.364258E-1	-7.612610E-1
5.488000E+9	8.639526E-2	-8.829651E-1	2.721100E-1	2.812653E-1	2.895203E-1	8.381653E-2	3.081970E-1	-7.714233E-1
5.712500E+9	4.898071E-2	-8.839722E-1	2.896118E-1	2.664795E-1	2.976227E-1	7.411194E-2	2.785645E-1	-7.821045E-1
5.937000E+9	1.568604E-2	-8.820190E-1	3.046722E-1	2.505341E-1	3.039703E-1	6.277466E-2	2.474670E-1	-7.911682E-1
6.161500E+9	-1.617432E-2	-8.815613E-1	3.180389E-1	2.346039E-1	3.099365E-1	5.296326E-2	2.195740E-1	-7.986450E-1
6.386000E+9	-5.029297E-2	-8.789062E-1	3.308563E-1	2.187653E-1	3.143311E-1	4.246521E-2	1.905823E-1	-8.049011E-1
6.610500E+9	-7.968140E-2	-8.750916E-1	3.413239E-1	2.026215E-1	3.187408E-1	3.146362E-2	1.603088E-1	-8.117065E-1
6.835000E+9	-1.099548E-1	-8.710022E-1	3.519745E-1	1.870117E-1	3.225403E-1	2.101135E-2	1.322021E-1	-8.144836E-1
7.059500E+9	-1.367493E-1	-8.643799E-1	3.594666E-1	1.701050E-1	3.251648E-1	1.156616E-2	1.066589E-1	-8.168945E-1
7.284000E+9	-1.649170E-1	-8.587646E-1	3.675537E-1	1.529236E-1	3.270874E-1	1.235962E-3	7.769775E-2	-8.212280E-1
7.508500E+9	-1.916504E-1	-8.524475E-1	3.748627E-1	1.381836E-1	3.286285E-1	-9.948730E-3	5.017090E-2	-8.203125E-1
7.733000E+9	-2.165833E-1	-8.441772E-1	3.795776E-1	1.205139E-1	3.284607E-1	-2.009583E-2	2.624512E-2	-8.223572E-1
7.957500E+9	-2.416992E-1	-8.372192E-1	3.835602E-1	1.052094E-1	3.298492E-1	-2.947998E-2	-1.800537E-3	-8.232117E-1
8.182000E+9	-2.636719E-1	-8.298950E-1	3.882904E-1	8.949280E-2	3.314514E-1	-3.952026E-2	-2.792358E-2	-8.229980E-1
8.406500E+9	-2.863770E-1	-8.215332E-1	3.896637E-1	7.434082E-2	3.299103E-1	-5.039978E-2	-5.325317E-2	-8.211670E-1
8.631000E+9	-3.093567E-1	-8.135071E-1	3.920898E-1	5.859375E-2	3.296661E-1	-5.932617E-2	-7.891846E-2	-8.197632E-1
8.855500E+9	-3.299255E-1	-8.048096E-1	3.930664E-1	4.466248E-2	3.282928E-1	-6.831360E-2	-1.023560E-1	-8.163757E-1
9.080001E+9	-3.486328E-1	-7.974548E-1	3.933411E-1	2.961731E-2	3.267212E-1	-7.643127E-2	-1.253357E-1	-8.117065E-1
9.304500E+9	-3.698425E-1	-7.870483E-1	3.927307E-1	1.614380E-2	3.235321E-1	-8.613586E-2	-1.501160E-1	-8.088074E-1
9.529000E+9	-3.862305E-1	-7.792053E-1	3.927155E-1	2.166748E-3	3.226776E-1	-9.411621E-2	-1.734314E-1	-8.039856E-1
9.753500E+9	-4.058838E-1	-7.693787E-1	3.915100E-1	-1.136780E-2	3.194733E-1	-1.031494E-1	-1.939087E-1	-7.986450E-1
9.978000E+9	-4.229126E-1	-7.596130E-1	3.894196E-1	-2.264404E-2	3.170013E-1	-1.100159E-1	-2.148437E-1	-7.937317E-1
1.020250E+10	-4.395142E-1	-7.520447E-1	3.866730E-1	-3.649902E-2	3.130493E-1	-1.190491E-1	-2.371826E-1	-7.886963E-1
1.042700E+10	-4.562683E-1	-7.415466E-1	3.842621E-1	-4.850769E-2	3.105469E-1	-1.260223E-1	-2.575378E-1	-7.810669E-1
1.065150E+10	-4.711304E-1	-7.320862E-1	3.804779E-1	-5.906677E-2	3.064880E-1	-1.331635E-1	-2.768250E-1	-7.763977E-1
1.087600E+10	-4.860535E-1	-7.218933E-1	3.769684E-1	-7.138062E-2	3.021851E-1	-1.401367E-1	-2.974854E-1	-7.684631E-1
1.110050E+10	-5.007629E-1	-7.136230E-1	3.740387E-1	-8.091736E-2	2.989197E-1	-1.474304E-1	-3.173218E-1	-7.614136E-1
1.132500E+10	-5.139465E-1	-7.037659E-1	3.700409E-1	-9.162903E-2	2.942505E-1	-1.537018E-1	-3.347778E-1	-7.541809E-1
1.154950E+10	-5.285950E-1	-6.932373E-1	3.648682E-1	-1.019592E-1	2.898407E-1	-1.596680E-1	-3.565979E-1	-7.454224E-1
1.177400E+10	-5.411377E-1	-6.839600E-1	3.607178E-1	-1.121368E-1	2.859955E-1	-1.660767E-1	-3.724365E-1	-7.365112E-1
1.199850E+10	-5.546570E-1	-6.746521E-1	3.563232E-1	-1.204681E-1	2.818604E-1	-1.716309E-1	-3.893127E-1	-7.296753E-1
1.222300E+10	-5.661011E-1	-6.651001E-1	3.507385E-1	-1.295471E-1	2.778931E-1	-1.770172E-1	-4.095459E-1	-7.214050E-1
1.244750E+10	-5.783997E-1	-6.558838E-1	3.462219E-1	-1.397400E-1	2.722015E-1	-1.830139E-1	-4.251404E-1	-7.097473E-1
1.267200E+10	-5.901184E-1	-6.459351E-1	3.414612E-1	-1.459656E-1	2.684937E-1	-1.879120E-1	-4.399719E-1	-7.025757E-1
1.289650E+10	-5.996704E-1	-6.371155E-1	3.353577E-1	-1.539917E-1	2.626190E-1	-1.921997E-1	-4.581604E-1	-6.927490E-1
1.312100E+10	-6.120605E-1	-6.270447E-1	3.290405E-1	-1.621399E-1	2.580719E-1	-1.967468E-1	-4.727478E-1	-6.806335E-1
1.334550E+10	-6.219788E-1	-6.184692E-1	3.242493E-1	-1.686401E-1	2.537231E-1	-2.015228E-1	-4.855042E-1	-6.738892E-1
1.357000E+10	-6.319275E-1	-6.082153E-1	3.181458E-1	-1.760559E-1	2.473373E-1	-2.082367E-1	-5.033875E-1	-6.637573E-1
1.379450E+10	-6.395569E-1	-5.995789E-1	3.129425E-1	-1.835785E-1	2.432556E-1	-2.093124E-1	-5.176392E-1	-6.499634E-1
1.401900E+10	-6.497498E-1	-5.906067E-1	3.063660E-1	-1.890564E-1	2.386551E-1	-2.146683E-1	-5.282898E-1	-6.427002E-1
1.424350E+10	-6.590271E-1	-5.813904E-1	3.002167E-1	-1.950531E-1	2.329330E-1	-2.176590E-1	-5.456238E-1	-6.304016E-1
1.446800E+10	-6.678772E-1	-5.720215E-1	2.941437E-1	-2.016144E-1	2.283936E-1	-2.214661E-1	-5.585327E-1	-6.178589E-1
1.469250E+10	-6.761169E-1	-5.637207E-1	2.888184E-1	-2.070312E-1	2.225494E-1	-2.249374E-1	-5.678406E-1	-6.098938E-1
1.491700E+10	-6.849060E-1	-5.536194E-1	2.818604E-1	-2.124786E-1	2.172852E-1	-2.279434E-1	-5.838928E-1	-5.993958E-1
1.514150E+10	-6.924438E-1	-5.444946E-1	2.749481E-1	-2.171478E-1	2.122192E-1	-2.313538E-1	-5.960388E-1	-5.844421E-1
1.536600E+10	-7.016602E-1	-5.363464E-1	2.699432E-1	-2.221069E-1	2.070389E-1	-2.342300E-1	-6.058960E-1	-5.736084E-1
1.559050E+10	-7.086792E-1	-5.272522E-1	2.619629E-1	-2.257690E-1	2.020645E-1	-2.369232E-1	-6.189575E-1	-5.637207E-1
1.581500E+10	-7.156677E-1	-5.174561E-1	2.560577E-1	-2.307129E-1	1.959991E-1	-2.391357E-1	-6.307983E-1	-5.508423E-1
1.603950E+10	-7.228394E-1	-5.085144E-1	2.504272E-1	-2.341003E-1	1.929626E-1	-2.422180E-1	-6.386719E-1	-5.399475E-1
1.626400E+10	-7.300415E-1	-5.003357E-1	2.454376E-1	-2.378693E-1	1.872101E-1	-2.430267E-1	-6.527710E-1	-5.292664E-1
1.648850E+10	-7.370300E-1	-4.912415E-1	2.381897E-1	-2.411652E-1	1.810226E-1	-2.460175E-1	-6.611328E-1	-5.149536E-1
1.671300E+10	-7.438354E-1	-4.812317E-1	2.307892E-1	-2.445297E-1	1.762314E-1	-2.469864E-1	-6.698608E-1	-5.037537E-1
1.693750E+10	-7.493896E-1	-4.749146E-1	2.259979E-1	-2.488480E-1	1.716003E-1	-2.491837E-1	-6.817322E-1	-4.930725E-1
1.716200E+10	-7.562256E-1	-4.663696E-1	2.198029E-1	-2.509918E-1	1.666870E-1	-2.510376E-1	-6.898193E-1	-4.773865E-1
1.738650E+10	-7.621460E-1	-4.579163E-1	2.126160E-1	-2.548676E-1	1.611481E-1	-2.528534E-1	-6.955872E-1	-4.647827E-1
1.761100E+10	-7.678833E-1	-4.494324E-1	2.069397E-1	-2.566986E-1	1.563110E-1	-2.524719E-1	-7.064819E-1	-4.550171E-1
1.783550E+10	-7.749329E-1	-4.382019E-1	2.004242E-1	-2.584991E-1	1.519165E-1	-2.565155E-1	-7.166138E-1	-4.410400E-1
1.806000E+10	-7.803345E-1	-4.326782E-1	1.963043E-1	-2.613831E-1	1.478424E-1	-2.575073E-1	-7.207947E-1	-4.289856E-1
1.828450E+10	-7.841797E-1	-4.230652E-1	1.901093E-1	-2.629242E-1	1.434479E-1	-2.573395E-1	-7.300110E-1	-4.198608E-1
1.850900E+10	-7.918091E-1	-4.151611E-1	1.840210E-1	-2.653503E-1	1.370087E-1	-2.588501E-1	-7.390442E-1	-4.046021E-1
1.873350E+10	-7.973633E-1	-4.052734E-1	1.783600E-1	-2.676544E-1	1.318817E-1	-2.591400E-1	-7.440796E-1	-3.900146E-1
1.895800E+10	-8.011169E-1	-3.980713E-1	1.723175E-1	-2.697601E-1	1.283569E-1	-2.612305E-1	-7.507019E-1	-3.818359E-1
1.918250E+10	-8.055420E-1	-3.918457E-1	1.666260E-1	-2.702942E-1	1.243896E-1	-2.619324E-1	-7.586670E-1	-3.671570E-1
1.940700E+10	-8.091431E-1	-3.813477E-1	1.610870E-1	-2.725067E-1	1.191101E-1	-2.617493E-1	-7.643127E-1	-3.499146E-1
1.963150E+10	-8.148499E-1	-3.741150E-1	1.553345E-1	-2.723389E-1	1.145782E-1	-2.624207E-1	-7.676086E-1	-3.418274E-1
1.985600E+10	-8.181763E-1	-3.663635E-1	1.511383E-1	-2.742310E-1	1.098785E-1	-2.625580E-1	-7.753296E-1	-3.311157E-1
2.008050E+10	-8.236389E-1	-3.590088E-1	1.437378E-1	-2.755737E-1	1.053314E-1	-2.641296E-1	-7.799683E-1	-3.140259E-1
2.030500E+10	-8.270569E-1	-3.508301E-1	1.391449E-1	-2.748413E-1	9.988403E-2	-2.646484E-1	-7.833557E-1	-3.037415E-1
2.052950E+10	-8.318481E-1	-3.414917E-1	1.336823E-1	-2.761841E-1	9.521484E-2	-2.638702E-1	-7.897034E-1	-2.904053E-1
2.075400E+10	-8.350220E-1	-3.348389E-1	1.284332E-1	-2.767029E-1	9.269714E-2	-2.647858E-1	-7.945251E-1	-2.780762E-1
2.097850E+10	-8.403931E-1	-3.278503E-1	1.223907E-1	-2.778778E-1	8.758545E-2	-2.645416E-1	-7.960815E-1	-2.648621E-1
2.120300E+10	-8.435974E-1	-3.188782E-1	1.174011E-1	-2.772217E-1	8.384705E-2	-2.626190E-1	-8.010559E-1	-2.562256E-1
2.142750E+10	-8.472900E-1	-3.113403E-1	1.131287E-1	-2.787628E-1	7.933044E-2	-2.637024E-1	-8.088074E-1	-2.401123E-1
2.165200E+10	-8.516846E-1	-3.023071E-1	1.065979E-1	-2.771606E-1	7.432556E-2	-2.627411E-1	-8.105469E-1	-2.291870E-1
2.187650E+10	-8.536987E-1	-2.951660E-1	1.050262E-1	-2.796021E-1	7.124329E-2	-2.628937E-1	-8.166199E-1	-2.173157E-1
2.210100E+10	-8.584900E-1	-2.857971E-1	9.721375E-2	-2.784271E-1	6.683350E-2	-2.630615E-1	-8.204651E-1	-2.019348E-1
2.232550E+10	-8.581543E-1	-2.775574E-1	9.428406E-2	-2.784119E-1	6.430054E-2	-2.658691E-1	-8.197021E-1	-1.882019E-1
2.255000E+10	-8.639832E-1	-2.716675E-1	8.889771E-2	-2.792664E-1	6.048584E-2	-2.632446E-1	-8.237915E-1	-1.788330E-1
2.277450E+10	-8.658447E-1	-2.613525E-1	8.329773E-2	-2.809296E-1	5.558777E-2	-2.614899E-1	-8.293457E-1	-1.651611E-1
2.299900E+10	-8.688049E-1	-2.543335E-1	7.928467E-2	-2.800751E-1	5.427551E-2	-2.627411E-1	-8.271484E-1	-1.511230E-1
2.322350E+10	-8.717041E-1	-2.487488E-1	7.437134E-2	-2.784119E-1	4.797363E-2	-2.627411E-1	-8.329163E-1	-1.376953E-1
2.344800E+10	-8.729858E-1	-2.426758E-1	7.052612E-2	-2.781677E-1	4.574585E-2	-2.624054E-1	-8.366089E-1	-1.250916E-1
2.367250E+10	-8.778687E-1	-2.320557E-1	6.474304E-2	-2.768860E-1	4.153442E-2	-2.602539E-1	-8.345337E-1	-1.114807E-1
2.389700E+10	-8.761902E-1	-2.258911E-1	5.914307E-2	-2.771454E-1	3.625488E-2	-2.592316E-1	-8.377380E-1	-1.000366E-1
2.412150E+10	-8.825073E-1	-2.192383E-1	5.632019E-2	-2.781525E-1	3.027344E-2	-2.612762E-1	-8.366089E-1	-8.221436E-2
2.434600E+10	-8.820801E-1	-2.114868E-1	5.175781E-2	-2.758026E-1	3.068542E-2	-2.596893E-1	-8.361206E-1	-7.342529E-2
2.457050E+10	-8.852234E-1	-2.051392E-1	4.660034E-2	-2.783356E-1	2.513123E-2	-2.593994E-1	-8.373718E-1	-5.850220E-2
2.479500E+10	-8.890686E-1	-1.974182E-1	4.289246E-2	-2.769470E-1	2.238464E-2	-2.579651E-1	-8.379822E-1	-4.275513E-2
2.501950E+10	-8.887634E-1	-1.903992E-1	3.773499E-2	-2.766113E-1	1.693726E-2	-2.587738E-1	-8.333435E-1	-3.540039E-2
2.524400E+10	-8.930664E-1	-1.832886E-1	3.332520E-2	-2.729950E-1	1.472473E-2	-2.561646E-1	-8.349609E-1	-2.441406E-2
2.546850E+10	-8.950806E-1	-1.747742E-1	3.012085E-2	-2.721405E-1	1.060486E-2	-2.545776E-1	-8.323975E-1	-1.013184E-2
2.569300E+10	-8.949585E-1	-1.694336E-1	2.635193E-2	-2.709045E-1	7.446289E-3	-2.541962E-1	-8.321838E-1	-2.624512E-3
2.591750E+10	-8.982544E-1	-1.606445E-1	2.182007E-2	-2.704773E-1	4.776001E-3	-2.525177E-1	-8.337402E-1	1.019287E-2
2.614200E+10	-9.005737E-1	-1.556396E-1	1.947021E-2	-2.686310E-1	2.075195E-3	-2.517853E-1	-8.344116E-1	2.450562E-2
2.636650E+10	-9.017334E-1	-1.484985E-1	1.441956E-2	-2.689056E-1	1.159668E-3	-2.511444E-1	-8.356934E-1	3.823853E-2
2.659100E+10	-9.013062E-1	-1.418457E-1	1.007080E-2	-2.689667E-1	-3.952026E-3	-2.483826E-1	-8.288574E-1	4.943848E-2
2.681550E+10	-9.035034E-1	-1.365967E-1	8.483887E-3	-2.686157E-1	-6.782532E-3	-2.487564E-1	-8.329163E-1	5.883789E-2
2.704000E+10	-9.063416E-1	-1.261902E-1	4.928589E-3	-2.668915E-1	-9.559631E-3	-2.478104E-1	-8.283691E-1	7.998657E-2
2.726450E+10	-9.023743E-1	-1.213074E-1	-9.307861E-4	-2.664642E-1	-1.483917E-2	-2.490311E-1	-8.199158E-1	8.529663E-2
2.748900E+10	-9.062500E-1	-1.144714E-1	-5.569458E-3	-2.633362E-1	-1.788330E-2	-2.488480E-1	-8.231201E-1	9.490967E-2
2.771350E+10	-9.079285E-1	-1.048889E-1	-8.316040E-3	-2.621460E-1	-1.940155E-2	-2.429581E-1	-8.204041E-1	1.098633E-1
2.793800E+10	-9.119873E-1	-1.023560E-1	-1.023865E-2	-2.643890E-1	-2.341461E-2	-2.450485E-1	-8.167114E-1	1.204224E-1
2.816250E+10	-9.121094E-1	-8.920288E-2	-1.307678E-2	-2.628937E-1	-2.528381E-2	-2.439346E-1	-8.149109E-1	1.313782E-1
2.838700E+10	-9.090271E-1	-8.746338E-2	-1.744080E-2	-2.602997E-1	-2.811432E-2	-2.420959E-1	-8.104248E-1	1.460876E-1
2.861150E+10	-9.141541E-1	-7.901001E-2	-2.359009E-2	-2.617340E-1	-3.559113E-2	-2.435760E-1	-8.047485E-1	1.536865E-1
2.883600E+10	-9.144592E-1	-7.278442E-2	-2.615356E-2	-2.575073E-1	-3.495789E-2	-2.397156E-1	-8.032837E-1	1.635132E-1
2.906050E+10	-9.147339E-1	-6.436157E-2	-2.915955E-2	-2.554932E-1	-4.017639E-2	-2.381973E-1	-8.000793E-1	1.756592E-1
2.928500E+10	-9.178772E-1	-5.813599E-2	-3.178406E-2	-2.535400E-1	-4.328918E-2	-2.348862E-1	-7.924500E-1	1.867065E-1
2.950950E+10	-9.161682E-1	-4.986572E-2	-3.163147E-2	-2.485733E-1	-4.336548E-2	-2.357864E-1	-7.917480E-1	1.955566E-1
2.973400E+10	-9.205017E-1	-4.574585E-2	-3.490448E-2	-2.492142E-1	-4.341125E-2	-2.331772E-1	-7.879639E-1	2.084045E-1
2.995850E+10	-9.163513E-1	-3.674316E-2	-4.040527E-2	-2.485733E-1	-4.516602E-2	-2.306290E-1	-7.861023E-1	2.185974E-1
3.018300E+10	-9.155579E-1	-3.009033E-2	-4.021454E-2	-2.488861E-1	-5.018616E-2	-2.307816E-1	-7.849121E-1	2.377930E-1
3.040750E+10	-9.179687E-1	-2.432251E-2	-4.351807E-2	-2.478638E-1	-5.165100E-2	-2.326660E-1	-7.768860E-1	2.467041E-1
3.063200E+10	-9.159241E-1	-1.821899E-2	-4.867554E-2	-2.438736E-1	-5.458069E-2	-2.250137E-1	-7.774658E-1	2.560730E-1
3.085650E+10	-9.199219E-1	-1.159668E-2	-5.300903E-2	-2.448578E-1	-5.710602E-2	-2.306061E-1	-7.670288E-1	2.686157E-1
3.108100E+10	-9.188843E-1	-4.699707E-3	-5.354309E-2	-2.443695E-1	-6.090546E-2	-2.293701E-1	-7.617493E-1	2.781677E-1
3.130550E+10	-9.181824E-1	-2.502441E-3	-5.827332E-2	-2.437973E-1	-6.581879E-2	-2.251663E-1	-7.505493E-1	2.927246E-1
3.153000E+10	-9.214478E-1	9.674072E-3	-6.372070E-2	-2.436600E-1	-6.754303E-2	-2.239075E-1	-7.478333E-1	2.975464E-1
3.175450E+10	-9.192810E-1	1.568604E-2	-6.599426E-2	-2.367706E-1	-6.784058E-2	-2.216187E-1	-7.392578E-1	3.147278E-1
3.197900E+10	-9.159851E-1	2.124023E-2	-6.768036E-2	-2.370300E-1	-7.231140E-2	-2.262421E-1	-7.341003E-1	3.233032E-1
3.220350E+10	-9.191895E-1	2.743530E-2	-7.070160E-2	-2.353592E-1	-7.398987E-2	-2.173767E-1	-7.216187E-1	3.345947E-1
3.242800E+10	-9.224548E-1	3.128052E-2	-7.469177E-2	-2.342682E-1	-7.718658E-2	-2.178802E-1	-7.186890E-1	3.431396E-1
3.265250E+10	-9.257812E-1	4.342651E-2	-7.705688E-2	-2.308044E-1	-7.788086E-2	-2.187729E-1	-7.077637E-1	3.493042E-1
3.287700E+10	-9.190369E-1	5.047607E-2	-8.058167E-2	-2.293701E-1	-8.187103E-2	-2.106247E-1	-7.049561E-1	3.604431E-1
3.310150E+10	-9.200745E-1	5.252075E-2	-8.428955E-2	-2.282715E-1	-8.075714E-2	-2.129288E-1	-6.930542E-1	3.694153E-1
3.332600E+10	-9.224854E-1	6.332397E-2	-8.457947E-2	-2.260513E-1	-8.924103E-2	-2.106400E-1	-6.900330E-1	3.817139E-1
3.355050E+10	-9.154358E-1	6.616211E-2	-8.646393E-2	-2.227783E-1	-9.009552E-2	-2.062759E-1	-6.805420E-1	3.859558E-1
3.377500E+10	-9.198914E-1	7.336426E-2	-9.086609E-2	-2.224960E-1	-9.165192E-2	-2.056732E-1	-6.791077E-1	3.925781E-1
3.399950E+10	-9.170227E-1	7.885742E-2	-9.370422E-2	-2.196198E-1	-9.171295E-2	-2.083054E-1	-6.653748E-1	4.072876E-1
3.422400E+10	-9.155884E-1	8.914185E-2	-9.363556E-2	-2.206192E-1	-9.799194E-2	-2.068405E-1	-6.644287E-1	4.165039E-1
3.444850E+10	-9.191895E-1	9.191895E-2	-9.790802E-2	-2.177582E-1	-1.012802E-1	-2.059708E-1	-6.535950E-1	4.273376E-1
3.467300E+10	-9.166565E-1	9.750366E-2	-9.637451E-2	-2.173309E-1	-9.912872E-2	-2.024078E-1	-6.512146E-1	4.358215E-1
3.489750E+10	-9.164429E-1	1.055603E-1	-1.040802E-1	-2.156143E-1	-1.016312E-1	-2.034073E-1	-6.402893E-1	4.474182E-1
3.512200E+10	-9.126892E-1	1.101685E-1	-1.045990E-1	-2.146912E-1	-1.064682E-1	-2.002335E-1	-6.261902E-1	4.484558E-1
3.534650E+10	-9.136963E-1	1.147766E-1	-1.049194E-1	-2.111435E-1	-1.081924E-1	-2.011566E-1	-6.174316E-1	4.660034E-1
3.557100E+10	-9.125061E-1	1.213074E-1	-1.108856E-1	-2.092972E-1	-1.058197E-1	-2.007751E-1	-6.093140E-1	4.756470E-1
3.579550E+10	-9.136658E-1	1.289673E-1	-1.116028E-1	-2.099991E-1	-1.101227E-1	-1.993103E-1	-5.969849E-1	4.786987E-1
3.602000E+10	-9.135437E-1	1.393127E-1	-1.135025E-1	-2.064285E-1	-1.157608E-1	-1.991196E-1	-5.834961E-1	4.842834E-1
3.624450E+10	-9.081726E-1	1.444702E-1	-1.181488E-1	-2.052994E-1	-1.209335E-1	-1.905289E-1	-5.802917E-1	4.948120E-1
3.646900E+10	-9.085693E-1	1.488037E-1	-1.172028E-1	-2.028427E-1	-1.176147E-1	-1.949005E-1	-5.661926E-1	5.032349E-1
3.669350E+10	-9.056702E-1	1.540527E-1	-1.206665E-1	-2.007980E-1	-1.199799E-1	-1.910324E-1	-5.545654E-1	5.078125E-1
3.691800E+10	-9.088135E-1	1.617126E-1	-1.245041E-1	-2.025757E-1	-1.246185E-1	-1.888504E-1	-5.453186E-1	5.218506E-1
3.714250E+10	-9.049988E-1	1.656189E-1	-1.314697E-1	-1.990814E-1	-1.285019E-1	-1.899872E-1	-5.296936E-1	5.212097E-1
3.736700E+10	-9.022217E-1	1.704102E-1	-1.305008E-1	-2.002640E-1	-1.285782E-1	-1.860352E-1	-5.260315E-1	5.317688E-1
3.759150E+10	-8.986206E-1	1.806946E-1	-1.328049E-1	-1.942596E-1	-1.308289E-1	-1.820602E-1	-5.077209E-1	5.389709E-1
3.781600E+10	-8.985596E-1	1.889038E-1	-1.356354E-1	-1.984329E-1	-1.334839E-1	-1.804886E-1	-5.025330E-1	5.395203E-1
3.804050E+10	-9.001160E-1	1.869202E-1	-1.364212E-1	-1.924896E-1	-1.358643E-1	-1.821442E-1	-4.801636E-1	5.531616E-1
3.826500E+10	-8.966370E-1	1.952209E-1	-1.371918E-1	-1.911850E-1	-1.365128E-1	-1.820145E-1	-4.677429E-1	5.587158E-1
3.848950E+10	-8.975830E-1	2.004089E-1	-1.461029E-1	-1.907654E-1	-1.415634E-1	-1.780853E-1	-4.569092E-1	5.617981E-1
3.871400E+10	-8.929138E-1	2.106018E-1	-1.426773E-1	-1.872330E-1	-1.427841E-1	-1.740723E-1	-4.450989E-1	5.639954E-1
3.893850E+10	-8.938293E-1	2.121887E-1	-1.467133E-1	-1.828156E-1	-1.443329E-1	-1.723862E-1	-4.312134E-1	5.646973E-1
