!Date: 10/28/2005, 12:46 PM

!Vgs = -5.000000E+0
!Vds = 7.500000E+0
!Ig = -5.028100E-5
!Id = 1.051600E-2

# HZ S RI R 50
1.000000E+8	9.828186E-1	-8.392334E-2	-2.911499E+0	1.501465E-1	2.840996E-3	8.755207E-3	8.667603E-1	-3.079224E-2
3.245000E+8	9.448547E-1	-2.459106E-1	-2.807495E+0	5.712891E-1	8.073807E-3	3.142357E-2	8.253784E-1	-1.306152E-1
5.490000E+8	8.800659E-1	-3.921509E-1	-2.655640E+0	8.994141E-1	1.707268E-2	5.019379E-2	8.016357E-1	-2.008057E-1
7.735000E+8	7.962952E-1	-5.186157E-1	-2.447388E+0	1.170654E+0	2.983856E-2	6.481934E-2	7.626648E-1	-2.644348E-1
9.980000E+8	7.026062E-1	-6.219177E-1	-2.204346E+0	1.388550E+0	4.382324E-2	7.664490E-2	7.234802E-1	-3.158875E-1
1.222500E+9	6.003113E-1	-7.037354E-1	-1.969299E+0	1.573792E+0	5.880737E-2	8.491516E-2	6.805115E-1	-3.626404E-1
1.447000E+9	4.959412E-1	-7.673340E-1	-1.723145E+0	1.691711E+0	7.343292E-2	9.049225E-2	6.396790E-1	-4.027405E-1
1.671500E+9	3.946838E-1	-8.114014E-1	-1.469666E+0	1.759216E+0	8.810043E-2	9.412384E-2	5.958557E-1	-4.361877E-1
1.896000E+9	2.948914E-1	-8.410950E-1	-1.242432E+0	1.802002E+0	1.034012E-1	9.551239E-2	5.548096E-1	-4.620056E-1
2.120500E+9	1.999512E-1	-8.583069E-1	-1.033020E+0	1.817383E+0	1.172943E-1	9.352875E-2	5.154419E-1	-4.857483E-1
2.345000E+9	1.118774E-1	-8.637695E-1	-8.366699E-1	1.803223E+0	1.299973E-1	8.992767E-2	4.776001E-1	-5.037231E-1
2.569500E+9	3.680420E-2	-8.593140E-1	-6.547241E-1	1.771729E+0	1.411438E-1	8.529663E-2	4.414978E-1	-5.192261E-1
2.794000E+9	-3.598022E-2	-8.529663E-1	-5.006104E-1	1.739380E+0	1.505127E-1	8.021545E-2	4.094543E-1	-5.316772E-1
3.018500E+9	-9.887695E-2	-8.403625E-1	-3.592529E-1	1.689514E+0	1.592712E-1	7.382965E-2	3.773499E-1	-5.451050E-1
3.243000E+9	-1.564636E-1	-8.256836E-1	-2.313232E-1	1.640808E+0	1.664734E-1	6.778717E-2	3.464661E-1	-5.547485E-1
3.467500E+9	-2.080078E-1	-8.095398E-1	-1.202393E-1	1.578308E+0	1.723480E-1	6.126404E-2	3.183594E-1	-5.628662E-1
3.692000E+9	-2.564392E-1	-7.900696E-1	-2.020264E-2	1.513184E+0	1.787338E-1	5.521393E-2	2.901306E-1	-5.720825E-1
3.916500E+9	-3.002014E-1	-7.701111E-1	6.750488E-2	1.445435E+0	1.840820E-1	4.822540E-2	2.638550E-1	-5.783386E-1
4.141000E+9	-3.397827E-1	-7.485657E-1	1.460571E-1	1.384338E+0	1.882553E-1	4.170227E-2	2.394104E-1	-5.850830E-1
4.365500E+9	-3.726196E-1	-7.289124E-1	2.140503E-1	1.321716E+0	1.913300E-1	3.491211E-2	2.160950E-1	-5.920105E-1
4.590000E+9	-4.044189E-1	-7.095337E-1	2.739258E-1	1.262390E+0	1.940231E-1	2.844238E-2	1.911621E-1	-5.966492E-1
4.814500E+9	-4.308472E-1	-6.910706E-1	3.265991E-1	1.195862E+0	1.976471E-1	2.227020E-2	1.696777E-1	-6.017151E-1
5.039000E+9	-4.586182E-1	-6.703186E-1	3.731689E-1	1.134949E+0	1.998672E-1	1.486969E-2	1.458740E-1	-6.068420E-1
5.263500E+9	-4.831238E-1	-6.497192E-1	4.140625E-1	1.075623E+0	2.014694E-1	8.567810E-3	1.233826E-1	-6.105652E-1
5.488000E+9	-5.041504E-1	-6.316833E-1	4.488525E-1	1.021179E+0	2.022171E-1	2.487183E-3	1.041565E-1	-6.142883E-1
5.712500E+9	-5.245972E-1	-6.140137E-1	4.810181E-1	9.680176E-1	2.035751E-1	-3.372192E-3	8.392334E-2	-6.184082E-1
5.937000E+9	-5.406494E-1	-5.958557E-1	5.070801E-1	9.141235E-1	2.031708E-1	-9.811401E-3	6.173706E-2	-6.220093E-1
6.161500E+9	-5.574036E-1	-5.806885E-1	5.289612E-1	8.610535E-1	2.038727E-1	-1.538086E-2	4.296875E-2	-6.245117E-1
6.386000E+9	-5.741577E-1	-5.628357E-1	5.489807E-1	8.086243E-1	2.040787E-1	-2.201080E-2	2.243042E-2	-6.274414E-1
6.610500E+9	-5.882568E-1	-5.470886E-1	5.668030E-1	7.628174E-1	2.038651E-1	-2.695465E-2	1.556396E-3	-6.315308E-1
6.835000E+9	-6.022339E-1	-5.323792E-1	5.809326E-1	7.191467E-1	2.031403E-1	-3.212738E-2	-1.742554E-2	-6.319275E-1
7.059500E+9	-6.125488E-1	-5.185242E-1	5.920410E-1	6.753845E-1	2.028732E-1	-3.708649E-2	-3.488159E-2	-6.330566E-1
7.284000E+9	-6.238708E-1	-5.048218E-1	6.004639E-1	6.306152E-1	2.020340E-1	-4.280853E-2	-5.633545E-2	-6.349182E-1
7.508500E+9	-6.343079E-1	-4.906616E-1	6.096191E-1	5.893555E-1	2.009964E-1	-4.713440E-2	-7.473755E-2	-6.350708E-1
7.733000E+9	-6.445618E-1	-4.756165E-1	6.123047E-1	5.487671E-1	1.989059E-1	-5.198669E-2	-9.152222E-2	-6.372070E-1
7.957500E+9	-6.547852E-1	-4.621277E-1	6.182556E-1	5.127563E-1	1.975327E-1	-5.667877E-2	-1.118774E-1	-6.363525E-1
8.182000E+9	-6.631165E-1	-4.504089E-1	6.220398E-1	4.779663E-1	1.962967E-1	-6.121826E-2	-1.304321E-1	-6.363831E-1
8.406500E+9	-6.703796E-1	-4.395752E-1	6.225891E-1	4.440002E-1	1.947403E-1	-6.533051E-2	-1.483154E-1	-6.337585E-1
8.631000E+9	-6.789551E-1	-4.273682E-1	6.236267E-1	4.103394E-1	1.931763E-1	-7.037354E-2	-1.674194E-1	-6.329956E-1
8.855500E+9	-6.865540E-1	-4.146423E-1	6.213379E-1	3.762207E-1	1.911545E-1	-7.418060E-2	-1.855164E-1	-6.319275E-1
9.080001E+9	-6.933899E-1	-4.061584E-1	6.207886E-1	3.456726E-1	1.893311E-1	-7.799530E-2	-2.012939E-1	-6.291809E-1
9.304500E+9	-7.006226E-1	-3.909607E-1	6.171265E-1	3.174744E-1	1.860275E-1	-8.174133E-2	-2.192078E-1	-6.253967E-1
9.529000E+9	-7.058411E-1	-3.840027E-1	6.153564E-1	2.913208E-1	1.850815E-1	-8.545685E-2	-2.379456E-1	-6.216736E-1
9.753500E+9	-7.114868E-1	-3.737183E-1	6.103516E-1	2.631226E-1	1.831589E-1	-8.945465E-2	-2.525330E-1	-6.186829E-1
9.978000E+9	-7.179565E-1	-3.641052E-1	6.045532E-1	2.377625E-1	1.807632E-1	-9.295654E-2	-2.697144E-1	-6.172791E-1
1.020250E+10	-7.232666E-1	-3.542786E-1	5.987549E-1	2.123108E-1	1.782990E-1	-9.679413E-2	-2.857971E-1	-6.129150E-1
1.042700E+10	-7.296753E-1	-3.427734E-1	5.939941E-1	1.892700E-1	1.757355E-1	-9.930420E-2	-3.016968E-1	-6.083069E-1
1.065150E+10	-7.333374E-1	-3.347778E-1	5.873108E-1	1.690369E-1	1.730576E-1	-1.022949E-1	-3.169556E-1	-6.039734E-1
1.087600E+10	-7.385559E-1	-3.260193E-1	5.811462E-1	1.476746E-1	1.704941E-1	-1.057205E-1	-3.323975E-1	-5.991211E-1
1.110050E+10	-7.422791E-1	-3.171692E-1	5.741272E-1	1.257324E-1	1.685104E-1	-1.090164E-1	-3.485413E-1	-5.940857E-1
1.132500E+10	-7.464905E-1	-3.083801E-1	5.662537E-1	1.054077E-1	1.665268E-1	-1.116638E-1	-3.622742E-1	-5.895996E-1
1.154950E+10	-7.521057E-1	-2.983704E-1	5.595398E-1	8.691406E-2	1.629257E-1	-1.141891E-1	-3.796082E-1	-5.829468E-1
1.177400E+10	-7.543335E-1	-2.904053E-1	5.515747E-1	6.857300E-2	1.606522E-1	-1.164551E-1	-3.933411E-1	-5.745850E-1
1.199850E+10	-7.586365E-1	-2.824707E-1	5.441284E-1	5.267334E-2	1.576309E-1	-1.194000E-1	-4.059143E-1	-5.708008E-1
1.222300E+10	-7.620544E-1	-2.759399E-1	5.351257E-1	3.674316E-2	1.549988E-1	-1.218338E-1	-4.216614E-1	-5.643921E-1
1.244750E+10	-7.656250E-1	-2.677917E-1	5.252075E-1	1.892090E-2	1.529846E-1	-1.240692E-1	-4.350586E-1	-5.560608E-1
1.267200E+10	-7.697144E-1	-2.608948E-1	5.166931E-1	4.180908E-3	1.499786E-1	-1.262589E-1	-4.473572E-1	-5.516663E-1
1.289650E+10	-7.720947E-1	-2.515869E-1	5.089111E-1	-9.399414E-3	1.473465E-1	-1.271515E-1	-4.630432E-1	-5.431824E-1
1.312100E+10	-7.764587E-1	-2.446899E-1	4.985962E-1	-2.343750E-2	1.440964E-1	-1.303101E-1	-4.748840E-1	-5.335999E-1
1.334550E+10	-7.793579E-1	-2.378845E-1	4.904633E-1	-3.587341E-2	1.420135E-1	-1.322403E-1	-4.859314E-1	-5.286560E-1
1.357000E+10	-7.821045E-1	-2.286987E-1	4.810486E-1	-4.924011E-2	1.380386E-1	-1.342087E-1	-4.995422E-1	-5.231323E-1
1.379450E+10	-7.846069E-1	-2.236938E-1	4.735565E-1	-5.987549E-2	1.366882E-1	-1.367264E-1	-5.128174E-1	-5.099792E-1
1.401900E+10	-7.851562E-1	-2.172852E-1	4.645233E-1	-7.127380E-2	1.339722E-1	-1.374588E-1	-5.183716E-1	-5.037231E-1
1.424350E+10	-7.887573E-1	-2.102661E-1	4.541016E-1	-8.268738E-2	1.301575E-1	-1.395264E-1	-5.363159E-1	-4.939270E-1
1.446800E+10	-7.920837E-1	-2.033997E-1	4.456177E-1	-9.405518E-2	1.287231E-1	-1.408005E-1	-5.466309E-1	-4.833069E-1
1.469250E+10	-7.930603E-1	-1.953735E-1	4.369049E-1	-1.036072E-1	1.257782E-1	-1.433868E-1	-5.543213E-1	-4.772339E-1
1.491700E+10	-7.958069E-1	-1.896362E-1	4.272461E-1	-1.126404E-1	1.224289E-1	-1.441727E-1	-5.680237E-1	-4.702148E-1
1.514150E+10	-7.985229E-1	-1.834412E-1	4.188843E-1	-1.219482E-1	1.184464E-1	-1.464767E-1	-5.777283E-1	-4.573364E-1
1.536600E+10	-7.998047E-1	-1.756287E-1	4.075928E-1	-1.287994E-1	1.165161E-1	-1.462250E-1	-5.866394E-1	-4.496765E-1
1.559050E+10	-8.013916E-1	-1.710205E-1	3.986816E-1	-1.386719E-1	1.140060E-1	-1.483002E-1	-5.986328E-1	-4.399719E-1
1.581500E+10	-8.030701E-1	-1.628723E-1	3.882294E-1	-1.452332E-1	1.107635E-1	-1.501770E-1	-6.082153E-1	-4.281921E-1
1.603950E+10	-8.061218E-1	-1.563416E-1	3.812408E-1	-1.543884E-1	1.086273E-1	-1.509247E-1	-6.151428E-1	-4.214478E-1
1.626400E+10	-8.085022E-1	-1.524658E-1	3.748627E-1	-1.594391E-1	1.053848E-1	-1.515656E-1	-6.261292E-1	-4.109192E-1
1.648850E+10	-8.089294E-1	-1.454163E-1	3.632050E-1	-1.660614E-1	1.023026E-1	-1.515884E-1	-6.359558E-1	-3.993530E-1
1.671300E+10	-8.111572E-1	-1.393738E-1	3.551483E-1	-1.729126E-1	1.005859E-1	-1.532059E-1	-6.427002E-1	-3.900146E-1
1.693750E+10	-8.130493E-1	-1.338806E-1	3.454895E-1	-1.784210E-1	9.707642E-2	-1.543121E-1	-6.524963E-1	-3.806763E-1
1.716200E+10	-8.159180E-1	-1.264954E-1	3.369446E-1	-1.842041E-1	9.503937E-2	-1.568680E-1	-6.595459E-1	-3.678284E-1
1.738650E+10	-8.151550E-1	-1.213379E-1	3.296509E-1	-1.885071E-1	9.196472E-2	-1.562042E-1	-6.656799E-1	-3.586426E-1
1.761100E+10	-8.184204E-1	-1.160583E-1	3.215942E-1	-1.924591E-1	8.894348E-2	-1.569748E-1	-6.745911E-1	-3.503113E-1
1.783550E+10	-8.206482E-1	-1.099854E-1	3.123474E-1	-1.973419E-1	8.519745E-2	-1.568298E-1	-6.825562E-1	-3.362427E-1
1.806000E+10	-8.206177E-1	-1.035767E-1	3.044128E-1	-2.029724E-1	8.393860E-2	-1.572647E-1	-6.865540E-1	-3.264465E-1
1.828450E+10	-8.216248E-1	-9.747314E-2	2.965546E-1	-2.075653E-1	8.168030E-2	-1.599579E-1	-6.954346E-1	-3.183594E-1
1.850900E+10	-8.240967E-1	-9.234619E-2	2.901154E-1	-2.098999E-1	7.878876E-2	-1.594696E-1	-7.029419E-1	-3.059082E-1
1.873350E+10	-8.245544E-1	-8.590698E-2	2.815094E-1	-2.144623E-1	7.578278E-2	-1.607361E-1	-7.073669E-1	-2.925720E-1
1.895800E+10	-8.262024E-1	-8.145142E-2	2.744598E-1	-2.172241E-1	7.300568E-2	-1.604462E-1	-7.129211E-1	-2.854309E-1
1.918250E+10	-8.280945E-1	-7.760620E-2	2.651825E-1	-2.207184E-1	7.009888E-2	-1.600418E-1	-7.197571E-1	-2.738953E-1
1.940700E+10	-8.284607E-1	-7.019043E-2	2.572021E-1	-2.257690E-1	6.878662E-2	-1.611328E-1	-7.241211E-1	-2.601013E-1
1.963150E+10	-8.283997E-1	-6.408691E-2	2.482910E-1	-2.272949E-1	6.534576E-2	-1.631241E-1	-7.267456E-1	-2.510986E-1
1.985600E+10	-8.301697E-1	-5.935669E-2	2.427979E-1	-2.303009E-1	6.293488E-2	-1.635971E-1	-7.362366E-1	-2.398682E-1
2.008050E+10	-8.298950E-1	-5.493164E-2	2.333298E-1	-2.316589E-1	6.006622E-2	-1.618576E-1	-7.397156E-1	-2.265015E-1
2.030500E+10	-8.316345E-1	-4.806519E-2	2.280121E-1	-2.341461E-1	5.860138E-2	-1.629105E-1	-7.418823E-1	-2.174683E-1
2.052950E+10	-8.308716E-1	-4.333496E-2	2.190857E-1	-2.349243E-1	5.513763E-2	-1.631393E-1	-7.472534E-1	-2.060852E-1
2.075400E+10	-8.333130E-1	-3.875732E-2	2.135773E-1	-2.374344E-1	5.147552E-2	-1.643372E-1	-7.519226E-1	-1.936340E-1
2.097850E+10	-8.344421E-1	-3.466797E-2	2.056427E-1	-2.399368E-1	5.003357E-2	-1.639709E-1	-7.532959E-1	-1.833191E-1
2.120300E+10	-8.342285E-1	-2.960205E-2	1.996765E-1	-2.402496E-1	4.718018E-2	-1.625214E-1	-7.575684E-1	-1.740723E-1
2.142750E+10	-8.377380E-1	-2.255249E-2	1.934967E-1	-2.420197E-1	4.323578E-2	-1.627884E-1	-7.639465E-1	-1.596069E-1
2.165200E+10	-8.384094E-1	-1.681519E-2	1.856995E-1	-2.423248E-1	4.340363E-2	-1.634140E-1	-7.657471E-1	-1.505127E-1
2.187650E+10	-8.369141E-1	-1.205444E-2	1.815796E-1	-2.441406E-1	4.266357E-2	-1.639786E-1	-7.698975E-1	-1.398010E-1
2.210100E+10	-8.375854E-1	-6.622314E-3	1.727066E-1	-2.458115E-1	3.714752E-2	-1.639328E-1	-7.736511E-1	-1.247864E-1
2.232550E+10	-8.386536E-1	1.525879E-4	1.661530E-1	-2.480316E-1	3.478241E-2	-1.618423E-1	-7.742615E-1	-1.141357E-1
2.255000E+10	-8.390808E-1	4.272461E-3	1.611786E-1	-2.501221E-1	3.341675E-2	-1.632309E-1	-7.751465E-1	-1.054077E-1
2.277450E+10	-8.399353E-1	1.052856E-2	1.565857E-1	-2.480545E-1	2.981567E-2	-1.629181E-1	-7.796326E-1	-8.978271E-2
2.299900E+10	-8.418884E-1	1.602173E-2	1.499939E-1	-2.503357E-1	2.876282E-2	-1.633530E-1	-7.793884E-1	-7.879639E-2
2.322350E+10	-8.413696E-1	2.127075E-2	1.448517E-1	-2.511597E-1	2.574158E-2	-1.620102E-1	-7.831421E-1	-6.939697E-2
2.344800E+10	-8.409424E-1	2.343750E-2	1.362915E-1	-2.502289E-1	2.434540E-2	-1.636963E-1	-7.860413E-1	-5.432129E-2
2.367250E+10	-8.412781E-1	3.063965E-2	1.300201E-1	-2.500916E-1	2.040863E-2	-1.640778E-1	-7.822876E-1	-4.333496E-2
2.389700E+10	-8.401794E-1	3.500366E-2	1.242065E-1	-2.524109E-1	1.876068E-2	-1.622620E-1	-7.850342E-1	-3.283691E-2
2.412150E+10	-8.422241E-1	4.144287E-2	1.189423E-1	-2.507477E-1	1.628876E-2	-1.642151E-1	-7.835388E-1	-1.657104E-2
2.434600E+10	-8.403320E-1	4.483032E-2	1.137695E-1	-2.509003E-1	1.309204E-2	-1.627197E-1	-7.816162E-1	-8.331299E-3
2.457050E+10	-8.393250E-1	4.910278E-2	1.061707E-1	-2.519073E-1	1.146698E-2	-1.622925E-1	-7.868958E-1	2.502441E-3
2.479500E+10	-8.431091E-1	5.813599E-2	1.006775E-1	-2.491379E-1	7.049561E-3	-1.625977E-1	-7.841187E-1	1.831055E-2
2.501950E+10	-8.410645E-1	6.011963E-2	9.523010E-2	-2.513275E-1	5.653381E-3	-1.621933E-1	-7.782593E-1	2.624512E-2
2.524400E+10	-8.409119E-1	6.634521E-2	8.962250E-2	-2.492981E-1	3.456116E-3	-1.605606E-1	-7.821045E-1	3.598022E-2
2.546850E+10	-8.421936E-1	7.159424E-2	8.317566E-2	-2.480164E-1	1.960754E-3	-1.592865E-1	-7.771301E-1	4.959106E-2
2.569300E+10	-8.402405E-1	7.440186E-2	8.012390E-2	-2.467270E-1	2.288818E-5	-1.579895E-1	-7.774658E-1	5.502319E-2
2.591750E+10	-8.409119E-1	8.062744E-2	7.513428E-2	-2.448654E-1	-3.059387E-3	-1.580887E-1	-7.790833E-1	6.686401E-2
2.614200E+10	-8.408813E-1	8.691406E-2	6.974030E-2	-2.444382E-1	-5.485535E-3	-1.592331E-1	-7.807007E-1	8.096313E-2
2.636650E+10	-8.401489E-1	9.030151E-2	6.569672E-2	-2.448425E-1	-7.240295E-3	-1.590652E-1	-7.774353E-1	9.194946E-2
2.659100E+10	-8.374329E-1	9.350586E-2	5.886841E-2	-2.456360E-1	-8.720398E-3	-1.573486E-1	-7.724609E-1	1.046448E-1
2.681550E+10	-8.367004E-1	9.872437E-2	5.697632E-2	-2.446060E-1	-1.225281E-2	-1.570892E-1	-7.754211E-1	1.108704E-1
2.704000E+10	-8.381653E-1	1.047974E-1	5.210114E-2	-2.411575E-1	-1.473236E-2	-1.563339E-1	-7.749939E-1	1.305847E-1
2.726450E+10	-8.362427E-1	1.114807E-1	4.753876E-2	-2.417297E-1	-1.603699E-2	-1.565399E-1	-7.604980E-1	1.394348E-1
2.748900E+10	-8.360291E-1	1.135254E-1	3.883362E-2	-2.433624E-1	-1.795197E-2	-1.565399E-1	-7.643738E-1	1.459656E-1
2.771350E+10	-8.347168E-1	1.174622E-1	3.526306E-2	-2.407150E-1	-2.024078E-2	-1.526794E-1	-7.600708E-1	1.573181E-1
2.793800E+10	-8.351440E-1	1.259155E-1	3.253937E-2	-2.373810E-1	-2.103424E-2	-1.538620E-1	-7.586060E-1	1.649170E-1
2.816250E+10	-8.349915E-1	1.290894E-1	2.693939E-2	-2.366867E-1	-2.637482E-2	-1.511917E-1	-7.554932E-1	1.751404E-1
2.838700E+10	-8.320923E-1	1.315002E-1	2.160645E-2	-2.343369E-1	-2.532196E-2	-1.516037E-1	-7.502747E-1	1.890259E-1
2.861150E+10	-8.329163E-1	1.373291E-1	1.741791E-2	-2.349396E-1	-2.848053E-2	-1.509552E-1	-7.405090E-1	1.995850E-1
2.883600E+10	-8.318176E-1	1.426086E-1	1.449585E-2	-2.328644E-1	-3.117371E-2	-1.522141E-1	-7.383118E-1	2.021484E-1
2.906050E+10	-8.331604E-1	1.460876E-1	1.076508E-2	-2.295837E-1	-3.436279E-2	-1.500320E-1	-7.369690E-1	2.172852E-1
2.928500E+10	-8.334656E-1	1.525269E-1	3.456116E-3	-2.265778E-1	-3.427124E-2	-1.485062E-1	-7.312622E-1	2.250977E-1
2.950950E+10	-8.315735E-1	1.582031E-1	4.615784E-3	-2.254181E-1	-3.737640E-2	-1.469574E-1	-7.305908E-1	2.356262E-1
2.973400E+10	-8.283386E-1	1.612549E-1	-4.577637E-5	-2.249298E-1	-3.889465E-2	-1.473236E-1	-7.253418E-1	2.449951E-1
2.995850E+10	-8.283997E-1	1.671753E-1	-7.240295E-3	-2.258377E-1	-4.512787E-2	-1.446838E-1	-7.248230E-1	2.590942E-1
3.018300E+10	-8.241882E-1	1.701355E-1	-9.727478E-3	-2.248154E-1	-4.569244E-2	-1.450653E-1	-7.193604E-1	2.702637E-1
3.040750E+10	-8.276672E-1	1.742249E-1	-1.229095E-2	-2.209167E-1	-4.409790E-2	-1.433334E-1	-7.116089E-1	2.840576E-1
3.063200E+10	-8.220215E-1	1.798401E-1	-1.557922E-2	-2.219162E-1	-4.571533E-2	-1.426315E-1	-7.053223E-1	2.915344E-1
3.085650E+10	-8.229370E-1	1.836548E-1	-2.089691E-2	-2.213898E-1	-4.968262E-2	-1.442261E-1	-7.019348E-1	3.038940E-1
3.108100E+10	-8.221130E-1	1.876526E-1	-2.487183E-2	-2.167053E-1	-5.125427E-2	-1.439896E-1	-6.932068E-1	3.079529E-1
3.130550E+10	-8.182983E-1	1.885681E-1	-2.906036E-2	-2.142868E-1	-5.519867E-2	-1.414490E-1	-6.839905E-1	3.190918E-1
3.153000E+10	-8.168030E-1	2.002869E-1	-2.889252E-2	-2.116776E-1	-5.777740E-2	-1.418076E-1	-6.790161E-1	3.269653E-1
3.175450E+10	-8.148193E-1	2.000122E-1	-3.586578E-2	-2.121201E-1	-5.849457E-2	-1.388397E-1	-6.698303E-1	3.388977E-1
3.197900E+10	-8.151855E-1	2.043457E-1	-3.882599E-2	-2.065582E-1	-6.154633E-2	-1.368408E-1	-6.582947E-1	3.489380E-1
3.220350E+10	-8.122253E-1	2.118530E-1	-4.061127E-2	-2.053375E-1	-6.498718E-2	-1.370087E-1	-6.567078E-1	3.509521E-1
3.242800E+10	-8.186035E-1	2.160339E-1	-4.634857E-2	-2.089996E-1	-6.652069E-2	-1.370163E-1	-6.487732E-1	3.647766E-1
3.265250E+10	-8.162231E-1	2.228088E-1	-4.853058E-2	-2.020187E-1	-7.012939E-2	-1.329498E-1	-6.382751E-1	3.692322E-1
3.287700E+10	-8.138428E-1	2.259216E-1	-5.029297E-2	-1.971741E-1	-6.497955E-2	-1.329117E-1	-6.378479E-1	3.778992E-1
3.310150E+10	-8.121643E-1	2.328796E-1	-5.766296E-2	-1.969604E-1	-7.360077E-2	-1.317291E-1	-6.230164E-1	3.859863E-1
3.332600E+10	-8.011169E-1	2.355347E-1	-5.387115E-2	-1.938477E-1	-7.622528E-2	-1.282654E-1	-6.202393E-1	3.898621E-1
3.355050E+10	-8.041077E-1	2.381592E-1	-5.998230E-2	-1.908340E-1	-8.076477E-2	-1.283188E-1	-6.085510E-1	3.987732E-1
3.377500E+10	-8.041992E-1	2.451782E-1	-6.421661E-2	-1.940155E-1	-7.711792E-2	-1.254349E-1	-6.041870E-1	4.057007E-1
3.399950E+10	-8.020325E-1	2.454834E-1	-6.356049E-2	-1.912003E-1	-7.975006E-2	-1.266785E-1	-6.026001E-1	4.107056E-1
3.422400E+10	-7.996521E-1	2.534485E-1	-6.787109E-2	-1.895142E-1	-8.143616E-2	-1.253738E-1	-5.925903E-1	4.279175E-1
3.444850E+10	-8.003235E-1	2.549438E-1	-7.177734E-2	-1.899872E-1	-8.208466E-2	-1.255798E-1	-5.817871E-1	4.335022E-1
3.467300E+10	-7.982788E-1	2.568970E-1	-6.919098E-2	-1.880112E-1	-8.552933E-2	-1.223869E-1	-5.705566E-1	4.425659E-1
3.489750E+10	-7.963562E-1	2.640381E-1	-7.637024E-2	-1.830292E-1	-9.214401E-2	-1.209717E-1	-5.636292E-1	4.416504E-1
3.512200E+10	-7.909851E-1	2.699280E-1	-7.864380E-2	-1.802368E-1	-9.217834E-2	-1.157570E-1	-5.509338E-1	4.505920E-1
3.534650E+10	-7.893982E-1	2.673950E-1	-8.103943E-2	-1.763077E-1	-9.302139E-2	-1.179771E-1	-5.442505E-1	4.619446E-1
3.557100E+10	-7.895813E-1	2.737732E-1	-8.651733E-2	-1.760406E-1	-9.564590E-2	-1.148605E-1	-5.318909E-1	4.718933E-1
3.579550E+10	-7.860718E-1	2.801208E-1	-9.030151E-2	-1.775513E-1	-9.650040E-2	-1.142693E-1	-5.187073E-1	4.770203E-1
3.602000E+10	-7.811584E-1	2.834473E-1	-8.877563E-2	-1.684341E-1	-9.761429E-2	-1.129265E-1	-5.186157E-1	4.773865E-1
3.624450E+10	-7.792969E-1	2.885742E-1	-9.558105E-2	-1.633682E-1	-1.057205E-1	-1.102867E-1	-5.086060E-1	4.818420E-1
3.646900E+10	-7.765198E-1	2.890320E-1	-1.027527E-1	-1.663971E-1	-1.062241E-1	-1.075287E-1	-4.893341E-1	4.943390E-1
3.669350E+10	-7.753906E-1	2.947998E-1	-1.023560E-1	-1.638184E-1	-1.050568E-1	-1.066818E-1	-4.814301E-1	4.918671E-1
3.691800E+10	-7.694397E-1	2.985229E-1	-1.014709E-1	-1.569977E-1	-1.094513E-1	-1.035538E-1	-4.689636E-1	5.022278E-1
3.714250E+10	-7.713318E-1	3.034363E-1	-1.068039E-1	-1.556625E-1	-1.117935E-1	-1.002426E-1	-4.613037E-1	5.027771E-1
3.736700E+10	-7.681885E-1	3.019409E-1	-1.097870E-1	-1.565704E-1	-1.117020E-1	-1.017685E-1	-4.529114E-1	5.094299E-1
3.759150E+10	-7.635193E-1	3.123779E-1	-1.122131E-1	-1.531296E-1	-1.198730E-1	-9.989166E-2	-4.338379E-1	5.137024E-1
3.781600E+10	-7.608032E-1	3.100281E-1	-1.120911E-1	-1.449585E-1	-1.149712E-1	-9.222412E-2	-4.306946E-1	5.169067E-1
3.804050E+10	-7.575073E-1	3.122864E-1	-1.167755E-1	-1.467133E-1	-1.180840E-1	-9.695816E-2	-4.129028E-1	5.233765E-1
3.826500E+10	-7.510071E-1	3.230896E-1	-1.164627E-1	-1.372681E-1	-1.205673E-1	-9.003448E-2	-3.986511E-1	5.337524E-1
3.848950E+10	-7.523193E-1	3.213806E-1	-1.186447E-1	-1.434097E-1	-1.248169E-1	-8.542252E-2	-3.874207E-1	5.258484E-1
3.871400E+10	-7.499390E-1	3.242798E-1	-1.215820E-1	-1.382980E-1	-1.238403E-1	-8.576202E-2	-3.744812E-1	5.265503E-1
3.893850E+10	-7.456055E-1	3.316040E-1	-1.225586E-1	-1.279297E-1	-1.271133E-1	-8.177185E-2	-3.595581E-1	5.311890E-1
