!Date: 10/28/2005, 12:46 PM

!Vgs = 0.000000E+0
!Vds = 2.000000E+1
!Ig = -3.912900E-5
!Id = 8.226700E-1

# HZ S RI R 50
1.000000E+8	9.606628E-1	-1.622620E-1	-1.156738E+1	-1.166992E-1	1.363277E-3	9.514332E-3	6.044617E-1	9.307861E-3
3.245000E+8	8.162231E-1	-4.664001E-1	-1.093506E+1	3.477051E+0	9.310722E-3	2.377892E-2	3.867035E-1	-2.155304E-1
5.490000E+8	6.136169E-1	-6.923523E-1	-9.421875E+0	5.088867E+0	2.036858E-2	3.421402E-2	3.377991E-1	-2.807465E-1
7.735000E+8	3.995667E-1	-8.187256E-1	-7.740479E+0	5.910645E+0	3.197670E-2	3.890991E-2	2.325592E-1	-3.487701E-1
9.980000E+8	1.987610E-1	-8.707275E-1	-6.227539E+0	6.248047E+0	4.233742E-2	4.036903E-2	1.466522E-1	-3.492126E-1
1.222500E+9	2.157593E-2	-8.808594E-1	-4.973145E+0	6.291260E+0	5.074883E-2	3.928185E-2	8.842468E-2	-3.586426E-1
1.447000E+9	-1.262207E-1	-8.653870E-1	-3.935791E+0	6.132812E+0	5.813026E-2	3.743362E-2	2.775574E-2	-3.511963E-1
1.671500E+9	-2.461853E-1	-8.336487E-1	-3.107910E+0	5.885986E+0	6.341171E-2	3.485870E-2	-1.469421E-2	-3.427124E-1
1.896000E+9	-3.452148E-1	-7.926025E-1	-2.457031E+0	5.586914E+0	6.888962E-2	3.197479E-2	-5.142212E-2	-3.282166E-1
2.120500E+9	-4.222412E-1	-7.500000E-1	-1.930420E+0	5.295166E+0	7.311249E-2	2.881622E-2	-7.795715E-2	-3.182678E-1
2.345000E+9	-4.860229E-1	-7.034607E-1	-1.485840E+0	4.998291E+0	7.588196E-2	2.501678E-2	-1.048431E-1	-3.027344E-1
2.569500E+9	-5.352478E-1	-6.611938E-1	-1.135010E+0	4.707031E+0	7.831955E-2	2.215195E-2	-1.209717E-1	-2.910767E-1
2.794000E+9	-5.777588E-1	-6.239014E-1	-8.496094E-1	4.444580E+0	8.026505E-2	1.885223E-2	-1.388855E-1	-2.824249E-1
3.018500E+9	-6.130371E-1	-5.868225E-1	-6.103516E-1	4.192139E+0	8.173752E-2	1.572800E-2	-1.506348E-1	-2.693481E-1
3.243000E+9	-6.410217E-1	-5.527649E-1	-4.069824E-1	3.965820E+0	8.273315E-2	1.290894E-2	-1.616516E-1	-2.659302E-1
3.467500E+9	-6.672668E-1	-5.229797E-1	-2.349854E-1	3.754517E+0	8.337402E-2	1.065826E-2	-1.746216E-1	-2.561646E-1
3.692000E+9	-6.891174E-1	-4.928589E-1	-8.947754E-2	3.554077E+0	8.400345E-2	8.487701E-3	-1.803589E-1	-2.515869E-1
3.916500E+9	-7.062073E-1	-4.655151E-1	3.601074E-2	3.366089E+0	8.469009E-2	6.156921E-3	-1.938477E-1	-2.472992E-1
4.141000E+9	-7.225037E-1	-4.396057E-1	1.414795E-1	3.196167E+0	8.529663E-2	3.944397E-3	-1.994553E-1	-2.388153E-1
4.365500E+9	-7.355652E-1	-4.165955E-1	2.329102E-1	3.034912E+0	8.557892E-2	1.556396E-3	-2.059784E-1	-2.369461E-1
4.590000E+9	-7.479858E-1	-3.947144E-1	3.116455E-1	2.885376E+0	8.601379E-2	-7.629395E-5	-2.147827E-1	-2.314072E-1
4.814500E+9	-7.582397E-1	-3.730774E-1	3.768311E-1	2.748291E+0	8.635712E-2	-2.235413E-3	-2.185516E-1	-2.278900E-1
5.039000E+9	-7.664795E-1	-3.545227E-1	4.368896E-1	2.619141E+0	8.650208E-2	-4.367828E-3	-2.260742E-1	-2.261658E-1
5.263500E+9	-7.753601E-1	-3.351746E-1	4.896240E-1	2.499512E+0	8.630753E-2	-5.947113E-3	-2.317123E-1	-2.218018E-1
5.488000E+9	-7.810974E-1	-3.185730E-1	5.346680E-1	2.387207E+0	8.627319E-2	-7.331848E-3	-2.366638E-1	-2.188034E-1
5.712500E+9	-7.879333E-1	-3.023682E-1	5.733643E-1	2.278198E+0	8.626175E-2	-9.300232E-3	-2.413635E-1	-2.167282E-1
5.937000E+9	-7.939453E-1	-2.858582E-1	6.092529E-1	2.179443E+0	8.594513E-2	-1.087570E-2	-2.470016E-1	-2.153625E-1
6.161500E+9	-7.990417E-1	-2.731018E-1	6.406250E-1	2.088623E+0	8.596420E-2	-1.278305E-2	-2.520905E-1	-2.116699E-1
6.386000E+9	-8.043213E-1	-2.580566E-1	6.685181E-1	1.998718E+0	8.563232E-2	-1.477432E-2	-2.541962E-1	-2.115173E-1
6.610500E+9	-8.073120E-1	-2.447815E-1	6.936035E-1	1.913086E+0	8.545303E-2	-1.625443E-2	-2.617798E-1	-2.114868E-1
6.835000E+9	-8.116455E-1	-2.332764E-1	7.136841E-1	1.832153E+0	8.512497E-2	-1.797485E-2	-2.649384E-1	-2.051849E-1
7.059500E+9	-8.138733E-1	-2.213745E-1	7.285156E-1	1.757263E+0	8.498383E-2	-1.935577E-2	-2.657318E-1	-2.084198E-1
7.284000E+9	-8.174133E-1	-2.102966E-1	7.442017E-1	1.684570E+0	8.449173E-2	-2.013779E-2	-2.749634E-1	-2.057190E-1
7.508500E+9	-8.208313E-1	-1.989136E-1	7.567749E-1	1.617065E+0	8.370209E-2	-2.172852E-2	-2.726440E-1	-2.048340E-1
7.733000E+9	-8.216553E-1	-1.874084E-1	7.680664E-1	1.553528E+0	8.316422E-2	-2.324295E-2	-2.826996E-1	-2.067871E-1
7.957500E+9	-8.245850E-1	-1.771545E-1	7.819214E-1	1.494324E+0	8.341599E-2	-2.495193E-2	-2.839355E-1	-2.037964E-1
8.182000E+9	-8.268738E-1	-1.680908E-1	7.930908E-1	1.435242E+0	8.177948E-2	-2.655411E-2	-2.920837E-1	-2.054291E-1
8.406500E+9	-8.271790E-1	-1.596680E-1	7.997437E-1	1.375305E+0	8.114624E-2	-2.773666E-2	-2.945862E-1	-2.007141E-1
8.631000E+9	-8.300476E-1	-1.488342E-1	8.077393E-1	1.320068E+0	8.097458E-2	-2.918243E-2	-2.993011E-1	-2.019653E-1
8.855500E+9	-8.305969E-1	-1.399841E-1	8.120728E-1	1.267822E+0	8.100128E-2	-3.047562E-2	-3.051605E-1	-1.990204E-1
9.080001E+9	-8.319397E-1	-1.327209E-1	8.156738E-1	1.219116E+0	7.994080E-2	-3.177261E-2	-3.074646E-1	-1.974792E-1
9.304500E+9	-8.333435E-1	-1.221008E-1	8.188477E-1	1.170593E+0	7.950592E-2	-3.307724E-2	-3.126678E-1	-1.980438E-1
9.529000E+9	-8.339233E-1	-1.157227E-1	8.219604E-1	1.124084E+0	7.839584E-2	-3.374863E-2	-3.179932E-1	-1.953125E-1
9.753500E+9	-8.348083E-1	-1.080627E-1	8.222656E-1	1.079712E+0	7.786560E-2	-3.470612E-2	-3.203888E-1	-1.933136E-1
9.978000E+9	-8.354492E-1	-9.988403E-2	8.232422E-1	1.038025E+0	7.736206E-2	-3.587723E-2	-3.250732E-1	-1.939240E-1
1.020250E+10	-8.365784E-1	-9.243774E-2	8.238220E-1	9.975891E-1	7.698822E-2	-3.691864E-2	-3.299561E-1	-1.911163E-1
1.042700E+10	-8.372803E-1	-8.581543E-2	8.237915E-1	9.579468E-1	7.540512E-2	-3.873062E-2	-3.324127E-1	-1.906281E-1
1.065150E+10	-8.364563E-1	-7.815552E-2	8.224792E-1	9.205933E-1	7.508087E-2	-3.939056E-2	-3.374939E-1	-1.907654E-1
1.087600E+10	-8.380432E-1	-7.232666E-2	8.211975E-1	8.843994E-1	7.429123E-2	-4.070663E-2	-3.425903E-1	-1.882477E-1
1.110050E+10	-8.380127E-1	-6.439209E-2	8.199463E-1	8.477478E-1	7.250595E-2	-4.099655E-2	-3.454285E-1	-1.858063E-1
1.132500E+10	-8.379822E-1	-5.856323E-2	8.177795E-1	8.141479E-1	7.231522E-2	-4.212570E-2	-3.499908E-1	-1.865234E-1
1.154950E+10	-8.386536E-1	-5.068970E-2	8.146057E-1	7.804260E-1	7.150269E-2	-4.288864E-2	-3.558655E-1	-1.837158E-1
1.177400E+10	-8.370667E-1	-4.522705E-2	8.113098E-1	7.494507E-1	7.054520E-2	-4.339218E-2	-3.587646E-1	-1.805267E-1
1.199850E+10	-8.388977E-1	-3.924561E-2	8.088074E-1	7.202148E-1	6.992722E-2	-4.497910E-2	-3.629150E-1	-1.812592E-1
1.222300E+10	-8.385010E-1	-3.262329E-2	8.034058E-1	6.894226E-1	6.991196E-2	-4.578400E-2	-3.667908E-1	-1.800079E-1
1.244750E+10	-8.381653E-1	-2.801514E-2	7.990723E-1	6.597900E-1	6.852722E-2	-4.648590E-2	-3.724823E-1	-1.762695E-1
1.267200E+10	-8.387146E-1	-2.163696E-2	7.949219E-1	6.330261E-1	6.814957E-2	-4.757309E-2	-3.757477E-1	-1.770172E-1
1.289650E+10	-8.373413E-1	-1.681519E-2	7.893372E-1	6.057129E-1	6.753159E-2	-4.791641E-2	-3.817444E-1	-1.752930E-1
1.312100E+10	-8.377075E-1	-1.144409E-2	7.841187E-1	5.804443E-1	6.565475E-2	-4.957581E-2	-3.850861E-1	-1.703491E-1
1.334550E+10	-8.370056E-1	-5.645752E-3	7.792664E-1	5.561523E-1	6.511688E-2	-5.086136E-2	-3.880615E-1	-1.701813E-1
1.357000E+10	-8.352051E-1	-2.075195E-3	7.735596E-1	5.314331E-1	6.431961E-2	-5.084991E-2	-3.939362E-1	-1.700287E-1
1.379450E+10	-8.363647E-1	4.302979E-3	7.675781E-1	5.080872E-1	6.378174E-2	-5.201721E-2	-4.002075E-1	-1.656799E-1
1.401900E+10	-8.350220E-1	8.941650E-3	7.633362E-1	4.877930E-1	6.292343E-2	-5.283356E-2	-3.991547E-1	-1.664429E-1
1.424350E+10	-8.352051E-1	1.473999E-2	7.556458E-1	4.641113E-1	6.119156E-2	-5.296135E-2	-4.066162E-1	-1.609955E-1
1.446800E+10	-8.348694E-1	1.943970E-2	7.504883E-1	4.429932E-1	6.051826E-2	-5.322266E-2	-4.112854E-1	-1.565857E-1
1.469250E+10	-8.338318E-1	2.499390E-2	7.445984E-1	4.224548E-1	5.929947E-2	-5.444908E-2	-4.095306E-1	-1.552429E-1
1.491700E+10	-8.329773E-1	2.923584E-2	7.383118E-1	4.023437E-1	5.864143E-2	-5.493927E-2	-4.169312E-1	-1.567841E-1
1.514150E+10	-8.327026E-1	3.332520E-2	7.298584E-1	3.822937E-1	5.805779E-2	-5.492783E-2	-4.213715E-1	-1.504822E-1
1.536600E+10	-8.317871E-1	3.970337E-2	7.251587E-1	3.636169E-1	5.669022E-2	-5.548286E-2	-4.216156E-1	-1.472473E-1
1.559050E+10	-8.316345E-1	4.406738E-2	7.182312E-1	3.463135E-1	5.703163E-2	-5.676842E-2	-4.277802E-1	-1.485901E-1
1.581500E+10	-8.308411E-1	4.818726E-2	7.102966E-1	3.276978E-1	5.473137E-2	-5.679893E-2	-4.337769E-1	-1.449280E-1
1.603950E+10	-8.306274E-1	5.227661E-2	7.046509E-1	3.106995E-1	5.310440E-2	-5.736542E-2	-4.352417E-1	-1.417389E-1
1.626400E+10	-8.296814E-1	5.767822E-2	6.984253E-1	2.952576E-1	5.227280E-2	-5.714226E-2	-4.401398E-1	-1.397705E-1
1.648850E+10	-8.297424E-1	6.042480E-2	6.894836E-1	2.791748E-1	5.093575E-2	-5.846786E-2	-4.437561E-1	-1.353455E-1
1.671300E+10	-8.283386E-1	6.597900E-2	6.824951E-1	2.625122E-1	4.982185E-2	-6.034279E-2	-4.477692E-1	-1.330566E-1
1.693750E+10	-8.281555E-1	6.912231E-2	6.771545E-1	2.493286E-1	4.929543E-2	-6.019211E-2	-4.507751E-1	-1.315460E-1
1.716200E+10	-8.269958E-1	7.531738E-2	6.690369E-1	2.346802E-1	4.816437E-2	-5.987549E-2	-4.557495E-1	-1.246033E-1
1.738650E+10	-8.250732E-1	7.803345E-2	6.633301E-1	2.218628E-1	4.683304E-2	-6.118011E-2	-4.571228E-1	-1.224670E-1
1.761100E+10	-8.255005E-1	8.322144E-2	6.539001E-1	2.074280E-1	4.641533E-2	-6.022835E-2	-4.617310E-1	-1.229401E-1
1.783550E+10	-8.240356E-1	8.639526E-2	6.476746E-1	1.936340E-1	4.412270E-2	-6.132889E-2	-4.675903E-1	-1.147919E-1
1.806000E+10	-8.250122E-1	9.036255E-2	6.417236E-1	1.814575E-1	4.410172E-2	-6.200981E-2	-4.676208E-1	-1.117401E-1
1.828450E+10	-8.215942E-1	9.497070E-2	6.330261E-1	1.678162E-1	4.241180E-2	-6.240463E-2	-4.691467E-1	-1.109161E-1
1.850900E+10	-8.225403E-1	9.851074E-2	6.276245E-1	1.567078E-1	4.174423E-2	-6.341171E-2	-4.749451E-1	-1.062775E-1
1.873350E+10	-8.214111E-1	1.037292E-1	6.198425E-1	1.437683E-1	4.104614E-2	-6.309509E-2	-4.753113E-1	-1.000519E-1
1.895800E+10	-8.205566E-1	1.060791E-1	6.130676E-1	1.340637E-1	3.974152E-2	-6.179237E-2	-4.782410E-1	-1.019135E-1
1.918250E+10	-8.171692E-1	1.093750E-1	6.054993E-1	1.235962E-1	3.907967E-2	-6.240273E-2	-4.844818E-1	-9.623718E-2
1.940700E+10	-8.163147E-1	1.127930E-1	5.968933E-1	1.121216E-1	3.880310E-2	-6.381607E-2	-4.857941E-1	-8.595276E-2
1.963150E+10	-8.185120E-1	1.154480E-1	5.895996E-1	1.009216E-1	3.682709E-2	-6.320190E-2	-4.872589E-1	-8.757019E-2
1.985600E+10	-8.159790E-1	1.190186E-1	5.847473E-1	9.152222E-2	3.576660E-2	-6.330490E-2	-4.932709E-1	-8.477783E-2
2.008050E+10	-8.147888E-1	1.214905E-1	5.760498E-1	8.062744E-2	3.401947E-2	-6.504822E-2	-4.956055E-1	-7.586670E-2
2.030500E+10	-8.138123E-1	1.252136E-1	5.703125E-1	7.287598E-2	3.438568E-2	-6.343079E-2	-4.962158E-1	-7.560730E-2
2.052950E+10	-8.109131E-1	1.303711E-1	5.627136E-1	6.344604E-2	3.191376E-2	-6.441879E-2	-4.997559E-1	-7.368469E-2
2.075400E+10	-8.116760E-1	1.329041E-1	5.575867E-1	5.520630E-2	3.104019E-2	-6.499863E-2	-5.017395E-1	-6.576538E-2
2.097850E+10	-8.118896E-1	1.363220E-1	5.478516E-1	4.501343E-2	2.816010E-2	-6.612396E-2	-5.023804E-1	-6.372070E-2
2.120300E+10	-8.099060E-1	1.373901E-1	5.411682E-1	3.881836E-2	2.770996E-2	-6.446457E-2	-5.085449E-1	-6.320190E-2
2.142750E+10	-8.092957E-1	1.425781E-1	5.335083E-1	3.067017E-2	2.680969E-2	-6.629944E-2	-5.108643E-1	-5.358887E-2
2.165200E+10	-8.083801E-1	1.475220E-1	5.286865E-1	2.386475E-2	2.602005E-2	-6.388855E-2	-5.098877E-1	-5.209351E-2
2.187650E+10	-8.074341E-1	1.484375E-1	5.242920E-1	1.626587E-2	2.558136E-2	-6.412888E-2	-5.148621E-1	-4.870605E-2
2.210100E+10	-8.058472E-1	1.546021E-1	5.172729E-1	7.812500E-3	2.524948E-2	-6.458282E-2	-5.189514E-1	-3.768921E-2
2.232550E+10	-8.045654E-1	1.598816E-1	5.093079E-1	7.019043E-4	2.180099E-2	-6.496048E-2	-5.151978E-1	-3.347778E-2
2.255000E+10	-8.039246E-1	1.590881E-1	5.044250E-1	-4.882812E-3	2.277756E-2	-6.512833E-2	-5.204163E-1	-3.259277E-2
2.277450E+10	-8.036194E-1	1.645813E-1	4.961243E-1	-1.502991E-2	2.092743E-2	-6.481171E-2	-5.228882E-1	-2.465820E-2
2.299900E+10	-8.034058E-1	1.673889E-1	4.921112E-1	-2.023315E-2	2.040482E-2	-6.523514E-2	-5.216675E-1	-2.081299E-2
2.322350E+10	-8.018494E-1	1.714172E-1	4.872742E-1	-2.641296E-2	1.993561E-2	-6.524658E-2	-5.260315E-1	-1.977539E-2
2.344800E+10	-7.987061E-1	1.715393E-1	4.785919E-1	-3.141785E-2	1.816177E-2	-6.504059E-2	-5.274353E-1	-1.129150E-2
2.367250E+10	-7.989807E-1	1.771851E-1	4.720306E-1	-3.953552E-2	1.856995E-2	-6.460190E-2	-5.256348E-1	-6.530762E-3
2.389700E+10	-7.970276E-1	1.803894E-1	4.655914E-1	-4.377747E-2	1.511765E-2	-6.578445E-2	-5.325623E-1	-5.310059E-3
2.412150E+10	-7.975464E-1	1.829224E-1	4.570770E-1	-4.913330E-2	1.345444E-2	-6.459045E-2	-5.302124E-1	6.164551E-3
2.434600E+10	-7.951050E-1	1.856995E-1	4.519958E-1	-5.464172E-2	1.197052E-2	-6.502914E-2	-5.284424E-1	7.690430E-3
2.457050E+10	-7.930603E-1	1.896057E-1	4.460449E-1	-6.153870E-2	1.066971E-2	-6.672287E-2	-5.318909E-1	1.144409E-2
2.479500E+10	-7.933960E-1	1.940002E-1	4.400940E-1	-6.547546E-2	1.086426E-2	-6.429291E-2	-5.303040E-1	1.974487E-2
2.501950E+10	-7.898560E-1	1.957092E-1	4.339294E-1	-6.965637E-2	9.380341E-3	-6.518936E-2	-5.290833E-1	2.178955E-2
2.524400E+10	-7.887878E-1	1.981812E-1	4.276276E-1	-7.351685E-2	7.051468E-3	-6.229591E-2	-5.310974E-1	2.490234E-2
2.546850E+10	-7.892456E-1	2.033691E-1	4.239960E-1	-7.777405E-2	8.285522E-3	-6.169128E-2	-5.330200E-1	3.161621E-2
2.569300E+10	-7.873230E-1	2.017212E-1	4.157715E-1	-7.974243E-2	6.328583E-3	-6.256485E-2	-5.328369E-1	3.179932E-2
2.591750E+10	-7.871399E-1	2.080383E-1	4.112701E-1	-8.616638E-2	5.743027E-3	-6.058884E-2	-5.366821E-1	3.613281E-2
2.614200E+10	-7.855530E-1	2.112732E-1	4.037170E-1	-8.721924E-2	5.329132E-3	-6.088448E-2	-5.373230E-1	4.592896E-2
2.636650E+10	-7.829285E-1	2.116394E-1	3.992310E-1	-9.458923E-2	2.014160E-3	-6.149673E-2	-5.396423E-1	5.267334E-2
2.659100E+10	-7.805176E-1	2.164307E-1	3.936920E-1	-9.831238E-2	3.486633E-3	-6.023598E-2	-5.363770E-1	5.599976E-2
2.681550E+10	-7.791443E-1	2.174683E-1	3.893433E-1	-1.015930E-1	2.082825E-3	-5.978203E-2	-5.388489E-1	5.776978E-2
2.704000E+10	-7.801819E-1	2.203674E-1	3.816071E-1	-1.027985E-1	3.055573E-3	-6.064415E-2	-5.400696E-1	6.796265E-2
2.726450E+10	-7.774048E-1	2.244568E-1	3.779297E-1	-1.084290E-1	-7.286072E-4	-6.167221E-2	-5.319214E-1	7.266235E-2
2.748900E+10	-7.749329E-1	2.256165E-1	3.732605E-1	-1.123047E-1	-1.522064E-3	-5.948067E-2	-5.370483E-1	7.449341E-2
2.771350E+10	-7.742920E-1	2.286987E-1	3.645020E-1	-1.137695E-1	3.948212E-4	-5.809021E-2	-5.360107E-1	8.193970E-2
2.793800E+10	-7.734985E-1	2.312012E-1	3.638763E-1	-1.180420E-1	-5.903244E-3	-5.476570E-2	-5.372925E-1	8.410645E-2
2.816250E+10	-7.716980E-1	2.330322E-1	3.577576E-1	-1.216583E-1	-5.998611E-3	-6.027603E-2	-5.392761E-1	8.874512E-2
2.838700E+10	-7.682800E-1	2.358398E-1	3.517303E-1	-1.241150E-1	-4.703522E-3	-5.548096E-2	-5.355835E-1	9.384155E-2
2.861150E+10	-7.720947E-1	2.415466E-1	3.474426E-1	-1.261902E-1	-8.848190E-3	-5.346680E-2	-5.333557E-1	1.016235E-1
2.883600E+10	-7.676392E-1	2.438049E-1	3.424072E-1	-1.280365E-1	-8.474350E-3	-5.378532E-2	-5.327148E-1	1.027832E-1
2.906050E+10	-7.662659E-1	2.491455E-1	3.361206E-1	-1.294098E-1	-8.094788E-3	-5.560112E-2	-5.335693E-1	1.109009E-1
2.928500E+10	-7.646179E-1	2.503662E-1	3.316803E-1	-1.329498E-1	-8.850098E-3	-5.510330E-2	-5.316772E-1	1.150208E-1
2.950950E+10	-7.627258E-1	2.537842E-1	3.287354E-1	-1.335602E-1	-9.113312E-3	-5.372429E-2	-5.348816E-1	1.195679E-1
2.973400E+10	-7.615967E-1	2.527771E-1	3.247833E-1	-1.353455E-1	-9.664536E-3	-5.245972E-2	-5.323181E-1	1.244812E-1
2.995850E+10	-7.593994E-1	2.598572E-1	3.186798E-1	-1.390228E-1	-1.075745E-2	-5.136490E-2	-5.374146E-1	1.304626E-1
3.018300E+10	-7.568970E-1	2.575073E-1	3.145752E-1	-1.399384E-1	-1.130104E-2	-4.998589E-2	-5.377808E-1	1.443787E-1
3.040750E+10	-7.583618E-1	2.606506E-1	3.106079E-1	-1.453552E-1	-1.445389E-2	-5.016899E-2	-5.331726E-1	1.454163E-1
3.063200E+10	-7.532043E-1	2.644958E-1	3.057556E-1	-1.445312E-1	-1.391029E-2	-4.922867E-2	-5.330811E-1	1.500549E-1
3.085650E+10	-7.537842E-1	2.679749E-1	2.992096E-1	-1.460876E-1	-1.618004E-2	-4.937553E-2	-5.327148E-1	1.582336E-1
3.108100E+10	-7.529907E-1	2.709656E-1	2.982788E-1	-1.459198E-1	-1.672554E-2	-4.885674E-2	-5.258484E-1	1.598206E-1
3.130550E+10	-7.510681E-1	2.721252E-1	2.922058E-1	-1.479797E-1	-1.790428E-2	-4.986000E-2	-5.217590E-1	1.644897E-1
3.153000E+10	-7.467651E-1	2.770081E-1	2.899170E-1	-1.540527E-1	-1.436234E-2	-4.599190E-2	-5.295410E-1	1.709290E-1
3.175450E+10	-7.516785E-1	2.740784E-1	2.856598E-1	-1.562653E-1	-1.881027E-2	-4.787445E-2	-5.283508E-1	1.816101E-1
3.197900E+10	-7.439575E-1	2.747803E-1	2.820282E-1	-1.520538E-1	-1.988983E-2	-4.555321E-2	-5.162964E-1	1.790466E-1
3.220350E+10	-7.435303E-1	2.846985E-1	2.765045E-1	-1.599426E-1	-1.848030E-2	-4.244995E-2	-5.197754E-1	1.893616E-1
3.242800E+10	-7.455750E-1	2.816162E-1	2.734375E-1	-1.613617E-1	-1.807594E-2	-4.267883E-2	-5.170288E-1	1.904297E-1
3.265250E+10	-7.454834E-1	2.913208E-1	2.687836E-1	-1.627960E-1	-2.005005E-2	-3.872871E-2	-5.120544E-1	1.972961E-1
3.287700E+10	-7.421265E-1	2.917786E-1	2.653046E-1	-1.609039E-1	-2.111053E-2	-3.972435E-2	-5.151367E-1	1.996460E-1
3.310150E+10	-7.407837E-1	2.952576E-1	2.620697E-1	-1.618347E-1	-2.157021E-2	-3.801727E-2	-5.106506E-1	2.066040E-1
3.332600E+10	-7.371521E-1	2.966003E-1	2.519073E-1	-1.628876E-1	-1.873589E-2	-3.928566E-2	-5.066223E-1	2.059937E-1
3.355050E+10	-7.340698E-1	2.964172E-1	2.521057E-1	-1.662292E-1	-2.118111E-2	-3.613281E-2	-5.104980E-1	2.149963E-1
3.377500E+10	-7.326355E-1	2.984924E-1	2.498016E-1	-1.685028E-1	-2.377319E-2	-3.900719E-2	-5.042114E-1	2.168579E-1
3.399950E+10	-7.308350E-1	3.019714E-1	2.494125E-1	-1.718445E-1	-2.237511E-2	-3.183937E-2	-5.015869E-1	2.221069E-1
3.422400E+10	-7.302551E-1	3.056030E-1	2.466431E-1	-1.644745E-1	-2.533436E-2	-2.953339E-2	-5.057373E-1	2.360229E-1
3.444850E+10	-7.312622E-1	3.086548E-1	2.383804E-1	-1.758575E-1	-2.171135E-2	-3.197861E-2	-4.982452E-1	2.345428E-1
3.467300E+10	-7.281189E-1	3.064575E-1	2.426834E-1	-1.705017E-1	-2.379417E-2	-3.145409E-2	-4.970703E-1	2.422791E-1
3.489750E+10	-7.261963E-1	3.106995E-1	2.308121E-1	-1.735992E-1	-2.262497E-2	-3.169060E-2	-4.905090E-1	2.499084E-1
3.512200E+10	-7.244263E-1	3.141479E-1	2.322464E-1	-1.729355E-1	-2.448845E-2	-3.329849E-2	-4.887543E-1	2.505646E-1
3.534650E+10	-7.248230E-1	3.152466E-1	2.247849E-1	-1.746674E-1	-2.473450E-2	-2.682209E-2	-4.875336E-1	2.581635E-1
3.557100E+10	-7.193909E-1	3.158875E-1	2.277832E-1	-1.758804E-1	-2.850628E-2	-2.672672E-2	-4.810028E-1	2.729340E-1
3.579550E+10	-7.191467E-1	3.206787E-1	2.213974E-1	-1.797791E-1	-2.557278E-2	-2.919006E-2	-4.762573E-1	2.728729E-1
3.602000E+10	-7.190247E-1	3.241577E-1	2.189560E-1	-1.780090E-1	-2.640438E-2	-3.012276E-2	-4.747009E-1	2.718658E-1
3.624450E+10	-7.158508E-1	3.231201E-1	2.161865E-1	-1.841660E-1	-2.492142E-2	-2.496719E-2	-4.728699E-1	2.762146E-1
3.646900E+10	-7.127686E-1	3.285217E-1	2.119751E-1	-1.789703E-1	-2.940464E-2	-2.201176E-2	-4.666595E-1	2.869110E-1
3.669350E+10	-7.122192E-1	3.267822E-1	2.060623E-1	-1.816788E-1	-2.580547E-2	-2.456570E-2	-4.562683E-1	2.940979E-1
3.691800E+10	-7.083740E-1	3.294373E-1	2.086258E-1	-1.878281E-1	-2.913857E-2	-2.258873E-2	-4.603424E-1	2.949371E-1
3.714250E+10	-7.105713E-1	3.304138E-1	2.010880E-1	-1.829453E-1	-2.864075E-2	-1.824284E-2	-4.520264E-1	3.043060E-1
3.736700E+10	-7.044678E-1	3.333740E-1	1.954575E-1	-1.841507E-1	-2.618790E-2	-2.063751E-2	-4.410706E-1	3.056946E-1
3.759150E+10	-7.042542E-1	3.367920E-1	1.935883E-1	-1.857376E-1	-2.909565E-2	-1.870537E-2	-4.430084E-1	3.141632E-1
3.781600E+10	-7.004089E-1	3.368225E-1	1.932220E-1	-1.912231E-1	-2.718735E-2	-1.646233E-2	-4.414215E-1	3.124847E-1
3.804050E+10	-7.043152E-1	3.362122E-1	1.934204E-1	-1.851959E-1	-2.826977E-2	-1.690769E-2	-4.340057E-1	3.211212E-1
3.826500E+10	-6.918945E-1	3.399048E-1	1.893692E-1	-1.917953E-1	-2.548409E-2	-1.515865E-2	-4.296417E-1	3.272400E-1
3.848950E+10	-6.956177E-1	3.442688E-1	1.908340E-1	-1.920090E-1	-2.813721E-2	-1.401234E-2	-4.224396E-1	3.285522E-1
3.871400E+10	-6.931763E-1	3.381042E-1	1.848984E-1	-1.916428E-1	-2.936268E-2	-1.338959E-2	-4.198608E-1	3.316040E-1
3.893850E+10	-6.906128E-1	3.471985E-1	1.824188E-1	-1.974869E-1	-2.960014E-2	-1.648045E-2	-4.104462E-1	3.376312E-1
3.916300E+10	-6.903076E-1	3.522644E-1	1.726837E-1	-1.954269E-1	-2.963543E-2	-1.249027E-2	-4.002228E-1	3.389587E-1
