!Date: 10/28/2005, 12:46 PM

!Vgs = -4.000000E+0
!Vds = 1.000000E+1
!Ig = -3.445700E-5
!Id = 1.553500E-1

# HZ S RI R 50
1.000000E+8	9.588013E-1	-1.802063E-1	-1.631738E+1	1.525391E+0	6.747246E-5	5.795956E-3	5.628662E-1	-7.916260E-2
3.245000E+8	7.911682E-1	-5.359802E-1	-1.451855E+1	5.287598E+0	8.916855E-3	2.187252E-2	4.173584E-1	-2.493439E-1
5.490000E+8	5.443115E-1	-7.632446E-1	-1.212207E+1	7.357910E+0	1.992035E-2	2.979755E-2	3.193970E-1	-3.313751E-1
7.735000E+8	2.926331E-1	-8.741455E-1	-9.710449E+0	8.316406E+0	3.070641E-2	3.335762E-2	2.097931E-1	-3.766327E-1
9.980000E+8	7.427979E-2	-9.064636E-1	-7.627930E+0	8.571289E+0	3.974342E-2	3.312302E-2	1.201935E-1	-3.816071E-1
1.222500E+9	-1.054077E-1	-8.958130E-1	-5.941895E+0	8.451660E+0	4.676437E-2	3.133965E-2	5.198669E-2	-3.794556E-1
1.447000E+9	-2.522278E-1	-8.630981E-1	-4.590820E+0	8.123535E+0	5.196953E-2	2.923012E-2	-4.180908E-3	-3.688354E-1
1.671500E+9	-3.678284E-1	-8.191528E-1	-3.520752E+0	7.681152E+0	5.706024E-2	2.677345E-2	-5.038452E-2	-3.564606E-1
1.896000E+9	-4.603882E-1	-7.685242E-1	-2.709473E+0	7.197021E+0	6.053925E-2	2.384567E-2	-8.718872E-2	-3.377991E-1
2.120500E+9	-5.312805E-1	-7.185974E-1	-2.073975E+0	6.751221E+0	6.370926E-2	2.109528E-2	-1.140594E-1	-3.222351E-1
2.345000E+9	-5.892029E-1	-6.683655E-1	-1.556396E+0	6.317871E+0	6.596375E-2	1.787186E-2	-1.371002E-1	-3.065186E-1
2.569500E+9	-6.316223E-1	-6.227112E-1	-1.145752E+0	5.912842E+0	6.706238E-2	1.473618E-2	-1.544037E-1	-2.933807E-1
2.794000E+9	-6.690369E-1	-5.849304E-1	-8.247070E-1	5.547363E+0	6.840515E-2	1.243210E-2	-1.681213E-1	-2.810364E-1
3.018500E+9	-6.987000E-1	-5.458984E-1	-5.463867E-1	5.212891E+0	6.974792E-2	9.750366E-3	-1.808472E-1	-2.711487E-1
3.243000E+9	-7.232666E-1	-5.114136E-1	-3.151855E-1	4.908691E+0	7.006836E-2	7.823944E-3	-1.926422E-1	-2.621002E-1
3.467500E+9	-7.449341E-1	-4.815063E-1	-1.259766E-1	4.630615E+0	7.024765E-2	5.542755E-3	-2.009888E-1	-2.543030E-1
3.692000E+9	-7.637939E-1	-4.524841E-1	3.857422E-2	4.368408E+0	7.059097E-2	3.688812E-3	-2.096863E-1	-2.487030E-1
3.916500E+9	-7.792358E-1	-4.228516E-1	1.740723E-1	4.130859E+0	7.154846E-2	1.728058E-3	-2.184296E-1	-2.422562E-1
4.141000E+9	-7.918396E-1	-3.974915E-1	2.900391E-1	3.910645E+0	7.184982E-2	-7.820129E-4	-2.255325E-1	-2.369614E-1
4.365500E+9	-8.019104E-1	-3.749695E-1	3.901367E-1	3.708740E+0	7.149887E-2	-2.414703E-3	-2.318420E-1	-2.325516E-1
4.590000E+9	-8.120117E-1	-3.536682E-1	4.763184E-1	3.518311E+0	7.167816E-2	-4.074097E-3	-2.389755E-1	-2.274323E-1
4.814500E+9	-8.213806E-1	-3.330383E-1	5.466309E-1	3.343506E+0	7.184219E-2	-5.821228E-3	-2.439270E-1	-2.233582E-1
5.039000E+9	-8.278809E-1	-3.131409E-1	6.115723E-1	3.182983E+0	7.218933E-2	-7.427216E-3	-2.498779E-1	-2.209930E-1
5.263500E+9	-8.338013E-1	-2.950745E-1	6.658936E-1	3.031250E+0	7.192612E-2	-8.964539E-3	-2.565613E-1	-2.169189E-1
5.488000E+9	-8.390198E-1	-2.792053E-1	7.106934E-1	2.892334E+0	7.159424E-2	-1.078796E-2	-2.608032E-1	-2.133026E-1
5.712500E+9	-8.448792E-1	-2.639771E-1	7.526855E-1	2.757080E+0	7.162094E-2	-1.168823E-2	-2.662354E-1	-2.112885E-1
5.937000E+9	-8.493042E-1	-2.467041E-1	7.878418E-1	2.635376E+0	7.145309E-2	-1.340485E-2	-2.710114E-1	-2.088013E-1
6.161500E+9	-8.524170E-1	-2.339478E-1	8.204346E-1	2.522827E+0	7.120132E-2	-1.502991E-2	-2.749634E-1	-2.054138E-1
6.386000E+9	-8.567810E-1	-2.205200E-1	8.496094E-1	2.411987E+0	7.038116E-2	-1.632309E-2	-2.787170E-1	-2.050171E-1
6.610500E+9	-8.590393E-1	-2.073364E-1	8.767090E-1	2.310181E+0	7.025528E-2	-1.762009E-2	-2.848663E-1	-2.037506E-1
6.835000E+9	-8.627319E-1	-1.950378E-1	8.970947E-1	2.210937E+0	7.015610E-2	-1.887512E-2	-2.891083E-1	-2.002716E-1
7.059500E+9	-8.641052E-1	-1.847534E-1	9.111328E-1	2.118652E+0	6.944275E-2	-2.085114E-2	-2.906494E-1	-2.010498E-1
7.284000E+9	-8.663025E-1	-1.734314E-1	9.284668E-1	2.030029E+0	6.884766E-2	-2.198792E-2	-2.978668E-1	-1.987457E-1
7.508500E+9	-8.682251E-1	-1.618958E-1	9.425659E-1	1.945618E+0	6.882095E-2	-2.307892E-2	-3.011017E-1	-1.956177E-1
7.733000E+9	-8.696289E-1	-1.511841E-1	9.523315E-1	1.866577E+0	6.782913E-2	-2.427292E-2	-3.050537E-1	-1.966858E-1
7.957500E+9	-8.717957E-1	-1.414185E-1	9.640503E-1	1.791870E+0	6.809235E-2	-2.542877E-2	-3.114166E-1	-1.955414E-1
8.182000E+9	-8.732910E-1	-1.310120E-1	9.730835E-1	1.721008E+0	6.696320E-2	-2.645111E-2	-3.156891E-1	-1.940155E-1
8.406500E+9	-8.727722E-1	-1.238403E-1	9.777222E-1	1.651367E+0	6.695175E-2	-2.803802E-2	-3.190308E-1	-1.916199E-1
8.631000E+9	-8.748474E-1	-1.138000E-1	9.854126E-1	1.583923E+0	6.610489E-2	-2.900696E-2	-3.242645E-1	-1.916962E-1
8.855500E+9	-8.752136E-1	-1.051941E-1	9.895020E-1	1.519958E+0	6.559753E-2	-3.061676E-2	-3.290863E-1	-1.885529E-1
9.080001E+9	-8.761902E-1	-9.716797E-2	9.922485E-1	1.460999E+0	6.449509E-2	-3.090286E-2	-3.322144E-1	-1.873169E-1
9.304500E+9	-8.751221E-1	-8.773804E-2	9.929199E-1	1.401855E+0	6.404495E-2	-3.249741E-2	-3.381195E-1	-1.856995E-1
9.529000E+9	-8.763123E-1	-8.123779E-2	9.938965E-1	1.345093E+0	6.315231E-2	-3.364182E-2	-3.426666E-1	-1.848145E-1
9.753500E+9	-8.773499E-1	-7.394409E-2	9.930420E-1	1.292297E+0	6.254196E-2	-3.433228E-2	-3.459015E-1	-1.816254E-1
9.978000E+9	-8.771057E-1	-6.634521E-2	9.921265E-1	1.241943E+0	6.127357E-2	-3.489113E-2	-3.495178E-1	-1.816864E-1
1.020250E+10	-8.789062E-1	-5.923462E-2	9.902344E-1	1.192383E+0	6.139374E-2	-3.672981E-2	-3.542023E-1	-1.794891E-1
1.042700E+10	-8.794861E-1	-5.102539E-2	9.888916E-1	1.145691E+0	5.966949E-2	-3.706551E-2	-3.568268E-1	-1.778259E-1
1.065150E+10	-8.790588E-1	-4.446411E-2	9.859619E-1	1.099976E+0	5.884171E-2	-3.861427E-2	-3.612061E-1	-1.768646E-1
1.087600E+10	-8.795471E-1	-3.823853E-2	9.834595E-1	1.057434E+0	5.764771E-2	-3.899193E-2	-3.667450E-1	-1.752167E-1
1.110050E+10	-8.793945E-1	-3.088379E-2	9.793701E-1	1.014343E+0	5.727386E-2	-3.979111E-2	-3.704529E-1	-1.727142E-1
1.132500E+10	-8.782043E-1	-2.487183E-2	9.763489E-1	9.743652E-1	5.652237E-2	-4.098892E-2	-3.733673E-1	-1.739807E-1
1.154950E+10	-8.790283E-1	-1.791382E-2	9.721985E-1	9.338684E-1	5.603790E-2	-4.178047E-2	-3.809052E-1	-1.699524E-1
1.177400E+10	-8.783569E-1	-1.147461E-2	9.664001E-1	8.977051E-1	5.455017E-2	-4.210281E-2	-3.830109E-1	-1.671295E-1
1.199850E+10	-8.780823E-1	-6.744385E-3	9.615173E-1	8.611450E-1	5.442429E-2	-4.341507E-2	-3.863678E-1	-1.661987E-1
1.222300E+10	-8.777466E-1	3.356934E-4	9.545898E-1	8.240356E-1	5.294800E-2	-4.379845E-2	-3.920746E-1	-1.645050E-1
1.244750E+10	-8.771057E-1	4.394531E-3	9.481201E-1	7.885437E-1	5.223656E-2	-4.471207E-2	-3.957367E-1	-1.608276E-1
1.267200E+10	-8.777161E-1	1.144409E-2	9.406738E-1	7.564697E-1	5.141449E-2	-4.502296E-2	-3.979492E-1	-1.615906E-1
1.289650E+10	-8.768005E-1	1.547241E-2	9.333191E-1	7.254333E-1	5.048561E-2	-4.570961E-2	-4.060364E-1	-1.596680E-1
1.312100E+10	-8.768311E-1	2.078247E-2	9.257507E-1	6.947021E-1	4.924011E-2	-4.657364E-2	-4.081726E-1	-1.543121E-1
1.334550E+10	-8.755798E-1	2.780151E-2	9.187622E-1	6.660461E-1	4.837227E-2	-4.739571E-2	-4.106445E-1	-1.551056E-1
1.357000E+10	-8.753357E-1	3.100586E-2	9.122009E-1	6.368408E-1	4.693985E-2	-4.706001E-2	-4.166107E-1	-1.552124E-1
1.379450E+10	-8.741760E-1	3.683472E-2	9.033508E-1	6.101990E-1	4.647636E-2	-4.837990E-2	-4.211273E-1	-1.481934E-1
1.401900E+10	-8.745117E-1	4.336548E-2	8.955688E-1	5.863647E-1	4.483223E-2	-4.873848E-2	-4.221344E-1	-1.470337E-1
1.424350E+10	-8.735046E-1	4.693604E-2	8.872375E-1	5.595703E-1	4.442024E-2	-4.965019E-2	-4.294739E-1	-1.451569E-1
1.446800E+10	-8.731689E-1	5.334473E-2	8.812256E-1	5.349426E-1	4.301453E-2	-4.995918E-2	-4.330597E-1	-1.393890E-1
1.469250E+10	-8.722534E-1	5.761719E-2	8.737488E-1	5.101929E-1	4.311371E-2	-5.105400E-2	-4.338379E-1	-1.379547E-1
1.491700E+10	-8.708801E-1	6.185913E-2	8.655396E-1	4.854431E-1	4.115677E-2	-5.037880E-2	-4.388275E-1	-1.377716E-1
1.514150E+10	-8.703918E-1	6.631470E-2	8.560181E-1	4.640198E-1	3.991699E-2	-5.084229E-2	-4.428101E-1	-1.312561E-1
1.536600E+10	-8.692322E-1	7.131958E-2	8.474121E-1	4.397583E-1	3.995132E-2	-5.134583E-2	-4.433899E-1	-1.294556E-1
1.559050E+10	-8.689270E-1	7.687378E-2	8.386230E-1	4.205322E-1	3.839302E-2	-5.185699E-2	-4.494629E-1	-1.277313E-1
1.581500E+10	-8.677368E-1	8.065796E-2	8.288269E-1	3.973694E-1	3.691101E-2	-5.272293E-2	-4.553375E-1	-1.247406E-1
1.603950E+10	-8.682556E-1	8.627319E-2	8.221130E-1	3.804016E-1	3.592873E-2	-5.246353E-2	-4.545898E-1	-1.224518E-1
1.626400E+10	-8.667297E-1	9.051514E-2	8.123779E-1	3.603210E-1	3.500748E-2	-5.278778E-2	-4.615326E-1	-1.200256E-1
1.648850E+10	-8.658447E-1	9.454346E-2	8.036194E-1	3.429260E-1	3.391647E-2	-5.374527E-2	-4.649506E-1	-1.134949E-1
1.671300E+10	-8.649597E-1	9.909058E-2	7.945862E-1	3.221741E-1	3.372192E-2	-5.441475E-2	-4.676514E-1	-1.135101E-1
1.693750E+10	-8.653870E-1	1.038513E-1	7.850952E-1	3.066711E-1	3.240013E-2	-5.421829E-2	-4.725037E-1	-1.099548E-1
1.716200E+10	-8.636169E-1	1.089478E-1	7.768250E-1	2.897034E-1	3.091621E-2	-5.496216E-2	-4.749298E-1	-1.034393E-1
1.738650E+10	-8.619690E-1	1.127014E-1	7.683105E-1	2.767334E-1	3.042412E-2	-5.526161E-2	-4.759369E-1	-1.001587E-1
1.761100E+10	-8.620300E-1	1.164246E-1	7.597961E-1	2.596741E-1	2.879143E-2	-5.545807E-2	-4.821320E-1	-9.918213E-2
1.783550E+10	-8.604431E-1	1.217041E-1	7.495728E-1	2.451477E-1	2.612495E-2	-5.475426E-2	-4.870758E-1	-9.170532E-2
1.806000E+10	-8.609009E-1	1.245728E-1	7.427063E-1	2.304382E-1	2.675629E-2	-5.603409E-2	-4.871368E-1	-8.894348E-2
1.828450E+10	-8.573914E-1	1.307678E-1	7.336731E-1	2.161560E-1	2.562904E-2	-5.570412E-2	-4.891357E-1	-8.744812E-2
1.850900E+10	-8.576355E-1	1.335449E-1	7.261353E-1	2.023315E-1	2.520752E-2	-5.635834E-2	-4.942017E-1	-8.265686E-2
1.873350E+10	-8.565674E-1	1.373596E-1	7.169189E-1	1.877747E-1	2.316856E-2	-5.574989E-2	-4.960022E-1	-7.743835E-2
1.895800E+10	-8.541565E-1	1.404724E-1	7.070923E-1	1.753235E-1	2.106667E-2	-5.705452E-2	-4.979401E-1	-7.661438E-2
1.918250E+10	-8.534241E-1	1.449585E-1	6.982422E-1	1.620178E-1	2.122688E-2	-5.590057E-2	-5.035706E-1	-7.293701E-2
1.940700E+10	-8.515625E-1	1.486816E-1	6.884766E-1	1.505737E-1	2.064323E-2	-5.749512E-2	-5.023804E-1	-6.515503E-2
1.963150E+10	-8.528442E-1	1.529236E-1	6.830750E-1	1.372070E-1	1.977730E-2	-5.620575E-2	-5.048218E-1	-6.564331E-2
1.985600E+10	-8.499451E-1	1.559143E-1	6.719666E-1	1.275940E-1	1.816177E-2	-5.704117E-2	-5.118103E-1	-6.048584E-2
2.008050E+10	-8.493347E-1	1.579590E-1	6.636963E-1	1.155701E-1	1.449966E-2	-5.756760E-2	-5.134583E-1	-5.389404E-2
2.030500E+10	-8.478699E-1	1.621399E-1	6.552124E-1	1.064453E-1	1.618004E-2	-5.759239E-2	-5.110779E-1	-5.072021E-2
2.052950E+10	-8.475952E-1	1.668396E-1	6.452637E-1	9.606934E-2	1.358604E-2	-5.820847E-2	-5.173035E-1	-4.846191E-2
2.075400E+10	-8.463745E-1	1.704712E-1	6.405640E-1	8.856201E-2	1.315308E-2	-5.649948E-2	-5.189514E-1	-3.982544E-2
2.097850E+10	-8.456421E-1	1.728821E-1	6.292725E-1	7.821655E-2	1.120186E-2	-5.629349E-2	-5.199890E-1	-3.765869E-2
2.120300E+10	-8.421021E-1	1.764526E-1	6.223450E-1	6.826782E-2	1.061821E-2	-5.563927E-2	-5.232544E-1	-3.808594E-2
2.142750E+10	-8.439636E-1	1.816711E-1	6.141357E-1	5.856323E-2	9.590149E-3	-5.620003E-2	-5.245667E-1	-3.060913E-2
2.165200E+10	-8.406982E-1	1.851807E-1	6.074829E-1	5.154419E-2	8.087158E-3	-5.559731E-2	-5.266113E-1	-2.627563E-2
2.187650E+10	-8.399353E-1	1.878662E-1	5.982361E-1	4.388428E-2	7.328033E-3	-5.755997E-2	-5.292358E-1	-2.502441E-2
2.210100E+10	-8.376465E-1	1.932983E-1	5.924072E-1	3.283691E-2	4.781723E-3	-5.552864E-2	-5.348511E-1	-1.510620E-2
2.232550E+10	-8.375244E-1	1.961670E-1	5.841675E-1	2.630615E-2	5.147934E-3	-5.569839E-2	-5.322266E-1	-9.399414E-3
2.255000E+10	-8.358154E-1	1.978455E-1	5.760193E-1	2.130127E-2	4.009247E-3	-5.609322E-2	-5.358582E-1	-7.385254E-3
2.277450E+10	-8.330688E-1	2.048340E-1	5.681152E-1	1.046753E-2	2.840042E-3	-5.504417E-2	-5.361938E-1	-2.136230E-4
2.299900E+10	-8.348694E-1	2.049255E-1	5.579529E-1	4.699707E-3	2.300262E-3	-5.493927E-2	-5.373230E-1	2.777100E-3
2.322350E+10	-8.316040E-1	2.096558E-1	5.543823E-1	-2.105713E-3	-6.923676E-4	-5.518532E-2	-5.408936E-1	5.798340E-3
2.344800E+10	-8.316650E-1	2.131042E-1	5.458679E-1	-6.988525E-3	-1.026154E-3	-5.545616E-2	-5.419922E-1	1.245117E-2
2.367250E+10	-8.310242E-1	2.162170E-1	5.367737E-1	-1.425171E-2	-2.269745E-3	-5.492401E-2	-5.432129E-1	1.712036E-2
2.389700E+10	-8.277588E-1	2.204590E-1	5.297241E-1	-2.145386E-2	-4.898071E-3	-5.234146E-2	-5.465088E-1	2.160645E-2
2.412150E+10	-8.272095E-1	2.232666E-1	5.240173E-1	-2.752686E-2	-5.342484E-3	-5.295563E-2	-5.453796E-1	3.012085E-2
2.434600E+10	-8.225708E-1	2.267151E-1	5.162048E-1	-3.256226E-2	-5.836487E-3	-5.184937E-2	-5.452881E-1	3.274536E-2
2.457050E+10	-8.225708E-1	2.295532E-1	5.096436E-1	-3.643799E-2	-8.794785E-3	-5.096817E-2	-5.472107E-1	3.485107E-2
2.479500E+10	-8.216553E-1	2.348938E-1	5.014648E-1	-4.214478E-2	-8.546829E-3	-5.132866E-2	-5.471802E-1	4.394531E-2
2.501950E+10	-8.196716E-1	2.359009E-1	4.930878E-1	-4.594421E-2	-8.069992E-3	-5.195808E-2	-5.423584E-1	4.565430E-2
2.524400E+10	-8.203735E-1	2.381592E-1	4.883423E-1	-5.180359E-2	-1.148987E-2	-5.105400E-2	-5.466919E-1	4.998779E-2
2.546850E+10	-8.166504E-1	2.444763E-1	4.795990E-1	-5.598450E-2	-1.241684E-2	-4.758644E-2	-5.456848E-1	5.572510E-2
2.569300E+10	-8.132324E-1	2.464600E-1	4.744720E-1	-5.946350E-2	-1.072693E-2	-4.803467E-2	-5.468445E-1	5.825806E-2
2.591750E+10	-8.134460E-1	2.490540E-1	4.679871E-1	-6.436157E-2	-1.383209E-2	-4.812050E-2	-5.497742E-1	6.060791E-2
2.614200E+10	-8.127747E-1	2.532654E-1	4.613190E-1	-6.501770E-2	-1.464272E-2	-4.745674E-2	-5.531006E-1	6.958008E-2
2.636650E+10	-8.100891E-1	2.543640E-1	4.561310E-1	-7.051086E-2	-1.662064E-2	-4.520035E-2	-5.538330E-1	7.666016E-2
2.659100E+10	-8.074951E-1	2.582092E-1	4.495392E-1	-7.519531E-2	-1.600266E-2	-4.460526E-2	-5.499573E-1	7.907104E-2
2.681550E+10	-8.066711E-1	2.597351E-1	4.450531E-1	-7.727051E-2	-1.805496E-2	-4.540634E-2	-5.549927E-1	8.053589E-2
2.704000E+10	-8.058167E-1	2.638245E-1	4.361877E-1	-7.844543E-2	-1.836014E-2	-4.411888E-2	-5.552368E-1	9.320068E-2
2.726450E+10	-8.041992E-1	2.677917E-1	4.357300E-1	-8.291626E-2	-2.050018E-2	-4.104614E-2	-5.489502E-1	9.420776E-2
2.748900E+10	-8.026123E-1	2.692261E-1	4.269409E-1	-9.146118E-2	-2.038383E-2	-4.188156E-2	-5.481262E-1	9.457397E-2
2.771350E+10	-7.993164E-1	2.702637E-1	4.205322E-1	-9.254456E-2	-2.197456E-2	-4.133415E-2	-5.511475E-1	1.026306E-1
2.793800E+10	-7.984314E-1	2.742004E-1	4.186859E-1	-9.646606E-2	-2.305603E-2	-4.009438E-2	-5.534363E-1	1.071472E-1
2.816250E+10	-7.955322E-1	2.760315E-1	4.126740E-1	-9.860229E-2	-2.359390E-2	-3.914833E-2	-5.508728E-1	1.117249E-1
2.838700E+10	-7.935486E-1	2.789612E-1	4.075165E-1	-1.003113E-1	-2.720451E-2	-3.734589E-2	-5.541382E-1	1.165161E-1
2.861150E+10	-7.955017E-1	2.808838E-1	4.010620E-1	-1.037445E-1	-2.625275E-2	-3.661346E-2	-5.515442E-1	1.214905E-1
2.883600E+10	-7.921448E-1	2.859497E-1	3.967896E-1	-1.020813E-1	-2.659607E-2	-3.762436E-2	-5.541687E-1	1.242676E-1
2.906050E+10	-7.913513E-1	2.886047E-1	3.908539E-1	-1.049347E-1	-2.892685E-2	-3.505516E-2	-5.536194E-1	1.306458E-1
2.928500E+10	-7.893677E-1	2.923584E-1	3.874817E-1	-1.053162E-1	-2.993011E-2	-3.380203E-2	-5.509949E-1	1.347961E-1
2.950950E+10	-7.859497E-1	2.929382E-1	3.811035E-1	-1.092682E-1	-3.021622E-2	-3.186035E-2	-5.501099E-1	1.380920E-1
2.973400E+10	-7.827148E-1	2.942810E-1	3.772736E-1	-1.124115E-1	-2.680683E-2	-3.091240E-2	-5.549011E-1	1.443787E-1
2.995850E+10	-7.820435E-1	2.997437E-1	3.698120E-1	-1.128082E-1	-3.009987E-2	-2.919865E-2	-5.516052E-1	1.489258E-1
3.018300E+10	-7.802124E-1	3.003540E-1	3.713074E-1	-1.145477E-1	-3.287697E-2	-2.902794E-2	-5.569763E-1	1.602783E-1
3.040750E+10	-7.787781E-1	3.009949E-1	3.656616E-1	-1.183624E-1	-3.137398E-2	-2.816010E-2	-5.522156E-1	1.644897E-1
3.063200E+10	-7.746887E-1	3.045654E-1	3.630829E-1	-1.170197E-1	-3.288841E-2	-2.588463E-2	-5.530701E-1	1.709595E-1
3.085650E+10	-7.749329E-1	3.075867E-1	3.596497E-1	-1.238556E-1	-3.552818E-2	-2.604866E-2	-5.520935E-1	1.778259E-1
3.108100E+10	-7.716980E-1	3.093872E-1	3.585052E-1	-1.257629E-1	-3.206444E-2	-2.502632E-2	-5.534668E-1	1.798706E-1
3.130550E+10	-7.688293E-1	3.108215E-1	3.500366E-1	-1.263275E-1	-3.668404E-2	-2.655602E-2	-5.442810E-1	1.874695E-1
3.153000E+10	-7.732544E-1	3.147583E-1	3.489532E-1	-1.261902E-1	-3.258896E-2	-2.169037E-2	-5.498657E-1	1.878662E-1
3.175450E+10	-7.673035E-1	3.168030E-1	3.399506E-1	-1.225128E-1	-3.301430E-2	-1.972961E-2	-5.510864E-1	2.025757E-1
3.197900E+10	-7.667542E-1	3.196411E-1	3.401642E-1	-1.293182E-1	-3.936768E-2	-1.500320E-2	-5.422363E-1	2.029114E-1
3.220350E+10	-7.667542E-1	3.259277E-1	3.431549E-1	-1.339417E-1	-3.360558E-2	-1.188850E-2	-5.455017E-1	2.081299E-1
3.242800E+10	-7.653198E-1	3.240356E-1	3.317719E-1	-1.310730E-1	-3.643799E-2	-1.411247E-2	-5.418091E-1	2.192688E-1
3.265250E+10	-7.616272E-1	3.292236E-1	3.303375E-1	-1.339874E-1	-3.603745E-2	-1.251030E-2	-5.359497E-1	2.172241E-1
3.287700E+10	-7.610474E-1	3.357239E-1	3.293610E-1	-1.370087E-1	-3.767204E-2	-1.110268E-2	-5.386353E-1	2.219849E-1
3.310150E+10	-7.591553E-1	3.318787E-1	3.241272E-1	-1.364594E-1	-4.261208E-2	-7.509232E-3	-5.373230E-1	2.291565E-1
3.332600E+10	-7.570801E-1	3.347168E-1	3.214569E-1	-1.433105E-1	-3.648376E-2	-6.759644E-3	-5.323792E-1	2.268677E-1
3.355050E+10	-7.491150E-1	3.370667E-1	3.193970E-1	-1.453247E-1	-3.732109E-2	-5.395889E-3	-5.325623E-1	2.368469E-1
3.377500E+10	-7.521667E-1	3.437805E-1	3.172150E-1	-1.420898E-1	-3.807640E-2	-6.076813E-3	-5.364380E-1	2.405396E-1
3.399950E+10	-7.479553E-1	3.407288E-1	3.121490E-1	-1.475830E-1	-3.548241E-2	-8.176804E-3	-5.316772E-1	2.492981E-1
3.422400E+10	-7.469788E-1	3.432617E-1	3.148651E-1	-1.511230E-1	-4.001236E-2	-5.321503E-3	-5.287170E-1	2.619934E-1
3.444850E+10	-7.444763E-1	3.448181E-1	3.064575E-1	-1.497498E-1	-3.627014E-2	-2.634048E-3	-5.305481E-1	2.616882E-1
3.467300E+10	-7.454834E-1	3.476868E-1	3.120117E-1	-1.468353E-1	-3.747559E-2	-2.708435E-4	-5.333557E-1	2.662659E-1
3.489750E+10	-7.427368E-1	3.512573E-1	3.036346E-1	-1.505585E-1	-3.359795E-2	-3.213882E-3	-5.230103E-1	2.779846E-1
3.512200E+10	-7.420044E-1	3.504639E-1	3.022919E-1	-1.553650E-1	-3.621864E-2	5.529404E-3	-5.222778E-1	2.781982E-1
3.534650E+10	-7.381897E-1	3.538818E-1	2.998047E-1	-1.582794E-1	-3.915215E-2	4.949570E-3	-5.192871E-1	2.844543E-1
3.557100E+10	-7.338562E-1	3.547363E-1	2.995911E-1	-1.626740E-1	-3.499603E-2	8.743286E-3	-5.137939E-1	2.980652E-1
3.579550E+10	-7.365723E-1	3.626099E-1	2.944031E-1	-1.603546E-1	-3.707314E-2	6.368637E-3	-5.125427E-1	3.020325E-1
3.602000E+10	-7.357178E-1	3.593140E-1	2.945404E-1	-1.605530E-1	-3.625488E-2	1.005745E-2	-5.126343E-1	3.047180E-1
3.624450E+10	-7.315369E-1	3.633118E-1	2.925415E-1	-1.593170E-1	-3.919792E-2	1.089859E-2	-5.080261E-1	3.087769E-1
3.646900E+10	-7.291565E-1	3.649292E-1	2.901001E-1	-1.692352E-1	-3.647423E-2	1.517296E-2	-5.042725E-1	3.274841E-1
3.669350E+10	-7.279663E-1	3.653564E-1	2.926636E-1	-1.687622E-1	-3.256607E-2	1.131439E-2	-4.989929E-1	3.248444E-1
3.691800E+10	-7.300720E-1	3.668213E-1	2.848969E-1	-1.736145E-1	-3.488350E-2	1.361465E-2	-4.945526E-1	3.310242E-1
3.714250E+10	-7.244263E-1	3.647156E-1	2.810669E-1	-1.708069E-1	-3.790092E-2	1.749039E-2	-4.916382E-1	3.381195E-1
3.736700E+10	-7.230835E-1	3.664246E-1	2.827759E-1	-1.725769E-1	-3.130722E-2	1.919746E-2	-4.908142E-1	3.436890E-1
3.759150E+10	-7.186584E-1	3.733215E-1	2.786865E-1	-1.801605E-1	-3.307533E-2	2.212143E-2	-4.881439E-1	3.491211E-1
3.781600E+10	-7.210388E-1	3.710937E-1	2.806702E-1	-1.829834E-1	-2.691078E-2	2.510548E-2	-4.808502E-1	3.558655E-1
3.804050E+10	-7.179260E-1	3.717651E-1	2.775421E-1	-1.823730E-1	-3.204536E-2	2.334785E-2	-4.736938E-1	3.625488E-1
3.826500E+10	-7.172546E-1	3.831482E-1	2.717590E-1	-1.791077E-1	-3.211212E-2	2.190590E-2	-4.664307E-1	3.691559E-1
3.848950E+10	-7.149963E-1	3.779907E-1	2.696991E-1	-1.861115E-1	-3.263474E-2	2.478218E-2	-4.633636E-1	3.742065E-1
3.871400E+10	-7.088318E-1	3.798218E-1	2.723694E-1	-1.846924E-1	-3.226852E-2	2.969933E-2	-4.586334E-1	3.816071E-1
3.893850E+10	-7.150879E-1	3.811340E-1	2.657776E-1	-1.935883E-1	-2.998352E-2	3.388023E-2	-4.490814E-1	3.847961E-1
3.916300E+10	-7.123108E-1	3.856812E-1	2.683716E-1	-1.906586E-1	-2.411079E-2	2.580070E-2	-4.443207E-1	3.870850E-1
