!Date: 10/28/2005, 12:46 PM

!Vgs = -2.000000E+0
!Vds = 7.500000E+0
!Ig = -1.684600E-5
!Id = 5.759300E-1

# HZ S RI R 50
1.000000E+8	9.637146E-1	-2.058716E-1	-1.411963E+1	6.884766E-1	1.017570E-3	9.569645E-3	3.908844E-1	-6.211853E-2
3.245000E+8	7.506409E-1	-5.852051E-1	-1.240723E+1	4.819336E+0	1.089764E-2	2.502251E-2	1.734238E-1	-2.392883E-1
5.490000E+8	4.638672E-1	-8.109436E-1	-1.000439E+1	6.695312E+0	2.383423E-2	3.339005E-2	9.107971E-2	-2.986603E-1
7.735000E+8	1.926575E-1	-8.993225E-1	-7.729736E+0	7.349365E+0	3.633499E-2	3.602600E-2	-2.104187E-2	-3.417664E-1
9.980000E+8	-3.002930E-2	-9.046936E-1	-5.877930E+0	7.351074E+0	4.568672E-2	3.492928E-2	-1.049347E-1	-3.265533E-1
1.222500E+9	-2.083130E-1	-8.735352E-1	-4.455811E+0	7.082520E+0	5.273056E-2	3.238297E-2	-1.596069E-1	-3.176575E-1
1.447000E+9	-3.449097E-1	-8.261414E-1	-3.366943E+0	6.674316E+0	5.818176E-2	2.906036E-2	-2.105560E-1	-2.987213E-1
1.671500E+9	-4.498901E-1	-7.721558E-1	-2.546875E+0	6.228027E+0	6.265640E-2	2.600861E-2	-2.449493E-1	-2.817535E-1
1.896000E+9	-5.317078E-1	-7.166138E-1	-1.934570E+0	5.785400E+0	6.634903E-2	2.297592E-2	-2.732697E-1	-2.610474E-1
2.120500E+9	-5.930786E-1	-6.641541E-1	-1.458984E+0	5.388672E+0	6.854248E-2	1.998138E-2	-2.933655E-1	-2.458801E-1
2.345000E+9	-6.423340E-1	-6.129150E-1	-1.076416E+0	5.010498E+0	7.074738E-2	1.676559E-2	-3.117218E-1	-2.276764E-1
2.569500E+9	-6.783752E-1	-5.681763E-1	-7.744141E-1	4.666016E+0	7.219315E-2	1.326370E-2	-3.232880E-1	-2.141113E-1
2.794000E+9	-7.100830E-1	-5.305176E-1	-5.427246E-1	4.366455E+0	7.296371E-2	1.106644E-2	-3.352509E-1	-2.021637E-1
3.018500E+9	-7.350464E-1	-4.932251E-1	-3.449707E-1	4.083740E+0	7.407379E-2	8.693695E-3	-3.432770E-1	-1.891327E-1
3.243000E+9	-7.553101E-1	-4.591980E-1	-1.833496E-1	3.837891E+0	7.438278E-2	6.092072E-3	-3.496704E-1	-1.808472E-1
3.467500E+9	-7.737122E-1	-4.301758E-1	-4.687500E-2	3.614746E+0	7.457733E-2	4.318237E-3	-3.574219E-1	-1.711426E-1
3.692000E+9	-7.886658E-1	-4.030762E-1	6.982422E-2	3.407104E+0	7.501602E-2	2.471924E-3	-3.614960E-1	-1.645050E-1
3.916500E+9	-8.010864E-1	-3.758240E-1	1.629639E-1	3.216431E+0	7.551575E-2	3.547668E-4	-3.691864E-1	-1.580353E-1
4.141000E+9	-8.116760E-1	-3.519287E-1	2.438965E-1	3.044800E+0	7.544708E-2	-1.804352E-3	-3.727264E-1	-1.490479E-1
4.365500E+9	-8.191528E-1	-3.306885E-1	3.151855E-1	2.885986E+0	7.546616E-2	-3.643036E-3	-3.772430E-1	-1.451874E-1
4.590000E+9	-8.274536E-1	-3.106689E-1	3.746338E-1	2.737793E+0	7.571793E-2	-5.058289E-3	-3.813324E-1	-1.389923E-1
4.814500E+9	-8.350525E-1	-2.916260E-1	4.228516E-1	2.601807E+0	7.560730E-2	-6.286621E-3	-3.842010E-1	-1.337738E-1
5.039000E+9	-8.400879E-1	-2.734680E-1	4.669189E-1	2.478882E+0	7.585526E-2	-8.346558E-3	-3.877106E-1	-1.291962E-1
5.263500E+9	-8.453369E-1	-2.560730E-1	5.050049E-1	2.362549E+0	7.535553E-2	-9.468079E-3	-3.912811E-1	-1.240234E-1
5.488000E+9	-8.490601E-1	-2.416687E-1	5.393066E-1	2.255737E+0	7.546234E-2	-1.136398E-2	-3.945618E-1	-1.198425E-1
5.712500E+9	-8.538818E-1	-2.279053E-1	5.689697E-1	2.151367E+0	7.521439E-2	-1.266479E-2	-3.968353E-1	-1.162415E-1
5.937000E+9	-8.571167E-1	-2.124634E-1	5.924072E-1	2.057373E+0	7.511902E-2	-1.391602E-2	-3.995209E-1	-1.122742E-1
6.161500E+9	-8.603210E-1	-2.004700E-1	6.157837E-1	1.971497E+0	7.473373E-2	-1.551437E-2	-4.029388E-1	-1.068726E-1
6.386000E+9	-8.629761E-1	-1.869507E-1	6.361694E-1	1.887695E+0	7.418823E-2	-1.694489E-2	-4.030304E-1	-1.047974E-1
6.610500E+9	-8.647156E-1	-1.758423E-1	6.553345E-1	1.809021E+0	7.388306E-2	-1.822662E-2	-4.072876E-1	-1.036377E-1
6.835000E+9	-8.679810E-1	-1.648254E-1	6.699219E-1	1.731323E+0	7.334137E-2	-2.007675E-2	-4.090576E-1	-9.634399E-2
7.059500E+9	-8.690491E-1	-1.547546E-1	6.788330E-1	1.662415E+0	7.328415E-2	-2.106857E-2	-4.073486E-1	-9.725952E-2
7.284000E+9	-8.700562E-1	-1.444397E-1	6.900635E-1	1.596252E+0	7.182693E-2	-2.208328E-2	-4.135742E-1	-9.355164E-2
7.508500E+9	-8.725891E-1	-1.342163E-1	6.988525E-1	1.532227E+0	7.217026E-2	-2.350616E-2	-4.107208E-1	-9.072876E-2
7.733000E+9	-8.725891E-1	-1.232605E-1	7.062378E-1	1.473694E+0	7.074738E-2	-2.410507E-2	-4.162140E-1	-9.106445E-2
7.957500E+9	-8.740540E-1	-1.148682E-1	7.161865E-1	1.417969E+0	7.094574E-2	-2.547455E-2	-4.182281E-1	-8.644104E-2
8.182000E+9	-8.752136E-1	-1.055908E-1	7.237549E-1	1.364197E+0	7.049179E-2	-2.704620E-2	-4.212952E-1	-8.673096E-2
8.406500E+9	-8.757019E-1	-9.848022E-2	7.268677E-1	1.311279E+0	7.032776E-2	-2.801132E-2	-4.225922E-1	-8.148193E-2
8.631000E+9	-8.766174E-1	-8.840942E-2	7.327881E-1	1.259155E+0	6.949615E-2	-2.899170E-2	-4.257965E-1	-7.995605E-2
8.855500E+9	-8.769531E-1	-8.090210E-2	7.358398E-1	1.211121E+0	6.888199E-2	-3.058624E-2	-4.284821E-1	-7.598877E-2
9.080001E+9	-8.779907E-1	-7.421875E-2	7.380981E-1	1.166077E+0	6.792831E-2	-3.110504E-2	-4.287872E-1	-7.353210E-2
9.304500E+9	-8.775635E-1	-6.384277E-2	7.390137E-1	1.122620E+0	6.730270E-2	-3.271484E-2	-4.301910E-1	-7.264709E-2
9.529000E+9	-8.780518E-1	-5.932617E-2	7.402954E-1	1.080261E+0	6.663895E-2	-3.353119E-2	-4.339447E-1	-6.910706E-2
9.753500E+9	-8.789062E-1	-5.191040E-2	7.409058E-1	1.040283E+0	6.542587E-2	-3.431702E-2	-4.338379E-1	-6.573486E-2
9.978000E+9	-8.778687E-1	-4.455566E-2	7.392578E-1	1.001648E+0	6.444931E-2	-3.543091E-2	-4.353027E-1	-6.486511E-2
1.020250E+10	-8.782654E-1	-3.820801E-2	7.398987E-1	9.632263E-1	6.414795E-2	-3.670502E-2	-4.375763E-1	-6.182861E-2
1.042700E+10	-8.795166E-1	-3.100586E-2	7.392273E-1	9.300842E-1	6.350708E-2	-3.739929E-2	-4.383698E-1	-5.935669E-2
1.065150E+10	-8.786621E-1	-2.429199E-2	7.376099E-1	8.958740E-1	6.277084E-2	-3.816223E-2	-4.402466E-1	-5.889893E-2
1.087600E+10	-8.789062E-1	-1.852417E-2	7.362366E-1	8.623657E-1	6.238937E-2	-3.868675E-2	-4.433594E-1	-5.516052E-2
1.110050E+10	-8.785706E-1	-1.181030E-2	7.333374E-1	8.300476E-1	6.086731E-2	-3.952599E-2	-4.436646E-1	-5.258179E-2
1.132500E+10	-8.779297E-1	-5.676270E-3	7.321777E-1	8.000793E-1	5.968475E-2	-4.100800E-2	-4.452820E-1	-5.305481E-2
1.154950E+10	-8.779602E-1	1.190186E-3	7.305298E-1	7.686462E-1	5.944443E-2	-4.118919E-2	-4.503784E-1	-4.899597E-2
1.177400E+10	-8.770752E-1	5.920410E-3	7.260132E-1	7.412109E-1	5.852699E-2	-4.281616E-2	-4.504547E-1	-4.530334E-2
1.199850E+10	-8.767090E-1	1.199341E-2	7.247620E-1	7.144775E-1	5.709076E-2	-4.298592E-2	-4.506226E-1	-4.548645E-2
1.222300E+10	-8.767700E-1	1.724243E-2	7.190857E-1	6.875000E-1	5.694580E-2	-4.287529E-2	-4.540253E-1	-4.264832E-2
1.244750E+10	-8.761292E-1	2.294922E-2	7.151489E-1	6.593628E-1	5.599594E-2	-4.360008E-2	-4.558105E-1	-3.863525E-2
1.267200E+10	-8.766174E-1	2.844238E-2	7.125244E-1	6.353455E-1	5.475807E-2	-4.486465E-2	-4.563446E-1	-3.916931E-2
1.289650E+10	-8.743591E-1	3.292847E-2	7.061462E-1	6.110840E-1	5.441093E-2	-4.540634E-2	-4.613953E-1	-3.701782E-2
1.312100E+10	-8.746338E-1	3.765869E-2	7.015991E-1	5.880737E-1	5.318069E-2	-4.646492E-2	-4.615784E-1	-3.189087E-2
1.334550E+10	-8.744202E-1	4.324341E-2	6.976013E-1	5.672607E-1	5.166435E-2	-4.655075E-2	-4.618530E-1	-3.065491E-2
1.357000E+10	-8.724976E-1	4.672241E-2	6.938782E-1	5.447388E-1	5.093956E-2	-4.755592E-2	-4.651642E-1	-3.143311E-2
1.379450E+10	-8.726501E-1	5.404663E-2	6.880188E-1	5.224609E-1	5.138206E-2	-4.720688E-2	-4.681244E-1	-2.471924E-2
1.401900E+10	-8.731079E-1	5.770874E-2	6.827393E-1	5.049133E-1	4.925156E-2	-4.917908E-2	-4.674683E-1	-2.529907E-2
1.424350E+10	-8.710022E-1	6.265259E-2	6.759033E-1	4.834290E-1	4.846764E-2	-4.925537E-2	-4.705658E-1	-2.261353E-2
1.446800E+10	-8.711243E-1	6.759644E-2	6.723022E-1	4.653320E-1	4.825211E-2	-4.922485E-2	-4.718475E-1	-1.655579E-2
1.469250E+10	-8.701782E-1	7.391357E-2	6.673279E-1	4.469299E-1	4.671478E-2	-5.014610E-2	-4.708099E-1	-1.666260E-2
1.491700E+10	-8.687439E-1	7.723999E-2	6.624451E-1	4.282837E-1	4.521942E-2	-4.967690E-2	-4.743652E-1	-1.582336E-2
1.514150E+10	-8.672180E-1	8.227539E-2	6.569519E-1	4.109497E-1	4.502296E-2	-5.136871E-2	-4.766998E-1	-1.031494E-2
1.536600E+10	-8.668823E-1	8.685303E-2	6.506653E-1	3.934631E-1	4.245567E-2	-5.095482E-2	-4.742432E-1	-8.422852E-3
1.559050E+10	-8.664551E-1	9.216309E-2	6.448669E-1	3.767395E-1	4.224586E-2	-5.169678E-2	-4.789429E-1	-7.705688E-3
1.581500E+10	-8.649292E-1	9.515381E-2	6.384277E-1	3.605042E-1	4.229546E-2	-5.235291E-2	-4.808960E-1	-3.784180E-3
1.603950E+10	-8.639832E-1	1.003418E-1	6.336060E-1	3.454590E-1	3.999710E-2	-5.256844E-2	-4.816132E-1	-1.754761E-3
1.626400E+10	-8.627625E-1	1.042175E-1	6.277466E-1	3.314819E-1	4.009247E-2	-5.392265E-2	-4.852600E-1	-2.288818E-4
1.648850E+10	-8.623352E-1	1.073914E-1	6.219788E-1	3.177185E-1	3.853226E-2	-5.268860E-2	-4.855499E-1	4.547119E-3
1.671300E+10	-8.609924E-1	1.129150E-1	6.150513E-1	3.023071E-1	3.664398E-2	-5.422401E-2	-4.880219E-1	6.011963E-3
1.693750E+10	-8.611450E-1	1.165161E-1	6.104431E-1	2.902832E-1	3.700447E-2	-5.436897E-2	-4.889832E-1	8.087158E-3
1.716200E+10	-8.597717E-1	1.199951E-1	6.030579E-1	2.766418E-1	3.625107E-2	-5.529785E-2	-4.909821E-1	1.371765E-2
1.738650E+10	-8.585510E-1	1.255188E-1	5.985107E-1	2.652588E-1	3.518295E-2	-5.508995E-2	-4.919281E-1	1.513672E-2
1.761100E+10	-8.569336E-1	1.288452E-1	5.924683E-1	2.516479E-1	3.364944E-2	-5.504417E-2	-4.947205E-1	1.599121E-2
1.783550E+10	-8.555298E-1	1.336365E-1	5.869446E-1	2.412720E-1	3.193474E-2	-5.431366E-2	-4.971466E-1	2.262878E-2
1.806000E+10	-8.555908E-1	1.374207E-1	5.816956E-1	2.298584E-1	3.184891E-2	-5.408478E-2	-4.951935E-1	2.638245E-2
1.828450E+10	-8.538818E-1	1.419983E-1	5.750427E-1	2.185059E-1	3.024483E-2	-5.485153E-2	-4.963989E-1	2.684021E-2
1.850900E+10	-8.540649E-1	1.446228E-1	5.695496E-1	2.082214E-1	2.900696E-2	-5.654144E-2	-4.996643E-1	3.147888E-2
1.873350E+10	-8.522949E-1	1.485291E-1	5.637207E-1	1.960754E-1	2.749252E-2	-5.522728E-2	-4.996490E-1	3.678894E-2
1.895800E+10	-8.515015E-1	1.538391E-1	5.568542E-1	1.850586E-1	2.713585E-2	-5.562592E-2	-5.002441E-1	3.591919E-2
1.918250E+10	-8.502197E-1	1.550293E-1	5.506592E-1	1.755981E-1	2.644348E-2	-5.590630E-2	-5.031738E-1	4.074097E-2
1.940700E+10	-8.484497E-1	1.601868E-1	5.442505E-1	1.655884E-1	2.584267E-2	-5.731010E-2	-5.022583E-1	4.742432E-2
1.963150E+10	-8.462524E-1	1.636047E-1	5.390930E-1	1.561279E-1	2.418327E-2	-5.606270E-2	-5.015564E-1	4.495239E-2
1.985600E+10	-8.459473E-1	1.668396E-1	5.334778E-1	1.479492E-1	2.336693E-2	-5.539322E-2	-5.072021E-1	4.757690E-2
2.008050E+10	-8.434448E-1	1.704407E-1	5.277710E-1	1.380920E-1	2.104950E-2	-5.597496E-2	-5.061951E-1	5.615234E-2
2.030500E+10	-8.426514E-1	1.727600E-1	5.230408E-1	1.324768E-1	2.190399E-2	-5.583382E-2	-5.055542E-1	5.661011E-2
2.052950E+10	-8.412781E-1	1.773987E-1	5.158691E-1	1.237488E-1	1.832962E-2	-5.564880E-2	-5.077209E-1	5.908203E-2
2.075400E+10	-8.403625E-1	1.803589E-1	5.110168E-1	1.150513E-1	1.755524E-2	-5.578232E-2	-5.095215E-1	6.347656E-2
2.097850E+10	-8.385010E-1	1.834106E-1	5.049744E-1	1.086121E-1	1.783371E-2	-5.680466E-2	-5.075989E-1	6.838989E-2
2.120300E+10	-8.364258E-1	1.863403E-1	4.991608E-1	1.019592E-1	1.506424E-2	-5.518341E-2	-5.089111E-1	6.857300E-2
2.142750E+10	-8.385620E-1	1.912537E-1	4.942627E-1	9.368896E-2	1.506615E-2	-5.506516E-2	-5.139160E-1	7.495117E-2
2.165200E+10	-8.339233E-1	1.965637E-1	4.892426E-1	8.721924E-2	1.432800E-2	-5.677986E-2	-5.107727E-1	7.659912E-2
2.187650E+10	-8.342896E-1	1.969604E-1	4.825439E-1	7.997131E-2	1.317787E-2	-5.591011E-2	-5.151672E-1	8.032227E-2
2.210100E+10	-8.320007E-1	2.014160E-1	4.790649E-1	7.279968E-2	1.112175E-2	-5.580711E-2	-5.177002E-1	8.828735E-2
2.232550E+10	-8.309326E-1	2.041931E-1	4.741974E-1	6.930542E-2	1.284790E-2	-5.609512E-2	-5.137024E-1	9.121704E-2
2.255000E+10	-8.319397E-1	2.082520E-1	4.666748E-1	6.106567E-2	1.027107E-2	-5.625153E-2	-5.154419E-1	9.234619E-2
2.277450E+10	-8.295288E-1	2.118530E-1	4.614258E-1	5.551147E-2	8.335114E-3	-5.532455E-2	-5.157776E-1	9.741211E-2
2.299900E+10	-8.269958E-1	2.133179E-1	4.567108E-1	4.904175E-2	6.725311E-3	-5.370140E-2	-5.133362E-1	1.026306E-1
2.322350E+10	-8.252563E-1	2.186890E-1	4.539185E-1	4.280090E-2	6.000519E-3	-5.418968E-2	-5.163879E-1	1.051025E-1
2.344800E+10	-8.233032E-1	2.197571E-1	4.456177E-1	3.929138E-2	4.024506E-3	-5.424881E-2	-5.166931E-1	1.092529E-1
2.367250E+10	-8.224487E-1	2.246399E-1	4.421387E-1	3.259277E-2	3.654480E-3	-5.469704E-2	-5.140991E-1	1.120605E-1
2.389700E+10	-8.218079E-1	2.268677E-1	4.350586E-1	2.537537E-2	2.334595E-3	-5.255508E-2	-5.168152E-1	1.151428E-1
2.412150E+10	-8.202209E-1	2.305908E-1	4.313660E-1	2.418518E-2	-6.294250E-5	-5.249023E-2	-5.148315E-1	1.234131E-1
2.434600E+10	-8.153381E-1	2.343140E-1	4.281311E-1	2.073669E-2	2.765656E-4	-5.362129E-2	-5.130310E-1	1.230469E-1
2.457050E+10	-8.161316E-1	2.367249E-1	4.220428E-1	1.344299E-2	-3.101349E-3	-5.160332E-2	-5.144043E-1	1.272583E-1
2.479500E+10	-8.146057E-1	2.397461E-1	4.172516E-1	8.865356E-3	-2.424240E-3	-5.159569E-2	-5.137024E-1	1.344299E-1
2.501950E+10	-8.122864E-1	2.401123E-1	4.111176E-1	5.233765E-3	-2.986908E-3	-4.998207E-2	-5.093689E-1	1.333008E-1
2.524400E+10	-8.113708E-1	2.438354E-1	4.088898E-1	1.831055E-3	-5.907059E-3	-4.980469E-2	-5.112610E-1	1.383667E-1
2.546850E+10	-8.098755E-1	2.499084E-1	4.048462E-1	-1.205444E-3	-4.030228E-3	-4.902649E-2	-5.092163E-1	1.430664E-1
2.569300E+10	-8.076782E-1	2.520752E-1	3.989258E-1	-4.180908E-3	-5.441666E-3	-4.917908E-2	-5.099487E-1	1.438904E-1
2.591750E+10	-8.086853E-1	2.550354E-1	3.952789E-1	-8.132935E-3	-6.261826E-3	-4.878616E-2	-5.125732E-1	1.474304E-1
2.614200E+10	-8.050537E-1	2.579956E-1	3.908539E-1	-9.613037E-3	-8.316040E-3	-4.712486E-2	-5.144958E-1	1.544189E-1
2.636650E+10	-8.031616E-1	2.580566E-1	3.864136E-1	-1.477051E-2	-8.432388E-3	-4.733658E-2	-5.154419E-1	1.576233E-1
2.659100E+10	-8.011475E-1	2.621460E-1	3.849030E-1	-1.832581E-2	-1.071739E-2	-4.545784E-2	-5.107117E-1	1.613159E-1
2.681550E+10	-7.983398E-1	2.627258E-1	3.793945E-1	-2.189636E-2	-9.965897E-3	-4.293823E-2	-5.130615E-1	1.661377E-1
2.704000E+10	-7.981567E-1	2.689209E-1	3.767700E-1	-2.558899E-2	-1.080894E-2	-4.542732E-2	-5.129395E-1	1.749573E-1
2.726450E+10	-7.955017E-1	2.720337E-1	3.714600E-1	-2.940369E-2	-1.212311E-2	-4.293060E-2	-5.063477E-1	1.741943E-1
2.748900E+10	-7.942200E-1	2.731323E-1	3.677826E-1	-3.105164E-2	-1.238060E-2	-4.045486E-2	-5.106506E-1	1.774292E-1
2.771350E+10	-7.931519E-1	2.760620E-1	3.635406E-1	-3.376770E-2	-1.227951E-2	-3.972435E-2	-5.070801E-1	1.771240E-1
2.793800E+10	-7.905579E-1	2.789001E-1	3.609772E-1	-3.564453E-2	-1.705933E-2	-4.127693E-2	-5.046387E-1	1.777649E-1
2.816250E+10	-7.887878E-1	2.811584E-1	3.564453E-1	-4.039001E-2	-1.672745E-2	-4.059792E-2	-5.073853E-1	1.904297E-1
2.838700E+10	-7.857361E-1	2.833557E-1	3.552704E-1	-4.382324E-2	-1.877785E-2	-3.640366E-2	-5.055237E-1	1.936035E-1
2.861150E+10	-7.884521E-1	2.884827E-1	3.513641E-1	-4.367065E-2	-1.825333E-2	-3.846169E-2	-5.008545E-1	1.979980E-1
2.883600E+10	-7.852478E-1	2.911377E-1	3.468170E-1	-4.563904E-2	-1.924896E-2	-3.635406E-2	-5.036316E-1	2.002869E-1
2.906050E+10	-7.836914E-1	2.906494E-1	3.449707E-1	-4.751587E-2	-1.958656E-2	-3.417778E-2	-5.043945E-1	2.034302E-1
2.928500E+10	-7.828674E-1	2.935791E-1	3.396606E-1	-5.360413E-2	-2.399635E-2	-3.379822E-2	-5.020447E-1	2.078857E-1
2.950950E+10	-7.768555E-1	2.984924E-1	3.413849E-1	-5.186462E-2	-1.902390E-2	-3.080940E-2	-5.070801E-1	2.103271E-1
2.973400E+10	-7.795410E-1	2.984924E-1	3.379059E-1	-5.726624E-2	-2.107048E-2	-2.959251E-2	-5.010986E-1	2.154541E-1
2.995850E+10	-7.736511E-1	3.007812E-1	3.336792E-1	-5.734253E-2	-1.972771E-2	-3.158760E-2	-4.967499E-1	2.201233E-1
3.018300E+10	-7.693176E-1	3.041077E-1	3.292084E-1	-5.928040E-2	-2.135849E-2	-3.188896E-2	-5.013428E-1	2.292175E-1
3.040750E+10	-7.706299E-1	3.065491E-1	3.265076E-1	-6.077576E-2	-2.252388E-2	-2.906704E-2	-4.984741E-1	2.334747E-1
3.063200E+10	-7.697144E-1	3.070679E-1	3.280029E-1	-6.643677E-2	-2.068329E-2	-2.862835E-2	-4.993744E-1	2.394867E-1
3.085650E+10	-7.708130E-1	3.099670E-1	3.240204E-1	-6.562805E-2	-2.317619E-2	-2.657127E-2	-4.937897E-1	2.400665E-1
3.108100E+10	-7.678223E-1	3.134155E-1	3.202972E-1	-6.874084E-2	-2.510738E-2	-2.247524E-2	-4.942780E-1	2.481079E-1
3.130550E+10	-7.597656E-1	3.131409E-1	3.198090E-1	-6.919861E-2	-2.290058E-2	-2.482319E-2	-4.897461E-1	2.522583E-1
3.153000E+10	-7.666321E-1	3.164673E-1	3.161469E-1	-7.267761E-2	-2.707195E-2	-2.461910E-2	-4.926605E-1	2.539520E-1
3.175450E+10	-7.634277E-1	3.202209E-1	3.128510E-1	-7.478333E-2	-2.481461E-2	-2.297020E-2	-4.869385E-1	2.616272E-1
3.197900E+10	-7.590942E-1	3.198547E-1	3.145752E-1	-7.376099E-2	-2.513409E-2	-2.283859E-2	-4.788818E-1	2.631226E-1
3.220350E+10	-7.578430E-1	3.256226E-1	3.091431E-1	-7.940674E-2	-2.684498E-2	-1.819038E-2	-4.848175E-1	2.745819E-1
3.242800E+10	-7.586365E-1	3.256226E-1	3.109283E-1	-7.917786E-2	-2.489758E-2	-1.732731E-2	-4.816132E-1	2.746887E-1
3.265250E+10	-7.574158E-1	3.308716E-1	3.085937E-1	-8.358765E-2	-2.570629E-2	-1.814938E-2	-4.753723E-1	2.782135E-1
3.287700E+10	-7.543335E-1	3.357239E-1	3.079071E-1	-8.927917E-2	-2.582836E-2	-1.335907E-2	-4.760132E-1	2.802734E-1
3.310150E+10	-7.499695E-1	3.346252E-1	3.040924E-1	-8.807373E-2	-2.673912E-2	-1.598930E-2	-4.700317E-1	2.850647E-1
3.332600E+10	-7.509155E-1	3.354797E-1	3.004303E-1	-9.222412E-2	-2.776051E-2	-1.221275E-2	-4.677429E-1	2.864685E-1
3.355050E+10	-7.467651E-1	3.356323E-1	3.022919E-1	-9.577942E-2	-2.867126E-2	-6.168365E-3	-4.732208E-1	2.925262E-1
3.377500E+10	-7.426758E-1	3.380737E-1	2.972565E-1	-9.373474E-2	-2.434254E-2	-1.031971E-2	-4.626465E-1	2.971344E-1
3.399950E+10	-7.447510E-1	3.402710E-1	2.967377E-1	-9.210205E-2	-2.510262E-2	-1.002693E-2	-4.680328E-1	3.067474E-1
3.422400E+10	-7.404175E-1	3.420105E-1	2.960968E-1	-1.022644E-1	-2.239895E-2	-5.515099E-3	-4.624939E-1	3.108063E-1
3.444850E+10	-7.406616E-1	3.493347E-1	2.932434E-1	-1.063080E-1	-2.504444E-2	-5.808830E-3	-4.556427E-1	3.130035E-1
3.467300E+10	-7.386169E-1	3.468323E-1	3.014069E-1	-1.051483E-1	-2.563381E-2	-8.103371E-3	-4.619598E-1	3.203125E-1
3.489750E+10	-7.359009E-1	3.489685E-1	2.910156E-1	-1.083832E-1	-2.525330E-2	-2.282143E-3	-4.567871E-1	3.283386E-1
3.512200E+10	-7.394714E-1	3.509216E-1	2.861938E-1	-1.099701E-1	-2.666855E-2	2.451897E-3	-4.525604E-1	3.242645E-1
3.534650E+10	-7.367859E-1	3.526917E-1	2.899323E-1	-1.139679E-1	-2.600574E-2	-5.075455E-3	-4.453583E-1	3.335724E-1
3.557100E+10	-7.345886E-1	3.534546E-1	2.879181E-1	-1.141357E-1	-2.555370E-2	-3.294945E-3	-4.437103E-1	3.402863E-1
3.579550E+10	-7.306519E-1	3.579712E-1	2.879333E-1	-1.165466E-1	-2.653790E-2	2.756119E-3	-4.339905E-1	3.453979E-1
3.602000E+10	-7.307739E-1	3.601990E-1	2.870026E-1	-1.194916E-1	-2.191448E-2	-7.438660E-5	-4.380341E-1	3.454590E-1
3.624450E+10	-7.262878E-1	3.612671E-1	2.846375E-1	-1.206360E-1	-2.812767E-2	6.304741E-3	-4.328461E-1	3.528595E-1
3.646900E+10	-7.270508E-1	3.620911E-1	2.794037E-1	-1.279144E-1	-2.465820E-2	1.015377E-2	-4.301453E-1	3.631897E-1
3.669350E+10	-7.228394E-1	3.628540E-1	2.772980E-1	-1.326599E-1	-2.346420E-2	5.711555E-3	-4.201813E-1	3.628235E-1
3.691800E+10	-7.205200E-1	3.649597E-1	2.771454E-1	-1.327362E-1	-2.502537E-2	1.129913E-2	-4.221191E-1	3.767548E-1
3.714250E+10	-7.225952E-1	3.694458E-1	2.733917E-1	-1.379547E-1	-2.004623E-2	1.284313E-2	-4.159088E-1	3.745270E-1
3.736700E+10	-7.141724E-1	3.734436E-1	2.764893E-1	-1.388092E-1	-2.350616E-2	1.051140E-2	-4.055328E-1	3.825378E-1
3.759150E+10	-7.151184E-1	3.705750E-1	2.722931E-1	-1.381836E-1	-2.333736E-2	1.783943E-2	-4.056244E-1	3.901825E-1
3.781600E+10	-7.145081E-1	3.729858E-1	2.764435E-1	-1.423645E-1	-1.788521E-2	1.236725E-2	-4.001007E-1	3.933105E-1
3.804050E+10	-7.143250E-1	3.706970E-1	2.689819E-1	-1.464081E-1	-1.542187E-2	1.252270E-2	-3.890991E-1	3.924103E-1
3.826500E+10	-7.112732E-1	3.753052E-1	2.721710E-1	-1.472015E-1	-2.207661E-2	1.448822E-2	-3.852997E-1	3.977661E-1
3.848950E+10	-7.127991E-1	3.827820E-1	2.659454E-1	-1.444092E-1	-1.645088E-2	1.956654E-2	-3.808594E-1	4.045258E-1
3.871400E+10	-7.123108E-1	3.766174E-1	2.664337E-1	-1.566315E-1	-2.114582E-2	1.566601E-2	-3.743134E-1	4.070892E-1
3.893850E+10	-7.032471E-1	3.868713E-1	2.703400E-1	-1.518860E-1	-1.635933E-2	1.875210E-2	-3.626709E-1	4.062347E-1
3.916300E+10	-7.067871E-1	3.815613E-1	2.633667E-1	-1.620331E-1	-1.589394E-2	1.749706E-2	-3.616486E-1	4.127502E-1
