!Date: 10/28/2005, 12:46 PM

!Vgs = -4.000000E+0
!Vds = 1.750000E+1
!Ig = -4.364300E-5
!Id = 1.666200E-1

# HZ S RI R 50
1.000000E+8	9.713135E-1	-1.721497E-1	-1.673926E+1	1.413086E+0	-8.561611E-4	6.815910E-3	6.194153E-1	-6.576538E-2
3.245000E+8	8.127441E-1	-5.093689E-1	-1.512451E+1	5.224121E+0	7.538795E-3	1.888752E-2	4.877777E-1	-2.313232E-1
5.490000E+8	5.873108E-1	-7.372742E-1	-1.284277E+1	7.373047E+0	1.653957E-2	2.643585E-2	4.028778E-1	-3.132172E-1
7.735000E+8	3.479614E-1	-8.578186E-1	-1.046973E+1	8.449707E+0	2.609062E-2	3.003120E-2	3.008575E-1	-3.622284E-1
9.980000E+8	1.348267E-1	-9.035950E-1	-8.349609E+0	8.832520E+0	3.434753E-2	3.033257E-2	2.152710E-1	-3.727722E-1
1.222500E+9	-4.589844E-2	-9.050293E-1	-6.602051E+0	8.814453E+0	4.048729E-2	2.922630E-2	1.493378E-1	-3.757324E-1
1.447000E+9	-1.969299E-1	-8.811646E-1	-5.172363E+0	8.569336E+0	4.598045E-2	2.775383E-2	9.422302E-2	-3.710022E-1
1.671500E+9	-3.172913E-1	-8.431396E-1	-4.012207E+0	8.162598E+0	5.007744E-2	2.541924E-2	4.768372E-2	-3.629608E-1
1.896000E+9	-4.154053E-1	-7.972107E-1	-3.120361E+0	7.693848E+0	5.429268E-2	2.298546E-2	9.567261E-3	-3.464966E-1
2.120500E+9	-4.915466E-1	-7.492065E-1	-2.419434E+0	7.256104E+0	5.696678E-2	2.004051E-2	-1.788330E-2	-3.339996E-1
2.345000E+9	-5.545654E-1	-7.002258E-1	-1.843262E+0	6.817871E+0	5.909348E-2	1.758957E-2	-4.147339E-2	-3.200989E-1
2.569500E+9	-6.019897E-1	-6.554565E-1	-1.375244E+0	6.405762E+0	6.079865E-2	1.485443E-2	-5.957031E-2	-3.094940E-1
2.794000E+9	-6.427002E-1	-6.162720E-1	-1.010986E+0	6.026367E+0	6.212234E-2	1.296806E-2	-7.373047E-2	-2.996216E-1
3.018500E+9	-6.749878E-1	-5.776367E-1	-6.928711E-1	5.675537E+0	6.303787E-2	1.013947E-2	-8.728027E-2	-2.919769E-1
3.243000E+9	-7.027283E-1	-5.423889E-1	-4.240723E-1	5.353760E+0	6.336594E-2	8.186340E-3	-9.941101E-2	-2.852020E-1
3.467500E+9	-7.275085E-1	-5.117798E-1	-2.060547E-1	5.057861E+0	6.391907E-2	6.233215E-3	-1.094971E-1	-2.788849E-1
3.692000E+9	-7.486267E-1	-4.813538E-1	-1.660156E-2	4.777100E+0	6.502151E-2	4.562378E-3	-1.194763E-1	-2.751617E-1
3.916500E+9	-7.654724E-1	-4.508667E-1	1.423340E-1	4.522217E+0	6.535339E-2	2.353668E-3	-1.291504E-1	-2.710876E-1
4.141000E+9	-7.792969E-1	-4.249878E-1	2.783203E-1	4.283691E+0	6.512833E-2	4.539490E-4	-1.369629E-1	-2.664185E-1
4.365500E+9	-7.905884E-1	-4.014587E-1	3.940430E-1	4.063477E+0	6.526184E-2	-7.591248E-4	-1.442719E-1	-2.640991E-1
4.590000E+9	-8.022766E-1	-3.792725E-1	4.943848E-1	3.857422E+0	6.557465E-2	-2.758026E-3	-1.516876E-1	-2.602081E-1
4.814500E+9	-8.123169E-1	-3.577576E-1	5.762939E-1	3.668823E+0	6.560135E-2	-3.963470E-3	-1.582947E-1	-2.585297E-1
5.039000E+9	-8.192139E-1	-3.372803E-1	6.524658E-1	3.490845E+0	6.601715E-2	-5.939484E-3	-1.653748E-1	-2.565460E-1
5.263500E+9	-8.272095E-1	-3.178101E-1	7.166748E-1	3.324829E+0	6.552887E-2	-7.762909E-3	-1.733093E-1	-2.535248E-1
5.488000E+9	-8.325806E-1	-3.013306E-1	7.683105E-1	3.171265E+0	6.571198E-2	-8.605957E-3	-1.783600E-1	-2.517853E-1
5.712500E+9	-8.391418E-1	-2.850342E-1	8.166504E-1	3.024170E+0	6.552124E-2	-1.015854E-2	-1.835937E-1	-2.506714E-1
5.937000E+9	-8.438416E-1	-2.673950E-1	8.586426E-1	2.893311E+0	6.574631E-2	-1.156235E-2	-1.893768E-1	-2.491989E-1
6.161500E+9	-8.478394E-1	-2.540894E-1	8.959961E-1	2.768921E+0	6.518936E-2	-1.308441E-2	-1.949387E-1	-2.480011E-1
6.386000E+9	-8.524780E-1	-2.389221E-1	9.320068E-1	2.646729E+0	6.471634E-2	-1.422119E-2	-1.990433E-1	-2.482300E-1
6.610500E+9	-8.554382E-1	-2.260132E-1	9.627686E-1	2.534912E+0	6.488800E-2	-1.561356E-2	-2.064896E-1	-2.486877E-1
6.835000E+9	-8.592529E-1	-2.135315E-1	9.881592E-1	2.423828E+0	6.421661E-2	-1.691818E-2	-2.116699E-1	-2.463226E-1
7.059500E+9	-8.613586E-1	-2.024841E-1	1.006714E+0	2.322632E+0	6.374741E-2	-1.820374E-2	-2.154312E-1	-2.475586E-1
7.284000E+9	-8.635864E-1	-1.899109E-1	1.025635E+0	2.224609E+0	6.306839E-2	-1.930618E-2	-2.230606E-1	-2.476501E-1
7.508500E+9	-8.666382E-1	-1.782837E-1	1.041992E+0	2.131226E+0	6.288528E-2	-2.009964E-2	-2.267075E-1	-2.447052E-1
7.733000E+9	-8.679199E-1	-1.681519E-1	1.053955E+0	2.043701E+0	6.305695E-2	-2.154541E-2	-2.324142E-1	-2.472382E-1
7.957500E+9	-8.703003E-1	-1.567078E-1	1.068909E+0	1.962158E+0	6.133080E-2	-2.307510E-2	-2.393723E-1	-2.467575E-1
8.182000E+9	-8.715515E-1	-1.464539E-1	1.078796E+0	1.881775E+0	6.151390E-2	-2.370071E-2	-2.448883E-1	-2.466202E-1
8.406500E+9	-8.722839E-1	-1.379395E-1	1.085571E+0	1.804749E+0	6.105804E-2	-2.501297E-2	-2.499390E-1	-2.450256E-1
8.631000E+9	-8.743286E-1	-1.275024E-1	1.093933E+0	1.729614E+0	6.054497E-2	-2.646828E-2	-2.560577E-1	-2.458344E-1
8.855500E+9	-8.749695E-1	-1.190796E-1	1.098694E+0	1.658997E+0	6.019402E-2	-2.740097E-2	-2.622833E-1	-2.444000E-1
9.080001E+9	-8.759766E-1	-1.111145E-1	1.101440E+0	1.592529E+0	5.967140E-2	-2.818680E-2	-2.669373E-1	-2.430267E-1
9.304500E+9	-8.756714E-1	-9.902954E-2	1.103149E+0	1.528076E+0	5.881691E-2	-2.932358E-2	-2.726746E-1	-2.442322E-1
9.529000E+9	-8.766174E-1	-9.469604E-2	1.104492E+0	1.464172E+0	5.820847E-2	-2.988434E-2	-2.793121E-1	-2.421265E-1
9.753500E+9	-8.772278E-1	-8.560181E-2	1.103088E+0	1.405334E+0	5.768776E-2	-3.108025E-2	-2.836151E-1	-2.402954E-1
9.978000E+9	-8.780518E-1	-7.809448E-2	1.102051E+0	1.349426E+0	5.627251E-2	-3.251076E-2	-2.889099E-1	-2.408752E-1
1.020250E+10	-8.787537E-1	-7.107544E-2	1.101135E+0	1.295715E+0	5.642509E-2	-3.321457E-2	-2.942047E-1	-2.388916E-1
1.042700E+10	-8.788757E-1	-6.250000E-2	1.098450E+0	1.242798E+0	5.539322E-2	-3.400803E-2	-2.994232E-1	-2.392426E-1
1.065150E+10	-8.788147E-1	-5.593872E-2	1.094055E+0	1.193420E+0	5.498123E-2	-3.521347E-2	-3.047180E-1	-2.388458E-1
1.087600E+10	-8.795166E-1	-4.885864E-2	1.091553E+0	1.144897E+0	5.394936E-2	-3.576279E-2	-3.105774E-1	-2.367706E-1
1.110050E+10	-8.793945E-1	-4.138184E-2	1.089233E+0	1.097046E+0	5.327606E-2	-3.644943E-2	-3.155212E-1	-2.358856E-1
1.132500E+10	-8.787231E-1	-3.524780E-2	1.083008E+0	1.052185E+0	5.307007E-2	-3.706932E-2	-3.190765E-1	-2.356110E-1
1.154950E+10	-8.788757E-1	-2.786255E-2	1.077148E+0	1.007751E+0	5.088234E-2	-3.745270E-2	-3.282928E-1	-2.347260E-1
1.177400E+10	-8.781738E-1	-2.130127E-2	1.071838E+0	9.665527E-1	5.060196E-2	-3.878403E-2	-3.329468E-1	-2.310333E-1
1.199850E+10	-8.786316E-1	-1.614380E-2	1.067383E+0	9.269409E-1	4.967690E-2	-3.889275E-2	-3.367767E-1	-2.314301E-1
1.222300E+10	-8.774109E-1	-8.544922E-3	1.059631E+0	8.864746E-1	4.914665E-2	-3.969383E-2	-3.433380E-1	-2.309723E-1
1.244750E+10	-8.777161E-1	-3.753662E-3	1.050659E+0	8.477783E-1	4.782486E-2	-4.050636E-2	-3.483276E-1	-2.266693E-1
1.267200E+10	-8.776245E-1	2.136230E-3	1.043884E+0	8.120117E-1	4.733086E-2	-4.144478E-2	-3.520966E-1	-2.283630E-1
1.289650E+10	-8.762512E-1	7.080078E-3	1.034546E+0	7.766724E-1	4.657745E-2	-4.154015E-2	-3.606873E-1	-2.260590E-1
1.312100E+10	-8.767090E-1	1.309204E-2	1.025696E+0	7.442017E-1	4.543686E-2	-4.247856E-2	-3.645630E-1	-2.212372E-1
1.334550E+10	-8.767090E-1	1.855469E-2	1.018188E+0	7.109985E-1	4.529572E-2	-4.320717E-2	-3.680725E-1	-2.212830E-1
1.357000E+10	-8.753052E-1	2.316284E-2	1.010559E+0	6.781006E-1	4.426956E-2	-4.407883E-2	-3.761902E-1	-2.219849E-1
1.379450E+10	-8.746948E-1	2.877808E-2	1.001709E+0	6.499634E-1	4.264832E-2	-4.430580E-2	-3.830261E-1	-2.153473E-1
1.401900E+10	-8.746033E-1	3.421021E-2	9.927673E-1	6.237183E-1	4.171944E-2	-4.489517E-2	-3.820190E-1	-2.149811E-1
1.424350E+10	-8.735352E-1	3.906250E-2	9.831543E-1	5.937805E-1	4.137039E-2	-4.573822E-2	-3.906250E-1	-2.128296E-1
1.446800E+10	-8.735962E-1	4.364014E-2	9.752197E-1	5.648193E-1	3.981209E-2	-4.487801E-2	-3.944702E-1	-2.075806E-1
1.469250E+10	-8.724976E-1	5.072021E-2	9.659424E-1	5.391541E-1	3.931808E-2	-4.714203E-2	-3.959808E-1	-2.064819E-1
1.491700E+10	-8.705444E-1	5.407715E-2	9.558105E-1	5.124512E-1	3.809738E-2	-4.775047E-2	-4.040985E-1	-2.070923E-1
1.514150E+10	-8.708801E-1	5.947876E-2	9.474792E-1	4.874268E-1	3.662872E-2	-4.783249E-2	-4.084473E-1	-2.005157E-1
1.536600E+10	-8.702087E-1	6.463623E-2	9.379578E-1	4.616699E-1	3.668594E-2	-4.738235E-2	-4.116516E-1	-1.988831E-1
1.559050E+10	-8.679504E-1	6.927490E-2	9.277039E-1	4.388428E-1	3.649139E-2	-4.740715E-2	-4.189453E-1	-1.979065E-1
1.581500E+10	-8.674316E-1	7.424927E-2	9.168396E-1	4.149780E-1	3.491402E-2	-4.904366E-2	-4.244080E-1	-1.947479E-1
1.603950E+10	-8.679199E-1	7.934570E-2	9.084778E-1	3.949585E-1	3.267860E-2	-4.967880E-2	-4.263763E-1	-1.909180E-1
1.626400E+10	-8.657532E-1	8.377075E-2	8.969421E-1	3.736267E-1	3.305817E-2	-4.986572E-2	-4.342499E-1	-1.893005E-1
1.648850E+10	-8.654785E-1	8.761597E-2	8.863831E-1	3.526611E-1	3.163147E-2	-5.008316E-2	-4.379425E-1	-1.843262E-1
1.671300E+10	-8.647156E-1	9.359741E-2	8.749695E-1	3.329773E-1	3.079796E-2	-5.004501E-2	-4.411774E-1	-1.831512E-1
1.693750E+10	-8.647766E-1	9.655762E-2	8.663635E-1	3.132629E-1	3.052521E-2	-4.972839E-2	-4.476776E-1	-1.797028E-1
1.716200E+10	-8.633118E-1	1.019592E-1	8.560181E-1	2.960205E-1	2.907372E-2	-5.203629E-2	-4.497986E-1	-1.735840E-1
1.738650E+10	-8.620605E-1	1.062012E-1	8.463440E-1	2.804260E-1	2.712631E-2	-5.087471E-2	-4.532166E-1	-1.710815E-1
1.761100E+10	-8.608093E-1	1.098328E-1	8.369446E-1	2.624512E-1	2.618027E-2	-5.119896E-2	-4.602356E-1	-1.691742E-1
1.783550E+10	-8.612061E-1	1.149597E-1	8.256836E-1	2.470093E-1	2.493477E-2	-5.047417E-2	-4.647675E-1	-1.625824E-1
1.806000E+10	-8.592834E-1	1.183777E-1	8.179016E-1	2.311707E-1	2.411842E-2	-5.177307E-2	-4.656372E-1	-1.592102E-1
1.828450E+10	-8.573303E-1	1.238403E-1	8.089905E-1	2.144165E-1	2.278709E-2	-5.202293E-2	-4.710541E-1	-1.569214E-1
1.850900E+10	-8.569641E-1	1.286926E-1	7.979736E-1	1.997070E-1	2.204895E-2	-5.285645E-2	-4.763184E-1	-1.519928E-1
1.873350E+10	-8.564453E-1	1.312561E-1	7.889099E-1	1.842041E-1	2.136230E-2	-5.242157E-2	-4.779205E-1	-1.466675E-1
1.895800E+10	-8.546143E-1	1.349487E-1	7.787781E-1	1.697083E-1	2.082825E-2	-5.211067E-2	-4.824066E-1	-1.465607E-1
1.918250E+10	-8.536682E-1	1.384277E-1	7.687073E-1	1.551208E-1	2.037048E-2	-5.154228E-2	-4.873199E-1	-1.419373E-1
1.940700E+10	-8.519287E-1	1.427002E-1	7.578430E-1	1.408691E-1	1.848412E-2	-5.231667E-2	-4.904327E-1	-1.327972E-1
1.963150E+10	-8.510437E-1	1.471863E-1	7.477112E-1	1.282959E-1	1.633453E-2	-5.347252E-2	-4.909515E-1	-1.339417E-1
1.985600E+10	-8.493958E-1	1.496277E-1	7.385254E-1	1.174927E-1	1.647186E-2	-5.304337E-2	-4.967651E-1	-1.291809E-1
2.008050E+10	-8.486023E-1	1.538086E-1	7.277527E-1	1.051025E-1	1.403999E-2	-5.389404E-2	-5.020752E-1	-1.194458E-1
2.030500E+10	-8.476257E-1	1.569519E-1	7.188416E-1	9.448242E-2	1.385498E-2	-5.163956E-2	-5.010681E-1	-1.192932E-1
2.052950E+10	-8.462830E-1	1.605225E-1	7.096558E-1	8.386230E-2	1.167107E-2	-5.319977E-2	-5.057068E-1	-1.164856E-1
2.075400E+10	-8.444519E-1	1.649780E-1	7.020569E-1	7.342529E-2	1.012802E-2	-5.369186E-2	-5.109253E-1	-1.103821E-1
2.097850E+10	-8.447266E-1	1.685791E-1	6.923523E-1	6.219482E-2	1.059151E-2	-5.412483E-2	-5.112610E-1	-1.045837E-1
2.120300E+10	-8.435059E-1	1.699829E-1	6.810608E-1	5.374146E-2	8.085251E-3	-5.341530E-2	-5.167236E-1	-1.052551E-1
2.142750E+10	-8.414307E-1	1.761475E-1	6.728210E-1	4.290771E-2	7.846832E-3	-5.283356E-2	-5.202942E-1	-9.780884E-2
2.165200E+10	-8.397522E-1	1.797485E-1	6.647949E-1	3.146362E-2	5.691528E-3	-5.103683E-2	-5.216064E-1	-9.481812E-2
2.187650E+10	-8.388977E-1	1.832581E-1	6.554260E-1	2.297974E-2	5.968094E-3	-5.013466E-2	-5.262756E-1	-8.963013E-2
2.210100E+10	-8.371277E-1	1.860657E-1	6.442566E-1	1.464844E-2	4.207611E-3	-5.150414E-2	-5.292664E-1	-8.401489E-2
2.232550E+10	-8.372192E-1	1.903381E-1	6.369629E-1	6.347656E-3	2.828598E-3	-5.207062E-2	-5.302124E-1	-7.733154E-2
2.255000E+10	-8.353271E-1	1.938782E-1	6.292419E-1	-1.922607E-3	3.915787E-3	-5.104637E-2	-5.339661E-1	-7.504272E-2
2.277450E+10	-8.350220E-1	1.970215E-1	6.202087E-1	-1.293945E-2	7.057190E-4	-5.174446E-2	-5.374451E-1	-6.948853E-2
2.299900E+10	-8.344116E-1	1.987000E-1	6.116028E-1	-1.779175E-2	-1.201630E-4	-5.297089E-2	-5.366516E-1	-6.323242E-2
2.322350E+10	-8.324890E-1	2.047729E-1	6.053467E-1	-2.703857E-2	-1.411438E-4	-5.093765E-2	-5.422974E-1	-6.188965E-2
2.344800E+10	-8.293762E-1	2.062683E-1	5.942078E-1	-3.030396E-2	-1.768112E-3	-5.044556E-2	-5.436401E-1	-5.163574E-2
2.367250E+10	-8.300171E-1	2.113342E-1	5.850830E-1	-3.945923E-2	-1.926422E-3	-5.162430E-2	-5.452881E-1	-4.565430E-2
2.389700E+10	-8.263855E-1	2.144470E-1	5.765076E-1	-4.745483E-2	-5.941391E-3	-4.977798E-2	-5.490112E-1	-4.345703E-2
2.412150E+10	-8.271179E-1	2.166138E-1	5.714417E-1	-5.197144E-2	-6.530762E-3	-4.971695E-2	-5.493774E-1	-3.579712E-2
2.434600E+10	-8.248596E-1	2.204590E-1	5.626526E-1	-5.856323E-2	-8.420944E-3	-4.973984E-2	-5.493774E-1	-3.302002E-2
2.457050E+10	-8.223267E-1	2.248535E-1	5.520630E-1	-6.576538E-2	-9.973526E-3	-4.830551E-2	-5.527344E-1	-2.719116E-2
2.479500E+10	-8.215332E-1	2.278748E-1	5.444946E-1	-7.009888E-2	-9.447098E-3	-4.793549E-2	-5.511780E-1	-1.910400E-2
2.501950E+10	-8.178711E-1	2.290955E-1	5.382080E-1	-7.684326E-2	-1.024628E-2	-4.787064E-2	-5.520325E-1	-1.626587E-2
2.524400E+10	-8.167114E-1	2.329407E-1	5.291138E-1	-8.132935E-2	-1.283836E-2	-4.635811E-2	-5.532532E-1	-1.412964E-2
2.546850E+10	-8.162842E-1	2.377625E-1	5.219116E-1	-8.444214E-2	-1.549530E-2	-4.433632E-2	-5.560303E-1	-6.256104E-3
2.569300E+10	-8.143921E-1	2.385559E-1	5.138245E-1	-8.996582E-2	-1.310921E-2	-4.486465E-2	-5.586853E-1	-7.080078E-3
2.591750E+10	-8.147888E-1	2.439880E-1	5.069885E-1	-9.533691E-2	-1.652718E-2	-4.427338E-2	-5.605469E-1	-1.190186E-3
2.614200E+10	-8.106079E-1	2.457275E-1	4.972992E-1	-9.617615E-2	-1.720428E-2	-4.296684E-2	-5.648804E-1	7.843018E-3
2.636650E+10	-8.085022E-1	2.483826E-1	4.937744E-1	-1.040497E-1	-1.607895E-2	-4.325676E-2	-5.651245E-1	1.486206E-2
2.659100E+10	-8.072205E-1	2.509155E-1	4.866333E-1	-1.058655E-1	-1.797867E-2	-4.207230E-2	-5.640869E-1	1.885986E-2
2.681550E+10	-8.048706E-1	2.544556E-1	4.800262E-1	-1.092682E-1	-1.820374E-2	-4.054642E-2	-5.686340E-1	2.203369E-2
2.704000E+10	-8.056641E-1	2.591248E-1	4.698486E-1	-1.111298E-1	-1.860619E-2	-4.224586E-2	-5.664673E-1	3.250122E-2
2.726450E+10	-8.020935E-1	2.597046E-1	4.652252E-1	-1.158600E-1	-1.997948E-2	-4.134941E-2	-5.624084E-1	3.408813E-2
2.748900E+10	-7.982788E-1	2.619629E-1	4.620972E-1	-1.236420E-1	-2.151108E-2	-3.748703E-2	-5.639038E-1	3.732300E-2
2.771350E+10	-8.005066E-1	2.652893E-1	4.505615E-1	-1.247253E-1	-2.339745E-2	-3.746796E-2	-5.692444E-1	4.418945E-2
2.793800E+10	-7.980042E-1	2.686462E-1	4.466858E-1	-1.299896E-1	-2.374840E-2	-3.544617E-2	-5.671082E-1	4.742432E-2
2.816250E+10	-7.988281E-1	2.708435E-1	4.400330E-1	-1.297302E-1	-2.335358E-2	-3.899574E-2	-5.726929E-1	5.447388E-2
2.838700E+10	-7.935486E-1	2.738342E-1	4.348907E-1	-1.327515E-1	-2.679634E-2	-3.662682E-2	-5.705566E-1	6.118774E-2
2.861150E+10	-7.932739E-1	2.770081E-1	4.292450E-1	-1.358490E-1	-2.608871E-2	-3.371239E-2	-5.670471E-1	6.838989E-2
2.883600E+10	-7.894287E-1	2.791443E-1	4.212799E-1	-1.399994E-1	-2.733040E-2	-3.355789E-2	-5.689087E-1	6.808472E-2
2.906050E+10	-7.892456E-1	2.821045E-1	4.168091E-1	-1.411285E-1	-2.866745E-2	-3.066158E-2	-5.711975E-1	7.525635E-2
2.928500E+10	-7.866211E-1	2.867126E-1	4.156494E-1	-1.453247E-1	-3.207588E-2	-2.955055E-2	-5.736694E-1	7.879639E-2
2.950950E+10	-7.862854E-1	2.890015E-1	4.055939E-1	-1.448822E-1	-2.868652E-2	-3.085232E-2	-5.755005E-1	8.380127E-2
2.973400E+10	-7.848206E-1	2.908936E-1	4.030762E-1	-1.470490E-1	-2.913189E-2	-2.747250E-2	-5.754089E-1	9.072876E-2
2.995850E+10	-7.802429E-1	2.937927E-1	3.955536E-1	-1.515045E-1	-2.959633E-2	-2.684784E-2	-5.769043E-1	9.741211E-2
3.018300E+10	-7.790222E-1	2.951660E-1	3.924408E-1	-1.528625E-1	-3.268051E-2	-2.649117E-2	-5.792542E-1	1.085510E-1
3.040750E+10	-7.811584E-1	2.950134E-1	3.880920E-1	-1.549988E-1	-3.257179E-2	-2.674484E-2	-5.777588E-1	1.083374E-1
3.063200E+10	-7.759705E-1	3.009949E-1	3.809662E-1	-1.538086E-1	-3.059006E-2	-2.556801E-2	-5.801392E-1	1.180725E-1
3.085650E+10	-7.754822E-1	3.015747E-1	3.755951E-1	-1.587830E-1	-3.656769E-2	-2.458000E-2	-5.761719E-1	1.228638E-1
3.108100E+10	-7.715454E-1	3.036194E-1	3.725739E-1	-1.608734E-1	-3.842545E-2	-2.287865E-2	-5.754395E-1	1.275024E-1
3.130550E+10	-7.730408E-1	3.063965E-1	3.650665E-1	-1.635132E-1	-3.565216E-2	-2.058983E-2	-5.720215E-1	1.360474E-1
3.153000E+10	-7.720032E-1	3.077393E-1	3.686523E-1	-1.630554E-1	-3.947449E-2	-1.984406E-2	-5.745239E-1	1.358337E-1
3.175450E+10	-7.706604E-1	3.120728E-1	3.544312E-1	-1.689606E-1	-3.424835E-2	-1.720619E-2	-5.753174E-1	1.516724E-1
3.197900E+10	-7.667847E-1	3.173828E-1	3.529510E-1	-1.692963E-1	-3.357124E-2	-1.600456E-2	-5.682678E-1	1.566162E-1
3.220350E+10	-7.625427E-1	3.190002E-1	3.505554E-1	-1.718292E-1	-3.731537E-2	-1.472664E-2	-5.715637E-1	1.581421E-1
3.242800E+10	-7.650146E-1	3.206787E-1	3.457947E-1	-1.759949E-1	-3.677940E-2	-1.086044E-2	-5.701904E-1	1.638489E-1
3.265250E+10	-7.637634E-1	3.245239E-1	3.447113E-1	-1.739807E-1	-4.195213E-2	-1.080894E-2	-5.659790E-1	1.715393E-1
3.287700E+10	-7.578125E-1	3.278198E-1	3.422241E-1	-1.731720E-1	-3.796005E-2	-1.392746E-2	-5.693359E-1	1.726990E-1
3.310150E+10	-7.630920E-1	3.270264E-1	3.364410E-1	-1.766205E-1	-3.651428E-2	-6.866455E-3	-5.641785E-1	1.842346E-1
3.332600E+10	-7.557983E-1	3.290100E-1	3.298950E-1	-1.760559E-1	-4.074478E-2	-8.504868E-3	-5.604858E-1	1.856689E-1
3.355050E+10	-7.521362E-1	3.287964E-1	3.319092E-1	-1.769409E-1	-3.866005E-2	-3.730774E-3	-5.644836E-1	1.924133E-1
3.377500E+10	-7.536011E-1	3.344116E-1	3.246918E-1	-1.814117E-1	-3.813934E-2	-4.344940E-3	-5.650024E-1	1.959229E-1
3.399950E+10	-7.483521E-1	3.367310E-1	3.158112E-1	-1.833649E-1	-3.721428E-2	-1.472473E-3	-5.669556E-1	2.000122E-1
3.422400E+10	-7.514343E-1	3.393250E-1	3.159943E-1	-1.896057E-1	-3.945351E-2	-3.789902E-3	-5.559387E-1	2.185059E-1
3.444850E+10	-7.507324E-1	3.417358E-1	3.113098E-1	-1.921692E-1	-4.032707E-2	-9.384155E-4	-5.595398E-1	2.224731E-1
3.467300E+10	-7.409058E-1	3.453674E-1	3.154907E-1	-1.858826E-1	-3.646660E-2	-1.907349E-5	-5.614014E-1	2.276917E-1
3.489750E+10	-7.422180E-1	3.449402E-1	3.106689E-1	-1.889954E-1	-3.647804E-2	1.600266E-3	-5.600891E-1	2.352295E-1
3.512200E+10	-7.412720E-1	3.468018E-1	3.050995E-1	-1.976624E-1	-3.614998E-2	3.461838E-3	-5.534973E-1	2.317200E-1
3.534650E+10	-7.423706E-1	3.464355E-1	3.016205E-1	-1.971741E-1	-4.051590E-2	7.188797E-3	-5.551147E-1	2.392578E-1
3.557100E+10	-7.395020E-1	3.515930E-1	3.008118E-1	-1.959229E-1	-4.172516E-2	9.117126E-3	-5.473938E-1	2.541504E-1
3.579550E+10	-7.389832E-1	3.551941E-1	2.986450E-1	-1.949310E-1	-4.012680E-2	7.986069E-3	-5.433655E-1	2.612915E-1
3.602000E+10	-7.385254E-1	3.530884E-1	2.909851E-1	-1.952667E-1	-3.579330E-2	1.525688E-2	-5.473938E-1	2.658997E-1
3.624450E+10	-7.319641E-1	3.571167E-1	2.919617E-1	-1.961517E-1	-3.711891E-2	9.599686E-3	-5.437317E-1	2.717590E-1
3.646900E+10	-7.295227E-1	3.592834E-1	2.871704E-1	-1.996155E-1	-3.907394E-2	1.488304E-2	-5.393372E-1	2.826233E-1
3.669350E+10	-7.332153E-1	3.639526E-1	2.841034E-1	-2.010651E-1	-3.844833E-2	1.820183E-2	-5.411682E-1	2.759399E-1
3.691800E+10	-7.293701E-1	3.644409E-1	2.792664E-1	-2.016754E-1	-3.443527E-2	1.465225E-2	-5.376892E-1	2.940063E-1
3.714250E+10	-7.240601E-1	3.644714E-1	2.753143E-1	-2.085571E-1	-3.449059E-2	2.072144E-2	-5.322266E-1	2.998352E-1
3.736700E+10	-7.197876E-1	3.639221E-1	2.748260E-1	-2.093811E-1	-3.802681E-2	1.770401E-2	-5.263062E-1	3.024597E-1
3.759150E+10	-7.182922E-1	3.711853E-1	2.718811E-1	-2.122650E-1	-3.261375E-2	1.957321E-2	-5.247803E-1	3.142395E-1
3.781600E+10	-7.195129E-1	3.709106E-1	2.675476E-1	-2.136841E-1	-3.824615E-2	1.929855E-2	-5.196533E-1	3.173218E-1
3.804050E+10	-7.165527E-1	3.662720E-1	2.597504E-1	-2.180939E-1	-3.558922E-2	2.577591E-2	-5.120544E-1	3.324890E-1
3.826500E+10	-7.156677E-1	3.763733E-1	2.644501E-1	-2.129059E-1	-3.747940E-2	2.771378E-2	-5.104065E-1	3.348999E-1
3.848950E+10	-7.136841E-1	3.752747E-1	2.614746E-1	-2.203217E-1	-3.340721E-2	2.725983E-2	-5.034180E-1	3.389282E-1
3.871400E+10	-7.122803E-1	3.711548E-1	2.614288E-1	-2.251282E-1	-3.282928E-2	2.857018E-2	-4.941406E-1	3.497467E-1
3.893850E+10	-7.106323E-1	3.822937E-1	2.608337E-1	-2.206726E-1	-3.076935E-2	3.411102E-2	-4.930420E-1	3.515167E-1
3.916300E+10	-7.098694E-1	3.826599E-1	2.606201E-1	-2.255554E-1	-3.300095E-2	2.703285E-2	-4.925232E-1	3.544922E-1
