!Date: 10/28/2005, 12:46 PM

!Vgs = -2.000000E+0
!Vds = 1.750000E+1
!Ig = -3.354900E-5
!Id = 5.544000E-1

# HZ S RI R 50
1.000000E+8	9.761658E-1	-1.788940E-1	-1.511035E+1	4.560547E-1	-1.697540E-4	9.326458E-3	5.870361E-1	-1.922607E-2
3.245000E+8	8.047485E-1	-5.140381E-1	-1.387451E+1	4.757812E+0	8.011818E-3	2.042866E-2	3.992462E-1	-2.252350E-1
5.490000E+8	5.711365E-1	-7.445068E-1	-1.173145E+1	6.821777E+0	1.792145E-2	2.848816E-2	3.322144E-1	-2.972870E-1
7.735000E+8	3.310242E-1	-8.625183E-1	-9.475098E+0	7.774902E+0	2.794647E-2	3.227806E-2	2.243958E-1	-3.548126E-1
9.980000E+8	1.174011E-1	-9.006653E-1	-7.490234E+0	8.069824E+0	3.681564E-2	3.230476E-2	1.374512E-1	-3.539429E-1
1.222500E+9	-6.387329E-2	-8.957520E-1	-5.884766E+0	8.014160E+0	4.349709E-2	3.091621E-2	7.717896E-2	-3.567810E-1
1.447000E+9	-2.120972E-1	-8.691406E-1	-4.588623E+0	7.733887E+0	4.897118E-2	2.889061E-2	2.029419E-2	-3.475952E-1
1.671500E+9	-3.291931E-1	-8.296509E-1	-3.566406E+0	7.347900E+0	5.340958E-2	2.661514E-2	-2.139282E-2	-3.369446E-1
1.896000E+9	-4.247437E-1	-7.814331E-1	-2.781494E+0	6.916016E+0	5.750275E-2	2.401543E-2	-5.668640E-2	-3.206940E-1
2.120500E+9	-4.984131E-1	-7.337646E-1	-2.157471E+0	6.514893E+0	6.041718E-2	2.115059E-2	-8.172607E-2	-3.085937E-1
2.345000E+9	-5.585937E-1	-6.846008E-1	-1.642334E+0	6.117187E+0	6.245804E-2	1.816559E-2	-1.047974E-1	-2.932434E-1
2.569500E+9	-6.036377E-1	-6.395569E-1	-1.231445E+0	5.737793E+0	6.400681E-2	1.559830E-2	-1.198730E-1	-2.820740E-1
2.794000E+9	-6.435242E-1	-6.014099E-1	-9.086914E-1	5.402100E+0	6.526566E-2	1.305008E-2	-1.350250E-1	-2.727356E-1
3.018500E+9	-6.750183E-1	-5.636597E-1	-6.306152E-1	5.080322E+0	6.618118E-2	1.033020E-2	-1.461029E-1	-2.618561E-1
3.243000E+9	-7.011108E-1	-5.285645E-1	-3.957520E-1	4.793213E+0	6.687927E-2	8.388519E-3	-1.564484E-1	-2.558441E-1
3.467500E+9	-7.250671E-1	-4.985046E-1	-2.016602E-1	4.527344E+0	6.711578E-2	6.572723E-3	-1.667557E-1	-2.484207E-1
3.692000E+9	-7.449951E-1	-4.689331E-1	-3.735352E-2	4.278076E+0	6.785965E-2	4.798889E-3	-1.733093E-1	-2.439804E-1
3.916500E+9	-7.609558E-1	-4.397583E-1	1.025391E-1	4.048096E+0	6.821442E-2	2.723694E-3	-1.841049E-1	-2.398300E-1
4.141000E+9	-7.752380E-1	-4.146423E-1	2.215576E-1	3.837524E+0	6.838989E-2	1.319885E-3	-1.902618E-1	-2.338409E-1
4.365500E+9	-7.861328E-1	-3.910217E-1	3.248291E-1	3.641479E+0	6.849289E-2	-6.523132E-4	-1.970978E-1	-2.312927E-1
4.590000E+9	-7.973022E-1	-3.690491E-1	4.133301E-1	3.457886E+0	6.894302E-2	-2.136230E-3	-2.041855E-1	-2.269592E-1
4.814500E+9	-8.069153E-1	-3.482666E-1	4.843750E-1	3.289062E+0	6.900024E-2	-4.039764E-3	-2.084656E-1	-2.232361E-1
5.039000E+9	-8.138733E-1	-3.288574E-1	5.511475E-1	3.133301E+0	6.887054E-2	-5.912781E-3	-2.154083E-1	-2.219925E-1
5.263500E+9	-8.216248E-1	-3.099670E-1	6.092529E-1	2.987793E+0	6.855011E-2	-7.152557E-3	-2.209702E-1	-2.181320E-1
5.488000E+9	-8.271179E-1	-2.938232E-1	6.564941E-1	2.851562E+0	6.893539E-2	-8.361816E-3	-2.260590E-1	-2.166595E-1
5.712500E+9	-8.328552E-1	-2.781372E-1	7.003174E-1	2.720581E+0	6.885910E-2	-9.445190E-3	-2.304687E-1	-2.143250E-1
5.937000E+9	-8.374939E-1	-2.614136E-1	7.371826E-1	2.601562E+0	6.875610E-2	-1.140594E-2	-2.359619E-1	-2.133255E-1
6.161500E+9	-8.421631E-1	-2.475586E-1	7.720947E-1	2.492554E+0	6.868362E-2	-1.293564E-2	-2.404404E-1	-2.100220E-1
6.386000E+9	-8.466797E-1	-2.332153E-1	8.027344E-1	2.385010E+0	6.843567E-2	-1.395035E-2	-2.428741E-1	-2.100449E-1
6.610500E+9	-8.489075E-1	-2.206726E-1	8.304443E-1	2.283936E+0	6.793213E-2	-1.547241E-2	-2.503967E-1	-2.104492E-1
6.835000E+9	-8.524780E-1	-2.082825E-1	8.522949E-1	2.186401E+0	6.769180E-2	-1.688766E-2	-2.546692E-1	-2.061615E-1
7.059500E+9	-8.554077E-1	-1.974182E-1	8.674316E-1	2.097412E+0	6.768036E-2	-1.795578E-2	-2.543182E-1	-2.087402E-1
7.284000E+9	-8.568115E-1	-1.864929E-1	8.846436E-1	2.010742E+0	6.644440E-2	-1.890564E-2	-2.635651E-1	-2.069855E-1
7.508500E+9	-8.593750E-1	-1.740723E-1	8.988037E-1	1.927673E+0	6.650925E-2	-2.028275E-2	-2.632751E-1	-2.050018E-1
7.733000E+9	-8.601685E-1	-1.630554E-1	9.106445E-1	1.853455E+0	6.575394E-2	-2.122879E-2	-2.716217E-1	-2.072906E-1
7.957500E+9	-8.622437E-1	-1.530457E-1	9.243774E-1	1.780640E+0	6.536865E-2	-2.213669E-2	-2.752533E-1	-2.055054E-1
8.182000E+9	-8.641052E-1	-1.431580E-1	9.354858E-1	1.710937E+0	6.521225E-2	-2.299500E-2	-2.808380E-1	-2.068939E-1
8.406500E+9	-8.648682E-1	-1.346436E-1	9.423828E-1	1.640808E+0	6.448364E-2	-2.422333E-2	-2.850952E-1	-2.028351E-1
8.631000E+9	-8.669434E-1	-1.245117E-1	9.511719E-1	1.575012E+0	6.425095E-2	-2.556229E-2	-2.891846E-1	-2.039948E-1
8.855500E+9	-8.664551E-1	-1.151733E-1	9.545288E-1	1.512329E+0	6.276321E-2	-2.720642E-2	-2.950287E-1	-2.023468E-1
9.080001E+9	-8.687134E-1	-1.082764E-1	9.591064E-1	1.453979E+0	6.285095E-2	-2.776337E-2	-2.978363E-1	-2.009430E-1
9.304500E+9	-8.686829E-1	-9.799194E-2	9.607544E-1	1.397400E+0	6.299591E-2	-2.974319E-2	-3.031921E-1	-2.014618E-1
9.529000E+9	-8.695374E-1	-9.158325E-2	9.626465E-1	1.342285E+0	6.155396E-2	-3.005409E-2	-3.088074E-1	-1.987762E-1
9.753500E+9	-8.697205E-1	-8.325195E-2	9.630127E-1	1.288513E+0	6.113434E-2	-3.141975E-2	-3.115387E-1	-1.975555E-1
9.978000E+9	-8.698120E-1	-7.534790E-2	9.619751E-1	1.239746E+0	6.033516E-2	-3.182983E-2	-3.162689E-1	-1.969147E-1
1.020250E+10	-8.711853E-1	-6.845093E-2	9.623413E-1	1.191528E+0	5.998993E-2	-3.326797E-2	-3.215027E-1	-1.950531E-1
1.042700E+10	-8.713074E-1	-6.112671E-2	9.611816E-1	1.145142E+0	5.872154E-2	-3.356552E-2	-3.240051E-1	-1.950531E-1
1.065150E+10	-8.707581E-1	-5.438232E-2	9.598999E-1	1.100891E+0	5.807114E-2	-3.463364E-2	-3.285370E-1	-1.949768E-1
1.087600E+10	-8.717651E-1	-4.791260E-2	9.572144E-1	1.057800E+0	5.713654E-2	-3.567696E-2	-3.338165E-1	-1.934967E-1
1.110050E+10	-8.722839E-1	-4.013062E-2	9.556274E-1	1.015686E+0	5.687904E-2	-3.628349E-2	-3.383789E-1	-1.916809E-1
1.132500E+10	-8.712769E-1	-3.344727E-2	9.524841E-1	9.756775E-1	5.604362E-2	-3.641891E-2	-3.419037E-1	-1.926727E-1
1.154950E+10	-8.714905E-1	-2.728271E-2	9.487000E-1	9.359741E-1	5.472946E-2	-3.758812E-2	-3.491974E-1	-1.891479E-1
1.177400E+10	-8.702087E-1	-2.020264E-2	9.437866E-1	9.002686E-1	5.444145E-2	-3.868484E-2	-3.517303E-1	-1.868591E-1
1.199850E+10	-8.707581E-1	-1.510620E-2	9.400635E-1	8.646240E-1	5.402565E-2	-3.925133E-2	-3.544769E-1	-1.869507E-1
1.222300E+10	-8.703918E-1	-8.758545E-3	9.331970E-1	8.282471E-1	5.315399E-2	-3.993416E-2	-3.602142E-1	-1.862183E-1
1.244750E+10	-8.698120E-1	-3.845215E-3	9.271545E-1	7.942810E-1	5.190277E-2	-4.001808E-2	-3.651581E-1	-1.831665E-1
1.267200E+10	-8.707275E-1	2.624512E-3	9.213867E-1	7.627563E-1	5.116463E-2	-4.057693E-2	-3.683624E-1	-1.831665E-1
1.289650E+10	-8.689270E-1	7.537842E-3	9.143982E-1	7.310791E-1	5.034447E-2	-4.137230E-2	-3.755798E-1	-1.827850E-1
1.312100E+10	-8.688354E-1	1.327515E-2	9.087830E-1	7.016907E-1	4.876328E-2	-4.175949E-2	-3.791962E-1	-1.771698E-1
1.334550E+10	-8.694153E-1	1.913452E-2	9.018250E-1	6.726379E-1	4.835701E-2	-4.352760E-2	-3.827209E-1	-1.780396E-1
1.357000E+10	-8.668213E-1	2.301025E-2	8.953247E-1	6.429443E-1	4.783058E-2	-4.300880E-2	-3.871918E-1	-1.775360E-1
1.379450E+10	-8.664551E-1	2.911377E-2	8.881531E-1	6.161499E-1	4.727936E-2	-4.390717E-2	-3.946075E-1	-1.720123E-1
1.401900E+10	-8.661499E-1	3.445435E-2	8.814392E-1	5.944824E-1	4.603195E-2	-4.404068E-2	-3.948822E-1	-1.735840E-1
1.424350E+10	-8.653259E-1	3.945923E-2	8.737793E-1	5.662537E-1	4.555511E-2	-4.569054E-2	-4.014435E-1	-1.699524E-1
1.446800E+10	-8.653259E-1	4.519653E-2	8.669739E-1	5.417480E-1	4.450798E-2	-4.590797E-2	-4.043427E-1	-1.653290E-1
1.469250E+10	-8.644104E-1	4.956055E-2	8.598633E-1	5.169373E-1	4.337120E-2	-4.691887E-2	-4.052582E-1	-1.634064E-1
1.491700E+10	-8.642273E-1	5.502319E-2	8.516541E-1	4.934998E-1	4.262733E-2	-4.656601E-2	-4.121857E-1	-1.639099E-1
1.514150E+10	-8.625793E-1	5.944824E-2	8.419800E-1	4.715881E-1	4.120255E-2	-4.679680E-2	-4.159241E-1	-1.584625E-1
1.536600E+10	-8.619385E-1	6.393433E-2	8.351135E-1	4.481201E-1	4.083252E-2	-4.780388E-2	-4.177399E-1	-1.560059E-1
1.559050E+10	-8.600769E-1	6.854248E-2	8.269043E-1	4.271851E-1	3.899956E-2	-4.768181E-2	-4.237671E-1	-1.560669E-1
1.581500E+10	-8.591919E-1	7.440186E-2	8.176270E-1	4.071350E-1	3.903008E-2	-4.864120E-2	-4.294281E-1	-1.522675E-1
1.603950E+10	-8.597107E-1	7.760620E-2	8.107300E-1	3.878784E-1	3.809547E-2	-4.956055E-2	-4.300995E-1	-1.513824E-1
1.626400E+10	-8.577271E-1	8.236694E-2	8.030701E-1	3.697510E-1	3.742981E-2	-4.946518E-2	-4.371948E-1	-1.484528E-1
1.648850E+10	-8.582153E-1	8.615112E-2	7.943420E-1	3.506470E-1	3.690720E-2	-4.936218E-2	-4.398804E-1	-1.430969E-1
1.671300E+10	-8.566895E-1	9.155273E-2	7.853394E-1	3.310242E-1	3.454590E-2	-5.089760E-2	-4.436035E-1	-1.405029E-1
1.693750E+10	-8.559570E-1	9.536743E-2	7.765198E-1	3.162231E-1	3.370476E-2	-5.105972E-2	-4.491882E-1	-1.389008E-1
1.716200E+10	-8.548279E-1	1.007080E-1	7.703857E-1	2.990723E-1	3.362274E-2	-5.162811E-2	-4.514771E-1	-1.336823E-1
1.738650E+10	-8.530579E-1	1.037292E-1	7.607117E-1	2.853394E-1	3.200912E-2	-5.210876E-2	-4.534760E-1	-1.311646E-1
1.761100E+10	-8.526611E-1	1.079102E-1	7.525635E-1	2.685852E-1	3.057671E-2	-5.263138E-2	-4.602966E-1	-1.308289E-1
1.783550E+10	-8.520203E-1	1.123962E-1	7.437134E-1	2.521973E-1	2.987289E-2	-5.031776E-2	-4.632111E-1	-1.229858E-1
1.806000E+10	-8.515625E-1	1.158142E-1	7.374573E-1	2.379456E-1	2.890968E-2	-5.234528E-2	-4.649811E-1	-1.219482E-1
1.828450E+10	-8.491211E-1	1.206360E-1	7.299194E-1	2.243652E-1	2.837181E-2	-5.211830E-2	-4.684753E-1	-1.195984E-1
1.850900E+10	-8.485107E-1	1.252747E-1	7.203979E-1	2.097168E-1	2.683830E-2	-5.222511E-2	-4.741211E-1	-1.143646E-1
1.873350E+10	-8.472900E-1	1.293335E-1	7.114868E-1	1.962891E-1	2.582741E-2	-5.261421E-2	-4.734344E-1	-1.094055E-1
1.895800E+10	-8.464050E-1	1.323547E-1	7.042542E-1	1.827087E-1	2.519417E-2	-5.270958E-2	-4.781799E-1	-1.094208E-1
1.918250E+10	-8.445129E-1	1.363525E-1	6.957092E-1	1.691589E-1	2.311325E-2	-5.300140E-2	-4.831848E-1	-1.053925E-1
1.940700E+10	-8.425903E-1	1.400452E-1	6.869507E-1	1.589661E-1	2.227020E-2	-5.313492E-2	-4.830933E-1	-9.521484E-2
1.963150E+10	-8.424377E-1	1.437073E-1	6.784058E-1	1.470337E-1	2.128029E-2	-5.209541E-2	-4.865265E-1	-9.683228E-2
1.985600E+10	-8.419495E-1	1.463928E-1	6.686096E-1	1.365967E-1	2.132225E-2	-5.265617E-2	-4.912415E-1	-9.431458E-2
2.008050E+10	-8.403931E-1	1.497192E-1	6.613159E-1	1.236572E-1	1.955414E-2	-5.403709E-2	-4.945068E-1	-8.599854E-2
2.030500E+10	-8.407898E-1	1.532593E-1	6.551208E-1	1.142578E-1	2.006531E-2	-5.296707E-2	-4.934082E-1	-8.396912E-2
2.052950E+10	-8.380737E-1	1.572571E-1	6.467896E-1	1.033325E-1	1.536751E-2	-5.462646E-2	-4.998627E-1	-8.114624E-2
2.075400E+10	-8.392334E-1	1.596375E-1	6.403809E-1	9.466553E-2	1.656723E-2	-5.377197E-2	-5.020447E-1	-7.623291E-2
2.097850E+10	-8.359070E-1	1.622620E-1	6.307068E-1	8.364868E-2	1.593018E-2	-5.240631E-2	-5.022583E-1	-7.098389E-2
2.120300E+10	-8.341675E-1	1.669922E-1	6.220398E-1	7.470703E-2	1.292038E-2	-5.179024E-2	-5.060425E-1	-7.077026E-2
2.142750E+10	-8.356628E-1	1.716919E-1	6.146851E-1	6.527710E-2	1.279449E-2	-5.360031E-2	-5.116882E-1	-6.500244E-2
2.165200E+10	-8.324280E-1	1.746521E-1	6.087036E-1	5.587769E-2	1.328278E-2	-5.109596E-2	-5.120239E-1	-6.005859E-2
2.187650E+10	-8.319397E-1	1.781006E-1	5.989380E-1	4.940796E-2	1.142120E-2	-5.190277E-2	-5.156250E-1	-5.703735E-2
2.210100E+10	-8.299255E-1	1.820679E-1	5.914917E-1	3.924561E-2	1.007652E-2	-5.276108E-2	-5.200195E-1	-4.809570E-2
2.232550E+10	-8.278809E-1	1.852417E-1	5.863342E-1	3.204346E-2	8.455276E-3	-5.089951E-2	-5.191040E-1	-4.434204E-2
2.255000E+10	-8.287659E-1	1.878967E-1	5.771179E-1	2.416992E-2	8.424759E-3	-5.283737E-2	-5.210571E-1	-4.336548E-2
2.277450E+10	-8.279419E-1	1.916199E-1	5.720825E-1	1.663208E-2	6.963730E-3	-5.239105E-2	-5.229187E-1	-3.530884E-2
2.299900E+10	-8.257141E-1	1.957397E-1	5.632629E-1	8.361816E-3	6.286621E-3	-5.134773E-2	-5.252686E-1	-3.244019E-2
2.322350E+10	-8.238831E-1	1.987915E-1	5.578613E-1	1.159668E-3	5.516052E-3	-5.215073E-2	-5.301514E-1	-2.987671E-2
2.344800E+10	-8.221436E-1	2.001038E-1	5.496826E-1	-3.997803E-3	3.654480E-3	-5.134392E-2	-5.310364E-1	-2.322388E-2
2.367250E+10	-8.213196E-1	2.056274E-1	5.402832E-1	-1.229858E-2	3.286362E-3	-5.062866E-2	-5.301208E-1	-1.770020E-2
2.389700E+10	-8.191833E-1	2.081909E-1	5.356750E-1	-1.864624E-2	1.657486E-3	-5.179596E-2	-5.338440E-1	-1.574707E-2
2.412150E+10	-8.198853E-1	2.120361E-1	5.260925E-1	-2.578735E-2	5.588531E-4	-4.965210E-2	-5.334167E-1	-5.157471E-3
2.434600E+10	-8.177185E-1	2.152710E-1	5.192566E-1	-2.941895E-2	-1.615524E-3	-5.074501E-2	-5.329590E-1	-4.577637E-3
2.457050E+10	-8.143921E-1	2.177124E-1	5.137634E-1	-3.414917E-2	-7.839203E-4	-5.084801E-2	-5.380249E-1	-1.129150E-3
2.479500E+10	-8.145447E-1	2.222290E-1	5.056152E-1	-4.141235E-2	-2.990723E-3	-5.016327E-2	-5.376587E-1	6.347656E-3
2.501950E+10	-8.113403E-1	2.239075E-1	4.987946E-1	-4.568481E-2	-4.011154E-3	-4.728127E-2	-5.332336E-1	9.216309E-3
2.524400E+10	-8.104248E-1	2.263184E-1	4.932404E-1	-5.314636E-2	-6.505966E-3	-4.762650E-2	-5.393066E-1	1.336670E-2
2.546850E+10	-8.089294E-1	2.319336E-1	4.848785E-1	-5.436707E-2	-6.050110E-3	-4.635429E-2	-5.382690E-1	1.983643E-2
2.569300E+10	-8.072510E-1	2.332764E-1	4.808655E-1	-5.860901E-2	-6.784439E-3	-4.520226E-2	-5.396118E-1	2.209473E-2
2.591750E+10	-8.057556E-1	2.372742E-1	4.751434E-1	-6.517029E-2	-7.173538E-3	-4.652023E-2	-5.405884E-1	2.380371E-2
2.614200E+10	-8.039856E-1	2.395325E-1	4.670258E-1	-6.701660E-2	-9.059906E-3	-4.412460E-2	-5.467529E-1	3.320312E-2
2.636650E+10	-8.027649E-1	2.400818E-1	4.621887E-1	-7.400513E-2	-9.429932E-3	-4.378319E-2	-5.463257E-1	3.994751E-2
2.659100E+10	-7.998047E-1	2.447815E-1	4.550171E-1	-7.731628E-2	-1.053619E-2	-4.461861E-2	-5.432434E-1	4.251099E-2
2.681550E+10	-7.992859E-1	2.463989E-1	4.502258E-1	-8.140564E-2	-1.312065E-2	-4.601097E-2	-5.470886E-1	4.577637E-2
2.704000E+10	-7.980652E-1	2.512817E-1	4.406738E-1	-8.145142E-2	-1.250839E-2	-4.322624E-2	-5.499268E-1	5.664062E-2
2.726450E+10	-7.966919E-1	2.529602E-1	4.388123E-1	-8.773804E-2	-1.434517E-2	-4.455948E-2	-5.438538E-1	5.914307E-2
2.748900E+10	-7.924500E-1	2.555237E-1	4.322510E-1	-9.207153E-2	-1.361847E-2	-4.228973E-2	-5.480652E-1	6.066895E-2
2.771350E+10	-7.910461E-1	2.589111E-1	4.236755E-1	-9.695435E-2	-1.494789E-2	-4.085541E-2	-5.457458E-1	7.260132E-2
2.793800E+10	-7.926331E-1	2.596741E-1	4.221497E-1	-9.901428E-2	-1.651001E-2	-4.247665E-2	-5.488586E-1	7.070923E-2
2.816250E+10	-7.886658E-1	2.630920E-1	4.156799E-1	-1.029968E-1	-1.601219E-2	-3.881645E-2	-5.474243E-1	7.974243E-2
2.838700E+10	-7.868958E-1	2.652283E-1	4.128418E-1	-1.036530E-1	-2.242661E-2	-3.745461E-2	-5.503845E-1	8.303833E-2
2.861150E+10	-7.863770E-1	2.690430E-1	4.054260E-1	-1.075897E-1	-1.922417E-2	-3.592682E-2	-5.486145E-1	8.856201E-2
2.883600E+10	-7.848206E-1	2.720032E-1	4.003754E-1	-1.061859E-1	-1.838303E-2	-3.780937E-2	-5.506592E-1	9.109497E-2
2.906050E+10	-7.837830E-1	2.745972E-1	3.945465E-1	-1.141663E-1	-2.241325E-2	-3.432655E-2	-5.470886E-1	9.799194E-2
2.928500E+10	-7.818909E-1	2.763062E-1	3.888855E-1	-1.167297E-1	-2.111626E-2	-3.552246E-2	-5.486145E-1	1.024780E-1
2.950950E+10	-7.806702E-1	2.802734E-1	3.861084E-1	-1.172333E-1	-2.021503E-2	-2.979851E-2	-5.524597E-1	1.051025E-1
2.973400E+10	-7.800293E-1	2.816772E-1	3.835907E-1	-1.207733E-1	-2.234650E-2	-3.149223E-2	-5.494385E-1	1.100769E-1
2.995850E+10	-7.760010E-1	2.850647E-1	3.775635E-1	-1.217041E-1	-2.068233E-2	-3.081894E-2	-5.505981E-1	1.213989E-1
3.018300E+10	-7.723083E-1	2.869873E-1	3.711700E-1	-1.255798E-1	-2.370834E-2	-2.984238E-2	-5.503845E-1	1.303101E-1
3.040750E+10	-7.687073E-1	2.908630E-1	3.661346E-1	-1.300659E-1	-2.452469E-2	-2.939224E-2	-5.481567E-1	1.261902E-1
3.063200E+10	-7.676086E-1	2.920532E-1	3.633575E-1	-1.324921E-1	-2.482224E-2	-2.767181E-2	-5.476990E-1	1.380920E-1
3.085650E+10	-7.676697E-1	2.923279E-1	3.590851E-1	-1.359100E-1	-2.443600E-2	-3.027725E-2	-5.476074E-1	1.433105E-1
3.108100E+10	-7.691650E-1	2.973022E-1	3.570404E-1	-1.363831E-1	-2.445221E-2	-2.727509E-2	-5.505371E-1	1.502380E-1
3.130550E+10	-7.613525E-1	3.023682E-1	3.496704E-1	-1.351471E-1	-2.554131E-2	-2.130032E-2	-5.460815E-1	1.511841E-1
3.153000E+10	-7.668152E-1	2.994995E-1	3.459167E-1	-1.407166E-1	-2.788830E-2	-2.650261E-2	-5.440979E-1	1.570129E-1
3.175450E+10	-7.667542E-1	3.031006E-1	3.426514E-1	-1.414795E-1	-2.868843E-2	-2.169418E-2	-5.438232E-1	1.693726E-1
3.197900E+10	-7.640686E-1	3.045044E-1	3.403320E-1	-1.416779E-1	-2.694321E-2	-2.045250E-2	-5.355530E-1	1.713867E-1
3.220350E+10	-7.618713E-1	3.098145E-1	3.368073E-1	-1.479492E-1	-2.707577E-2	-2.128315E-2	-5.445862E-1	1.798706E-1
3.242800E+10	-7.599182E-1	3.099670E-1	3.310242E-1	-1.459503E-1	-2.886581E-2	-1.812744E-2	-5.372620E-1	1.809082E-1
3.265250E+10	-7.583313E-1	3.174438E-1	3.266754E-1	-1.506195E-1	-2.910042E-2	-1.851463E-2	-5.374451E-1	1.886292E-1
3.287700E+10	-7.533264E-1	3.187561E-1	3.252106E-1	-1.486206E-1	-2.691841E-2	-1.444817E-2	-5.393066E-1	1.918335E-1
3.310150E+10	-7.550049E-1	3.181458E-1	3.186340E-1	-1.574554E-1	-2.987480E-2	-1.309299E-2	-5.345154E-1	1.985779E-1
3.332600E+10	-7.529602E-1	3.243713E-1	3.151398E-1	-1.568298E-1	-3.407288E-2	-1.648903E-2	-5.317078E-1	1.980286E-1
3.355050E+10	-7.482300E-1	3.253784E-1	3.133850E-1	-1.556854E-1	-3.054905E-2	-1.283646E-2	-5.313110E-1	2.082214E-1
3.377500E+10	-7.454224E-1	3.263550E-1	3.117218E-1	-1.590729E-1	-2.735519E-2	-1.082516E-2	-5.289307E-1	2.116089E-1
3.399950E+10	-7.444458E-1	3.296204E-1	3.027954E-1	-1.635895E-1	-2.775860E-2	-1.120472E-2	-5.345459E-1	2.165222E-1
3.422400E+10	-7.433167E-1	3.308716E-1	3.065033E-1	-1.605225E-1	-3.230286E-2	-1.010513E-2	-5.306702E-1	2.241516E-1
3.444850E+10	-7.445068E-1	3.303833E-1	2.983704E-1	-1.654816E-1	-2.709293E-2	-1.015663E-2	-5.211792E-1	2.262268E-1
3.467300E+10	-7.394714E-1	3.331299E-1	3.052521E-1	-1.683655E-1	-2.899265E-2	-4.422188E-3	-5.280762E-1	2.402649E-1
3.489750E+10	-7.353210E-1	3.344421E-1	2.935181E-1	-1.658020E-1	-2.700424E-2	-5.954742E-3	-5.207520E-1	2.444763E-1
3.512200E+10	-7.367249E-1	3.383789E-1	2.908630E-1	-1.668549E-1	-3.051758E-2	-5.201340E-3	-5.170898E-1	2.452087E-1
3.534650E+10	-7.375183E-1	3.394165E-1	2.886200E-1	-1.699829E-1	-2.800083E-2	-2.918243E-3	-5.153198E-1	2.530518E-1
3.557100E+10	-7.343140E-1	3.395081E-1	2.886658E-1	-1.732025E-1	-3.153038E-2	-3.761292E-3	-5.072937E-1	2.687378E-1
3.579550E+10	-7.314453E-1	3.442688E-1	2.854309E-1	-1.765289E-1	-3.048706E-2	-2.008438E-3	-5.124512E-1	2.652893E-1
3.602000E+10	-7.324219E-1	3.463745E-1	2.779999E-1	-1.751099E-1	-2.970505E-2	2.973557E-3	-5.093079E-1	2.604065E-1
3.624450E+10	-7.289124E-1	3.486328E-1	2.759857E-1	-1.765594E-1	-3.080463E-2	-4.827499E-3	-5.084534E-1	2.741699E-1
3.646900E+10	-7.279053E-1	3.508911E-1	2.733002E-1	-1.809082E-1	-2.660084E-2	3.638268E-3	-5.048218E-1	2.866211E-1
3.669350E+10	-7.258606E-1	3.529358E-1	2.724609E-1	-1.817932E-1	-3.069401E-2	8.304596E-3	-4.998016E-1	2.888184E-1
3.691800E+10	-7.211914E-1	3.543701E-1	2.669373E-1	-1.828613E-1	-2.913284E-2	5.420685E-3	-4.948730E-1	2.945251E-1
3.714250E+10	-7.248230E-1	3.564148E-1	2.646790E-1	-1.845093E-1	-2.621746E-2	9.737015E-4	-4.863434E-1	3.096924E-1
3.736700E+10	-7.204895E-1	3.587341E-1	2.609558E-1	-1.852112E-1	-2.798557E-2	5.194664E-3	-4.844360E-1	3.019714E-1
3.759150E+10	-7.179565E-1	3.573914E-1	2.563782E-1	-1.907043E-1	-2.706623E-2	1.144218E-2	-4.814453E-1	3.118134E-1
3.781600E+10	-7.162476E-1	3.610229E-1	2.565002E-1	-1.877747E-1	-2.906513E-2	6.562233E-3	-4.803162E-1	3.167725E-1
3.804050E+10	-7.152405E-1	3.631287E-1	2.499695E-1	-1.892853E-1	-2.738953E-2	1.183891E-2	-4.768677E-1	3.262024E-1
3.826500E+10	-7.176819E-1	3.697205E-1	2.520447E-1	-1.932678E-1	-3.098011E-2	1.310635E-2	-4.682007E-1	3.352051E-1
3.848950E+10	-7.088013E-1	3.692627E-1	2.477722E-1	-2.022705E-1	-2.715874E-2	1.088810E-2	-4.615021E-1	3.381195E-1
3.871400E+10	-7.150269E-1	3.624573E-1	2.455215E-1	-1.982956E-1	-2.460575E-2	1.677799E-2	-4.561310E-1	3.429565E-1
3.893850E+10	-7.100830E-1	3.706665E-1	2.423401E-1	-1.934967E-1	-2.752399E-2	2.186298E-2	-4.469147E-1	3.533783E-1
3.916300E+10	-7.104187E-1	3.740540E-1	2.382278E-1	-1.987534E-1	-2.050972E-2	1.744938E-2	-4.461975E-1	3.461151E-1
