!Date: 10/28/2005, 12:46 PM

!Vgs = -7.000000E+0
!Vds = 1.750000E+1
!Ig = -1.384800E-4
!Id = 2.836000E-3

# HZ S RI R 50
1.000000E+8	9.895325E-1	-3.717041E-2	-9.403229E-2	4.505157E-3	3.833294E-3	9.309769E-3	9.713745E-1	-7.690430E-3
3.245000E+8	9.782715E-1	-1.030884E-1	-9.452438E-2	3.487015E-2	5.234718E-3	2.801991E-2	9.468079E-1	-8.398437E-2
5.490000E+8	9.645081E-1	-1.668701E-1	-8.856583E-2	6.097412E-2	1.046753E-2	4.668045E-2	9.420471E-1	-1.347656E-1
7.735000E+8	9.475403E-1	-2.296448E-1	-7.908249E-2	8.588028E-2	1.785660E-2	6.344604E-2	9.266968E-1	-1.861267E-1
9.980000E+8	9.279175E-1	-2.877808E-1	-6.713486E-2	1.077881E-1	2.634811E-2	7.882690E-2	9.107971E-1	-2.308655E-1
1.222500E+9	9.038696E-1	-3.456116E-1	-5.391693E-2	1.276855E-1	3.661728E-2	9.304810E-2	8.931885E-1	-2.780457E-1
1.447000E+9	8.768005E-1	-4.003601E-1	-3.956604E-2	1.461105E-1	4.713058E-2	1.058540E-1	8.735657E-1	-3.228149E-1
1.671500E+9	8.468018E-1	-4.521790E-1	-2.340698E-2	1.637192E-1	5.887222E-2	1.181335E-1	8.506470E-1	-3.634949E-1
1.896000E+9	8.144226E-1	-5.002441E-1	-4.196167E-3	1.796951E-1	7.337952E-2	1.303558E-1	8.300781E-1	-4.009705E-1
2.120500E+9	7.806396E-1	-5.458984E-1	1.649475E-2	1.919556E-1	8.904266E-2	1.385880E-1	8.077698E-1	-4.410095E-1
2.345000E+9	7.428894E-1	-5.894775E-1	3.739929E-2	2.020187E-1	1.054306E-1	1.452942E-1	7.814026E-1	-4.786682E-1
2.569500E+9	7.055054E-1	-6.268921E-1	5.777740E-2	2.092209E-1	1.208878E-1	1.497879E-1	7.557373E-1	-5.138245E-1
2.794000E+9	6.668091E-1	-6.634827E-1	7.878876E-2	2.153473E-1	1.362762E-1	1.531525E-1	7.282410E-1	-5.456848E-1
3.018500E+9	6.266479E-1	-6.958313E-1	9.832001E-2	2.186356E-1	1.518326E-1	1.544724E-1	6.979980E-1	-5.783386E-1
3.243000E+9	5.862732E-1	-7.247314E-1	1.193619E-1	2.212067E-1	1.677017E-1	1.550827E-1	6.681213E-1	-6.086121E-1
3.467500E+9	5.462036E-1	-7.520142E-1	1.397400E-1	2.213440E-1	1.822510E-1	1.542358E-1	6.372986E-1	-6.345215E-1
3.692000E+9	5.054932E-1	-7.754822E-1	1.591873E-1	2.202682E-1	1.971054E-1	1.528015E-1	6.056519E-1	-6.608887E-1
3.916500E+9	4.634399E-1	-7.968750E-1	1.782608E-1	2.165833E-1	2.113571E-1	1.488342E-1	5.732422E-1	-6.836853E-1
4.141000E+9	4.239807E-1	-8.155212E-1	1.965179E-1	2.125702E-1	2.252731E-1	1.445465E-1	5.431519E-1	-7.038574E-1
4.365500E+9	3.852234E-1	-8.319092E-1	2.137756E-1	2.069855E-1	2.380981E-1	1.394577E-1	5.115967E-1	-7.251892E-1
4.590000E+9	3.443909E-1	-8.471680E-1	2.308502E-1	2.002106E-1	2.511139E-1	1.332397E-1	4.786377E-1	-7.429504E-1
4.814500E+9	3.055420E-1	-8.584595E-1	2.459564E-1	1.924438E-1	2.627563E-1	1.259613E-1	4.484863E-1	-7.587891E-1
5.039000E+9	2.673645E-1	-8.690796E-1	2.616882E-1	1.835632E-1	2.745667E-1	1.179352E-1	4.159851E-1	-7.760010E-1
5.263500E+9	2.290955E-1	-8.754578E-1	2.754822E-1	1.733856E-1	2.845917E-1	1.095276E-1	3.832092E-1	-7.886353E-1
5.488000E+9	1.935425E-1	-8.822937E-1	2.885895E-1	1.633606E-1	2.938538E-1	1.002045E-1	3.543091E-1	-8.006897E-1
5.712500E+9	1.566162E-1	-8.879700E-1	3.003235E-1	1.516724E-1	3.034668E-1	9.011841E-2	3.224487E-1	-8.128662E-1
5.937000E+9	1.227722E-1	-8.894958E-1	3.106842E-1	1.392517E-1	3.111877E-1	7.942200E-2	2.902527E-1	-8.231201E-1
6.161500E+9	9.051514E-2	-8.927612E-1	3.209229E-1	1.277313E-1	3.176727E-1	6.915283E-2	2.601624E-1	-8.317566E-1
6.386000E+9	5.572510E-2	-8.945007E-1	3.293762E-1	1.151886E-1	3.240051E-1	5.847168E-2	2.302246E-1	-8.399353E-1
6.610500E+9	2.639771E-2	-8.945007E-1	3.367615E-1	1.023712E-1	3.296204E-1	4.750061E-2	1.974792E-1	-8.464661E-1
6.835000E+9	-5.065918E-3	-8.936157E-1	3.435211E-1	9.019470E-2	3.342285E-1	3.717041E-2	1.684875E-1	-8.513184E-1
7.059500E+9	-3.332520E-2	-8.904724E-1	3.491974E-1	7.723999E-2	3.372040E-1	2.713013E-2	1.417542E-1	-8.542480E-1
7.284000E+9	-6.301880E-2	-8.882751E-1	3.550110E-1	6.419373E-2	3.413239E-1	1.530457E-2	1.099854E-1	-8.583374E-1
7.508500E+9	-9.143066E-2	-8.852539E-1	3.585663E-1	5.123901E-2	3.435822E-1	4.379272E-3	8.193970E-2	-8.591919E-1
7.733000E+9	-1.183472E-1	-8.794861E-1	3.621063E-1	3.904724E-2	3.452454E-1	-6.790161E-3	5.468750E-2	-8.616943E-1
7.957500E+9	-1.444092E-1	-8.753052E-1	3.641357E-1	2.671814E-2	3.472290E-1	-1.760864E-2	2.606201E-2	-8.622131E-1
8.182000E+9	-1.685181E-1	-8.701172E-1	3.671875E-1	1.486206E-2	3.481750E-1	-2.732849E-2	5.187988E-4	-8.619995E-1
8.406500E+9	-1.926270E-1	-8.644714E-1	3.676605E-1	2.456665E-3	3.481598E-1	-3.773499E-2	-2.734375E-2	-8.603210E-1
8.631000E+9	-2.172852E-1	-8.586731E-1	3.688354E-1	-1.019287E-2	3.478546E-1	-4.830933E-2	-5.407715E-2	-8.596802E-1
8.855500E+9	-2.393494E-1	-8.511658E-1	3.692017E-1	-2.185059E-2	3.468323E-1	-5.897522E-2	-8.010864E-2	-8.558960E-1
9.080001E+9	-2.614136E-1	-8.457642E-1	3.685608E-1	-3.390503E-2	3.460541E-1	-6.759644E-2	-1.047058E-1	-8.514404E-1
9.304500E+9	-2.834473E-1	-8.378296E-1	3.678131E-1	-4.499817E-2	3.442841E-1	-7.704163E-2	-1.303101E-1	-8.474426E-1
9.529000E+9	-3.028259E-1	-8.311768E-1	3.668213E-1	-5.546570E-2	3.429565E-1	-8.612061E-2	-1.545410E-1	-8.434753E-1
9.753500E+9	-3.244934E-1	-8.240356E-1	3.648529E-1	-6.636047E-2	3.407898E-1	-9.523010E-2	-1.755676E-1	-8.376160E-1
9.978000E+9	-3.416443E-1	-8.142700E-1	3.624420E-1	-7.653809E-2	3.380432E-1	-1.041412E-1	-1.987305E-1	-8.335266E-1
1.020250E+10	-3.613281E-1	-8.074646E-1	3.601227E-1	-8.792114E-2	3.357239E-1	-1.133118E-1	-2.225342E-1	-8.273315E-1
1.042700E+10	-3.794861E-1	-7.983398E-1	3.572693E-1	-9.721375E-2	3.317108E-1	-1.216888E-1	-2.425232E-1	-8.204346E-1
1.065150E+10	-3.963013E-1	-7.897949E-1	3.535309E-1	-1.063538E-1	3.286896E-1	-1.292114E-1	-2.647095E-1	-8.141479E-1
1.087600E+10	-4.125977E-1	-7.814941E-1	3.502960E-1	-1.150970E-1	3.246155E-1	-1.369019E-1	-2.854614E-1	-8.069153E-1
1.110050E+10	-4.296265E-1	-7.724915E-1	3.468018E-1	-1.245270E-1	3.209076E-1	-1.445770E-1	-3.067017E-1	-7.999878E-1
1.132500E+10	-4.463196E-1	-7.638550E-1	3.417969E-1	-1.329956E-1	3.169098E-1	-1.523895E-1	-3.250427E-1	-7.925415E-1
1.154950E+10	-4.611511E-1	-7.549133E-1	3.382111E-1	-1.408539E-1	3.130188E-1	-1.587982E-1	-3.482666E-1	-7.824097E-1
1.177400E+10	-4.753418E-1	-7.458191E-1	3.334351E-1	-1.481018E-1	3.086395E-1	-1.653442E-1	-3.640137E-1	-7.722473E-1
1.199850E+10	-4.910583E-1	-7.376099E-1	3.298340E-1	-1.563110E-1	3.041840E-1	-1.724548E-1	-3.830872E-1	-7.663574E-1
1.222300E+10	-5.036621E-1	-7.281799E-1	3.242645E-1	-1.642303E-1	3.000641E-1	-1.783447E-1	-4.028015E-1	-7.564392E-1
1.244750E+10	-5.180969E-1	-7.191772E-1	3.188629E-1	-1.715393E-1	2.949524E-1	-1.845551E-1	-4.201965E-1	-7.454224E-1
1.267200E+10	-5.319214E-1	-7.101135E-1	3.150787E-1	-1.781158E-1	2.900543E-1	-1.905670E-1	-4.352417E-1	-7.389832E-1
1.289650E+10	-5.429993E-1	-7.015381E-1	3.096313E-1	-1.841736E-1	2.853699E-1	-1.956940E-1	-4.540405E-1	-7.270813E-1
1.312100E+10	-5.558167E-1	-6.921997E-1	3.041077E-1	-1.905518E-1	2.800293E-1	-2.010498E-1	-4.710083E-1	-7.143250E-1
1.334550E+10	-5.678711E-1	-6.828003E-1	2.987213E-1	-1.960144E-1	2.757263E-1	-2.061615E-1	-4.836426E-1	-7.073364E-1
1.357000E+10	-5.816040E-1	-6.728821E-1	2.934265E-1	-2.019958E-1	2.691956E-1	-2.127991E-1	-5.009766E-1	-6.983032E-1
1.379450E+10	-5.888367E-1	-6.651001E-1	2.870483E-1	-2.079773E-1	2.649689E-1	-2.156830E-1	-5.172119E-1	-6.830444E-1
1.401900E+10	-5.997009E-1	-6.566162E-1	2.819977E-1	-2.129669E-1	2.603607E-1	-2.200775E-1	-5.276794E-1	-6.743164E-1
1.424350E+10	-6.123047E-1	-6.464233E-1	2.754669E-1	-2.180023E-1	2.543640E-1	-2.251282E-1	-5.438538E-1	-6.627808E-1
1.446800E+10	-6.208496E-1	-6.385803E-1	2.703857E-1	-2.241058E-1	2.493057E-1	-2.278824E-1	-5.584412E-1	-6.484070E-1
1.469250E+10	-6.311646E-1	-6.293335E-1	2.646942E-1	-2.275391E-1	2.429581E-1	-2.329330E-1	-5.677185E-1	-6.400452E-1
1.491700E+10	-6.410217E-1	-6.205750E-1	2.593689E-1	-2.322845E-1	2.378235E-1	-2.354660E-1	-5.837097E-1	-6.303406E-1
1.514150E+10	-6.500854E-1	-6.105957E-1	2.516022E-1	-2.362671E-1	2.327271E-1	-2.390518E-1	-5.970459E-1	-6.136475E-1
1.536600E+10	-6.596680E-1	-6.006165E-1	2.466202E-1	-2.397766E-1	2.276459E-1	-2.435837E-1	-6.063843E-1	-6.035461E-1
1.559050E+10	-6.679993E-1	-5.922852E-1	2.413330E-1	-2.439423E-1	2.208252E-1	-2.456055E-1	-6.204529E-1	-5.932617E-1
1.581500E+10	-6.773987E-1	-5.840454E-1	2.341843E-1	-2.480011E-1	2.145615E-1	-2.481461E-1	-6.332703E-1	-5.795898E-1
1.603950E+10	-6.856384E-1	-5.761414E-1	2.301941E-1	-2.505035E-1	2.101746E-1	-2.510834E-1	-6.423340E-1	-5.682678E-1
1.626400E+10	-6.937256E-1	-5.654297E-1	2.236023E-1	-2.525635E-1	2.056580E-1	-2.542267E-1	-6.542358E-1	-5.559082E-1
1.648850E+10	-7.025146E-1	-5.567017E-1	2.178497E-1	-2.558899E-1	1.988068E-1	-2.573547E-1	-6.655273E-1	-5.415955E-1
1.671300E+10	-7.098083E-1	-5.475769E-1	2.119141E-1	-2.592773E-1	1.937408E-1	-2.576752E-1	-6.737976E-1	-5.301514E-1
1.693750E+10	-7.167664E-1	-5.404053E-1	2.070160E-1	-2.619019E-1	1.895599E-1	-2.607880E-1	-6.844177E-1	-5.182495E-1
1.716200E+10	-7.234192E-1	-5.303955E-1	1.999817E-1	-2.645111E-1	1.837311E-1	-2.627869E-1	-6.931763E-1	-5.034485E-1
1.738650E+10	-7.315979E-1	-5.226135E-1	1.966553E-1	-2.671661E-1	1.766205E-1	-2.648773E-1	-7.022095E-1	-4.917297E-1
1.761100E+10	-7.381897E-1	-5.137024E-1	1.899719E-1	-2.677460E-1	1.721497E-1	-2.657166E-1	-7.105408E-1	-4.819641E-1
1.783550E+10	-7.462769E-1	-5.041504E-1	1.841583E-1	-2.695770E-1	1.674805E-1	-2.666321E-1	-7.206421E-1	-4.656677E-1
1.806000E+10	-7.536011E-1	-4.966736E-1	1.791687E-1	-2.711334E-1	1.634521E-1	-2.697601E-1	-7.271729E-1	-4.559326E-1
1.828450E+10	-7.568665E-1	-4.861755E-1	1.734467E-1	-2.743530E-1	1.592102E-1	-2.709503E-1	-7.346497E-1	-4.431152E-1
1.850900E+10	-7.638245E-1	-4.801025E-1	1.686554E-1	-2.743835E-1	1.534424E-1	-2.707367E-1	-7.441101E-1	-4.279175E-1
1.873350E+10	-7.695923E-1	-4.699097E-1	1.625366E-1	-2.790833E-1	1.476288E-1	-2.735138E-1	-7.496948E-1	-4.138489E-1
1.895800E+10	-7.768555E-1	-4.613342E-1	1.569977E-1	-2.780914E-1	1.426849E-1	-2.733307E-1	-7.567139E-1	-4.051208E-1
1.918250E+10	-7.810974E-1	-4.534607E-1	1.519928E-1	-2.793579E-1	1.388550E-1	-2.748718E-1	-7.641296E-1	-3.916016E-1
1.940700E+10	-7.864990E-1	-4.448853E-1	1.452332E-1	-2.813721E-1	1.322174E-1	-2.763062E-1	-7.690430E-1	-3.734436E-1
1.963150E+10	-7.935486E-1	-4.366760E-1	1.407928E-1	-2.811432E-1	1.272430E-1	-2.762604E-1	-7.746887E-1	-3.651123E-1
1.985600E+10	-7.980652E-1	-4.281616E-1	1.360016E-1	-2.811432E-1	1.226044E-1	-2.765350E-1	-7.827148E-1	-3.507690E-1
2.008050E+10	-8.032837E-1	-4.213867E-1	1.310577E-1	-2.819672E-1	1.173401E-1	-2.769775E-1	-7.861633E-1	-3.346558E-1
2.030500E+10	-8.082275E-1	-4.119263E-1	1.252136E-1	-2.830048E-1	1.133270E-1	-2.785187E-1	-7.900696E-1	-3.264160E-1
2.052950E+10	-8.119812E-1	-4.049072E-1	1.189117E-1	-2.846832E-1	1.085815E-1	-2.790375E-1	-7.973633E-1	-3.108826E-1
2.075400E+10	-8.179932E-1	-3.982544E-1	1.149445E-1	-2.848969E-1	1.034088E-1	-2.786407E-1	-8.008728E-1	-2.981567E-1
2.097850E+10	-8.211060E-1	-3.884583E-1	1.097870E-1	-2.837677E-1	9.921265E-2	-2.787628E-1	-8.030396E-1	-2.871399E-1
2.120300E+10	-8.264771E-1	-3.797913E-1	1.042328E-1	-2.839813E-1	9.646606E-2	-2.793121E-1	-8.095398E-1	-2.758179E-1
2.142750E+10	-8.318176E-1	-3.726807E-1	9.902954E-2	-2.854004E-1	9.194946E-2	-2.790680E-1	-8.172302E-1	-2.623291E-1
2.165200E+10	-8.347168E-1	-3.648071E-1	9.432983E-2	-2.835541E-1	8.700562E-2	-2.788696E-1	-8.177795E-1	-2.511292E-1
2.187650E+10	-8.389282E-1	-3.548584E-1	9.310913E-2	-2.844543E-1	8.311462E-2	-2.796478E-1	-8.239136E-1	-2.382202E-1
2.210100E+10	-8.454590E-1	-3.455505E-1	8.636475E-2	-2.839813E-1	7.743835E-2	-2.782440E-1	-8.286743E-1	-2.215881E-1
2.232550E+10	-8.478699E-1	-3.384705E-1	8.143616E-2	-2.831879E-1	7.331848E-2	-2.779999E-1	-8.284607E-1	-2.072449E-1
2.255000E+10	-8.522034E-1	-3.293457E-1	7.917786E-2	-2.844238E-1	6.944275E-2	-2.795410E-1	-8.355408E-1	-1.996155E-1
2.277450E+10	-8.543701E-1	-3.205566E-1	7.365417E-2	-2.856140E-1	6.631470E-2	-2.773132E-1	-8.369141E-1	-1.825562E-1
2.299900E+10	-8.585510E-1	-3.123169E-1	6.855774E-2	-2.848053E-1	6.256104E-2	-2.781830E-1	-8.358765E-1	-1.703796E-1
2.322350E+10	-8.607788E-1	-3.052673E-1	6.546021E-2	-2.828674E-1	5.667114E-2	-2.779083E-1	-8.396606E-1	-1.613159E-1
2.344800E+10	-8.615417E-1	-2.972412E-1	6.044006E-2	-2.829895E-1	5.307007E-2	-2.772827E-1	-8.428650E-1	-1.437988E-1
2.367250E+10	-8.658447E-1	-2.865601E-1	5.595398E-2	-2.818756E-1	4.821777E-2	-2.763214E-1	-8.418274E-1	-1.300659E-1
2.389700E+10	-8.654785E-1	-2.810669E-1	5.210876E-2	-2.814941E-1	4.330444E-2	-2.749023E-1	-8.481140E-1	-1.170349E-1
2.412150E+10	-8.701477E-1	-2.760315E-1	4.652405E-2	-2.814026E-1	3.970337E-2	-2.747498E-1	-8.459167E-1	-1.008911E-1
2.434600E+10	-8.723145E-1	-2.688293E-1	4.479980E-2	-2.802582E-1	3.770447E-2	-2.759857E-1	-8.451843E-1	-9.164429E-2
2.457050E+10	-8.745422E-1	-2.632446E-1	3.915405E-2	-2.809448E-1	3.210449E-2	-2.729797E-1	-8.484192E-1	-7.897949E-2
2.479500E+10	-8.804321E-1	-2.536926E-1	3.477478E-2	-2.793274E-1	2.879333E-2	-2.743835E-1	-8.465271E-1	-6.140137E-2
2.501950E+10	-8.806152E-1	-2.461243E-1	3.227234E-2	-2.787323E-1	2.638245E-2	-2.718048E-1	-8.436890E-1	-5.194092E-2
2.524400E+10	-8.849487E-1	-2.404175E-1	2.613831E-2	-2.772827E-1	1.991272E-2	-2.732086E-1	-8.468018E-1	-4.141235E-2
2.546850E+10	-8.862915E-1	-2.304687E-1	2.265930E-2	-2.765045E-1	1.689148E-2	-2.696991E-1	-8.428955E-1	-2.575684E-2
2.569300E+10	-8.868408E-1	-2.249756E-1	1.866150E-2	-2.753754E-1	1.460266E-2	-2.678070E-1	-8.427734E-1	-1.907349E-2
2.591750E+10	-8.940735E-1	-2.164001E-1	1.725769E-2	-2.742004E-1	1.058960E-2	-2.678986E-1	-8.442078E-1	-6.134033E-3
2.614200E+10	-8.928528E-1	-2.090149E-1	1.411438E-2	-2.730865E-1	7.568359E-3	-2.667236E-1	-8.442078E-1	9.338379E-3
2.636650E+10	-8.971252E-1	-2.029114E-1	9.506226E-3	-2.721710E-1	4.287720E-3	-2.667542E-1	-8.444214E-1	2.322388E-2
2.659100E+10	-8.980408E-1	-1.940613E-1	6.683350E-3	-2.710114E-1	2.288818E-3	-2.660522E-1	-8.380127E-1	3.463745E-2
2.681550E+10	-8.993225E-1	-1.899109E-1	8.239746E-4	-2.713318E-1	-3.448486E-3	-2.656555E-1	-8.401184E-1	4.516602E-2
2.704000E+10	-9.020691E-1	-1.819153E-1	-9.155273E-4	-2.701569E-1	-6.271362E-3	-2.640991E-1	-8.414917E-1	6.332397E-2
2.726450E+10	-9.022522E-1	-1.733704E-1	-3.494263E-3	-2.686310E-1	-9.170532E-3	-2.635498E-1	-8.309937E-1	7.388306E-2
2.748900E+10	-9.044800E-1	-1.691284E-1	-8.941650E-3	-2.688904E-1	-1.307678E-2	-2.628174E-1	-8.332825E-1	8.200073E-2
2.771350E+10	-9.064941E-1	-1.589050E-1	-1.098633E-2	-2.631226E-1	-1.557922E-2	-2.626953E-1	-8.321533E-1	9.442139E-2
2.793800E+10	-9.087219E-1	-1.515503E-1	-1.924133E-2	-2.641907E-1	-2.003479E-2	-2.603912E-1	-8.256836E-1	1.069946E-1
2.816250E+10	-9.095764E-1	-1.461182E-1	-1.882935E-2	-2.634125E-1	-2.156067E-2	-2.584381E-1	-8.240356E-1	1.178589E-1
2.838700E+10	-9.086914E-1	-1.377258E-1	-2.207947E-2	-2.618561E-1	-2.670288E-2	-2.532959E-1	-8.211060E-1	1.316528E-1
2.861150E+10	-9.143372E-1	-1.309509E-1	-2.714539E-2	-2.623749E-1	-2.700806E-2	-2.591705E-1	-8.151550E-1	1.391907E-1
2.883600E+10	-9.144592E-1	-1.239624E-1	-3.169250E-2	-2.601471E-1	-3.121948E-2	-2.575684E-1	-8.134766E-1	1.476135E-1
2.906050E+10	-9.156189E-1	-1.165466E-1	-3.225708E-2	-2.586365E-1	-3.405762E-2	-2.526398E-1	-8.095703E-1	1.638184E-1
2.928500E+10	-9.177246E-1	-1.077576E-1	-3.709412E-2	-2.581329E-1	-3.474426E-2	-2.505188E-1	-8.060303E-1	1.709900E-1
2.950950E+10	-9.170837E-1	-1.037598E-1	-3.849792E-2	-2.557068E-1	-4.161072E-2	-2.516479E-1	-8.070679E-1	1.846619E-1
2.973400E+10	-9.201965E-1	-9.661865E-2	-4.136658E-2	-2.546539E-1	-4.193878E-2	-2.485962E-1	-8.034363E-1	1.966553E-1
2.995850E+10	-9.183655E-1	-8.804321E-2	-4.086304E-2	-2.551727E-1	-4.592896E-2	-2.468567E-1	-7.996826E-1	2.059937E-1
3.018300E+10	-9.190674E-1	-8.114624E-2	-4.579163E-2	-2.525177E-1	-4.728699E-2	-2.433624E-1	-7.911377E-1	2.225342E-1
3.040750E+10	-9.226990E-1	-7.693481E-2	-4.825592E-2	-2.498093E-1	-5.132294E-2	-2.468033E-1	-7.886963E-1	2.317810E-1
3.063200E+10	-9.173889E-1	-6.799316E-2	-5.148315E-2	-2.500763E-1	-5.584717E-2	-2.427368E-1	-7.831726E-1	2.456665E-1
3.085650E+10	-9.229736E-1	-6.002808E-2	-5.633545E-2	-2.487640E-1	-5.519104E-2	-2.421875E-1	-7.769775E-1	2.570801E-1
3.108100E+10	-9.226685E-1	-5.310059E-2	-5.520630E-2	-2.458725E-1	-6.147003E-2	-2.408142E-1	-7.718201E-1	2.697449E-1
3.130550E+10	-9.212952E-1	-4.919434E-2	-6.610107E-2	-2.449036E-1	-6.507111E-2	-2.391129E-1	-7.638855E-1	2.799683E-1
3.153000E+10	-9.254456E-1	-4.022217E-2	-6.517792E-2	-2.438278E-1	-6.467438E-2	-2.374191E-1	-7.632446E-1	2.899475E-1
3.175450E+10	-9.172363E-1	-3.131104E-2	-6.695557E-2	-2.373505E-1	-6.719208E-2	-2.398071E-1	-7.581482E-1	3.029785E-1
3.197900E+10	-9.227295E-1	-2.825928E-2	-6.925964E-2	-2.435226E-1	-7.263947E-2	-2.328033E-1	-7.466431E-1	3.117065E-1
3.220350E+10	-9.273376E-1	-2.206421E-2	-7.293701E-2	-2.408295E-1	-7.853699E-2	-2.321320E-1	-7.359009E-1	3.195496E-1
3.242800E+10	-9.272461E-1	-1.641846E-2	-7.618713E-2	-2.385025E-1	-7.812500E-2	-2.340317E-1	-7.313843E-1	3.343811E-1
3.265250E+10	-9.281921E-1	-6.469727E-3	-8.273315E-2	-2.359848E-1	-7.809448E-2	-2.289810E-1	-7.215576E-1	3.409729E-1
3.287700E+10	-9.284668E-1	-4.730225E-3	-8.202362E-2	-2.331619E-1	-8.103943E-2	-2.278366E-1	-7.200317E-1	3.483887E-1
3.310150E+10	-9.300232E-1	7.629395E-3	-8.713531E-2	-2.323074E-1	-8.597565E-2	-2.237396E-1	-7.088928E-1	3.597717E-1
3.332600E+10	-9.262390E-1	1.403809E-2	-8.068085E-2	-2.281265E-1	-8.567047E-2	-2.238007E-1	-7.014160E-1	3.615723E-1
3.355050E+10	-9.257812E-1	1.889038E-2	-8.709717E-2	-2.257843E-1	-8.418274E-2	-2.239380E-1	-6.986694E-1	3.783264E-1
3.377500E+10	-9.254150E-1	2.734375E-2	-8.966064E-2	-2.251205E-1	-9.019470E-2	-2.223587E-1	-6.887512E-1	3.810425E-1
3.399950E+10	-9.271545E-1	3.140259E-2	-9.220123E-2	-2.223816E-1	-9.081268E-2	-2.183990E-1	-6.859131E-1	3.864441E-1
3.422400E+10	-9.286499E-1	4.193115E-2	-9.498596E-2	-2.215271E-1	-9.237671E-2	-2.202682E-1	-6.764832E-1	4.084778E-1
3.444850E+10	-9.264526E-1	4.830933E-2	-9.628296E-2	-2.215652E-1	-9.902954E-2	-2.182770E-1	-6.643372E-1	4.143372E-1
3.467300E+10	-9.247437E-1	5.349731E-2	-9.787750E-2	-2.202225E-1	-9.983063E-2	-2.171707E-1	-6.665955E-1	4.219666E-1
3.489750E+10	-9.274597E-1	5.776978E-2	-1.036377E-1	-2.211685E-1	-1.030960E-1	-2.165833E-1	-6.542664E-1	4.363708E-1
3.512200E+10	-9.244995E-1	6.356812E-2	-1.049347E-1	-2.195740E-1	-1.039124E-1	-2.137070E-1	-6.408386E-1	4.427185E-1
3.534650E+10	-9.273987E-1	7.342529E-2	-1.054840E-1	-2.187424E-1	-1.027679E-1	-2.137909E-1	-6.347351E-1	4.499207E-1
3.557100E+10	-9.231567E-1	8.123779E-2	-1.052170E-1	-2.134552E-1	-1.122360E-1	-2.159882E-1	-6.275635E-1	4.668274E-1
3.579550E+10	-9.265442E-1	8.145142E-2	-1.103363E-1	-2.129364E-1	-1.113510E-1	-2.128906E-1	-6.077576E-1	4.740601E-1
3.602000E+10	-9.284058E-1	8.859253E-2	-1.147842E-1	-2.169113E-1	-1.162033E-1	-2.057724E-1	-6.015320E-1	4.775085E-1
3.624450E+10	-9.247437E-1	9.536743E-2	-1.171799E-1	-2.076874E-1	-1.156387E-1	-2.107010E-1	-5.940247E-1	4.799500E-1
3.646900E+10	-9.227295E-1	1.064148E-1	-1.211090E-1	-2.113113E-1	-1.189499E-1	-2.025528E-1	-5.811157E-1	4.970093E-1
3.669350E+10	-9.216919E-1	1.099548E-1	-1.254959E-1	-2.056122E-1	-1.233139E-1	-2.084045E-1	-5.765686E-1	4.970703E-1
3.691800E+10	-9.200745E-1	1.164856E-1	-1.285553E-1	-2.061157E-1	-1.247025E-1	-2.052307E-1	-5.634155E-1	5.138550E-1
3.714250E+10	-9.171448E-1	1.219177E-1	-1.279144E-1	-2.056961E-1	-1.230621E-1	-1.979446E-1	-5.499573E-1	5.191040E-1
3.736700E+10	-9.143372E-1	1.287537E-1	-1.297913E-1	-2.037201E-1	-1.305771E-1	-1.957169E-1	-5.352783E-1	5.216370E-1
3.759150E+10	-9.125366E-1	1.354980E-1	-1.318970E-1	-2.001724E-1	-1.342697E-1	-1.981583E-1	-5.282593E-1	5.304871E-1
3.781600E+10	-9.146118E-1	1.382446E-1	-1.358795E-1	-1.997070E-1	-1.314850E-1	-1.931152E-1	-5.164185E-1	5.382690E-1
3.804050E+10	-9.172668E-1	1.427002E-1	-1.382217E-1	-1.947632E-1	-1.411438E-1	-1.911163E-1	-5.046387E-1	5.502625E-1
3.826500E+10	-9.176636E-1	1.567688E-1	-1.393051E-1	-1.973343E-1	-1.391144E-1	-1.982956E-1	-4.873047E-1	5.536194E-1
3.848950E+10	-9.070740E-1	1.584167E-1	-1.418533E-1	-1.908035E-1	-1.421661E-1	-1.872864E-1	-4.764099E-1	5.541992E-1
3.871400E+10	-9.131775E-1	1.634216E-1	-1.393204E-1	-1.944122E-1	-1.450424E-1	-1.869278E-1	-4.601746E-1	5.606079E-1
3.893850E+10	-9.096069E-1	1.742554E-1	-1.490097E-1	-1.844406E-1	-1.428146E-1	-1.862869E-1	-4.527283E-1	5.635071E-1
