!Date: 10/28/2005, 12:46 PM

!Vgs = 0.000000E+0
!Vds = 1.500000E+1
!Ig = -1.878200E-5
!Id = 8.732300E-1

# HZ S RI R 50
1.000000E+8	9.621887E-1	-1.675110E-1	-1.172510E+1	-6.445312E-2	8.301735E-4	8.239746E-3	5.577393E-1	-4.943848E-3
3.245000E+8	8.056946E-1	-4.985046E-1	-1.089795E+1	3.653809E+0	1.042366E-2	2.536869E-2	3.189850E-1	-2.261200E-1
5.490000E+8	5.801697E-1	-7.261047E-1	-9.237793E+0	5.307129E+0	2.265549E-2	3.598595E-2	2.645264E-1	-2.902985E-1
7.735000E+8	3.489685E-1	-8.453674E-1	-7.475098E+0	6.068848E+0	3.482819E-2	4.082298E-2	1.534271E-1	-3.552094E-1
9.980000E+8	1.395874E-1	-8.842773E-1	-5.916504E+0	6.311035E+0	4.557419E-2	4.132843E-2	6.506348E-2	-3.485718E-1
1.222500E+9	-3.927612E-2	-8.828125E-1	-4.653564E+0	6.275146E+0	5.437660E-2	3.948975E-2	6.469727E-3	-3.532867E-1
1.447000E+9	-1.858215E-1	-8.580933E-1	-3.636230E+0	6.058594E+0	6.155968E-2	3.760910E-2	-5.329895E-2	-3.413239E-1
1.671500E+9	-3.018799E-1	-8.195496E-1	-2.837891E+0	5.764404E+0	6.747437E-2	3.451538E-2	-9.324646E-2	-3.290558E-1
1.896000E+9	-3.963928E-1	-7.735596E-1	-2.218994E+0	5.437988E+0	7.251358E-2	3.129196E-2	-1.286774E-1	-3.117371E-1
2.120500E+9	-4.690857E-1	-7.271729E-1	-1.724365E+0	5.128662E+0	7.591248E-2	2.765274E-2	-1.537933E-1	-2.998810E-1
2.345000E+9	-5.293274E-1	-6.792908E-1	-1.310547E+0	4.819824E+0	7.857132E-2	2.408218E-2	-1.783752E-1	-2.829132E-1
2.569500E+9	-5.746460E-1	-6.349487E-1	-9.841309E-1	4.522949E+0	8.112717E-2	2.056503E-2	-1.935120E-1	-2.697754E-1
2.794000E+9	-6.137390E-1	-5.974731E-1	-7.238770E-1	4.258301E+0	8.269501E-2	1.751328E-2	-2.105560E-1	-2.600403E-1
3.018500E+9	-6.454468E-1	-5.603027E-1	-5.058594E-1	4.003906E+0	8.404160E-2	1.471710E-2	-2.206039E-1	-2.455521E-1
3.243000E+9	-6.711731E-1	-5.260620E-1	-3.227539E-1	3.780273E+0	8.490753E-2	1.192474E-2	-2.303848E-1	-2.400970E-1
3.467500E+9	-6.945190E-1	-4.962158E-1	-1.678467E-1	3.572998E+0	8.554077E-2	9.159088E-3	-2.424774E-1	-2.305298E-1
3.692000E+9	-7.148132E-1	-4.675293E-1	-3.503418E-2	3.377441E+0	8.647537E-2	7.038116E-3	-2.466812E-1	-2.238083E-1
3.916500E+9	-7.306213E-1	-4.391785E-1	7.458496E-2	3.196167E+0	8.687973E-2	4.844666E-3	-2.592621E-1	-2.187653E-1
4.141000E+9	-7.452393E-1	-4.145203E-1	1.691895E-1	3.032593E+0	8.713913E-2	2.643585E-3	-2.641296E-1	-2.090454E-1
4.365500E+9	-7.564087E-1	-3.917847E-1	2.521973E-1	2.878296E+0	8.771896E-2	5.073547E-4	-2.695312E-1	-2.067108E-1
4.590000E+9	-7.678223E-1	-3.699341E-1	3.216553E-1	2.734253E+0	8.776474E-2	-1.510620E-3	-2.777405E-1	-2.004395E-1
4.814500E+9	-7.773743E-1	-3.497009E-1	3.796387E-1	2.602783E+0	8.786774E-2	-3.398895E-3	-2.801208E-1	-1.956787E-1
5.039000E+9	-7.848511E-1	-3.307495E-1	4.318848E-1	2.479736E+0	8.816910E-2	-5.359650E-3	-2.864685E-1	-1.930847E-1
5.263500E+9	-7.922668E-1	-3.122864E-1	4.788818E-1	2.365356E+0	8.797455E-2	-7.472992E-3	-2.913818E-1	-1.881409E-1
5.488000E+9	-7.978210E-1	-2.967834E-1	5.192871E-1	2.259277E+0	8.761978E-2	-9.269714E-3	-2.959137E-1	-1.849213E-1
5.712500E+9	-8.037720E-1	-2.810364E-1	5.531006E-1	2.155884E+0	8.789062E-2	-1.065445E-2	-3.001862E-1	-1.816101E-1
5.937000E+9	-8.085937E-1	-2.651978E-1	5.842285E-1	2.062012E+0	8.756638E-2	-1.268768E-2	-3.039551E-1	-1.785736E-1
6.161500E+9	-8.128357E-1	-2.521973E-1	6.118774E-1	1.975647E+0	8.778763E-2	-1.440811E-2	-3.079681E-1	-1.741333E-1
6.386000E+9	-8.171997E-1	-2.378845E-1	6.370239E-1	1.891052E+0	8.691406E-2	-1.618576E-2	-3.095398E-1	-1.728363E-1
6.610500E+9	-8.200684E-1	-2.258606E-1	6.589966E-1	1.810486E+0	8.718491E-2	-1.740265E-2	-3.160400E-1	-1.729584E-1
6.835000E+9	-8.243103E-1	-2.134705E-1	6.766357E-1	1.733948E+0	8.641052E-2	-1.924896E-2	-3.184357E-1	-1.661682E-1
7.059500E+9	-8.262329E-1	-2.026978E-1	6.891479E-1	1.663208E+0	8.613968E-2	-2.018738E-2	-3.177032E-1	-1.688538E-1
7.284000E+9	-8.285217E-1	-1.915588E-1	7.017212E-1	1.595886E+0	8.562469E-2	-2.189636E-2	-3.260345E-1	-1.646881E-1
7.508500E+9	-8.310547E-1	-1.804199E-1	7.127686E-1	1.532532E+0	8.484650E-2	-2.344894E-2	-3.230896E-1	-1.638794E-1
7.733000E+9	-8.326111E-1	-1.694031E-1	7.235718E-1	1.472900E+0	8.469391E-2	-2.438736E-2	-3.328857E-1	-1.648407E-1
7.957500E+9	-8.344116E-1	-1.600342E-1	7.358398E-1	1.416870E+0	8.425522E-2	-2.593231E-2	-3.336945E-1	-1.599884E-1
8.182000E+9	-8.363342E-1	-1.502686E-1	7.466431E-1	1.362610E+0	8.413315E-2	-2.742004E-2	-3.395844E-1	-1.623383E-1
8.406500E+9	-8.377075E-1	-1.427002E-1	7.510376E-1	1.306335E+0	8.310699E-2	-2.812195E-2	-3.422241E-1	-1.564789E-1
8.631000E+9	-8.390503E-1	-1.321106E-1	7.583008E-1	1.254211E+0	8.284378E-2	-2.967453E-2	-3.453369E-1	-1.571503E-1
8.855500E+9	-8.402405E-1	-1.244507E-1	7.619019E-1	1.205505E+0	8.180237E-2	-3.145981E-2	-3.498230E-1	-1.543884E-1
9.080001E+9	-8.411865E-1	-1.162720E-1	7.648315E-1	1.159302E+0	8.183289E-2	-3.263855E-2	-3.518677E-1	-1.513824E-1
9.304500E+9	-8.421631E-1	-1.060486E-1	7.682495E-1	1.114807E+0	8.031845E-2	-3.425217E-2	-3.547516E-1	-1.519470E-1
9.529000E+9	-8.425903E-1	-9.960937E-2	7.700195E-1	1.070679E+0	7.947922E-2	-3.464508E-2	-3.607330E-1	-1.486816E-1
9.753500E+9	-8.434753E-1	-9.213257E-2	7.708130E-1	1.029419E+0	7.892609E-2	-3.675079E-2	-3.621216E-1	-1.460419E-1
9.978000E+9	-8.432922E-1	-8.468628E-2	7.704468E-1	9.912720E-1	7.860565E-2	-3.765869E-2	-3.646545E-1	-1.464386E-1
1.020250E+10	-8.450012E-1	-7.830811E-2	7.709961E-1	9.521179E-1	7.778549E-2	-3.814316E-2	-3.694458E-1	-1.426849E-1
1.042700E+10	-8.455811E-1	-7.022095E-2	7.717590E-1	9.154053E-1	7.608795E-2	-3.945541E-2	-3.704834E-1	-1.417389E-1
1.065150E+10	-8.446350E-1	-6.365967E-2	7.707825E-1	8.809204E-1	7.667160E-2	-4.034805E-2	-3.746948E-1	-1.415710E-1
1.087600E+10	-8.455505E-1	-5.709839E-2	7.690735E-1	8.468628E-1	7.547379E-2	-4.128647E-2	-3.785553E-1	-1.381683E-1
1.110050E+10	-8.467407E-1	-4.995728E-2	7.686768E-1	8.123169E-1	7.427216E-2	-4.269791E-2	-3.812866E-1	-1.362000E-1
1.132500E+10	-8.454590E-1	-4.486084E-2	7.665710E-1	7.816162E-1	7.288361E-2	-4.376221E-2	-3.846436E-1	-1.363373E-1
1.154950E+10	-8.466187E-1	-3.692627E-2	7.636108E-1	7.490234E-1	7.256317E-2	-4.407883E-2	-3.898773E-1	-1.333466E-1
1.177400E+10	-8.453064E-1	-3.109741E-2	7.599487E-1	7.205200E-1	7.167435E-2	-4.514313E-2	-3.922577E-1	-1.300659E-1
1.199850E+10	-8.457031E-1	-2.514648E-2	7.572021E-1	6.926880E-1	7.091141E-2	-4.633331E-2	-3.941498E-1	-1.289520E-1
1.222300E+10	-8.452148E-1	-1.940918E-2	7.529297E-1	6.644287E-1	6.994629E-2	-4.671860E-2	-3.984985E-1	-1.286316E-1
1.244750E+10	-8.450317E-1	-1.391602E-2	7.496338E-1	6.368408E-1	6.920624E-2	-4.741669E-2	-4.020691E-1	-1.244507E-1
1.267200E+10	-8.458862E-1	-7.751465E-3	7.456360E-1	6.114807E-1	6.863785E-2	-4.837799E-2	-4.044495E-1	-1.242523E-1
1.289650E+10	-8.442688E-1	-3.387451E-3	7.398376E-1	5.856934E-1	6.721115E-2	-5.002213E-2	-4.101562E-1	-1.237030E-1
1.312100E+10	-8.456116E-1	2.288818E-3	7.355347E-1	5.623169E-1	6.669617E-2	-5.070496E-2	-4.126434E-1	-1.181030E-1
1.334550E+10	-8.452454E-1	7.598877E-3	7.310791E-1	5.401611E-1	6.587982E-2	-5.091858E-2	-4.142609E-1	-1.180420E-1
1.357000E+10	-8.426819E-1	1.095581E-2	7.261658E-1	5.162354E-1	6.506729E-2	-5.194855E-2	-4.189911E-1	-1.179657E-1
1.379450E+10	-8.431396E-1	1.687622E-2	7.209473E-1	4.949036E-1	6.331253E-2	-5.268478E-2	-4.228821E-1	-1.136017E-1
1.401900E+10	-8.424988E-1	2.236938E-2	7.167664E-1	4.771729E-1	6.268311E-2	-5.317307E-2	-4.223175E-1	-1.134644E-1
1.424350E+10	-8.422852E-1	2.673340E-2	7.098694E-1	4.541016E-1	6.099510E-2	-5.450821E-2	-4.280853E-1	-1.094360E-1
1.446800E+10	-8.424988E-1	3.176880E-2	7.060242E-1	4.344482E-1	6.115532E-2	-5.413628E-2	-4.307098E-1	-1.041260E-1
1.469250E+10	-8.408508E-1	3.656006E-2	7.001343E-1	4.148254E-1	5.937767E-2	-5.515289E-2	-4.298401E-1	-1.018524E-1
1.491700E+10	-8.399963E-1	4.049683E-2	6.935425E-1	3.952942E-1	5.847168E-2	-5.633926E-2	-4.356232E-1	-1.042938E-1
1.514150E+10	-8.396912E-1	4.653931E-2	6.875305E-1	3.778687E-1	5.816841E-2	-5.640030E-2	-4.397736E-1	-9.812927E-2
1.536600E+10	-8.388977E-1	5.117798E-2	6.818237E-1	3.594971E-1	5.683517E-2	-5.701637E-2	-4.401703E-1	-9.582520E-2
1.559050E+10	-8.386536E-1	5.572510E-2	6.765137E-1	3.418274E-1	5.521584E-2	-5.764198E-2	-4.433746E-1	-9.573364E-2
1.581500E+10	-8.370972E-1	6.063843E-2	6.685791E-1	3.263855E-1	5.475616E-2	-5.784416E-2	-4.485626E-1	-9.184265E-2
1.603950E+10	-8.373108E-1	6.411743E-2	6.643372E-1	3.102722E-1	5.384445E-2	-5.791283E-2	-4.485321E-1	-8.811951E-2
1.626400E+10	-8.366089E-1	6.903076E-2	6.572571E-1	2.950745E-1	5.315208E-2	-6.000900E-2	-4.536438E-1	-8.877563E-2
1.648850E+10	-8.356934E-1	7.257080E-2	6.497803E-1	2.792969E-1	5.138588E-2	-6.077766E-2	-4.577637E-1	-8.340454E-2
1.671300E+10	-8.341675E-1	7.717896E-2	6.448059E-1	2.649841E-1	5.175781E-2	-6.066132E-2	-4.590607E-1	-8.058167E-2
1.693750E+10	-8.339844E-1	8.068848E-2	6.384583E-1	2.511902E-1	5.028915E-2	-6.036758E-2	-4.625092E-1	-7.865906E-2
1.716200E+10	-8.337708E-1	8.526611E-2	6.323242E-1	2.376099E-1	4.873085E-2	-6.131363E-2	-4.653473E-1	-7.392883E-2
1.738650E+10	-8.327942E-1	9.054565E-2	6.251831E-1	2.254028E-1	4.752731E-2	-6.198502E-2	-4.660034E-1	-7.096863E-2
1.761100E+10	-8.308411E-1	9.466553E-2	6.192322E-1	2.118835E-1	4.635239E-2	-6.125450E-2	-4.710693E-1	-6.948853E-2
1.783550E+10	-8.310242E-1	9.762573E-2	6.118469E-1	1.999817E-1	4.601669E-2	-6.195831E-2	-4.746857E-1	-6.362915E-2
1.806000E+10	-8.304443E-1	1.024170E-1	6.067505E-1	1.891479E-1	4.435539E-2	-6.200409E-2	-4.741058E-1	-6.118774E-2
1.828450E+10	-8.295593E-1	1.071472E-1	6.007080E-1	1.771240E-1	4.418182E-2	-6.239128E-2	-4.759064E-1	-5.970764E-2
1.850900E+10	-8.290710E-1	1.098022E-1	5.935364E-1	1.658020E-1	4.287720E-2	-6.262970E-2	-4.818268E-1	-5.513000E-2
1.873350E+10	-8.270264E-1	1.135559E-1	5.880432E-1	1.541748E-1	4.083633E-2	-6.377792E-2	-4.820557E-1	-4.872131E-2
1.895800E+10	-8.255005E-1	1.173706E-1	5.803528E-1	1.447449E-1	3.955460E-2	-6.351471E-2	-4.825897E-1	-4.972839E-2
1.918250E+10	-8.258362E-1	1.214600E-1	5.731812E-1	1.315918E-1	3.889465E-2	-6.497574E-2	-4.883728E-1	-4.576111E-2
1.940700E+10	-8.237915E-1	1.250610E-1	5.671692E-1	1.213684E-1	3.838730E-2	-6.296158E-2	-4.876404E-1	-3.631592E-2
1.963150E+10	-8.227234E-1	1.285706E-1	5.611267E-1	1.129456E-1	3.718567E-2	-6.492996E-2	-4.874878E-1	-3.877258E-2
1.985600E+10	-8.221130E-1	1.323242E-1	5.545654E-1	1.031494E-1	3.591156E-2	-6.463242E-2	-4.930115E-1	-3.520203E-2
2.008050E+10	-8.216858E-1	1.336365E-1	5.468445E-1	9.338379E-2	3.404236E-2	-6.531525E-2	-4.955750E-1	-2.616882E-2
2.030500E+10	-8.211670E-1	1.371460E-1	5.429687E-1	8.428955E-2	3.388596E-2	-6.558990E-2	-4.945068E-1	-2.676392E-2
2.052950E+10	-8.191223E-1	1.409302E-1	5.368958E-1	7.556152E-2	3.219223E-2	-6.540298E-2	-4.987030E-1	-2.317810E-2
2.075400E+10	-8.175659E-1	1.450195E-1	5.301819E-1	6.802368E-2	3.125381E-2	-6.465149E-2	-5.004578E-1	-1.562500E-2
2.097850E+10	-8.165894E-1	1.481018E-1	5.231018E-1	6.018066E-2	2.933121E-2	-6.583786E-2	-4.999695E-1	-1.333618E-2
2.120300E+10	-8.157349E-1	1.518250E-1	5.158997E-1	5.331421E-2	2.819061E-2	-6.422424E-2	-5.044556E-1	-1.431274E-2
2.142750E+10	-8.139038E-1	1.534119E-1	5.116272E-1	4.635620E-2	2.947617E-2	-6.496811E-2	-5.074463E-1	-4.821777E-3
2.165200E+10	-8.145447E-1	1.585388E-1	5.036011E-1	3.656006E-2	2.741623E-2	-6.759262E-2	-5.064392E-1	-3.448486E-3
2.187650E+10	-8.136292E-1	1.632385E-1	4.969940E-1	3.027344E-2	2.470398E-2	-6.593323E-2	-5.109558E-1	1.983643E-3
2.210100E+10	-8.121643E-1	1.667480E-1	4.928894E-1	2.354431E-2	2.651215E-2	-6.637955E-2	-5.140381E-1	8.789062E-3
2.232550E+10	-8.111267E-1	1.696167E-1	4.871368E-1	1.792908E-2	2.442932E-2	-6.516266E-2	-5.109558E-1	1.354980E-2
2.255000E+10	-8.117371E-1	1.730042E-1	4.813843E-1	1.145935E-2	2.268600E-2	-6.686783E-2	-5.132446E-1	1.556396E-2
2.277450E+10	-8.088989E-1	1.763916E-1	4.762726E-1	3.890991E-3	2.223206E-2	-6.485367E-2	-5.136414E-1	2.169800E-2
2.299900E+10	-8.083801E-1	1.788330E-1	4.703674E-1	-1.770020E-3	1.966095E-2	-6.676865E-2	-5.138550E-1	2.359009E-2
2.322350E+10	-8.069763E-1	1.838379E-1	4.658508E-1	-9.872437E-3	1.883698E-2	-6.746674E-2	-5.195923E-1	2.642822E-2
2.344800E+10	-8.051453E-1	1.844788E-1	4.595032E-1	-1.382446E-2	1.694489E-2	-6.635284E-2	-5.189819E-1	3.292847E-2
2.367250E+10	-8.045959E-1	1.899414E-1	4.520874E-1	-1.875305E-2	1.682281E-2	-6.635284E-2	-5.172119E-1	3.775024E-2
2.389700E+10	-8.014832E-1	1.925964E-1	4.455719E-1	-2.488708E-2	1.477051E-2	-6.498718E-2	-5.231323E-1	4.107666E-2
2.412150E+10	-8.021240E-1	1.958618E-1	4.401855E-1	-3.216553E-2	1.424026E-2	-6.554031E-2	-5.221558E-1	4.916382E-2
2.434600E+10	-7.990417E-1	1.994934E-1	4.334717E-1	-3.596497E-2	1.383591E-2	-6.371689E-2	-5.186157E-1	5.151367E-2
2.457050E+10	-7.980042E-1	2.028198E-1	4.299164E-1	-4.214478E-2	1.001740E-2	-6.414795E-2	-5.229492E-1	5.355835E-2
2.479500E+10	-7.984009E-1	2.070618E-1	4.244385E-1	-4.551697E-2	1.057816E-2	-6.528091E-2	-5.198975E-1	6.509399E-2
2.501950E+10	-7.930603E-1	2.089233E-1	4.186249E-1	-5.023193E-2	7.686615E-3	-6.334305E-2	-5.179443E-1	6.445312E-2
2.524400E+10	-7.952271E-1	2.111206E-1	4.116516E-1	-5.522156E-2	7.884979E-3	-6.307220E-2	-5.213318E-1	6.756592E-2
2.546850E+10	-7.941895E-1	2.153931E-1	4.066772E-1	-5.780029E-2	6.191254E-3	-6.311417E-2	-5.178833E-1	7.357788E-2
2.569300E+10	-7.922363E-1	2.156067E-1	4.018097E-1	-6.004333E-2	5.146027E-3	-6.327820E-2	-5.193787E-1	7.467651E-2
2.591750E+10	-7.905884E-1	2.228699E-1	3.978424E-1	-6.678772E-2	4.970551E-3	-6.061172E-2	-5.205383E-1	7.946777E-2
2.614200E+10	-7.882080E-1	2.228699E-1	3.917847E-1	-6.848145E-2	4.489899E-3	-6.274033E-2	-5.243225E-1	8.645630E-2
2.636650E+10	-7.868652E-1	2.248230E-1	3.889160E-1	-7.400513E-2	3.110886E-3	-6.145287E-2	-5.239563E-1	9.240723E-2
2.659100E+10	-7.856140E-1	2.292175E-1	3.826752E-1	-7.688904E-2	3.179550E-3	-5.977249E-2	-5.195618E-1	9.506226E-2
2.681550E+10	-7.841797E-1	2.297058E-1	3.781586E-1	-7.815552E-2	-3.051758E-5	-5.965424E-2	-5.243225E-1	9.890747E-2
2.704000E+10	-7.834473E-1	2.338257E-1	3.692780E-1	-8.424377E-2	1.031876E-3	-5.903244E-2	-5.227051E-1	1.113586E-1
2.726450E+10	-7.817688E-1	2.365112E-1	3.650360E-1	-8.714294E-2	-6.046295E-4	-5.999756E-2	-5.173340E-1	1.097717E-1
2.748900E+10	-7.779541E-1	2.374268E-1	3.618317E-1	-9.068298E-2	-9.212494E-4	-5.681229E-2	-5.193787E-1	1.113892E-1
2.771350E+10	-7.785034E-1	2.429199E-1	3.582306E-1	-9.362793E-2	5.474091E-4	-5.926323E-2	-5.186157E-1	1.179504E-1
2.793800E+10	-7.778015E-1	2.442322E-1	3.520966E-1	-9.918213E-2	-8.182526E-4	-5.709267E-2	-5.189209E-1	1.199646E-1
2.816250E+10	-7.745667E-1	2.472839E-1	3.467865E-1	-1.006317E-1	-5.567551E-3	-5.735207E-2	-5.214844E-1	1.246948E-1
2.838700E+10	-7.728271E-1	2.481079E-1	3.418732E-1	-1.021271E-1	-5.865097E-3	-5.736351E-2	-5.161133E-1	1.337585E-1
2.861150E+10	-7.730408E-1	2.528381E-1	3.394318E-1	-1.056213E-1	-7.701874E-3	-5.587578E-2	-5.162048E-1	1.387024E-1
2.883600E+10	-7.700500E-1	2.560120E-1	3.339691E-1	-1.085358E-1	-8.401871E-3	-5.582047E-2	-5.166321E-1	1.385498E-1
2.906050E+10	-7.686157E-1	2.591248E-1	3.308563E-1	-1.088409E-1	-8.014679E-3	-5.215073E-2	-5.133972E-1	1.464539E-1
2.928500E+10	-7.696838E-1	2.607117E-1	3.253479E-1	-1.107635E-1	-8.604050E-3	-5.246735E-2	-5.165405E-1	1.478882E-1
2.950950E+10	-7.674255E-1	2.663269E-1	3.233032E-1	-1.126099E-1	-9.901047E-3	-5.105400E-2	-5.133972E-1	1.509399E-1
2.973400E+10	-7.666016E-1	2.646179E-1	3.189850E-1	-1.160431E-1	-1.076508E-2	-5.244255E-2	-5.141296E-1	1.600647E-1
2.995850E+10	-7.622375E-1	2.705994E-1	3.146210E-1	-1.183472E-1	-1.395607E-2	-5.011940E-2	-5.126953E-1	1.613464E-1
3.018300E+10	-7.566223E-1	2.718811E-1	3.119202E-1	-1.216888E-1	-1.125526E-2	-5.207062E-2	-5.158691E-1	1.732788E-1
3.040750E+10	-7.581787E-1	2.742615E-1	3.081818E-1	-1.226654E-1	-1.255035E-2	-4.838562E-2	-5.129089E-1	1.781616E-1
3.063200E+10	-7.562866E-1	2.789612E-1	3.016205E-1	-1.247253E-1	-1.540375E-2	-4.500389E-2	-5.104065E-1	1.835937E-1
3.085650E+10	-7.557678E-1	2.783508E-1	2.978821E-1	-1.226349E-1	-1.573944E-2	-5.128288E-2	-5.079651E-1	1.843567E-1
3.108100E+10	-7.553101E-1	2.848206E-1	2.959595E-1	-1.263428E-1	-1.392174E-2	-4.890060E-2	-5.093384E-1	1.931152E-1
3.130550E+10	-7.512207E-1	2.833252E-1	2.907715E-1	-1.313782E-1	-1.648521E-2	-4.263306E-2	-4.990845E-1	2.012939E-1
3.153000E+10	-7.506104E-1	2.831726E-1	2.920685E-1	-1.328278E-1	-1.889801E-2	-4.400635E-2	-4.997101E-1	1.950836E-1
3.175450E+10	-7.511902E-1	2.860107E-1	2.832794E-1	-1.290894E-1	-1.843262E-2	-4.272079E-2	-5.015869E-1	2.101440E-1
3.197900E+10	-7.489014E-1	2.901917E-1	2.813568E-1	-1.359863E-1	-2.123833E-2	-4.497528E-2	-4.945068E-1	2.091522E-1
3.220350E+10	-7.478333E-1	2.940674E-1	2.783356E-1	-1.373596E-1	-2.073860E-2	-4.394913E-2	-4.944458E-1	2.176666E-1
3.242800E+10	-7.452698E-1	2.951660E-1	2.716370E-1	-1.368408E-1	-2.032852E-2	-4.207230E-2	-4.947357E-1	2.256165E-1
3.265250E+10	-7.453003E-1	2.993469E-1	2.707062E-1	-1.417236E-1	-1.973915E-2	-4.151726E-2	-4.877472E-1	2.242279E-1
3.287700E+10	-7.412720E-1	3.020020E-1	2.716217E-1	-1.397095E-1	-2.035141E-2	-3.647614E-2	-4.914856E-1	2.282715E-1
3.310150E+10	-7.409363E-1	3.034668E-1	2.620850E-1	-1.428223E-1	-2.191734E-2	-3.809357E-2	-4.849854E-1	2.369843E-1
3.332600E+10	-7.396545E-1	3.071289E-1	2.611542E-1	-1.495056E-1	-2.387047E-2	-3.318024E-2	-4.858704E-1	2.370605E-1
3.355050E+10	-7.383423E-1	3.071289E-1	2.569122E-1	-1.490479E-1	-2.182007E-2	-3.595924E-2	-4.829254E-1	2.424774E-1
3.377500E+10	-7.347717E-1	3.156433E-1	2.560120E-1	-1.470642E-1	-2.091408E-2	-3.524017E-2	-4.808655E-1	2.448883E-1
3.399950E+10	-7.338562E-1	3.130188E-1	2.466049E-1	-1.486740E-1	-2.116776E-2	-3.705978E-2	-4.800415E-1	2.492218E-1
3.422400E+10	-7.304993E-1	3.170776E-1	2.507935E-1	-1.534729E-1	-2.122498E-2	-3.184700E-2	-4.764557E-1	2.638092E-1
3.444850E+10	-7.309875E-1	3.170776E-1	2.436371E-1	-1.555710E-1	-2.263355E-2	-3.004932E-2	-4.730377E-1	2.556000E-1
3.467300E+10	-7.297974E-1	3.218384E-1	2.509460E-1	-1.563110E-1	-2.108383E-2	-3.165245E-2	-4.752808E-1	2.649994E-1
3.489750E+10	-7.290955E-1	3.203125E-1	2.400970E-1	-1.505127E-1	-2.192593E-2	-3.055668E-2	-4.691315E-1	2.747192E-1
3.512200E+10	-7.234497E-1	3.250122E-1	2.368774E-1	-1.564255E-1	-2.283859E-2	-2.829075E-2	-4.658966E-1	2.728577E-1
3.534650E+10	-7.207947E-1	3.278198E-1	2.359772E-1	-1.599960E-1	-2.044964E-2	-3.108215E-2	-4.604034E-1	2.774353E-1
3.557100E+10	-7.260437E-1	3.280029E-1	2.302322E-1	-1.603394E-1	-2.166939E-2	-2.677155E-2	-4.558716E-1	2.925262E-1
3.579550E+10	-7.228699E-1	3.261414E-1	2.315903E-1	-1.668472E-1	-2.469158E-2	-2.806282E-2	-4.510040E-1	2.901154E-1
3.602000E+10	-7.196655E-1	3.337708E-1	2.266083E-1	-1.647720E-1	-2.770805E-2	-2.226448E-2	-4.443817E-1	2.934113E-1
3.624450E+10	-7.120361E-1	3.356323E-1	2.250900E-1	-1.641693E-1	-2.813435E-2	-2.656460E-2	-4.484558E-1	2.972412E-1
3.646900E+10	-7.184753E-1	3.409424E-1	2.200165E-1	-1.680145E-1	-2.663517E-2	-2.574253E-2	-4.445648E-1	3.118134E-1
3.669350E+10	-7.148437E-1	3.369446E-1	2.174377E-1	-1.692657E-1	-2.370930E-2	-1.734543E-2	-4.346008E-1	3.107910E-1
3.691800E+10	-7.114258E-1	3.392334E-1	2.138443E-1	-1.703873E-1	-2.480602E-2	-1.763058E-2	-4.338989E-1	3.124695E-1
3.714250E+10	-7.070312E-1	3.434753E-1	2.128906E-1	-1.701813E-1	-2.833557E-2	-2.168560E-2	-4.257355E-1	3.269501E-1
3.736700E+10	-7.039795E-1	3.445740E-1	2.082977E-1	-1.733017E-1	-2.785015E-2	-1.998234E-2	-4.194641E-1	3.210907E-1
3.759150E+10	-7.035522E-1	3.482971E-1	2.072830E-1	-1.709213E-1	-2.663136E-2	-2.004814E-2	-4.219513E-1	3.284302E-1
3.781600E+10	-7.018738E-1	3.530579E-1	2.064514E-1	-1.716461E-1	-2.238083E-2	-1.366138E-2	-4.128418E-1	3.355255E-1
3.804050E+10	-7.001038E-1	3.460083E-1	2.037964E-1	-1.747284E-1	-2.552032E-2	-1.394367E-2	-4.041595E-1	3.335571E-1
3.826500E+10	-6.992187E-1	3.514709E-1	2.032928E-1	-1.752548E-1	-2.719212E-2	-1.003361E-2	-4.047546E-1	3.489685E-1
3.848950E+10	-6.922913E-1	3.569336E-1	1.990356E-1	-1.797104E-1	-2.756500E-2	-1.061535E-2	-3.934479E-1	3.418579E-1
3.871400E+10	-6.948242E-1	3.589172E-1	1.932983E-1	-1.841583E-1	-2.976227E-2	-8.911133E-3	-3.899384E-1	3.442230E-1
3.893850E+10	-6.989746E-1	3.604126E-1	1.900253E-1	-1.871796E-1	-2.446270E-2	-7.740021E-3	-3.804016E-1	3.529358E-1
3.916300E+10	-6.902466E-1	3.585815E-1	1.952744E-1	-1.810608E-1	-2.467442E-2	-8.355141E-3	-3.776245E-1	3.507538E-1
