!Date: 10/28/2005, 12:46 PM

!Vgs = -6.000000E+0
!Vds = 1.000000E+1
!Ig = -8.561800E-5
!Id = 3.382700E-3

# HZ S RI R 50
1.000000E+8	9.891052E-1	-4.006958E-2	-1.673431E-1	7.141113E-3	4.358292E-4	1.141977E-2	9.627075E-1	-1.190186E-2
3.245000E+8	9.765320E-1	-1.154785E-1	-1.650848E-1	4.746246E-2	5.710602E-3	3.314018E-2	9.382019E-1	-8.944702E-2
5.490000E+8	9.600525E-1	-1.867676E-1	-1.561813E-1	8.161163E-2	1.226425E-2	5.375862E-2	9.317322E-1	-1.428528E-1
7.735000E+8	9.388733E-1	-2.572937E-1	-1.426010E-1	1.140900E-1	2.117920E-2	7.289124E-2	9.146729E-1	-1.972961E-1
9.980000E+8	9.138794E-1	-3.214111E-1	-1.248322E-1	1.424026E-1	3.231812E-2	8.984756E-2	8.969421E-1	-2.454529E-1
1.222500E+9	8.841248E-1	-3.839111E-1	-1.056442E-1	1.684265E-1	4.424286E-2	1.052399E-1	8.766174E-1	-2.948303E-1
1.447000E+9	8.508301E-1	-4.435425E-1	-8.460236E-2	1.916046E-1	5.789185E-2	1.190376E-1	8.542786E-1	-3.407288E-1
1.671500E+9	8.142700E-1	-4.982300E-1	-6.169128E-2	2.122955E-1	7.251740E-2	1.325226E-1	8.281860E-1	-3.829956E-1
1.896000E+9	7.753296E-1	-5.484619E-1	-3.630066E-2	2.307358E-1	8.975220E-2	1.442337E-1	8.052063E-1	-4.219971E-1
2.120500E+9	7.348938E-1	-5.951233E-1	-8.148193E-3	2.447357E-1	1.078949E-1	1.528244E-1	7.790833E-1	-4.625549E-1
2.345000E+9	6.897888E-1	-6.387024E-1	1.965332E-2	2.557220E-1	1.269608E-1	1.579742E-1	7.497253E-1	-4.996338E-1
2.569500E+9	6.464233E-1	-6.746826E-1	4.663086E-2	2.627106E-1	1.442871E-1	1.618500E-1	7.214355E-1	-5.351868E-1
2.794000E+9	6.011047E-1	-7.100220E-1	7.327271E-2	2.683258E-1	1.619797E-1	1.631699E-1	6.909180E-1	-5.666199E-1
3.018500E+9	5.554199E-1	-7.398682E-1	9.971619E-2	2.696838E-1	1.794128E-1	1.630707E-1	6.584473E-1	-5.986328E-1
3.243000E+9	5.096741E-1	-7.666321E-1	1.245728E-1	2.707520E-1	1.966400E-1	1.612244E-1	6.253967E-1	-6.262817E-1
3.467500E+9	4.645081E-1	-7.899170E-1	1.493683E-1	2.687073E-1	2.126160E-1	1.582794E-1	5.928345E-1	-6.510620E-1
3.692000E+9	4.194336E-1	-8.103027E-1	1.728668E-1	2.645416E-1	2.284698E-1	1.539230E-1	5.591431E-1	-6.758423E-1
3.916500E+9	3.743896E-1	-8.270264E-1	1.968536E-1	2.584229E-1	2.432404E-1	1.486130E-1	5.250549E-1	-6.964111E-1
4.141000E+9	3.316650E-1	-8.417664E-1	2.185516E-1	2.511139E-1	2.579193E-1	1.420746E-1	4.929199E-1	-7.156982E-1
4.365500E+9	2.899475E-1	-8.539124E-1	2.383575E-1	2.424240E-1	2.717438E-1	1.345215E-1	4.606934E-1	-7.344971E-1
4.590000E+9	2.472839E-1	-8.650208E-1	2.569580E-1	2.320862E-1	2.837677E-1	1.260834E-1	4.266357E-1	-7.503967E-1
4.814500E+9	2.074890E-1	-8.715820E-1	2.745819E-1	2.206726E-1	2.959900E-1	1.167908E-1	3.947449E-1	-7.646790E-1
5.039000E+9	1.676636E-1	-8.775330E-1	2.915192E-1	2.081146E-1	3.067474E-1	1.061707E-1	3.618164E-1	-7.791748E-1
5.263500E+9	1.284485E-1	-8.798523E-1	3.070221E-1	1.945038E-1	3.161621E-1	9.506226E-2	3.286743E-1	-7.899475E-1
5.488000E+9	9.262085E-2	-8.825684E-1	3.203278E-1	1.819458E-1	3.249512E-1	8.444214E-2	2.989502E-1	-7.997437E-1
5.712500E+9	5.639648E-2	-8.843384E-1	3.329315E-1	1.665955E-1	3.323364E-1	7.304382E-2	2.670593E-1	-8.103333E-1
5.937000E+9	2.200317E-2	-8.819580E-1	3.431549E-1	1.517487E-1	3.394012E-1	6.109619E-2	2.353821E-1	-8.191528E-1
6.161500E+9	-9.674072E-3	-8.816833E-1	3.528290E-1	1.368866E-1	3.451996E-1	4.876709E-2	2.049561E-1	-8.258362E-1
6.386000E+9	-4.275513E-2	-8.794556E-1	3.614044E-1	1.215363E-1	3.500824E-1	3.651428E-2	1.741943E-1	-8.317871E-1
6.610500E+9	-7.269287E-2	-8.763733E-1	3.683929E-1	1.063538E-1	3.539734E-1	2.471924E-2	1.427002E-1	-8.371582E-1
6.835000E+9	-1.033630E-1	-8.720093E-1	3.751678E-1	9.173584E-2	3.575592E-1	1.293945E-2	1.136780E-1	-8.402100E-1
7.059500E+9	-1.296387E-1	-8.660889E-1	3.797150E-1	7.713318E-2	3.597565E-1	1.510620E-3	8.706665E-2	-8.417664E-1
7.284000E+9	-1.580200E-1	-8.612061E-1	3.834229E-1	6.134033E-2	3.616486E-1	-1.065063E-2	5.584717E-2	-8.437805E-1
7.508500E+9	-1.849060E-1	-8.545837E-1	3.873444E-1	4.698181E-2	3.621979E-1	-2.207947E-2	2.819824E-2	-8.428955E-1
7.733000E+9	-2.098694E-1	-8.475037E-1	3.891907E-1	3.244019E-2	3.625336E-1	-3.332520E-2	1.831055E-3	-8.452454E-1
7.957500E+9	-2.345886E-1	-8.410950E-1	3.907928E-1	1.776123E-2	3.632812E-1	-4.476929E-2	-2.700806E-2	-8.435059E-1
8.182000E+9	-2.567749E-1	-8.336182E-1	3.923492E-1	4.333496E-3	3.622742E-1	-5.555725E-2	-5.285645E-2	-8.419800E-1
8.406500E+9	-2.797546E-1	-8.256226E-1	3.921661E-1	-9.963989E-3	3.620148E-1	-6.643677E-2	-7.995605E-2	-8.390198E-1
8.631000E+9	-3.033447E-1	-8.178101E-1	3.920288E-1	-2.235413E-2	3.586731E-1	-7.701111E-2	-1.058044E-1	-8.369446E-1
8.855500E+9	-3.235779E-1	-8.093872E-1	3.903656E-1	-3.546143E-2	3.574066E-1	-8.766174E-2	-1.307373E-1	-8.323975E-1
9.080001E+9	-3.429260E-1	-8.024902E-1	3.896942E-1	-4.791260E-2	3.551331E-1	-9.686279E-2	-1.546936E-1	-8.284607E-1
9.304500E+9	-3.643799E-1	-7.916870E-1	3.867645E-1	-6.051636E-2	3.532257E-1	-1.053314E-1	-1.796875E-1	-8.223877E-1
9.529000E+9	-3.818970E-1	-7.840271E-1	3.843842E-1	-7.110596E-2	3.497772E-1	-1.150665E-1	-2.026062E-1	-8.171387E-1
9.753500E+9	-4.012146E-1	-7.747192E-1	3.810120E-1	-8.399963E-2	3.460846E-1	-1.244659E-1	-2.224731E-1	-8.105774E-1
9.978000E+9	-4.173279E-1	-7.652283E-1	3.784332E-1	-9.422302E-2	3.421173E-1	-1.328888E-1	-2.465820E-1	-8.051758E-1
1.020250E+10	-4.345703E-1	-7.575989E-1	3.746033E-1	-1.055145E-1	3.385773E-1	-1.418304E-1	-2.684631E-1	-7.977295E-1
1.042700E+10	-4.515381E-1	-7.478333E-1	3.695984E-1	-1.157990E-1	3.346558E-1	-1.497345E-1	-2.892151E-1	-7.903442E-1
1.065150E+10	-4.666748E-1	-7.380981E-1	3.653412E-1	-1.245270E-1	3.296509E-1	-1.574402E-1	-3.083191E-1	-7.835083E-1
1.087600E+10	-4.821777E-1	-7.282715E-1	3.609161E-1	-1.337128E-1	3.253326E-1	-1.643829E-1	-3.290710E-1	-7.751770E-1
1.110050E+10	-4.973145E-1	-7.191162E-1	3.560333E-1	-1.432800E-1	3.200073E-1	-1.716614E-1	-3.504333E-1	-7.674255E-1
1.132500E+10	-5.108032E-1	-7.101746E-1	3.510437E-1	-1.522827E-1	3.150940E-1	-1.788025E-1	-3.670654E-1	-7.600708E-1
1.154950E+10	-5.255432E-1	-7.001343E-1	3.460236E-1	-1.602325E-1	3.106537E-1	-1.850433E-1	-3.890381E-1	-7.483826E-1
1.177400E+10	-5.384216E-1	-6.909790E-1	3.408356E-1	-1.675720E-1	3.046265E-1	-1.908112E-1	-4.052124E-1	-7.388611E-1
1.199850E+10	-5.520020E-1	-6.812744E-1	3.354187E-1	-1.763000E-1	2.995148E-1	-1.976318E-1	-4.226379E-1	-7.314148E-1
1.222300E+10	-5.631104E-1	-6.719666E-1	3.290863E-1	-1.831818E-1	2.950745E-1	-2.028809E-1	-4.417725E-1	-7.207031E-1
1.244750E+10	-5.767517E-1	-6.627197E-1	3.235626E-1	-1.897583E-1	2.886810E-1	-2.087555E-1	-4.577637E-1	-7.096863E-1
1.267200E+10	-5.883789E-1	-6.528320E-1	3.176117E-1	-1.967163E-1	2.834320E-1	-2.144775E-1	-4.725952E-1	-7.015686E-1
1.289650E+10	-5.984802E-1	-6.437988E-1	3.117065E-1	-2.029877E-1	2.783051E-1	-2.184906E-1	-4.916077E-1	-6.900635E-1
1.312100E+10	-6.097412E-1	-6.343384E-1	3.053894E-1	-2.100525E-1	2.719116E-1	-2.241058E-1	-5.059204E-1	-6.769714E-1
1.334550E+10	-6.207581E-1	-6.249084E-1	2.991486E-1	-2.157440E-1	2.667999E-1	-2.285309E-1	-5.179749E-1	-6.691589E-1
1.357000E+10	-6.315918E-1	-6.139221E-1	2.932739E-1	-2.219086E-1	2.598267E-1	-2.331085E-1	-5.358276E-1	-6.584778E-1
1.379450E+10	-6.392822E-1	-6.076050E-1	2.857208E-1	-2.267761E-1	2.553864E-1	-2.369995E-1	-5.504456E-1	-6.444092E-1
1.401900E+10	-6.497498E-1	-5.972900E-1	2.815552E-1	-2.314453E-1	2.501221E-1	-2.404022E-1	-5.596008E-1	-6.347351E-1
1.424350E+10	-6.586304E-1	-5.886230E-1	2.742157E-1	-2.357330E-1	2.440796E-1	-2.442703E-1	-5.765076E-1	-6.238403E-1
1.446800E+10	-6.668701E-1	-5.798340E-1	2.668457E-1	-2.410278E-1	2.374420E-1	-2.477570E-1	-5.904846E-1	-6.081848E-1
1.469250E+10	-6.766357E-1	-5.697937E-1	2.618103E-1	-2.450256E-1	2.323303E-1	-2.513580E-1	-5.990295E-1	-5.987854E-1
1.491700E+10	-6.864624E-1	-5.613708E-1	2.548676E-1	-2.483063E-1	2.272034E-1	-2.548370E-1	-6.134033E-1	-5.891418E-1
1.514150E+10	-6.933289E-1	-5.510864E-1	2.473755E-1	-2.521973E-1	2.205353E-1	-2.575378E-1	-6.268616E-1	-5.735474E-1
1.536600E+10	-7.021790E-1	-5.427856E-1	2.414856E-1	-2.576599E-1	2.147675E-1	-2.601471E-1	-6.345520E-1	-5.617676E-1
1.559050E+10	-7.105713E-1	-5.334167E-1	2.350311E-1	-2.584381E-1	2.087250E-1	-2.628479E-1	-6.468811E-1	-5.504456E-1
1.581500E+10	-7.170105E-1	-5.251770E-1	2.277832E-1	-2.616882E-1	2.031250E-1	-2.646790E-1	-6.597900E-1	-5.370178E-1
1.603950E+10	-7.248535E-1	-5.160828E-1	2.229919E-1	-2.653656E-1	1.977539E-1	-2.668610E-1	-6.683044E-1	-5.244446E-1
1.626400E+10	-7.320251E-1	-5.073242E-1	2.173920E-1	-2.675323E-1	1.922913E-1	-2.696838E-1	-6.805420E-1	-5.125732E-1
1.648850E+10	-7.402344E-1	-4.979858E-1	2.104797E-1	-2.707062E-1	1.853027E-1	-2.711639E-1	-6.891174E-1	-4.987488E-1
1.671300E+10	-7.462158E-1	-4.894104E-1	2.044830E-1	-2.729340E-1	1.795502E-1	-2.724457E-1	-6.971741E-1	-4.873352E-1
1.693750E+10	-7.504883E-1	-4.813232E-1	1.985474E-1	-2.747650E-1	1.751099E-1	-2.744141E-1	-7.081604E-1	-4.748840E-1
1.716200E+10	-7.585754E-1	-4.715881E-1	1.921539E-1	-2.758331E-1	1.710358E-1	-2.763519E-1	-7.149353E-1	-4.598389E-1
1.738650E+10	-7.645569E-1	-4.629211E-1	1.861420E-1	-2.805328E-1	1.641693E-1	-2.776184E-1	-7.220764E-1	-4.482727E-1
1.761100E+10	-7.703552E-1	-4.547424E-1	1.809998E-1	-2.797241E-1	1.586151E-1	-2.783508E-1	-7.309265E-1	-4.370728E-1
1.783550E+10	-7.781982E-1	-4.449158E-1	1.744995E-1	-2.818298E-1	1.528320E-1	-2.791443E-1	-7.408752E-1	-4.207764E-1
1.806000E+10	-7.829285E-1	-4.374084E-1	1.696625E-1	-2.840271E-1	1.496124E-1	-2.813416E-1	-7.459717E-1	-4.105835E-1
1.828450E+10	-7.881470E-1	-4.274292E-1	1.630707E-1	-2.847443E-1	1.445312E-1	-2.812042E-1	-7.535706E-1	-3.990784E-1
1.850900E+10	-7.938538E-1	-4.219666E-1	1.574707E-1	-2.851257E-1	1.388702E-1	-2.829590E-1	-7.627869E-1	-3.832092E-1
1.873350E+10	-8.010864E-1	-4.123230E-1	1.502533E-1	-2.875671E-1	1.332245E-1	-2.823944E-1	-7.673035E-1	-3.695679E-1
1.895800E+10	-8.037109E-1	-4.021912E-1	1.475983E-1	-2.875214E-1	1.277771E-1	-2.826843E-1	-7.729492E-1	-3.594360E-1
1.918250E+10	-8.087769E-1	-3.957825E-1	1.405945E-1	-2.899170E-1	1.229553E-1	-2.845764E-1	-7.814026E-1	-3.452148E-1
1.940700E+10	-8.130188E-1	-3.872070E-1	1.368561E-1	-2.896118E-1	1.191254E-1	-2.846985E-1	-7.834778E-1	-3.282471E-1
1.963150E+10	-8.172607E-1	-3.786316E-1	1.305084E-1	-2.897339E-1	1.123962E-1	-2.844849E-1	-7.875977E-1	-3.185120E-1
1.985600E+10	-8.218689E-1	-3.722534E-1	1.244812E-1	-2.896118E-1	1.074829E-1	-2.842560E-1	-7.947083E-1	-3.070984E-1
2.008050E+10	-8.270874E-1	-3.624268E-1	1.192932E-1	-2.923126E-1	1.029968E-1	-2.851257E-1	-8.002625E-1	-2.903137E-1
2.030500E+10	-8.296509E-1	-3.541260E-1	1.131897E-1	-2.906799E-1	9.942627E-2	-2.852325E-1	-8.010559E-1	-2.792664E-1
2.052950E+10	-8.354492E-1	-3.468933E-1	1.095581E-1	-2.908325E-1	9.402466E-2	-2.851868E-1	-8.073425E-1	-2.681274E-1
2.075400E+10	-8.387451E-1	-3.406677E-1	1.045685E-1	-2.910004E-1	8.967590E-2	-2.845612E-1	-8.123779E-1	-2.528076E-1
2.097850E+10	-8.439026E-1	-3.300171E-1	9.902954E-2	-2.904358E-1	8.503723E-2	-2.849426E-1	-8.149109E-1	-2.405090E-1
2.120300E+10	-8.464966E-1	-3.220520E-1	9.492493E-2	-2.891693E-1	8.111572E-2	-2.843018E-1	-8.195190E-1	-2.312622E-1
2.142750E+10	-8.524170E-1	-3.136292E-1	8.949280E-2	-2.897186E-1	7.646179E-2	-2.833710E-1	-8.252258E-1	-2.171326E-1
2.165200E+10	-8.550415E-1	-3.062744E-1	8.387756E-2	-2.886505E-1	7.165527E-2	-2.829285E-1	-8.256531E-1	-2.026367E-1
2.187650E+10	-8.590088E-1	-2.977600E-1	8.106995E-2	-2.881470E-1	6.629944E-2	-2.830048E-1	-8.290100E-1	-1.916199E-1
2.210100E+10	-8.631287E-1	-2.888794E-1	7.458496E-2	-2.884216E-1	6.419373E-2	-2.810669E-1	-8.345642E-1	-1.759033E-1
2.232550E+10	-8.656616E-1	-2.801819E-1	7.069397E-2	-2.879486E-1	5.969238E-2	-2.813263E-1	-8.351135E-1	-1.608582E-1
2.255000E+10	-8.689270E-1	-2.738953E-1	6.655884E-2	-2.889709E-1	5.525208E-2	-2.814636E-1	-8.378906E-1	-1.519775E-1
2.277450E+10	-8.683472E-1	-2.654114E-1	6.198120E-2	-2.880402E-1	5.043030E-2	-2.813416E-1	-8.410034E-1	-1.371460E-1
2.299900E+10	-8.731384E-1	-2.587891E-1	5.760193E-2	-2.875214E-1	4.727173E-2	-2.819672E-1	-8.411865E-1	-1.229248E-1
2.322350E+10	-8.750305E-1	-2.495422E-1	5.633545E-2	-2.854004E-1	4.272461E-2	-2.796173E-1	-8.456726E-1	-1.136169E-1
2.344800E+10	-8.780212E-1	-2.450256E-1	5.088806E-2	-2.852020E-1	3.996277E-2	-2.786713E-1	-8.471680E-1	-9.664917E-2
2.367250E+10	-8.793640E-1	-2.365723E-1	4.457092E-2	-2.854156E-1	3.486633E-2	-2.788544E-1	-8.437805E-1	-8.215332E-2
2.389700E+10	-8.819275E-1	-2.285461E-1	4.081726E-2	-2.848663E-1	2.886963E-2	-2.783813E-1	-8.469543E-1	-7.122803E-2
2.412150E+10	-8.855286E-1	-2.230835E-1	3.643799E-2	-2.832184E-1	2.787781E-2	-2.770996E-1	-8.452454E-1	-5.453491E-2
2.434600E+10	-8.859863E-1	-2.139587E-1	3.182983E-2	-2.834930E-1	2.426147E-2	-2.745972E-1	-8.432312E-1	-4.522705E-2
2.457050E+10	-8.897400E-1	-2.087708E-1	2.861023E-2	-2.842407E-1	2.084351E-2	-2.762604E-1	-8.472290E-1	-3.189087E-2
2.479500E+10	-8.929138E-1	-1.985779E-1	2.566528E-2	-2.830353E-1	1.712036E-2	-2.754517E-1	-8.437805E-1	-1.589966E-2
2.501950E+10	-8.936462E-1	-1.929626E-1	1.968384E-2	-2.817535E-1	1.187134E-2	-2.731323E-1	-8.411255E-1	-7.568359E-3
2.524400E+10	-8.962402E-1	-1.865234E-1	1.425171E-2	-2.790375E-1	6.561279E-3	-2.727203E-1	-8.415833E-1	4.455566E-3
2.546850E+10	-8.994141E-1	-1.761169E-1	1.231384E-2	-2.778168E-1	3.250122E-3	-2.700348E-1	-8.383179E-1	1.937866E-2
2.569300E+10	-9.022217E-1	-1.722412E-1	8.712769E-3	-2.779846E-1	1.388550E-3	-2.683563E-1	-8.405762E-1	2.575684E-2
2.591750E+10	-9.024353E-1	-1.630554E-1	5.340576E-3	-2.749023E-1	-1.754761E-3	-2.687836E-1	-8.375854E-1	3.829956E-2
2.614200E+10	-9.052429E-1	-1.563721E-1	4.379272E-3	-2.727203E-1	-5.004883E-3	-2.667847E-1	-8.403320E-1	5.444336E-2
2.636650E+10	-9.060974E-1	-1.498108E-1	-3.799438E-3	-2.742615E-1	-8.255005E-3	-2.651672E-1	-8.375854E-1	6.680298E-2
2.659100E+10	-9.063416E-1	-1.408691E-1	-5.691528E-3	-2.717438E-1	-1.023865E-2	-2.651978E-1	-8.324280E-1	7.876587E-2
2.681550E+10	-9.068298E-1	-1.370544E-1	-7.995605E-3	-2.703247E-1	-1.574707E-2	-2.655945E-1	-8.333130E-1	8.776855E-2
2.704000E+10	-9.083252E-1	-1.263428E-1	-1.210022E-2	-2.693787E-1	-1.741028E-2	-2.624207E-1	-8.325500E-1	1.058655E-1
2.726450E+10	-9.099731E-1	-1.217346E-1	-1.548767E-2	-2.680206E-1	-2.017212E-2	-2.611542E-1	-8.213806E-1	1.132202E-1
2.748900E+10	-9.132080E-1	-1.152649E-1	-2.006531E-2	-2.660828E-1	-2.468872E-2	-2.606506E-1	-8.202515E-1	1.267700E-1
2.771350E+10	-9.116211E-1	-1.074524E-1	-2.275085E-2	-2.664642E-1	-2.784729E-2	-2.570496E-1	-8.200989E-1	1.344299E-1
2.793800E+10	-9.126587E-1	-1.035461E-1	-2.539062E-2	-2.646027E-1	-3.334045E-2	-2.566223E-1	-8.198853E-1	1.486511E-1
2.816250E+10	-9.170532E-1	-9.332275E-2	-2.919006E-2	-2.602539E-1	-3.688049E-2	-2.545013E-1	-8.150635E-1	1.596680E-1
2.838700E+10	-9.166565E-1	-8.654785E-2	-3.300476E-2	-2.610626E-1	-3.575134E-2	-2.555847E-1	-8.114929E-1	1.741638E-1
2.861150E+10	-9.175415E-1	-7.977295E-2	-3.813171E-2	-2.625427E-1	-4.295349E-2	-2.517548E-1	-8.018799E-1	1.842346E-1
2.883600E+10	-9.178467E-1	-7.025146E-2	-4.203796E-2	-2.577362E-1	-4.585266E-2	-2.516785E-1	-8.031616E-1	1.928406E-1
2.906050E+10	-9.184875E-1	-6.518555E-2	-4.301453E-2	-2.560730E-1	-4.726410E-2	-2.493973E-1	-7.958069E-1	2.055054E-1
2.928500E+10	-9.205933E-1	-5.935669E-2	-4.731750E-2	-2.562561E-1	-4.991913E-2	-2.468567E-1	-7.920837E-1	2.124329E-1
2.950950E+10	-9.245300E-1	-4.879761E-2	-4.971313E-2	-2.507477E-1	-5.115509E-2	-2.442398E-1	-7.900085E-1	2.258911E-1
2.973400E+10	-9.237366E-1	-4.632568E-2	-4.704285E-2	-2.528381E-1	-5.400085E-2	-2.452621E-1	-7.860107E-1	2.350159E-1
2.995850E+10	-9.200745E-1	-3.713989E-2	-4.695129E-2	-2.520905E-1	-5.419159E-2	-2.419281E-1	-7.854614E-1	2.469788E-1
3.018300E+10	-9.217224E-1	-3.079224E-2	-5.434418E-2	-2.493591E-1	-6.170654E-2	-2.414017E-1	-7.796021E-1	2.645874E-1
3.040750E+10	-9.230042E-1	-2.453613E-2	-5.795288E-2	-2.509766E-1	-6.253815E-2	-2.399979E-1	-7.735291E-1	2.707214E-1
3.063200E+10	-9.198914E-1	-1.809692E-2	-5.870819E-2	-2.444611E-1	-6.175232E-2	-2.405624E-1	-7.712708E-1	2.870178E-1
3.085650E+10	-9.228516E-1	-9.063721E-3	-6.602478E-2	-2.464523E-1	-6.758118E-2	-2.393723E-1	-7.625427E-1	2.941895E-1
3.108100E+10	-9.259644E-1	-3.997803E-3	-6.668854E-2	-2.418900E-1	-6.977844E-2	-2.383347E-1	-7.579346E-1	3.121338E-1
3.130550E+10	-9.240112E-1	1.403809E-3	-7.003021E-2	-2.412186E-1	-7.195282E-2	-2.353287E-1	-7.473755E-1	3.139954E-1
3.153000E+10	-9.219055E-1	6.774902E-3	-7.515717E-2	-2.407990E-1	-7.443237E-2	-2.366257E-1	-7.397461E-1	3.254089E-1
3.175450E+10	-9.233704E-1	1.217651E-2	-7.889557E-2	-2.393875E-1	-7.814026E-2	-2.355118E-1	-7.308044E-1	3.411255E-1
3.197900E+10	-9.230042E-1	1.995850E-2	-8.426666E-2	-2.400131E-1	-8.247375E-2	-2.299957E-1	-7.214050E-1	3.486633E-1
3.220350E+10	-9.214478E-1	2.801514E-2	-8.112335E-2	-2.367477E-1	-8.592987E-2	-2.289429E-1	-7.187195E-1	3.556213E-1
3.242800E+10	-9.233398E-1	3.274536E-2	-8.478546E-2	-2.325363E-1	-8.284760E-2	-2.260437E-1	-7.075195E-1	3.694153E-1
3.265250E+10	-9.255676E-1	4.113770E-2	-8.766937E-2	-2.313690E-1	-9.096527E-2	-2.278442E-1	-6.955872E-1	3.743896E-1
3.287700E+10	-9.245911E-1	4.589844E-2	-8.716583E-2	-2.300034E-1	-8.978271E-2	-2.236099E-1	-6.978149E-1	3.878174E-1
3.310150E+10	-9.253235E-1	5.615234E-2	-9.036255E-2	-2.267685E-1	-9.514618E-2	-2.206955E-1	-6.863708E-1	3.980103E-1
3.332600E+10	-9.237061E-1	6.323242E-2	-9.545898E-2	-2.268448E-1	-1.001511E-1	-2.189713E-1	-6.759338E-1	3.986511E-1
3.355050E+10	-9.217224E-1	6.909180E-2	-9.661865E-2	-2.213974E-1	-9.807587E-2	-2.171555E-1	-6.675110E-1	4.108887E-1
3.377500E+10	-9.274902E-1	7.559204E-2	-1.002045E-1	-2.189255E-1	-9.914398E-2	-2.154007E-1	-6.630859E-1	4.153137E-1
3.399950E+10	-9.207764E-1	8.212280E-2	-1.009445E-1	-2.224808E-1	-9.948730E-2	-2.130508E-1	-6.631165E-1	4.298706E-1
3.422400E+10	-9.258118E-1	8.612061E-2	-1.022873E-1	-2.191391E-1	-1.036148E-1	-2.130203E-1	-6.501160E-1	4.414673E-1
3.444850E+10	-9.184570E-1	9.497070E-2	-1.045380E-1	-2.186890E-1	-1.045914E-1	-2.147980E-1	-6.419067E-1	4.490662E-1
3.467300E+10	-9.197998E-1	1.012878E-1	-1.046600E-1	-2.154770E-1	-1.055374E-1	-2.177353E-1	-6.320801E-1	4.583130E-1
3.489750E+10	-9.194031E-1	1.078491E-1	-1.068649E-1	-2.139282E-1	-1.104660E-1	-2.095642E-1	-6.245117E-1	4.707642E-1
3.512200E+10	-9.162292E-1	1.160583E-1	-1.073303E-1	-2.139969E-1	-1.120605E-1	-2.103424E-1	-6.077576E-1	4.710083E-1
3.534650E+10	-9.188538E-1	1.182556E-1	-1.137543E-1	-2.104187E-1	-1.135635E-1	-2.067642E-1	-6.035461E-1	4.789429E-1
3.557100E+10	-9.152222E-1	1.264648E-1	-1.176147E-1	-2.106781E-1	-1.170883E-1	-2.077255E-1	-5.948486E-1	4.956665E-1
3.579550E+10	-9.216919E-1	1.286621E-1	-1.146317E-1	-2.097855E-1	-1.206436E-1	-2.066498E-1	-5.805054E-1	5.048828E-1
3.602000E+10	-9.208069E-1	1.374207E-1	-1.242218E-1	-2.100220E-1	-1.217194E-1	-2.048874E-1	-5.756836E-1	5.034485E-1
3.624450E+10	-9.164734E-1	1.394348E-1	-1.303940E-1	-2.071762E-1	-1.231918E-1	-1.984863E-1	-5.626831E-1	5.132751E-1
3.646900E+10	-9.086609E-1	1.564636E-1	-1.295776E-1	-2.036743E-1	-1.291199E-1	-1.974182E-1	-5.450439E-1	5.258789E-1
3.669350E+10	-9.112244E-1	1.543579E-1	-1.319122E-1	-2.040863E-1	-1.283798E-1	-1.975861E-1	-5.389709E-1	5.325623E-1
3.691800E+10	-9.099426E-1	1.625061E-1	-1.361694E-1	-1.990662E-1	-1.307602E-1	-1.991653E-1	-5.227966E-1	5.433350E-1
3.714250E+10	-9.059448E-1	1.664429E-1	-1.365738E-1	-1.991272E-1	-1.375198E-1	-1.941986E-1	-5.070190E-1	5.484314E-1
3.736700E+10	-9.063416E-1	1.752014E-1	-1.394958E-1	-1.995392E-1	-1.382828E-1	-1.926727E-1	-5.075073E-1	5.494690E-1
3.759150E+10	-9.057617E-1	1.811523E-1	-1.399460E-1	-1.953659E-1	-1.380997E-1	-1.913681E-1	-4.897461E-1	5.589600E-1
3.781600E+10	-9.016724E-1	1.873474E-1	-1.405640E-1	-1.884384E-1	-1.476288E-1	-1.836395E-1	-4.798279E-1	5.610046E-1
3.804050E+10	-9.059753E-1	1.891785E-1	-1.494904E-1	-1.869888E-1	-1.485138E-1	-1.854401E-1	-4.620361E-1	5.699158E-1
3.826500E+10	-9.005432E-1	2.008972E-1	-1.499252E-1	-1.928177E-1	-1.471024E-1	-1.831894E-1	-4.507751E-1	5.735168E-1
3.848950E+10	-9.005737E-1	2.027893E-1	-1.503143E-1	-1.866760E-1	-1.478500E-1	-1.813965E-1	-4.377136E-1	5.801392E-1
3.871400E+10	-8.950500E-1	2.098083E-1	-1.492920E-1	-1.879425E-1	-1.504593E-1	-1.777267E-1	-4.278870E-1	5.808105E-1
3.893850E+10	-8.968506E-1	2.145691E-1	-1.565552E-1	-1.878204E-1	-1.531067E-1	-1.744614E-1	-4.104309E-1	5.808105E-1
