!Date: 10/28/2005, 12:46 PM

!Vgs = -5.000000E+0
!Vds = 1.750000E+1
!Ig = -7.928000E-5
!Id = 1.806900E-2

# HZ S RI R 50
1.000000E+8	9.833374E-1	-8.413696E-2	-4.421875E+0	2.102051E-1	1.778126E-3	7.511139E-3	7.982178E-1	-3.936768E-2
3.245000E+8	9.432068E-1	-2.474976E-1	-4.274658E+0	8.125000E-1	6.254196E-3	2.334213E-2	7.379456E-1	-1.322327E-1
5.490000E+8	8.785706E-1	-3.949585E-1	-4.064209E+0	1.271240E+0	1.282501E-2	3.732872E-2	7.114258E-1	-1.952515E-1
7.735000E+8	7.949829E-1	-5.231628E-1	-3.786011E+0	1.659424E+0	2.235413E-2	4.850960E-2	6.729431E-1	-2.522888E-1
9.980000E+8	7.012329E-1	-6.273499E-1	-3.454224E+0	1.974121E+0	3.259850E-2	5.671692E-2	6.338196E-1	-2.977905E-1
1.222500E+9	5.989990E-1	-7.109680E-1	-3.126099E+0	2.239136E+0	4.319382E-2	6.274796E-2	5.927429E-1	-3.388062E-1
1.447000E+9	4.942322E-1	-7.770386E-1	-2.793091E+0	2.424438E+0	5.352402E-2	6.741714E-2	5.545959E-1	-3.745422E-1
1.671500E+9	3.914490E-1	-8.235474E-1	-2.439331E+0	2.536011E+0	6.434631E-2	7.061005E-2	5.106812E-1	-4.042969E-1
1.896000E+9	2.895508E-1	-8.551025E-1	-2.121338E+0	2.606445E+0	7.574081E-2	7.234573E-2	4.705048E-1	-4.250488E-1
2.120500E+9	1.923218E-1	-8.737488E-1	-1.830444E+0	2.640503E+0	8.599091E-2	7.108688E-2	4.346313E-1	-4.429626E-1
2.345000E+9	1.018982E-1	-8.799438E-1	-1.551514E+0	2.639648E+0	9.603882E-2	6.932068E-2	3.993225E-1	-4.572296E-1
2.569500E+9	2.435303E-2	-8.754272E-1	-1.293091E+0	2.616577E+0	1.043625E-1	6.623077E-2	3.658295E-1	-4.696045E-1
2.794000E+9	-4.971313E-2	-8.686829E-1	-1.069824E+0	2.580688E+0	1.117821E-1	6.217957E-2	3.356476E-1	-4.782715E-1
3.018500E+9	-1.145020E-1	-8.568726E-1	-8.637695E-1	2.518433E+0	1.177177E-1	5.835342E-2	3.065491E-1	-4.867554E-1
3.243000E+9	-1.744080E-1	-8.421326E-1	-6.782227E-1	2.465576E+0	1.236267E-1	5.394363E-2	2.794037E-1	-4.944153E-1
3.467500E+9	-2.283936E-1	-8.253174E-1	-5.146484E-1	2.392212E+0	1.280670E-1	4.958344E-2	2.543335E-1	-4.981079E-1
3.692000E+9	-2.778015E-1	-8.050232E-1	-3.652344E-1	2.310791E+0	1.328812E-1	4.467773E-2	2.304687E-1	-5.047607E-1
3.916500E+9	-3.235779E-1	-7.839661E-1	-2.308350E-1	2.227051E+0	1.368713E-1	4.036713E-2	2.055359E-1	-5.093079E-1
4.141000E+9	-3.641052E-1	-7.613525E-1	-1.094971E-1	2.147095E+0	1.403885E-1	3.572845E-2	1.834412E-1	-5.114136E-1
4.365500E+9	-3.975525E-1	-7.408447E-1	-5.126953E-3	2.061401E+0	1.432724E-1	3.082275E-2	1.633911E-1	-5.150757E-1
4.590000E+9	-4.313354E-1	-7.211609E-1	8.630371E-2	1.987244E+0	1.456833E-1	2.667999E-2	1.441650E-1	-5.179443E-1
4.814500E+9	-4.589233E-1	-7.013245E-1	1.687622E-1	1.899658E+0	1.481400E-1	2.181244E-2	1.265259E-1	-5.210876E-1
5.039000E+9	-4.877014E-1	-6.793213E-1	2.434082E-1	1.823364E+0	1.503983E-1	1.632690E-2	1.062012E-1	-5.247803E-1
5.263500E+9	-5.122986E-1	-6.581116E-1	3.090820E-1	1.741821E+0	1.514359E-1	1.146698E-2	8.581543E-2	-5.244141E-1
5.488000E+9	-5.351868E-1	-6.379395E-1	3.665161E-1	1.671204E+0	1.527405E-1	7.789612E-3	7.067871E-2	-5.258179E-1
5.712500E+9	-5.553284E-1	-6.180725E-1	4.212646E-1	1.598572E+0	1.542053E-1	3.196716E-3	5.538940E-2	-5.291138E-1
5.937000E+9	-5.721130E-1	-5.989380E-1	4.663696E-1	1.529175E+0	1.552277E-1	-1.403809E-3	3.875732E-2	-5.314026E-1
6.161500E+9	-5.881653E-1	-5.834656E-1	5.051270E-1	1.459229E+0	1.550293E-1	-5.989075E-3	2.319336E-2	-5.333862E-1
6.386000E+9	-6.064758E-1	-5.647583E-1	5.429687E-1	1.391052E+0	1.555176E-1	-1.026917E-2	7.843018E-3	-5.352173E-1
6.610500E+9	-6.199951E-1	-5.479126E-1	5.772095E-1	1.329102E+0	1.553955E-1	-1.441956E-2	-9.490967E-3	-5.372925E-1
6.835000E+9	-6.347046E-1	-5.313721E-1	6.058960E-1	1.270569E+0	1.564941E-1	-1.815796E-2	-2.508545E-2	-5.382996E-1
7.059500E+9	-6.444092E-1	-5.165405E-1	6.271362E-1	1.207031E+0	1.550674E-1	-2.140808E-2	-3.787231E-2	-5.397644E-1
7.284000E+9	-6.568298E-1	-5.009155E-1	6.499023E-1	1.148987E+0	1.552429E-1	-2.572632E-2	-5.474854E-2	-5.414734E-1
7.508500E+9	-6.682434E-1	-4.850159E-1	6.697388E-1	1.095581E+0	1.542664E-1	-2.949524E-2	-6.985474E-2	-5.382080E-1
7.733000E+9	-6.773682E-1	-4.705200E-1	6.864014E-1	1.045044E+0	1.536026E-1	-3.369904E-2	-8.273315E-2	-5.419922E-1
7.957500E+9	-6.857300E-1	-4.576416E-1	7.012939E-1	9.913635E-1	1.537018E-1	-3.649902E-2	-9.881592E-2	-5.426636E-1
8.182000E+9	-6.947632E-1	-4.432983E-1	7.131653E-1	9.414368E-1	1.523209E-1	-3.983307E-2	-1.130066E-1	-5.432434E-1
8.406500E+9	-7.012024E-1	-4.315186E-1	7.213745E-1	8.927917E-1	1.515884E-1	-4.283905E-2	-1.274109E-1	-5.415039E-1
8.631000E+9	-7.112732E-1	-4.167480E-1	7.325134E-1	8.487549E-1	1.506805E-1	-4.668427E-2	-1.420593E-1	-5.413208E-1
8.855500E+9	-7.175903E-1	-4.051208E-1	7.393799E-1	8.046570E-1	1.495285E-1	-5.047607E-2	-1.568909E-1	-5.411072E-1
9.080001E+9	-7.234802E-1	-3.949890E-1	7.455750E-1	7.608032E-1	1.480942E-1	-5.252075E-2	-1.694031E-1	-5.393066E-1
9.304500E+9	-7.297668E-1	-3.804016E-1	7.473755E-1	7.190552E-1	1.475143E-1	-5.619049E-2	-1.852112E-1	-5.368347E-1
9.529000E+9	-7.356262E-1	-3.723145E-1	7.487183E-1	6.773071E-1	1.455841E-1	-5.948639E-2	-1.980896E-1	-5.360413E-1
9.753500E+9	-7.414246E-1	-3.596191E-1	7.506409E-1	6.408691E-1	1.437683E-1	-6.177521E-2	-2.097168E-1	-5.328674E-1
9.978000E+9	-7.464600E-1	-3.490295E-1	7.490845E-1	6.046143E-1	1.427765E-1	-6.514740E-2	-2.226257E-1	-5.322876E-1
1.020250E+10	-7.515259E-1	-3.412781E-1	7.516174E-1	5.706482E-1	1.415863E-1	-6.762695E-2	-2.365723E-1	-5.292664E-1
1.042700E+10	-7.561646E-1	-3.305054E-1	7.487183E-1	5.353088E-1	1.392136E-1	-7.025146E-2	-2.493286E-1	-5.277100E-1
1.065150E+10	-7.602539E-1	-3.199463E-1	7.445068E-1	5.029907E-1	1.371994E-1	-7.254791E-2	-2.616577E-1	-5.260315E-1
1.087600E+10	-7.650146E-1	-3.101807E-1	7.419739E-1	4.713135E-1	1.365128E-1	-7.479858E-2	-2.752991E-1	-5.224609E-1
1.110050E+10	-7.691650E-1	-2.992859E-1	7.399902E-1	4.411621E-1	1.344452E-1	-7.704163E-2	-2.878723E-1	-5.177307E-1
1.132500E+10	-7.720337E-1	-2.914734E-1	7.373047E-1	4.135132E-1	1.328125E-1	-7.971191E-2	-2.987976E-1	-5.168762E-1
1.154950E+10	-7.759705E-1	-2.824097E-1	7.314148E-1	3.846436E-1	1.309967E-1	-8.123016E-2	-3.141174E-1	-5.128174E-1
1.177400E+10	-7.788696E-1	-2.745361E-1	7.260742E-1	3.567505E-1	1.295471E-1	-8.321381E-2	-3.246765E-1	-5.075073E-1
1.199850E+10	-7.829285E-1	-2.649536E-1	7.191772E-1	3.291321E-1	1.276779E-1	-8.566284E-2	-3.357239E-1	-5.064087E-1
1.222300E+10	-7.857666E-1	-2.557678E-1	7.143250E-1	3.045959E-1	1.257019E-1	-8.753204E-2	-3.494263E-1	-5.018005E-1
1.244750E+10	-7.885437E-1	-2.482605E-1	7.067871E-1	2.801208E-1	1.240578E-1	-8.971786E-2	-3.589783E-1	-4.947968E-1
1.267200E+10	-7.916870E-1	-2.406616E-1	7.008667E-1	2.578735E-1	1.228561E-1	-9.162903E-2	-3.703766E-1	-4.937592E-1
1.289650E+10	-7.931519E-1	-2.336121E-1	6.928406E-1	2.361145E-1	1.202354E-1	-9.312820E-2	-3.840790E-1	-4.886780E-1
1.312100E+10	-7.969360E-1	-2.249451E-1	6.836853E-1	2.123413E-1	1.176033E-1	-9.449768E-2	-3.945465E-1	-4.813080E-1
1.334550E+10	-7.990112E-1	-2.173157E-1	6.759949E-1	1.925049E-1	1.159973E-1	-9.652710E-2	-4.029083E-1	-4.794006E-1
1.357000E+10	-8.017273E-1	-2.094727E-1	6.692505E-1	1.733398E-1	1.135292E-1	-9.857178E-2	-4.151001E-1	-4.752655E-1
1.379450E+10	-8.038940E-1	-2.041321E-1	6.616516E-1	1.545715E-1	1.124077E-1	-1.003647E-1	-4.272003E-1	-4.650116E-1
1.401900E+10	-8.049011E-1	-1.961670E-1	6.538696E-1	1.354675E-1	1.106567E-1	-1.023941E-1	-4.343567E-1	-4.624786E-1
1.424350E+10	-8.078613E-1	-1.887207E-1	6.443481E-1	1.167908E-1	1.078415E-1	-1.031151E-1	-4.479828E-1	-4.570312E-1
1.446800E+10	-8.085022E-1	-1.815796E-1	6.363220E-1	9.954834E-2	1.061592E-1	-1.059952E-1	-4.577637E-1	-4.470367E-1
1.469250E+10	-8.109436E-1	-1.752930E-1	6.281738E-1	8.456421E-2	1.042442E-1	-1.071548E-1	-4.636383E-1	-4.421539E-1
1.491700E+10	-8.125610E-1	-1.692505E-1	6.189270E-1	6.582642E-2	1.018486E-1	-1.074677E-1	-4.761963E-1	-4.399567E-1
1.514150E+10	-8.146057E-1	-1.618042E-1	6.086426E-1	4.965210E-2	9.930038E-2	-1.092224E-1	-4.871979E-1	-4.296417E-1
1.536600E+10	-8.150635E-1	-1.537476E-1	5.986633E-1	3.570557E-2	9.861755E-2	-1.107178E-1	-4.944153E-1	-4.234161E-1
1.559050E+10	-8.175049E-1	-1.469116E-1	5.904846E-1	2.203369E-2	9.645462E-2	-1.116180E-1	-5.055847E-1	-4.179077E-1
1.581500E+10	-8.183899E-1	-1.407776E-1	5.802002E-1	8.666992E-3	9.377289E-2	-1.118813E-1	-5.162659E-1	-4.096680E-1
1.603950E+10	-8.212891E-1	-1.370239E-1	5.736389E-1	-4.302979E-3	9.246063E-2	-1.143570E-1	-5.195007E-1	-4.035950E-1
1.626400E+10	-8.216553E-1	-1.295471E-1	5.639343E-1	-1.666260E-2	8.990479E-2	-1.157112E-1	-5.313416E-1	-3.971558E-1
1.648850E+10	-8.237305E-1	-1.227722E-1	5.527649E-1	-2.972412E-2	8.865738E-2	-1.147919E-1	-5.394897E-1	-3.872070E-1
1.671300E+10	-8.255920E-1	-1.155396E-1	5.447998E-1	-4.141235E-2	8.593369E-2	-1.183052E-1	-5.465088E-1	-3.819885E-1
1.693750E+10	-8.256531E-1	-1.115112E-1	5.357056E-1	-5.203247E-2	8.408356E-2	-1.167488E-1	-5.579224E-1	-3.747559E-1
1.716200E+10	-8.261719E-1	-1.043701E-1	5.271606E-1	-6.304932E-2	8.085251E-2	-1.182632E-1	-5.642090E-1	-3.640442E-1
1.738650E+10	-8.276672E-1	-9.924316E-2	5.160522E-1	-7.354736E-2	7.841110E-2	-1.197090E-1	-5.704651E-1	-3.565674E-1
1.761100E+10	-8.287048E-1	-9.292603E-2	5.068665E-1	-8.245850E-2	7.629776E-2	-1.202888E-1	-5.802002E-1	-3.511963E-1
1.783550E+10	-8.300781E-1	-8.682251E-2	4.978485E-1	-9.365845E-2	7.413483E-2	-1.216812E-1	-5.879822E-1	-3.407898E-1
1.806000E+10	-8.309937E-1	-8.154297E-2	4.900665E-1	-1.014557E-1	7.313156E-2	-1.214027E-1	-5.936584E-1	-3.349609E-1
1.828450E+10	-8.318787E-1	-7.556152E-2	4.806366E-1	-1.098785E-1	7.106781E-2	-1.223946E-1	-6.007080E-1	-3.284607E-1
1.850900E+10	-8.344116E-1	-7.040405E-2	4.716492E-1	-1.183472E-1	6.886673E-2	-1.236382E-1	-6.078491E-1	-3.168640E-1
1.873350E+10	-8.336792E-1	-6.433105E-2	4.619293E-1	-1.272125E-1	6.771469E-2	-1.231003E-1	-6.135254E-1	-3.068848E-1
1.895800E+10	-8.353577E-1	-5.841064E-2	4.522095E-1	-1.349335E-1	6.419373E-2	-1.251068E-1	-6.184082E-1	-3.014221E-1
1.918250E+10	-8.363037E-1	-5.236816E-2	4.438171E-1	-1.439972E-1	6.209564E-2	-1.241379E-1	-6.290283E-1	-2.925720E-1
1.940700E+10	-8.351746E-1	-4.711914E-2	4.323883E-1	-1.499023E-1	6.018066E-2	-1.273270E-1	-6.332397E-1	-2.792358E-1
1.963150E+10	-8.365784E-1	-4.229736E-2	4.251862E-1	-1.567535E-1	5.789185E-2	-1.260834E-1	-6.364441E-1	-2.756348E-1
1.985600E+10	-8.363037E-1	-3.942871E-2	4.178925E-1	-1.642456E-1	5.601501E-2	-1.265182E-1	-6.446228E-1	-2.648010E-1
2.008050E+10	-8.359375E-1	-3.213501E-2	4.068451E-1	-1.707001E-1	5.496979E-2	-1.268768E-1	-6.498718E-1	-2.536926E-1
2.030500E+10	-8.376160E-1	-2.679443E-2	3.991241E-1	-1.746979E-1	5.175018E-2	-1.279526E-1	-6.529846E-1	-2.478333E-1
2.052950E+10	-8.389282E-1	-2.215576E-2	3.892212E-1	-1.825409E-1	5.028534E-2	-1.285934E-1	-6.594238E-1	-2.376404E-1
2.075400E+10	-8.397522E-1	-1.693726E-2	3.809509E-1	-1.867981E-1	4.700470E-2	-1.275101E-1	-6.644287E-1	-2.277222E-1
2.097850E+10	-8.398132E-1	-1.135254E-2	3.724670E-1	-1.916656E-1	4.615021E-2	-1.284180E-1	-6.670532E-1	-2.183533E-1
2.120300E+10	-8.389893E-1	-8.850098E-3	3.648987E-1	-1.938782E-1	4.463196E-2	-1.280975E-1	-6.725159E-1	-2.134094E-1
2.142750E+10	-8.433228E-1	-8.544922E-4	3.563690E-1	-2.007141E-1	4.185486E-2	-1.280823E-1	-6.806335E-1	-2.003174E-1
2.165200E+10	-8.418884E-1	5.523682E-3	3.478241E-1	-2.048492E-1	4.090118E-2	-1.289291E-1	-6.819153E-1	-1.926270E-1
2.187650E+10	-8.399048E-1	9.277344E-3	3.405304E-1	-2.090759E-1	3.857422E-2	-1.284790E-1	-6.860352E-1	-1.833801E-1
2.210100E+10	-8.443298E-1	1.605225E-2	3.319397E-1	-2.127228E-1	3.451538E-2	-1.280212E-1	-6.923218E-1	-1.734924E-1
2.232550E+10	-8.416748E-1	2.078247E-2	3.234558E-1	-2.170410E-1	3.521729E-2	-1.292267E-1	-6.938171E-1	-1.613464E-1
2.255000E+10	-8.435669E-1	2.694702E-2	3.144226E-1	-2.219849E-1	3.142548E-2	-1.289597E-1	-6.979980E-1	-1.561584E-1
2.277450E+10	-8.428650E-1	2.835083E-2	3.086090E-1	-2.250977E-1	3.060913E-2	-1.288376E-1	-7.036133E-1	-1.420898E-1
2.299900E+10	-8.434448E-1	3.485107E-2	3.013458E-1	-2.275238E-1	2.871704E-2	-1.314468E-1	-7.029114E-1	-1.324463E-1
2.322350E+10	-8.421021E-1	4.110718E-2	2.930298E-1	-2.326050E-1	2.681732E-2	-1.310501E-1	-7.072754E-1	-1.248169E-1
2.344800E+10	-8.424683E-1	4.467773E-2	2.852936E-1	-2.340088E-1	2.539825E-2	-1.315384E-1	-7.120972E-1	-1.119385E-1
2.367250E+10	-8.432312E-1	5.160522E-2	2.763214E-1	-2.371368E-1	2.385712E-2	-1.309586E-1	-7.110596E-1	-1.014099E-1
2.389700E+10	-8.418579E-1	5.444336E-2	2.687225E-1	-2.394714E-1	1.966095E-2	-1.297913E-1	-7.166443E-1	-9.146118E-2
2.412150E+10	-8.397217E-1	5.914307E-2	2.615204E-1	-2.423859E-1	1.737976E-2	-1.301041E-1	-7.142639E-1	-7.852173E-2
2.434600E+10	-8.436584E-1	6.405640E-2	2.520447E-1	-2.448425E-1	1.623535E-2	-1.296844E-1	-7.152405E-1	-7.275391E-2
2.457050E+10	-8.397522E-1	6.985474E-2	2.469864E-1	-2.481461E-1	1.372528E-2	-1.323395E-1	-7.192383E-1	-6.256104E-2
2.479500E+10	-8.412170E-1	7.678223E-2	2.369843E-1	-2.481918E-1	1.215363E-2	-1.312408E-1	-7.189026E-1	-4.925537E-2
2.501950E+10	-8.408508E-1	8.001709E-2	2.300415E-1	-2.514191E-1	8.644104E-3	-1.303329E-1	-7.144775E-1	-4.269409E-2
2.524400E+10	-8.402405E-1	8.679199E-2	2.240067E-1	-2.498398E-1	7.881165E-3	-1.297836E-1	-7.192078E-1	-3.442383E-2
2.546850E+10	-8.392029E-1	9.216309E-2	2.151031E-1	-2.511444E-1	5.073547E-3	-1.279907E-1	-7.188721E-1	-2.258301E-2
2.569300E+10	-8.378296E-1	9.399414E-2	2.078400E-1	-2.535095E-1	3.990173E-3	-1.262665E-1	-7.216492E-1	-1.419067E-2
2.591750E+10	-8.419495E-1	9.939575E-2	2.023621E-1	-2.551270E-1	3.501892E-3	-1.299667E-1	-7.215576E-1	-7.843018E-3
2.614200E+10	-8.395081E-1	1.054687E-1	1.958923E-1	-2.548523E-1	6.713867E-4	-1.292191E-1	-7.239685E-1	6.622314E-3
2.636650E+10	-8.388367E-1	1.082764E-1	1.889648E-1	-2.556152E-1	3.662109E-4	-1.279144E-1	-7.217407E-1	1.922607E-2
2.659100E+10	-8.361511E-1	1.137390E-1	1.842499E-1	-2.575073E-1	-2.662659E-3	-1.261139E-1	-7.202759E-1	2.777100E-2
2.681550E+10	-8.387451E-1	1.159668E-1	1.763458E-1	-2.564850E-1	-5.493164E-3	-1.281433E-1	-7.225952E-1	3.497314E-2
2.704000E+10	-8.366699E-1	1.232300E-1	1.712952E-1	-2.579193E-1	-7.316589E-3	-1.261139E-1	-7.217712E-1	4.840088E-2
2.726450E+10	-8.348694E-1	1.276855E-1	1.639557E-1	-2.587585E-1	-1.033020E-2	-1.253586E-1	-7.133179E-1	5.932617E-2
2.748900E+10	-8.352661E-1	1.278992E-1	1.563110E-1	-2.576599E-1	-1.297760E-2	-1.280060E-1	-7.165222E-1	6.338501E-2
2.771350E+10	-8.340454E-1	1.357422E-1	1.500244E-1	-2.616119E-1	-1.354980E-2	-1.267624E-1	-7.162476E-1	7.598877E-2
2.793800E+10	-8.335876E-1	1.415405E-1	1.458740E-1	-2.591705E-1	-1.435471E-2	-1.245308E-1	-7.149353E-1	8.566284E-2
2.816250E+10	-8.327332E-1	1.468506E-1	1.386566E-1	-2.582703E-1	-1.680756E-2	-1.244736E-1	-7.146912E-1	9.109497E-2
2.838700E+10	-8.308411E-1	1.520386E-1	1.332397E-1	-2.598724E-1	-1.799774E-2	-1.230736E-1	-7.094116E-1	1.029053E-1
2.861150E+10	-8.293152E-1	1.534119E-1	1.245880E-1	-2.576752E-1	-2.258301E-2	-1.231308E-1	-7.072144E-1	1.140442E-1
2.883600E+10	-8.286133E-1	1.591492E-1	1.207275E-1	-2.588043E-1	-2.058411E-2	-1.225357E-1	-7.062683E-1	1.158447E-1
2.906050E+10	-8.298950E-1	1.641541E-1	1.147308E-1	-2.561188E-1	-2.486038E-2	-1.230011E-1	-7.044678E-1	1.300964E-1
2.928500E+10	-8.276367E-1	1.685791E-1	1.085510E-1	-2.581940E-1	-2.581024E-2	-1.196251E-1	-7.015991E-1	1.370850E-1
2.950950E+10	-8.262939E-1	1.750488E-1	1.064606E-1	-2.582550E-1	-2.837753E-2	-1.190262E-1	-7.005005E-1	1.425476E-1
2.973400E+10	-8.257751E-1	1.766663E-1	9.960937E-2	-2.563324E-1	-3.058243E-2	-1.222076E-1	-6.994324E-1	1.594238E-1
2.995850E+10	-8.208008E-1	1.824951E-1	9.390259E-2	-2.563934E-1	-3.197479E-2	-1.218147E-1	-6.954956E-1	1.667175E-1
3.018300E+10	-8.206482E-1	1.864319E-1	8.879089E-2	-2.538300E-1	-3.120422E-2	-1.206894E-1	-6.946106E-1	1.795044E-1
3.040750E+10	-8.198853E-1	1.913147E-1	7.977295E-2	-2.530365E-1	-3.647995E-2	-1.186600E-1	-6.928711E-1	1.853027E-1
3.063200E+10	-8.178101E-1	1.929321E-1	7.754517E-2	-2.522278E-1	-3.160095E-2	-1.187668E-1	-6.860352E-1	1.975708E-1
3.085650E+10	-8.208008E-1	2.007141E-1	7.575989E-2	-2.520599E-1	-3.788757E-2	-1.209869E-1	-6.815796E-1	2.076721E-1
3.108100E+10	-8.148499E-1	2.037964E-1	6.788635E-2	-2.519379E-1	-4.038620E-2	-1.160851E-1	-6.808777E-1	2.189941E-1
3.130550E+10	-8.112793E-1	2.088013E-1	6.147766E-2	-2.527313E-1	-3.960037E-2	-1.160774E-1	-6.736755E-1	2.262268E-1
3.153000E+10	-8.160095E-1	2.095642E-1	5.655670E-2	-2.488022E-1	-4.373932E-2	-1.150589E-1	-6.741333E-1	2.342529E-1
3.175450E+10	-8.110352E-1	2.181091E-1	4.826355E-2	-2.476959E-1	-4.499054E-2	-1.135178E-1	-6.637573E-1	2.436523E-1
3.197900E+10	-8.100891E-1	2.195129E-1	4.592896E-2	-2.481232E-1	-4.920578E-2	-1.136131E-1	-6.573181E-1	2.544556E-1
3.220350E+10	-8.129578E-1	2.274170E-1	4.148865E-2	-2.490692E-1	-4.986572E-2	-1.135826E-1	-6.486511E-1	2.599182E-1
3.242800E+10	-8.098145E-1	2.258911E-1	3.772736E-2	-2.448044E-1	-5.239487E-2	-1.121979E-1	-6.484680E-1	2.693787E-1
3.265250E+10	-8.075562E-1	2.335205E-1	3.102112E-2	-2.465973E-1	-5.814362E-2	-1.087723E-1	-6.373596E-1	2.743225E-1
3.287700E+10	-8.058777E-1	2.402649E-1	3.067017E-2	-2.401123E-1	-5.469131E-2	-1.074371E-1	-6.401062E-1	2.807312E-1
3.310150E+10	-8.002319E-1	2.436829E-1	2.095032E-2	-2.380524E-1	-5.868530E-2	-1.081772E-1	-6.274719E-1	2.889709E-1
3.332600E+10	-8.010864E-1	2.464294E-1	1.727295E-2	-2.339020E-1	-6.343842E-2	-1.067047E-1	-6.213074E-1	2.949219E-1
3.355050E+10	-7.968445E-1	2.492981E-1	1.318359E-2	-2.315598E-1	-6.140137E-2	-1.081047E-1	-6.195679E-1	3.024292E-1
3.377500E+10	-7.962646E-1	2.572632E-1	1.265717E-2	-2.346573E-1	-5.751038E-2	-1.086235E-1	-6.145020E-1	3.078308E-1
3.399950E+10	-7.921143E-1	2.586060E-1	2.685547E-3	-2.324066E-1	-6.240082E-2	-1.018677E-1	-6.152039E-1	3.187866E-1
3.422400E+10	-7.909546E-1	2.605896E-1	8.239746E-4	-2.324753E-1	-6.658936E-2	-1.060104E-1	-6.030273E-1	3.319702E-1
3.444850E+10	-7.929382E-1	2.674255E-1	-2.395630E-3	-2.293396E-1	-6.714630E-2	-1.033592E-1	-5.998840E-1	3.408813E-1
3.467300E+10	-7.889099E-1	2.723389E-1	2.441406E-4	-2.297058E-1	-6.724930E-2	-1.016464E-1	-5.926208E-1	3.475037E-1
3.489750E+10	-7.872620E-1	2.761536E-1	-1.101685E-2	-2.288208E-1	-7.049179E-2	-9.859085E-2	-5.898743E-1	3.558655E-1
3.512200E+10	-7.823181E-1	2.776184E-1	-1.734161E-2	-2.237320E-1	-7.295609E-2	-9.442520E-2	-5.747681E-1	3.591919E-1
3.534650E+10	-7.825317E-1	2.810364E-1	-1.485443E-2	-2.225494E-1	-8.220673E-2	-9.783173E-2	-5.748596E-1	3.671570E-1
3.557100E+10	-7.835693E-1	2.866821E-1	-2.289581E-2	-2.164307E-1	-8.273315E-2	-9.990311E-2	-5.634460E-1	3.763123E-1
3.579550E+10	-7.768250E-1	2.903748E-1	-2.804565E-2	-2.206802E-1	-8.249664E-2	-9.638214E-2	-5.535278E-1	3.796692E-1
3.602000E+10	-7.712097E-1	2.956543E-1	-2.573395E-2	-2.133102E-1	-8.150101E-2	-9.322739E-2	-5.482483E-1	3.861389E-1
3.624450E+10	-7.729797E-1	2.991638E-1	-3.897095E-2	-2.072449E-1	-8.438110E-2	-9.378815E-2	-5.426331E-1	3.890076E-1
3.646900E+10	-7.698059E-1	3.007202E-1	-3.672791E-2	-2.071304E-1	-8.716965E-2	-9.083176E-2	-5.351562E-1	4.005127E-1
3.669350E+10	-7.661438E-1	3.037109E-1	-4.238129E-2	-2.080307E-1	-9.001541E-2	-9.119797E-2	-5.227966E-1	4.016418E-1
3.691800E+10	-7.674866E-1	3.099976E-1	-4.534149E-2	-2.067719E-1	-9.104156E-2	-9.130096E-2	-5.134277E-1	4.137268E-1
3.714250E+10	-7.593384E-1	3.097839E-1	-4.386902E-2	-2.018127E-1	-9.095001E-2	-8.871841E-2	-5.058289E-1	4.199219E-1
3.736700E+10	-7.540588E-1	3.154297E-1	-5.222321E-2	-1.950684E-1	-9.976959E-2	-8.047485E-2	-4.977112E-1	4.270325E-1
3.759150E+10	-7.523804E-1	3.210144E-1	-5.502319E-2	-1.927490E-1	-9.698486E-2	-8.031464E-2	-4.921417E-1	4.313049E-1
3.781600E+10	-7.488403E-1	3.217163E-1	-6.377411E-2	-1.967773E-1	-1.013298E-1	-7.958603E-2	-4.831848E-1	4.346466E-1
3.804050E+10	-7.516174E-1	3.251648E-1	-6.071472E-2	-1.854630E-1	-1.024551E-1	-8.059692E-2	-4.685974E-1	4.423523E-1
3.826500E+10	-7.489014E-1	3.321838E-1	-6.335449E-2	-1.859589E-1	-9.984589E-2	-7.307434E-2	-4.622192E-1	4.450836E-1
3.848950E+10	-7.434082E-1	3.353882E-1	-6.565857E-2	-1.836700E-1	-1.064682E-1	-7.354355E-2	-4.457397E-1	4.515381E-1
3.871400E+10	-7.418823E-1	3.321228E-1	-6.738281E-2	-1.810837E-1	-1.106186E-1	-6.995392E-2	-4.426727E-1	4.536285E-1
3.893850E+10	-7.380066E-1	3.365479E-1	-7.485199E-2	-1.778564E-1	-1.079369E-1	-7.553482E-2	-4.234009E-1	4.557037E-1
