!Date: 10/28/2005, 12:46 PM

!Vgs = -5.000000E+0
!Vds = 1.250000E+1
!Ig = -7.341100E-5
!Id = 1.434400E-2

# HZ S RI R 50
1.000000E+8	9.815979E-1	-8.444214E-2	-3.871948E+0	1.921387E-1	9.427071E-4	7.983208E-3	8.215637E-1	-4.183960E-2
3.245000E+8	9.421387E-1	-2.498474E-1	-3.733887E+0	7.308350E-1	6.863594E-3	2.653313E-2	7.695618E-1	-1.334839E-1
5.490000E+8	8.764038E-1	-3.978882E-1	-3.545898E+0	1.147339E+0	1.488495E-2	4.196167E-2	7.435303E-1	-1.997375E-1
7.735000E+8	7.918701E-1	-5.257263E-1	-3.287598E+0	1.496826E+0	2.510834E-2	5.449486E-2	7.042847E-1	-2.605896E-1
9.980000E+8	6.970215E-1	-6.299438E-1	-2.978760E+0	1.774170E+0	3.732300E-2	6.463242E-2	6.632996E-1	-3.084412E-1
1.222500E+9	5.924072E-1	-7.126160E-1	-2.668823E+0	1.997681E+0	4.921341E-2	7.115936E-2	6.213989E-1	-3.511353E-1
1.447000E+9	4.862061E-1	-7.774658E-1	-2.364624E+0	2.154297E+0	6.150055E-2	7.609558E-2	5.810547E-1	-3.887634E-1
1.671500E+9	3.808289E-1	-8.223267E-1	-2.045410E+0	2.244873E+0	7.371902E-2	7.884598E-2	5.365906E-1	-4.196167E-1
1.896000E+9	2.796326E-1	-8.523560E-1	-1.761841E+0	2.303833E+0	8.631516E-2	7.996750E-2	4.946899E-1	-4.412079E-1
2.120500E+9	1.852722E-1	-8.691711E-1	-1.508789E+0	2.344849E+0	9.849167E-2	7.917786E-2	4.571228E-1	-4.608765E-1
2.345000E+9	9.579468E-2	-8.734741E-1	-1.256104E+0	2.328979E+0	1.093178E-1	7.632828E-2	4.210205E-1	-4.759674E-1
2.569500E+9	1.620483E-2	-8.683167E-1	-1.026489E+0	2.302368E+0	1.178970E-1	7.244873E-2	3.866119E-1	-4.884644E-1
2.794000E+9	-5.593872E-2	-8.609619E-1	-8.300781E-1	2.268066E+0	1.266632E-1	6.806183E-2	3.554687E-1	-4.990692E-1
3.018500E+9	-1.185608E-1	-8.476868E-1	-6.490479E-1	2.204590E+0	1.333618E-1	6.340027E-2	3.241272E-1	-5.076904E-1
3.243000E+9	-1.774597E-1	-8.323975E-1	-4.843750E-1	2.141357E+0	1.397095E-1	5.807495E-2	2.940063E-1	-5.156555E-1
3.467500E+9	-2.318420E-1	-8.155823E-1	-3.419189E-1	2.069946E+0	1.444855E-1	5.308533E-2	2.696533E-1	-5.201721E-1
3.692000E+9	-2.814636E-1	-7.946777E-1	-2.121582E-1	1.997437E+0	1.498718E-1	4.866791E-2	2.454529E-1	-5.279541E-1
3.916500E+9	-3.256836E-1	-7.726440E-1	-9.790039E-2	1.924011E+0	1.545563E-1	4.273987E-2	2.199402E-1	-5.328979E-1
4.141000E+9	-3.630676E-1	-7.518921E-1	6.958008E-3	1.852722E+0	1.579285E-1	3.655243E-2	1.971130E-1	-5.369873E-1
4.365500E+9	-3.954773E-1	-7.315369E-1	9.576416E-2	1.769287E+0	1.608582E-1	3.131866E-2	1.751404E-1	-5.403137E-1
4.590000E+9	-4.291992E-1	-7.112122E-1	1.738281E-1	1.695923E+0	1.635971E-1	2.682495E-2	1.539001E-1	-5.433960E-1
4.814500E+9	-4.572144E-1	-6.904602E-1	2.441406E-1	1.615662E+0	1.667023E-1	2.170563E-2	1.353149E-1	-5.476074E-1
5.039000E+9	-4.858398E-1	-6.683960E-1	3.081055E-1	1.549011E+0	1.686401E-1	1.548767E-2	1.151123E-1	-5.527649E-1
5.263500E+9	-5.087280E-1	-6.479797E-1	3.626099E-1	1.478210E+0	1.692657E-1	1.012421E-2	9.411621E-2	-5.530090E-1
5.488000E+9	-5.293884E-1	-6.287842E-1	4.111938E-1	1.413818E+0	1.707001E-1	5.386353E-3	7.742310E-2	-5.542908E-1
5.712500E+9	-5.490723E-1	-6.102905E-1	4.553223E-1	1.343262E+0	1.722107E-1	5.264282E-4	5.944824E-2	-5.566711E-1
5.937000E+9	-5.668640E-1	-5.904846E-1	4.926758E-1	1.278625E+0	1.727066E-1	-4.501343E-3	4.092407E-2	-5.596619E-1
6.161500E+9	-5.829468E-1	-5.742187E-1	5.236816E-1	1.215698E+0	1.732101E-1	-9.902954E-3	2.523804E-2	-5.626221E-1
6.386000E+9	-6.007385E-1	-5.558167E-1	5.560303E-1	1.157776E+0	1.729355E-1	-1.475525E-2	8.636475E-3	-5.650940E-1
6.610500E+9	-6.133423E-1	-5.403137E-1	5.828247E-1	1.102356E+0	1.727600E-1	-1.911926E-2	-9.521484E-3	-5.674438E-1
6.835000E+9	-6.264648E-1	-5.250549E-1	6.056519E-1	1.049133E+0	1.725998E-1	-2.358246E-2	-2.642822E-2	-5.672302E-1
7.059500E+9	-6.376648E-1	-5.094910E-1	6.225586E-1	9.909973E-1	1.726608E-1	-2.792358E-2	-4.019165E-2	-5.697632E-1
7.284000E+9	-6.488342E-1	-4.953308E-1	6.400146E-1	9.418945E-1	1.718063E-1	-3.202057E-2	-5.880737E-2	-5.720215E-1
7.508500E+9	-6.592102E-1	-4.805603E-1	6.539612E-1	8.903809E-1	1.708603E-1	-3.691101E-2	-7.565308E-2	-5.700378E-1
7.733000E+9	-6.688843E-1	-4.659119E-1	6.644592E-1	8.421631E-1	1.699753E-1	-4.012299E-2	-8.947754E-2	-5.720825E-1
7.957500E+9	-6.777649E-1	-4.520569E-1	6.743164E-1	7.942200E-1	1.695557E-1	-4.469299E-2	-1.071167E-1	-5.725403E-1
8.182000E+9	-6.869812E-1	-4.372253E-1	6.841431E-1	7.513428E-1	1.681595E-1	-4.817200E-2	-1.230164E-1	-5.732422E-1
8.406500E+9	-6.934509E-1	-4.264526E-1	6.908264E-1	7.098083E-1	1.675110E-1	-5.188751E-2	-1.372986E-1	-5.723877E-1
8.631000E+9	-7.016602E-1	-4.142761E-1	6.972046E-1	6.697693E-1	1.654816E-1	-5.573273E-2	-1.540833E-1	-5.714417E-1
8.855500E+9	-7.079163E-1	-4.026489E-1	6.988220E-1	6.279907E-1	1.645660E-1	-5.878448E-2	-1.697998E-1	-5.704956E-1
9.080001E+9	-7.149963E-1	-3.925171E-1	7.005005E-1	5.879211E-1	1.631317E-1	-6.226349E-2	-1.829529E-1	-5.671997E-1
9.304500E+9	-7.215881E-1	-3.770142E-1	7.017822E-1	5.533447E-1	1.615067E-1	-6.578064E-2	-1.986389E-1	-5.663452E-1
9.529000E+9	-7.269897E-1	-3.685303E-1	7.011719E-1	5.186157E-1	1.605835E-1	-6.912994E-2	-2.149353E-1	-5.638123E-1
9.753500E+9	-7.326965E-1	-3.582764E-1	7.019653E-1	4.859924E-1	1.587067E-1	-7.157135E-2	-2.278442E-1	-5.617065E-1
9.978000E+9	-7.370605E-1	-3.487854E-1	6.976318E-1	4.530945E-1	1.559601E-1	-7.452393E-2	-2.417603E-1	-5.603943E-1
1.020250E+10	-7.423401E-1	-3.388977E-1	6.950378E-1	4.212341E-1	1.553040E-1	-7.793427E-2	-2.574463E-1	-5.554810E-1
1.042700E+10	-7.476807E-1	-3.283691E-1	6.915894E-1	3.915100E-1	1.520004E-1	-8.117676E-2	-2.703247E-1	-5.527344E-1
1.065150E+10	-7.522583E-1	-3.175964E-1	6.873169E-1	3.633423E-1	1.507721E-1	-8.378601E-2	-2.839355E-1	-5.510559E-1
1.087600E+10	-7.566223E-1	-3.089600E-1	6.838989E-1	3.391113E-1	1.484604E-1	-8.641815E-2	-2.976685E-1	-5.481873E-1
1.110050E+10	-7.611084E-1	-2.999573E-1	6.789551E-1	3.101807E-1	1.470871E-1	-8.839417E-2	-3.121338E-1	-5.439758E-1
1.132500E+10	-7.640381E-1	-2.919617E-1	6.735840E-1	2.848511E-1	1.449203E-1	-9.130096E-2	-3.229065E-1	-5.409851E-1
1.154950E+10	-7.679749E-1	-2.819824E-1	6.663513E-1	2.585449E-1	1.418839E-1	-9.329987E-2	-3.392639E-1	-5.349731E-1
1.177400E+10	-7.717285E-1	-2.722473E-1	6.612854E-1	2.359924E-1	1.409454E-1	-9.567261E-2	-3.516846E-1	-5.298157E-1
1.199850E+10	-7.743225E-1	-2.643127E-1	6.552429E-1	2.128906E-1	1.386337E-1	-9.845734E-2	-3.632812E-1	-5.269470E-1
1.222300E+10	-7.775574E-1	-2.572021E-1	6.474609E-1	1.918335E-1	1.361618E-1	-1.002808E-1	-3.765259E-1	-5.231018E-1
1.244750E+10	-7.801514E-1	-2.497253E-1	6.377869E-1	1.701050E-1	1.335678E-1	-1.026459E-1	-3.886719E-1	-5.158386E-1
1.267200E+10	-7.845154E-1	-2.405090E-1	6.303711E-1	1.499634E-1	1.320114E-1	-1.044006E-1	-3.992310E-1	-5.121155E-1
1.289650E+10	-7.865295E-1	-2.341919E-1	6.224670E-1	1.315308E-1	1.299820E-1	-1.061783E-1	-4.137878E-1	-5.061340E-1
1.312100E+10	-7.897034E-1	-2.250671E-1	6.133118E-1	1.118164E-1	1.276321E-1	-1.085205E-1	-4.251251E-1	-4.986572E-1
1.334550E+10	-7.921448E-1	-2.190552E-1	6.058350E-1	9.643555E-2	1.256409E-1	-1.099472E-1	-4.344025E-1	-4.958649E-1
1.357000E+10	-7.939453E-1	-2.103882E-1	5.973816E-1	7.794189E-2	1.228218E-1	-1.108627E-1	-4.485321E-1	-4.895477E-1
1.379450E+10	-7.962341E-1	-2.044678E-1	5.888977E-1	6.231689E-2	1.208382E-1	-1.140633E-1	-4.596405E-1	-4.800873E-1
1.401900E+10	-7.978516E-1	-1.975403E-1	5.820618E-1	4.876709E-2	1.194878E-1	-1.154480E-1	-4.673920E-1	-4.756317E-1
1.424350E+10	-8.008423E-1	-1.911011E-1	5.720215E-1	3.152466E-2	1.162605E-1	-1.170082E-1	-4.817047E-1	-4.703674E-1
1.446800E+10	-8.020020E-1	-1.840210E-1	5.633240E-1	1.687622E-2	1.142349E-1	-1.192741E-1	-4.919128E-1	-4.607239E-1
1.469250E+10	-8.034363E-1	-1.770325E-1	5.533142E-1	7.629395E-4	1.111870E-1	-1.197891E-1	-4.984131E-1	-4.546051E-1
1.491700E+10	-8.055420E-1	-1.699829E-1	5.445862E-1	-1.171875E-2	1.106071E-1	-1.208382E-1	-5.114136E-1	-4.487610E-1
1.514150E+10	-8.078613E-1	-1.626282E-1	5.344849E-1	-2.484131E-2	1.061134E-1	-1.222649E-1	-5.222473E-1	-4.371948E-1
1.536600E+10	-8.099365E-1	-1.560364E-1	5.269775E-1	-3.686523E-2	1.053200E-1	-1.236076E-1	-5.285339E-1	-4.321594E-1
1.559050E+10	-8.106995E-1	-1.512451E-1	5.165405E-1	-4.867554E-2	1.029510E-1	-1.251907E-1	-5.402222E-1	-4.251404E-1
1.581500E+10	-8.126526E-1	-1.437683E-1	5.049133E-1	-6.057739E-2	1.006165E-1	-1.257401E-1	-5.497131E-1	-4.153137E-1
1.603950E+10	-8.159180E-1	-1.373291E-1	4.956512E-1	-7.200623E-2	9.706116E-2	-1.266251E-1	-5.570374E-1	-4.081726E-1
1.626400E+10	-8.157349E-1	-1.304321E-1	4.879608E-1	-8.158875E-2	9.656525E-2	-1.285477E-1	-5.680237E-1	-4.029236E-1
1.648850E+10	-8.181763E-1	-1.252747E-1	4.790039E-1	-9.037781E-2	9.246063E-2	-1.296310E-1	-5.767822E-1	-3.897400E-1
1.671300E+10	-8.181763E-1	-1.182861E-1	4.692230E-1	-1.009216E-1	9.130859E-2	-1.314545E-1	-5.829163E-1	-3.839722E-1
1.693750E+10	-8.200073E-1	-1.136475E-1	4.602661E-1	-1.097870E-1	8.795166E-2	-1.319122E-1	-5.940247E-1	-3.766174E-1
1.716200E+10	-8.212280E-1	-1.073608E-1	4.499359E-1	-1.184540E-1	8.638763E-2	-1.321335E-1	-6.006470E-1	-3.648376E-1
1.738650E+10	-8.224487E-1	-1.007996E-1	4.427643E-1	-1.259003E-1	8.289337E-2	-1.333542E-1	-6.077881E-1	-3.554077E-1
1.761100E+10	-8.235474E-1	-9.609985E-2	4.331207E-1	-1.337585E-1	8.024597E-2	-1.343231E-1	-6.165161E-1	-3.488159E-1
1.783550E+10	-8.249817E-1	-8.892822E-2	4.246521E-1	-1.406403E-1	7.833099E-2	-1.351318E-1	-6.237488E-1	-3.385010E-1
1.806000E+10	-8.262329E-1	-8.489990E-2	4.158936E-1	-1.497650E-1	7.807159E-2	-1.357040E-1	-6.292114E-1	-3.293762E-1
1.828450E+10	-8.262024E-1	-7.971191E-2	4.064789E-1	-1.566162E-1	7.503510E-2	-1.365585E-1	-6.374207E-1	-3.225708E-1
1.850900E+10	-8.286743E-1	-7.287598E-2	3.975220E-1	-1.613770E-1	7.228851E-2	-1.347580E-1	-6.454468E-1	-3.107605E-1
1.873350E+10	-8.305664E-1	-6.600952E-2	3.892822E-1	-1.699219E-1	7.014465E-2	-1.377029E-1	-6.500549E-1	-3.005676E-1
1.895800E+10	-8.293152E-1	-6.072998E-2	3.807526E-1	-1.757507E-1	6.840515E-2	-1.389542E-1	-6.567688E-1	-2.952576E-1
1.918250E+10	-8.309021E-1	-5.596924E-2	3.726807E-1	-1.813354E-1	6.542969E-2	-1.395187E-1	-6.645813E-1	-2.837524E-1
1.940700E+10	-8.298340E-1	-5.053711E-2	3.610687E-1	-1.868896E-1	6.372833E-2	-1.384888E-1	-6.688843E-1	-2.695007E-1
1.963150E+10	-8.321838E-1	-4.629517E-2	3.512726E-1	-1.927490E-1	6.147003E-2	-1.394272E-1	-6.742249E-1	-2.649231E-1
1.985600E+10	-8.319092E-1	-4.107666E-2	3.456879E-1	-1.973877E-1	5.805969E-2	-1.401749E-1	-6.815796E-1	-2.534790E-1
2.008050E+10	-8.328247E-1	-3.488159E-2	3.363647E-1	-2.019043E-1	5.755615E-2	-1.404495E-1	-6.855774E-1	-2.421265E-1
2.030500E+10	-8.341980E-1	-3.051758E-2	3.295441E-1	-2.043610E-1	5.494690E-2	-1.413651E-1	-6.885376E-1	-2.326660E-1
2.052950E+10	-8.338013E-1	-2.316284E-2	3.187256E-1	-2.102356E-1	5.291748E-2	-1.415787E-1	-6.959534E-1	-2.257385E-1
2.075400E+10	-8.353882E-1	-1.947021E-2	3.117828E-1	-2.131042E-1	4.823303E-2	-1.407547E-1	-6.978149E-1	-2.133179E-1
2.097850E+10	-8.360901E-1	-1.483154E-2	3.041229E-1	-2.173920E-1	4.763794E-2	-1.426163E-1	-7.018738E-1	-2.025146E-1
2.120300E+10	-8.361816E-1	-1.135254E-2	2.939148E-1	-2.201843E-1	4.492950E-2	-1.392746E-1	-7.082825E-1	-1.974792E-1
2.142750E+10	-8.383789E-1	-4.058838E-3	2.885590E-1	-2.224274E-1	4.357910E-2	-1.420593E-1	-7.144165E-1	-1.848755E-1
2.165200E+10	-8.375854E-1	2.777100E-3	2.812958E-1	-2.275696E-1	4.030609E-2	-1.406097E-1	-7.155457E-1	-1.747437E-1
2.187650E+10	-8.364868E-1	7.354736E-3	2.737579E-1	-2.312622E-1	3.977966E-2	-1.421356E-1	-7.196960E-1	-1.648254E-1
2.210100E+10	-8.372192E-1	1.229858E-2	2.669525E-1	-2.330475E-1	3.421021E-2	-1.425247E-1	-7.270203E-1	-1.553040E-1
2.232550E+10	-8.362427E-1	1.708984E-2	2.580261E-1	-2.355347E-1	3.523254E-2	-1.421509E-1	-7.266541E-1	-1.405029E-1
2.255000E+10	-8.382263E-1	2.285767E-2	2.516479E-1	-2.381592E-1	3.118896E-2	-1.416397E-1	-7.291260E-1	-1.333618E-1
2.277450E+10	-8.382263E-1	2.902222E-2	2.426224E-1	-2.394791E-1	3.012848E-2	-1.430664E-1	-7.349243E-1	-1.196289E-1
2.299900E+10	-8.390198E-1	3.344727E-2	2.353973E-1	-2.428436E-1	2.755737E-2	-1.413116E-1	-7.339172E-1	-1.110840E-1
2.322350E+10	-8.389893E-1	3.863525E-2	2.302094E-1	-2.446213E-1	2.658844E-2	-1.421280E-1	-7.403259E-1	-1.025085E-1
2.344800E+10	-8.390198E-1	4.165649E-2	2.241669E-1	-2.451248E-1	2.590179E-2	-1.435013E-1	-7.420349E-1	-8.856201E-2
2.367250E+10	-8.376465E-1	4.739380E-2	2.154694E-1	-2.495804E-1	2.198792E-2	-1.426163E-1	-7.399902E-1	-7.559204E-2
2.389700E+10	-8.386230E-1	5.184937E-2	2.080231E-1	-2.502441E-1	1.935577E-2	-1.426773E-1	-7.459717E-1	-6.945801E-2
2.412150E+10	-8.399658E-1	5.725098E-2	1.990051E-1	-2.491989E-1	1.536560E-2	-1.425171E-1	-7.439575E-1	-5.474854E-2
2.434600E+10	-8.388367E-1	6.469727E-2	1.949615E-1	-2.507477E-1	1.535034E-2	-1.432800E-1	-7.425842E-1	-4.602051E-2
2.457050E+10	-8.374939E-1	6.701660E-2	1.866302E-1	-2.545471E-1	1.143646E-2	-1.437836E-1	-7.465210E-1	-3.616333E-2
2.479500E+10	-8.382568E-1	7.376099E-2	1.788635E-1	-2.562103E-1	8.987427E-3	-1.426010E-1	-7.433167E-1	-2.041626E-2
2.501950E+10	-8.354797E-1	7.788086E-2	1.717224E-1	-2.547302E-1	8.384705E-3	-1.427536E-1	-7.410278E-1	-1.309204E-2
2.524400E+10	-8.356934E-1	8.258057E-2	1.652069E-1	-2.548218E-1	3.982544E-3	-1.395874E-1	-7.461243E-1	-3.967285E-3
2.546850E+10	-8.356934E-1	8.816528E-2	1.593323E-1	-2.548676E-1	3.028870E-3	-1.409149E-1	-7.440491E-1	5.310059E-3
2.569300E+10	-8.339233E-1	9.106445E-2	1.540985E-1	-2.533417E-1	4.463196E-3	-1.399994E-1	-7.453308E-1	1.425171E-2
2.591750E+10	-8.371582E-1	9.707642E-2	1.463013E-1	-2.562866E-1	-6.484985E-4	-1.387253E-1	-7.460327E-1	2.441406E-2
2.614200E+10	-8.349915E-1	1.021729E-1	1.410980E-1	-2.539673E-1	-3.036499E-3	-1.391220E-1	-7.469482E-1	3.781128E-2
2.636650E+10	-8.344727E-1	1.049500E-1	1.349030E-1	-2.548065E-1	-4.066467E-3	-1.409683E-1	-7.493591E-1	4.885864E-2
2.659100E+10	-8.328552E-1	1.101990E-1	1.304779E-1	-2.565613E-1	-5.653381E-3	-1.390610E-1	-7.422791E-1	5.728149E-2
2.681550E+10	-8.327942E-1	1.143799E-1	1.235504E-1	-2.569733E-1	-8.941650E-3	-1.402130E-1	-7.454834E-1	6.488037E-2
2.704000E+10	-8.320007E-1	1.219482E-1	1.157990E-1	-2.554321E-1	-1.074982E-2	-1.363144E-1	-7.439270E-1	8.300781E-2
2.726450E+10	-8.318787E-1	1.250610E-1	1.137390E-1	-2.570801E-1	-1.258850E-2	-1.373672E-1	-7.351685E-1	9.240723E-2
2.748900E+10	-8.287048E-1	1.259155E-1	1.074677E-1	-2.546082E-1	-1.478577E-2	-1.387024E-1	-7.368774E-1	9.838867E-2
2.771350E+10	-8.300476E-1	1.335754E-1	1.001892E-1	-2.530975E-1	-1.554108E-2	-1.364441E-1	-7.364502E-1	1.101990E-1
2.793800E+10	-8.307190E-1	1.378784E-1	9.297180E-2	-2.551117E-1	-1.959229E-2	-1.373825E-1	-7.335205E-1	1.172791E-1
2.816250E+10	-8.268433E-1	1.414490E-1	8.848572E-2	-2.532654E-1	-1.846313E-2	-1.354446E-1	-7.329712E-1	1.287537E-1
2.838700E+10	-8.271790E-1	1.480713E-1	8.164978E-2	-2.525940E-1	-2.239990E-2	-1.351318E-1	-7.278137E-1	1.398010E-1
2.861150E+10	-8.270264E-1	1.523437E-1	7.997131E-2	-2.505188E-1	-2.363586E-2	-1.334839E-1	-7.204590E-1	1.510620E-1
2.883600E+10	-8.255310E-1	1.573181E-1	7.150269E-2	-2.523193E-1	-3.012848E-2	-1.334381E-1	-7.232361E-1	1.556091E-1
2.906050E+10	-8.258972E-1	1.616516E-1	6.797028E-2	-2.497406E-1	-2.756500E-2	-1.303406E-1	-7.200928E-1	1.673889E-1
2.928500E+10	-8.242798E-1	1.669006E-1	6.369781E-2	-2.475204E-1	-2.838135E-2	-1.318054E-1	-7.142639E-1	1.726074E-1
2.950950E+10	-8.225403E-1	1.730347E-1	5.509186E-2	-2.473755E-1	-3.208923E-2	-1.283798E-1	-7.150879E-1	1.825562E-1
2.973400E+10	-8.237915E-1	1.745300E-1	5.058289E-2	-2.479248E-1	-3.498840E-2	-1.290512E-1	-7.134705E-1	1.956177E-1
2.995850E+10	-8.184814E-1	1.811218E-1	4.669952E-2	-2.451630E-1	-3.276062E-2	-1.301422E-1	-7.099304E-1	2.068481E-1
3.018300E+10	-8.161926E-1	1.828308E-1	4.528046E-2	-2.437210E-1	-3.717041E-2	-1.293716E-1	-7.078857E-1	2.200928E-1
3.040750E+10	-8.159180E-1	1.903381E-1	3.698730E-2	-2.433548E-1	-3.651428E-2	-1.259384E-1	-7.011108E-1	2.268677E-1
3.063200E+10	-8.147583E-1	1.930847E-1	3.353119E-2	-2.434692E-1	-3.797913E-2	-1.279755E-1	-7.015686E-1	2.377319E-1
3.085650E+10	-8.138733E-1	1.983337E-1	2.919769E-2	-2.406769E-1	-4.351807E-2	-1.281662E-1	-6.896667E-1	2.450867E-1
3.108100E+10	-8.135071E-1	2.018433E-1	2.555847E-2	-2.379684E-1	-4.843903E-2	-1.258163E-1	-6.887207E-1	2.604980E-1
3.130550E+10	-8.104553E-1	2.048950E-1	1.910400E-2	-2.388840E-1	-5.151367E-2	-1.258163E-1	-6.770630E-1	2.661133E-1
3.153000E+10	-8.133850E-1	2.081909E-1	1.543427E-2	-2.363892E-1	-5.250549E-2	-1.250229E-1	-6.805725E-1	2.716064E-1
3.175450E+10	-8.104248E-1	2.125549E-1	1.209259E-2	-2.342529E-1	-5.123901E-2	-1.249771E-1	-6.732178E-1	2.847595E-1
3.197900E+10	-8.083801E-1	2.190552E-1	3.677368E-3	-2.310562E-1	-5.789185E-2	-1.215706E-1	-6.590576E-1	2.924805E-1
3.220350E+10	-8.082581E-1	2.212830E-1	1.525879E-4	-2.312851E-1	-6.040573E-2	-1.193314E-1	-6.581116E-1	3.004456E-1
3.242800E+10	-8.091125E-1	2.286377E-1	-3.326416E-3	-2.311859E-1	-5.548096E-2	-1.221504E-1	-6.472778E-1	3.115540E-1
3.265250E+10	-8.047180E-1	2.292786E-1	-5.966187E-3	-2.267303E-1	-6.269836E-2	-1.201897E-1	-6.401367E-1	3.177490E-1
3.287700E+10	-8.013916E-1	2.358093E-1	-1.155853E-2	-2.250748E-1	-6.117249E-2	-1.158371E-1	-6.420593E-1	3.222656E-1
3.310150E+10	-8.027039E-1	2.375488E-1	-1.484680E-2	-2.188339E-1	-6.599808E-2	-1.144981E-1	-6.333008E-1	3.330078E-1
3.332600E+10	-7.942810E-1	2.476807E-1	-2.014160E-2	-2.181549E-1	-7.019043E-2	-1.148872E-1	-6.217957E-1	3.365173E-1
3.355050E+10	-7.968445E-1	2.501221E-1	-2.544403E-2	-2.170944E-1	-6.874466E-2	-1.137848E-1	-6.177368E-1	3.444519E-1
3.377500E+10	-7.970886E-1	2.530518E-1	-2.342224E-2	-2.166672E-1	-6.928253E-2	-1.122971E-1	-6.108704E-1	3.496094E-1
3.399950E+10	-7.914734E-1	2.574768E-1	-2.580261E-2	-2.124557E-1	-7.096100E-2	-1.103363E-1	-6.141357E-1	3.620300E-1
3.422400E+10	-7.868652E-1	2.594299E-1	-3.098297E-2	-2.115707E-1	-7.283783E-2	-1.091499E-1	-6.068420E-1	3.700867E-1
3.444850E+10	-7.855225E-1	2.639160E-1	-3.683472E-2	-2.072372E-1	-7.203293E-2	-1.086998E-1	-5.920410E-1	3.775635E-1
3.467300E+10	-7.846985E-1	2.670593E-1	-3.704834E-2	-2.105331E-1	-7.550430E-2	-1.090851E-1	-5.900269E-1	3.823547E-1
3.489750E+10	-7.821655E-1	2.709351E-1	-4.489136E-2	-2.063522E-1	-7.761002E-2	-1.060219E-1	-5.820923E-1	3.959656E-1
3.512200E+10	-7.845154E-1	2.771606E-1	-4.484558E-2	-2.044449E-1	-8.168411E-2	-1.055412E-1	-5.684204E-1	4.004822E-1
3.534650E+10	-7.789307E-1	2.778931E-1	-5.027008E-2	-2.033157E-1	-8.000183E-2	-1.035233E-1	-5.654602E-1	4.050293E-1
3.557100E+10	-7.780457E-1	2.827759E-1	-5.444336E-2	-1.980972E-1	-8.634949E-2	-1.033516E-1	-5.525818E-1	4.161987E-1
3.579550E+10	-7.779541E-1	2.863159E-1	-5.696106E-2	-1.982498E-1	-8.940506E-2	-9.735489E-2	-5.444641E-1	4.241638E-1
3.602000E+10	-7.730103E-1	2.911072E-1	-6.019592E-2	-1.950989E-1	-9.099579E-2	-1.036682E-1	-5.411072E-1	4.244690E-1
3.624450E+10	-7.709961E-1	2.946167E-1	-6.421661E-2	-1.870117E-1	-8.826828E-2	-9.789276E-2	-5.319519E-1	4.283752E-1
3.646900E+10	-7.670898E-1	3.026123E-1	-6.828308E-2	-1.907043E-1	-9.722137E-2	-9.654999E-2	-5.197144E-1	4.382324E-1
3.669350E+10	-7.623596E-1	3.019104E-1	-7.048798E-2	-1.871719E-1	-9.748459E-2	-9.240341E-2	-5.093079E-1	4.466248E-1
3.691800E+10	-7.613525E-1	3.023071E-1	-7.622528E-2	-1.846008E-1	-1.036453E-1	-9.353638E-2	-4.983368E-1	4.513245E-1
3.714250E+10	-7.589417E-1	3.020325E-1	-7.548523E-2	-1.822815E-1	-9.841537E-2	-9.635925E-2	-4.899292E-1	4.503937E-1
3.736700E+10	-7.529907E-1	3.113708E-1	-7.901764E-2	-1.756973E-1	-1.044006E-1	-8.748245E-2	-4.787140E-1	4.559631E-1
3.759150E+10	-7.520447E-1	3.177490E-1	-8.267212E-2	-1.760559E-1	-1.040726E-1	-8.374405E-2	-4.644165E-1	4.712830E-1
3.781600E+10	-7.457275E-1	3.198853E-1	-8.393097E-2	-1.691132E-1	-1.075249E-1	-8.417511E-2	-4.600983E-1	4.698792E-1
3.804050E+10	-7.465210E-1	3.183289E-1	-8.854675E-2	-1.696243E-1	-1.094551E-1	-7.923508E-2	-4.459534E-1	4.732208E-1
3.826500E+10	-7.420044E-1	3.253479E-1	-9.256744E-2	-1.641846E-1	-1.168365E-1	-7.390976E-2	-4.348602E-1	4.842072E-1
3.848950E+10	-7.365417E-1	3.306274E-1	-8.940125E-2	-1.616440E-1	-1.162033E-1	-7.581329E-2	-4.215546E-1	4.796906E-1
3.871400E+10	-7.377319E-1	3.280640E-1	-9.143066E-2	-1.568069E-1	-1.131744E-1	-7.685089E-2	-4.165039E-1	4.860992E-1
3.893850E+10	-7.360840E-1	3.368225E-1	-9.664154E-2	-1.476059E-1	-1.160431E-1	-7.225800E-2	-4.044189E-1	4.898376E-1
