!Date: 10/28/2005, 12:46 PM

!Vgs = -2.000000E+0
!Vds = 1.250000E+1
!Ig = -2.433900E-5
!Id = 5.700300E-1

# HZ S RI R 50
1.000000E+8	9.664612E-1	-1.834717E-1	-1.504980E+1	5.307617E-1	3.051758E-4	7.184744E-3	5.193176E-1	-3.588867E-2
3.245000E+8	7.871704E-1	-5.396423E-1	-1.363770E+1	4.874023E+0	8.713722E-3	2.165222E-2	3.198090E-1	-2.332306E-1
5.490000E+8	5.346069E-1	-7.690125E-1	-1.134473E+1	6.925781E+0	2.000809E-2	3.030491E-2	2.452393E-1	-3.022003E-1
7.735000E+8	2.837219E-1	-8.775635E-1	-9.025391E+0	7.796387E+0	3.053093E-2	3.337860E-2	1.342621E-1	-3.558960E-1
9.980000E+8	6.588745E-2	-9.046631E-1	-7.041748E+0	7.982910E+0	3.964233E-2	3.297806E-2	4.670715E-2	-3.491974E-1
1.222500E+9	-1.148987E-1	-8.905945E-1	-5.463867E+0	7.840820E+0	4.659462E-2	3.119659E-2	-1.232910E-2	-3.474731E-1
1.447000E+9	-2.606201E-1	-8.565979E-1	-4.213379E+0	7.503418E+0	5.206490E-2	2.909851E-2	-6.857300E-2	-3.339844E-1
1.671500E+9	-3.737183E-1	-8.116150E-1	-3.245850E+0	7.079590E+0	5.666924E-2	2.641106E-2	-1.081543E-1	-3.203125E-1
1.896000E+9	-4.645691E-1	-7.602234E-1	-2.510986E+0	6.630615E+0	6.007957E-2	2.370453E-2	-1.413574E-1	-3.019562E-1
2.120500E+9	-5.333862E-1	-7.104797E-1	-1.930176E+0	6.218750E+0	6.284332E-2	2.074432E-2	-1.647339E-1	-2.877350E-1
2.345000E+9	-5.899658E-1	-6.601562E-1	-1.457520E+0	5.818848E+0	6.491852E-2	1.753235E-2	-1.861420E-1	-2.716827E-1
2.569500E+9	-6.322632E-1	-6.152039E-1	-1.080322E+0	5.443115E+0	6.647491E-2	1.473236E-2	-2.007599E-1	-2.588959E-1
2.794000E+9	-6.691895E-1	-5.767517E-1	-7.875977E-1	5.112305E+0	6.787109E-2	1.249695E-2	-2.145615E-1	-2.477341E-1
3.018500E+9	-6.979370E-1	-5.389404E-1	-5.354004E-1	4.799561E+0	6.851959E-2	1.022720E-2	-2.249832E-1	-2.355728E-1
3.243000E+9	-7.220154E-1	-5.042725E-1	-3.249512E-1	4.521484E+0	6.865692E-2	7.690430E-3	-2.335815E-1	-2.286377E-1
3.467500E+9	-7.434387E-1	-4.738770E-1	-1.508789E-1	4.266113E+0	6.967163E-2	5.565643E-3	-2.427368E-1	-2.200623E-1
3.692000E+9	-7.615662E-1	-4.455566E-1	-1.953125E-3	4.027832E+0	7.031250E-2	3.974915E-3	-2.487869E-1	-2.147064E-1
3.916500E+9	-7.767944E-1	-4.170837E-1	1.215820E-1	3.808228E+0	7.044601E-2	2.025604E-3	-2.583160E-1	-2.095490E-1
4.141000E+9	-7.890930E-1	-3.920288E-1	2.282715E-1	3.610229E+0	7.096100E-2	3.700256E-4	-2.630768E-1	-2.018738E-1
4.365500E+9	-7.992554E-1	-3.695984E-1	3.214111E-1	3.423584E+0	7.050705E-2	-1.834869E-3	-2.688751E-1	-1.985474E-1
4.590000E+9	-8.095398E-1	-3.482666E-1	3.994141E-1	3.250122E+0	7.070160E-2	-3.360748E-3	-2.744751E-1	-1.929474E-1
4.814500E+9	-8.181152E-1	-3.280029E-1	4.622803E-1	3.090942E+0	7.131577E-2	-5.161285E-3	-2.784119E-1	-1.893921E-1
5.039000E+9	-8.242798E-1	-3.085022E-1	5.209961E-1	2.944214E+0	7.117081E-2	-6.603241E-3	-2.840729E-1	-1.868439E-1
5.263500E+9	-8.309021E-1	-2.904358E-1	5.731201E-1	2.808105E+0	7.061386E-2	-7.919312E-3	-2.888184E-1	-1.818848E-1
5.488000E+9	-8.359070E-1	-2.748718E-1	6.146240E-1	2.679810E+0	7.044983E-2	-9.471893E-3	-2.930450E-1	-1.788025E-1
5.712500E+9	-8.410950E-1	-2.595520E-1	6.542969E-1	2.557373E+0	7.054520E-2	-1.099396E-2	-2.969666E-1	-1.759644E-1
5.937000E+9	-8.453674E-1	-2.430115E-1	6.871338E-1	2.446045E+0	7.029724E-2	-1.262283E-2	-3.012543E-1	-1.740417E-1
6.161500E+9	-8.492737E-1	-2.303467E-1	7.176514E-1	2.343140E+0	7.078934E-2	-1.349258E-2	-3.051300E-1	-1.695404E-1
6.386000E+9	-8.531799E-1	-2.165527E-1	7.448730E-1	2.243530E+0	7.027054E-2	-1.525879E-2	-3.065491E-1	-1.685791E-1
6.610500E+9	-8.554687E-1	-2.044983E-1	7.697754E-1	2.149048E+0	7.017899E-2	-1.697540E-2	-3.127747E-1	-1.681061E-1
6.835000E+9	-8.591003E-1	-1.919861E-1	7.889404E-1	2.057983E+0	6.942368E-2	-1.767731E-2	-3.162231E-1	-1.627350E-1
7.059500E+9	-8.608704E-1	-1.809998E-1	8.021240E-1	1.974487E+0	6.911850E-2	-1.895905E-2	-3.158722E-1	-1.642609E-1
7.284000E+9	-8.624878E-1	-1.700134E-1	8.175659E-1	1.894531E+0	6.867981E-2	-2.064514E-2	-3.238068E-1	-1.621704E-1
7.508500E+9	-8.655701E-1	-1.591492E-1	8.303223E-1	1.817871E+0	6.808472E-2	-2.140427E-2	-3.222961E-1	-1.593628E-1
7.733000E+9	-8.654480E-1	-1.488342E-1	8.405762E-1	1.747192E+0	6.700516E-2	-2.199936E-2	-3.287811E-1	-1.614838E-1
7.957500E+9	-8.676453E-1	-1.389465E-1	8.535156E-1	1.680786E+0	6.737137E-2	-2.304077E-2	-3.320465E-1	-1.574707E-1
8.182000E+9	-8.691711E-1	-1.286011E-1	8.627930E-1	1.616577E+0	6.615829E-2	-2.436829E-2	-3.369598E-1	-1.587372E-1
8.406500E+9	-8.695374E-1	-1.207581E-1	8.685303E-1	1.551392E+0	6.608963E-2	-2.553558E-2	-3.400574E-1	-1.544037E-1
8.631000E+9	-8.712769E-1	-1.106873E-1	8.769531E-1	1.489624E+0	6.577682E-2	-2.723694E-2	-3.428040E-1	-1.546021E-1
8.855500E+9	-8.712158E-1	-1.026917E-1	8.800659E-1	1.431335E+0	6.499481E-2	-2.816772E-2	-3.471832E-1	-1.512909E-1
9.080001E+9	-8.725281E-1	-9.527588E-2	8.829956E-1	1.377380E+0	6.386185E-2	-2.899551E-2	-3.491669E-1	-1.493378E-1
9.304500E+9	-8.722229E-1	-8.477783E-2	8.855591E-1	1.324890E+0	6.310272E-2	-3.046036E-2	-3.528290E-1	-1.498260E-1
9.529000E+9	-8.729858E-1	-7.888794E-2	8.879395E-1	1.273376E+0	6.288910E-2	-3.136063E-2	-3.578949E-1	-1.460571E-1
9.753500E+9	-8.737793E-1	-7.107544E-2	8.876343E-1	1.224121E+0	6.219101E-2	-3.194237E-2	-3.591919E-1	-1.440125E-1
9.978000E+9	-8.739624E-1	-6.390381E-2	8.867798E-1	1.178406E+0	6.142426E-2	-3.359604E-2	-3.624268E-1	-1.440887E-1
1.020250E+10	-8.748474E-1	-5.661011E-2	8.868408E-1	1.134277E+0	6.068230E-2	-3.429794E-2	-3.665161E-1	-1.423035E-1
1.042700E+10	-8.756104E-1	-4.891968E-2	8.867187E-1	1.090454E+0	6.014824E-2	-3.484726E-2	-3.691406E-1	-1.410828E-1
1.065150E+10	-8.741455E-1	-4.223633E-2	8.847046E-1	1.050476E+0	5.897522E-2	-3.576088E-2	-3.724823E-1	-1.400757E-1
1.087600E+10	-8.749695E-1	-3.634644E-2	8.825684E-1	1.010742E+0	5.869675E-2	-3.677559E-2	-3.761444E-1	-1.375580E-1
1.110050E+10	-8.748169E-1	-2.828979E-2	8.815918E-1	9.713135E-1	5.784416E-2	-3.673553E-2	-3.796692E-1	-1.357117E-1
1.132500E+10	-8.741150E-1	-2.319336E-2	8.785400E-1	9.342041E-1	5.767822E-2	-3.803253E-2	-3.818359E-1	-1.362610E-1
1.154950E+10	-8.734436E-1	-1.528931E-2	8.753357E-1	8.981934E-1	5.633545E-2	-3.911591E-2	-3.877106E-1	-1.329803E-1
1.177400E+10	-8.730469E-1	-9.613037E-3	8.706360E-1	8.634033E-1	5.524635E-2	-3.975868E-2	-3.897095E-1	-1.298676E-1
1.199850E+10	-8.733521E-1	-3.387451E-3	8.679504E-1	8.313293E-1	5.456924E-2	-4.050064E-2	-3.916931E-1	-1.294861E-1
1.222300E+10	-8.727722E-1	1.556396E-3	8.618774E-1	7.981567E-1	5.385017E-2	-4.088211E-2	-3.964539E-1	-1.288757E-1
1.244750E+10	-8.728027E-1	6.134033E-3	8.567505E-1	7.667236E-1	5.291939E-2	-4.180717E-2	-3.998108E-1	-1.247101E-1
1.267200E+10	-8.727722E-1	1.333618E-2	8.526611E-1	7.364197E-1	5.179787E-2	-4.229355E-2	-4.020233E-1	-1.262665E-1
1.289650E+10	-8.710022E-1	1.763916E-2	8.445740E-1	7.073669E-1	5.141830E-2	-4.279137E-2	-4.076691E-1	-1.238556E-1
1.312100E+10	-8.711853E-1	2.365112E-2	8.403931E-1	6.798401E-1	5.056381E-2	-4.421997E-2	-4.104462E-1	-1.190186E-1
1.334550E+10	-8.711853E-1	2.920532E-2	8.345642E-1	6.542358E-1	4.975510E-2	-4.419899E-2	-4.127960E-1	-1.191254E-1
1.357000E+10	-8.683472E-1	3.277588E-2	8.297729E-1	6.268921E-1	4.832077E-2	-4.496956E-2	-4.170837E-1	-1.194916E-1
1.379450E+10	-8.693848E-1	3.860474E-2	8.213196E-1	6.006775E-1	4.815483E-2	-4.515266E-2	-4.224548E-1	-1.139221E-1
1.401900E+10	-8.691711E-1	4.394531E-2	8.172913E-1	5.796204E-1	4.667282E-2	-4.560471E-2	-4.214630E-1	-1.135559E-1
1.424350E+10	-8.681030E-1	4.910278E-2	8.092651E-1	5.545654E-1	4.513168E-2	-4.620361E-2	-4.274139E-1	-1.099701E-1
1.446800E+10	-8.681641E-1	5.380249E-2	8.042297E-1	5.314026E-1	4.487228E-2	-4.616165E-2	-4.299469E-1	-1.054382E-1
1.469250E+10	-8.668213E-1	5.792236E-2	7.975769E-1	5.102234E-1	4.438210E-2	-4.703331E-2	-4.293365E-1	-1.022491E-1
1.491700E+10	-8.654480E-1	6.304932E-2	7.903442E-1	4.888916E-1	4.255104E-2	-4.843712E-2	-4.351654E-1	-1.044312E-1
1.514150E+10	-8.642883E-1	6.863403E-2	7.832336E-1	4.653015E-1	4.115105E-2	-4.835510E-2	-4.394531E-1	-9.904480E-2
1.536600E+10	-8.637390E-1	7.369995E-2	7.769470E-1	4.453430E-1	4.110527E-2	-4.851532E-2	-4.389191E-1	-9.631348E-2
1.559050E+10	-8.633423E-1	7.830811E-2	7.687073E-1	4.255066E-1	4.035759E-2	-4.946327E-2	-4.440002E-1	-9.803772E-2
1.581500E+10	-8.617859E-1	8.294678E-2	7.616272E-1	4.060669E-1	3.941536E-2	-4.905891E-2	-4.470978E-1	-9.310913E-2
1.603950E+10	-8.621216E-1	8.718872E-2	7.548523E-1	3.886414E-1	3.826332E-2	-5.029488E-2	-4.488220E-1	-9.098816E-2
1.626400E+10	-8.612976E-1	9.100342E-2	7.481384E-1	3.709106E-1	3.817749E-2	-5.097580E-2	-4.537201E-1	-8.985901E-2
1.648850E+10	-8.594666E-1	9.426880E-2	7.395935E-1	3.533630E-1	3.646851E-2	-5.117989E-2	-4.578552E-1	-8.370972E-2
1.671300E+10	-8.582458E-1	9.991455E-2	7.328491E-1	3.342285E-1	3.581238E-2	-5.260086E-2	-4.590607E-1	-8.363342E-2
1.693750E+10	-8.597107E-1	1.041565E-1	7.256470E-1	3.205872E-1	3.516006E-2	-5.183411E-2	-4.622803E-1	-8.113098E-2
1.716200E+10	-8.564758E-1	1.080322E-1	7.177734E-1	3.060913E-1	3.213882E-2	-5.221748E-2	-4.667358E-1	-7.487488E-2
1.738650E+10	-8.554687E-1	1.132812E-1	7.108459E-1	2.922668E-1	3.212166E-2	-5.221748E-2	-4.676514E-1	-7.119751E-2
1.761100E+10	-8.539429E-1	1.184387E-1	7.022705E-1	2.764893E-1	3.159904E-2	-5.318451E-2	-4.705353E-1	-7.124329E-2
1.783550E+10	-8.532715E-1	1.210937E-1	6.943359E-1	2.606201E-1	3.125191E-2	-5.251312E-2	-4.738159E-1	-6.530762E-2
1.806000E+10	-8.532715E-1	1.256409E-1	6.892090E-1	2.491455E-1	3.007317E-2	-5.233002E-2	-4.755707E-1	-6.271362E-2
1.828450E+10	-8.495483E-1	1.289368E-1	6.816101E-1	2.356873E-1	2.937508E-2	-5.324936E-2	-4.779510E-1	-6.040955E-2
1.850900E+10	-8.505859E-1	1.327209E-1	6.760864E-1	2.221985E-1	2.842331E-2	-5.254745E-2	-4.805603E-1	-5.778503E-2
1.873350E+10	-8.493347E-1	1.373291E-1	6.657715E-1	2.077637E-1	2.668190E-2	-5.383110E-2	-4.820099E-1	-5.036926E-2
1.895800E+10	-8.471069E-1	1.390381E-1	6.599121E-1	1.968689E-1	2.551842E-2	-5.294991E-2	-4.843292E-1	-5.191040E-2
1.918250E+10	-8.461304E-1	1.443481E-1	6.517944E-1	1.854858E-1	2.397537E-2	-5.421638E-2	-4.882050E-1	-4.833984E-2
1.940700E+10	-8.439636E-1	1.489258E-1	6.427917E-1	1.739807E-1	2.354050E-2	-5.343246E-2	-4.885406E-1	-3.952026E-2
1.963150E+10	-8.439941E-1	1.515198E-1	6.374817E-1	1.629333E-1	2.262306E-2	-5.314064E-2	-4.898682E-1	-4.055786E-2
1.985600E+10	-8.431396E-1	1.550598E-1	6.290588E-1	1.515198E-1	2.178001E-2	-5.305672E-2	-4.962158E-1	-3.596497E-2
2.008050E+10	-8.423462E-1	1.590271E-1	6.218567E-1	1.417542E-1	1.920319E-2	-5.441093E-2	-4.979401E-1	-2.877808E-2
2.030500E+10	-8.407593E-1	1.611023E-1	6.148071E-1	1.318970E-1	1.968384E-2	-5.414009E-2	-4.976807E-1	-2.951050E-2
2.052950E+10	-8.395386E-1	1.652527E-1	6.071472E-1	1.216736E-1	1.669693E-2	-5.505180E-2	-5.013123E-1	-2.682495E-2
2.075400E+10	-8.391418E-1	1.680603E-1	6.023254E-1	1.141663E-1	1.743317E-2	-5.332947E-2	-5.027161E-1	-1.910400E-2
2.097850E+10	-8.374329E-1	1.718750E-1	5.936890E-1	1.050110E-1	1.478195E-2	-5.289268E-2	-5.005188E-1	-1.641846E-2
2.120300E+10	-8.351135E-1	1.766968E-1	5.872803E-1	9.365845E-2	1.526451E-2	-5.338478E-2	-5.058899E-1	-1.626587E-2
2.142750E+10	-8.362732E-1	1.777039E-1	5.797424E-1	8.743286E-2	1.439095E-2	-5.519676E-2	-5.103455E-1	-1.031494E-2
2.165200E+10	-8.342896E-1	1.827087E-1	5.752869E-1	7.861328E-2	1.111031E-2	-5.200958E-2	-5.082703E-1	-8.209229E-3
2.187650E+10	-8.323059E-1	1.868286E-1	5.652771E-1	6.930542E-2	1.057434E-2	-5.413818E-2	-5.114746E-1	1.525879E-4
2.210100E+10	-8.316650E-1	1.912537E-1	5.587158E-1	6.237793E-2	1.063156E-2	-5.178070E-2	-5.148621E-1	5.981445E-3
2.232550E+10	-8.297729E-1	1.933289E-1	5.533447E-1	5.349731E-2	1.101685E-2	-5.380440E-2	-5.132446E-1	9.429932E-3
2.255000E+10	-8.280945E-1	1.967773E-1	5.464783E-1	4.779053E-2	7.905960E-3	-5.427361E-2	-5.173950E-1	9.857178E-3
2.277450E+10	-8.269958E-1	2.008057E-1	5.398865E-1	3.878784E-2	5.794525E-3	-5.281830E-2	-5.183411E-1	1.797485E-2
2.299900E+10	-8.269043E-1	2.041016E-1	5.345154E-1	3.286743E-2	6.477356E-3	-5.222702E-2	-5.165100E-1	1.885986E-2
2.322350E+10	-8.255005E-1	2.070618E-1	5.284729E-1	2.600098E-2	5.439758E-3	-5.115891E-2	-5.235901E-1	2.120972E-2
2.344800E+10	-8.236389E-1	2.084656E-1	5.213928E-1	1.937866E-2	3.580093E-3	-5.225372E-2	-5.230713E-1	2.966309E-2
2.367250E+10	-8.233948E-1	2.133789E-1	5.139771E-1	1.257324E-2	4.259109E-3	-5.228424E-2	-5.199890E-1	3.463745E-2
2.389700E+10	-8.191833E-1	2.147827E-1	5.091553E-1	7.873535E-3	2.349854E-3	-5.127716E-2	-5.268555E-1	3.219604E-2
2.412150E+10	-8.191528E-1	2.195435E-1	5.000610E-1	3.234863E-3	-4.272461E-4	-5.228424E-2	-5.246887E-1	4.354858E-2
2.434600E+10	-8.181458E-1	2.239990E-1	4.945374E-1	-4.486084E-3	-1.155853E-3	-4.954910E-2	-5.230103E-1	4.470825E-2
2.457050E+10	-8.152161E-1	2.277222E-1	4.888611E-1	-8.605957E-3	-2.742767E-3	-4.822159E-2	-5.260010E-1	4.879761E-2
2.479500E+10	-8.156128E-1	2.289124E-1	4.830933E-1	-1.483154E-2	-4.835129E-3	-4.938316E-2	-5.245972E-1	5.722046E-2
2.501950E+10	-8.121948E-1	2.331238E-1	4.771576E-1	-1.881409E-2	-5.184174E-3	-4.951668E-2	-5.218506E-1	5.859375E-2
2.524400E+10	-8.121643E-1	2.348633E-1	4.699707E-1	-2.186584E-2	-5.685806E-3	-4.839516E-2	-5.251465E-1	6.283569E-2
2.546850E+10	-8.097839E-1	2.397766E-1	4.644470E-1	-2.711487E-2	-6.597519E-3	-4.696083E-2	-5.254517E-1	6.723022E-2
2.569300E+10	-8.066406E-1	2.398987E-1	4.607391E-1	-3.254700E-2	-7.066727E-3	-4.622650E-2	-5.261230E-1	6.845093E-2
2.591750E+10	-8.082886E-1	2.453613E-1	4.523163E-1	-3.704834E-2	-7.602692E-3	-4.681778E-2	-5.276489E-1	7.171631E-2
2.614200E+10	-8.067627E-1	2.469177E-1	4.491272E-1	-4.145813E-2	-7.303238E-3	-4.569435E-2	-5.313416E-1	7.980347E-2
2.636650E+10	-8.023987E-1	2.500610E-1	4.454498E-1	-4.553223E-2	-9.431839E-3	-4.564857E-2	-5.309143E-1	8.676147E-2
2.659100E+10	-8.016357E-1	2.536621E-1	4.386139E-1	-4.853821E-2	-1.077461E-2	-4.358101E-2	-5.277405E-1	8.837891E-2
2.681550E+10	-7.992249E-1	2.553406E-1	4.336395E-1	-5.218506E-2	-1.240158E-2	-4.366875E-2	-5.310364E-1	9.051514E-2
2.704000E+10	-7.984619E-1	2.586670E-1	4.253693E-1	-5.665588E-2	-1.284981E-2	-4.221344E-2	-5.322571E-1	1.016235E-1
2.726450E+10	-7.986450E-1	2.625427E-1	4.234924E-1	-6.018066E-2	-1.453972E-2	-4.137993E-2	-5.271301E-1	1.039734E-1
2.748900E+10	-7.928162E-1	2.643127E-1	4.207611E-1	-6.246948E-2	-1.338577E-2	-4.140472E-2	-5.301514E-1	9.979248E-2
2.771350E+10	-7.900696E-1	2.686157E-1	4.108429E-1	-6.732178E-2	-1.785469E-2	-4.069519E-2	-5.295410E-1	1.109924E-1
2.793800E+10	-7.929687E-1	2.701416E-1	4.086456E-1	-7.005310E-2	-1.826477E-2	-3.984070E-2	-5.296021E-1	1.141663E-1
2.816250E+10	-7.877808E-1	2.701721E-1	4.045105E-1	-7.173157E-2	-1.753044E-2	-4.231453E-2	-5.299377E-1	1.190491E-1
2.838700E+10	-7.871399E-1	2.734375E-1	3.950348E-1	-7.669067E-2	-1.682663E-2	-3.827286E-2	-5.298157E-1	1.257629E-1
2.861150E+10	-7.866516E-1	2.803650E-1	3.930664E-1	-8.042908E-2	-2.145576E-2	-3.579903E-2	-5.268555E-1	1.280518E-1
2.883600E+10	-7.843933E-1	2.795715E-1	3.901672E-1	-8.317566E-2	-2.208138E-2	-3.445435E-2	-5.283508E-1	1.311340E-1
2.906050E+10	-7.836914E-1	2.833252E-1	3.852692E-1	-8.399963E-2	-2.077866E-2	-3.430367E-2	-5.295105E-1	1.369934E-1
2.928500E+10	-7.818604E-1	2.867432E-1	3.818665E-1	-8.575439E-2	-2.160358E-2	-3.018951E-2	-5.290222E-1	1.428833E-1
2.950950E+10	-7.790222E-1	2.898254E-1	3.764648E-1	-8.706665E-2	-2.183151E-2	-3.372955E-2	-5.317993E-1	1.459961E-1
2.973400E+10	-7.789612E-1	2.902832E-1	3.751678E-1	-8.937073E-2	-2.136612E-2	-2.758503E-2	-5.278625E-1	1.517639E-1
2.995850E+10	-7.748718E-1	2.933350E-1	3.690338E-1	-9.059143E-2	-2.272224E-2	-3.044510E-2	-5.298462E-1	1.542358E-1
3.018300E+10	-7.733459E-1	2.949524E-1	3.671265E-1	-9.753418E-2	-2.394581E-2	-3.104782E-2	-5.322571E-1	1.661987E-1
3.040750E+10	-7.723389E-1	2.978210E-1	3.621521E-1	-9.674072E-2	-2.604485E-2	-2.811146E-2	-5.266724E-1	1.670532E-1
3.063200E+10	-7.696228E-1	2.988586E-1	3.603516E-1	-1.029663E-1	-2.657032E-2	-2.898693E-2	-5.295410E-1	1.748047E-1
3.085650E+10	-7.708740E-1	3.002930E-1	3.539429E-1	-1.022034E-1	-2.512836E-2	-2.605629E-2	-5.271912E-1	1.819458E-1
3.108100E+10	-7.672729E-1	3.055420E-1	3.522491E-1	-1.051025E-1	-2.451420E-2	-2.488232E-2	-5.217896E-1	1.854858E-1
3.130550E+10	-7.641296E-1	3.062439E-1	3.485107E-1	-1.092224E-1	-2.626991E-2	-2.434921E-2	-5.209656E-1	1.906433E-1
3.153000E+10	-7.647095E-1	3.127136E-1	3.456116E-1	-1.097260E-1	-2.536201E-2	-2.284431E-2	-5.253906E-1	1.936951E-1
3.175450E+10	-7.602234E-1	3.082886E-1	3.382111E-1	-1.114197E-1	-2.713776E-2	-2.129650E-2	-5.200500E-1	2.022400E-1
3.197900E+10	-7.607422E-1	3.113098E-1	3.406830E-1	-1.169434E-1	-2.809143E-2	-2.125549E-2	-5.123291E-1	2.064819E-1
3.220350E+10	-7.594910E-1	3.185120E-1	3.379059E-1	-1.195679E-1	-2.612114E-2	-1.853943E-2	-5.155640E-1	2.123413E-1
3.242800E+10	-7.613525E-1	3.207092E-1	3.326263E-1	-1.161804E-1	-2.733421E-2	-1.706982E-2	-5.155945E-1	2.153320E-1
3.265250E+10	-7.610474E-1	3.242493E-1	3.270264E-1	-1.207886E-1	-3.045464E-2	-1.632595E-2	-5.085449E-1	2.186890E-1
3.287700E+10	-7.566833E-1	3.248901E-1	3.244781E-1	-1.229401E-1	-2.602005E-2	-1.581573E-2	-5.129700E-1	2.228699E-1
3.310150E+10	-7.531128E-1	3.256226E-1	3.206787E-1	-1.240387E-1	-2.992439E-2	-1.508617E-2	-5.094604E-1	2.297974E-1
3.332600E+10	-7.496338E-1	3.285217E-1	3.148499E-1	-1.286774E-1	-3.026390E-2	-1.187420E-2	-5.130310E-1	2.275085E-1
3.355050E+10	-7.476807E-1	3.310547E-1	3.142395E-1	-1.305847E-1	-2.504444E-2	-1.217365E-2	-5.065918E-1	2.399902E-1
3.377500E+10	-7.479858E-1	3.349304E-1	3.162689E-1	-1.313324E-1	-2.853107E-2	-9.699821E-3	-5.009155E-1	2.419434E-1
3.399950E+10	-7.442932E-1	3.349304E-1	3.136292E-1	-1.310272E-1	-3.012276E-2	-1.072788E-2	-5.094299E-1	2.474670E-1
3.422400E+10	-7.468262E-1	3.370056E-1	3.122864E-1	-1.340027E-1	-3.336525E-2	-9.559631E-3	-5.002441E-1	2.585449E-1
3.444850E+10	-7.454224E-1	3.401489E-1	3.055573E-1	-1.407318E-1	-2.594376E-2	-6.891251E-3	-4.958191E-1	2.617035E-1
3.467300E+10	-7.414246E-1	3.421326E-1	3.126526E-1	-1.393433E-1	-3.085709E-2	-3.621101E-3	-5.037842E-1	2.652588E-1
3.489750E+10	-7.395630E-1	3.437500E-1	3.013153E-1	-1.394043E-1	-2.683449E-2	-3.138542E-3	-4.992828E-1	2.740784E-1
3.512200E+10	-7.366333E-1	3.430176E-1	2.978363E-1	-1.431732E-1	-2.978039E-2	-4.306793E-3	-4.917145E-1	2.693481E-1
3.534650E+10	-7.366638E-1	3.462219E-1	2.986603E-1	-1.458588E-1	-3.096199E-2	-3.122330E-3	-4.937592E-1	2.779541E-1
3.557100E+10	-7.347717E-1	3.491821E-1	2.980804E-1	-1.489716E-1	-3.020287E-2	-3.356934E-4	-4.863129E-1	2.927551E-1
3.579550E+10	-7.313843E-1	3.523254E-1	2.917175E-1	-1.481323E-1	-2.945614E-2	7.114410E-4	-4.796448E-1	2.913818E-1
3.602000E+10	-7.319336E-1	3.554993E-1	2.873230E-1	-1.511383E-1	-3.181267E-2	3.679276E-3	-4.857483E-1	3.016510E-1
3.624450E+10	-7.297363E-1	3.553162E-1	2.854462E-1	-1.484985E-1	-2.842712E-2	3.528595E-4	-4.794464E-1	3.013763E-1
3.646900E+10	-7.278442E-1	3.633118E-1	2.876434E-1	-1.577454E-1	-3.039932E-2	6.140709E-3	-4.742737E-1	3.135529E-1
3.669350E+10	-7.225647E-1	3.598328E-1	2.841034E-1	-1.577148E-1	-2.712822E-2	4.657745E-3	-4.667969E-1	3.171997E-1
3.691800E+10	-7.224121E-1	3.620911E-1	2.810211E-1	-1.584778E-1	-2.889919E-2	8.264542E-3	-4.684448E-1	3.270264E-1
3.714250E+10	-7.221069E-1	3.585510E-1	2.790527E-1	-1.582642E-1	-2.643967E-2	1.196480E-2	-4.650421E-1	3.273315E-1
3.736700E+10	-7.198486E-1	3.676453E-1	2.770233E-1	-1.610870E-1	-2.626705E-2	6.704330E-3	-4.597473E-1	3.320770E-1
3.759150E+10	-7.153625E-1	3.677368E-1	2.770386E-1	-1.656952E-1	-2.907658E-2	1.137066E-2	-4.500885E-1	3.374634E-1
3.781600E+10	-7.119141E-1	3.712769E-1	2.669373E-1	-1.685333E-1	-2.732372E-2	1.360798E-2	-4.485626E-1	3.389587E-1
3.804050E+10	-7.178650E-1	3.703918E-1	2.709656E-1	-1.732178E-1	-2.420139E-2	1.842499E-2	-4.408264E-1	3.487854E-1
3.826500E+10	-7.134399E-1	3.721008E-1	2.688446E-1	-1.734924E-1	-2.235413E-2	1.115227E-2	-4.392242E-1	3.573608E-1
3.848950E+10	-7.097473E-1	3.749390E-1	2.679901E-1	-1.746063E-1	-2.333260E-2	1.795578E-2	-4.337311E-1	3.631744E-1
3.871400E+10	-7.090149E-1	3.754578E-1	2.643890E-1	-1.771545E-1	-1.731586E-2	1.904774E-2	-4.266205E-1	3.623962E-1
3.893850E+10	-7.077942E-1	3.816528E-1	2.630615E-1	-1.761322E-1	-2.381039E-2	1.842594E-2	-4.227600E-1	3.689728E-1
3.916300E+10	-7.153015E-1	3.808594E-1	2.595520E-1	-1.835480E-1	-2.176762E-2	1.582527E-2	-4.166412E-1	3.634033E-1
