!Date: 10/28/2005, 12:46 PM

!Vgs = -3.000000E+0
!Vds = 7.500000E+0
!Ig = -2.019800E-5
!Id = 3.655500E-1

# HZ S RI R 50
1.000000E+8	9.595337E-1	-2.146912E-1	-1.593018E+1	1.200195E+0	3.287792E-3	8.986950E-3	4.362640E-1	-7.055664E-2
3.245000E+8	7.572021E-1	-5.801086E-1	-1.398047E+1	5.466309E+0	1.045036E-2	2.354622E-2	2.510376E-1	-2.498169E-1
5.490000E+8	4.733582E-1	-8.061218E-1	-1.132373E+1	7.494629E+0	2.214813E-2	3.117847E-2	1.556244E-1	-3.182678E-1
7.735000E+8	2.031555E-1	-8.970947E-1	-8.795898E+0	8.245117E+0	3.356934E-2	3.332138E-2	4.220581E-2	-3.580933E-1
9.980000E+8	-1.959229E-2	-9.072876E-1	-6.730469E+0	8.293945E+0	4.237938E-2	3.260040E-2	-4.528809E-2	-3.486481E-1
1.222500E+9	-1.976624E-1	-8.788147E-1	-5.130859E+0	8.015137E+0	4.935837E-2	3.021622E-2	-1.045990E-1	-3.394470E-1
1.447000E+9	-3.368530E-1	-8.337402E-1	-3.886475E+0	7.575684E+0	5.441284E-2	2.751732E-2	-1.574554E-1	-3.223267E-1
1.671500E+9	-4.432373E-1	-7.811279E-1	-2.942871E+0	7.083252E+0	5.851746E-2	2.475929E-2	-1.956177E-1	-3.051758E-1
1.896000E+9	-5.273743E-1	-7.256165E-1	-2.239746E+0	6.583008E+0	6.178665E-2	2.177620E-2	-2.256622E-1	-2.840424E-1
2.120500E+9	-5.900574E-1	-6.729431E-1	-1.692871E+0	6.133301E+0	6.448746E-2	1.839066E-2	-2.479553E-1	-2.676239E-1
2.345000E+9	-6.407776E-1	-6.218262E-1	-1.252930E+0	5.711670E+0	6.620407E-2	1.564026E-2	-2.675018E-1	-2.505341E-1
2.569500E+9	-6.778259E-1	-5.767822E-1	-9.074707E-1	5.319580E+0	6.764984E-2	1.309586E-2	-2.804260E-1	-2.354279E-1
2.794000E+9	-7.104492E-1	-5.386047E-1	-6.408691E-1	4.976807E+0	6.848145E-2	1.060867E-2	-2.922668E-1	-2.235413E-1
3.018500E+9	-7.354736E-1	-5.013428E-1	-4.106445E-1	4.662598E+0	6.910706E-2	8.190155E-3	-3.011780E-1	-2.112579E-1
3.243000E+9	-7.568054E-1	-4.667358E-1	-2.224121E-1	4.381104E+0	6.954575E-2	5.748749E-3	-3.093567E-1	-2.029724E-1
3.467500E+9	-7.749023E-1	-4.375610E-1	-6.665039E-2	4.127441E+0	7.011032E-2	3.658295E-3	-3.167419E-1	-1.935883E-1
3.692000E+9	-7.907104E-1	-4.102173E-1	6.884766E-2	3.891602E+0	7.056427E-2	1.914978E-3	-3.220215E-1	-1.868134E-1
3.916500E+9	-8.040466E-1	-3.825073E-1	1.777344E-1	3.673340E+0	7.092667E-2	3.776550E-4	-3.295898E-1	-1.800385E-1
4.141000E+9	-8.149109E-1	-3.582458E-1	2.713623E-1	3.477905E+0	7.114792E-2	-1.384735E-3	-3.348389E-1	-1.725922E-1
4.365500E+9	-8.223877E-1	-3.367004E-1	3.536377E-1	3.297852E+0	7.093048E-2	-3.414154E-3	-3.391876E-1	-1.675720E-1
4.590000E+9	-8.316650E-1	-3.166504E-1	4.238281E-1	3.126587E+0	7.113266E-2	-5.111694E-3	-3.441620E-1	-1.617279E-1
4.814500E+9	-8.392334E-1	-2.975464E-1	4.792480E-1	2.971191E+0	7.140350E-2	-6.443024E-3	-3.472290E-1	-1.567535E-1
5.039000E+9	-8.442078E-1	-2.786865E-1	5.305176E-1	2.829346E+0	7.085037E-2	-8.220673E-3	-3.519897E-1	-1.535034E-1
5.263500E+9	-8.493958E-1	-2.612610E-1	5.747070E-1	2.697021E+0	7.073212E-2	-9.605408E-3	-3.558655E-1	-1.484222E-1
5.488000E+9	-8.529968E-1	-2.468872E-1	6.124268E-1	2.574463E+0	7.044220E-2	-1.096725E-2	-3.593140E-1	-1.441498E-1
5.712500E+9	-8.583984E-1	-2.325134E-1	6.470947E-1	2.455078E+0	7.055283E-2	-1.213455E-2	-3.622131E-1	-1.412811E-1
5.937000E+9	-8.619995E-1	-2.167358E-1	6.752930E-1	2.347900E+0	7.073975E-2	-1.386642E-2	-3.658447E-1	-1.373901E-1
6.161500E+9	-8.643799E-1	-2.043762E-1	7.021484E-1	2.250366E+0	7.020187E-2	-1.532364E-2	-3.689728E-1	-1.317596E-1
6.386000E+9	-8.675842E-1	-1.914368E-1	7.249756E-1	2.153076E+0	6.954956E-2	-1.647186E-2	-3.697662E-1	-1.301575E-1
6.610500E+9	-8.693848E-1	-1.793823E-1	7.468262E-1	2.063232E+0	6.915665E-2	-1.779938E-2	-3.749847E-1	-1.289673E-1
6.835000E+9	-8.727722E-1	-1.678162E-1	7.640381E-1	1.975647E+0	6.862259E-2	-1.900101E-2	-3.774872E-1	-1.233063E-1
7.059500E+9	-8.739319E-1	-1.574707E-1	7.746582E-1	1.896179E+0	6.831741E-2	-1.996231E-2	-3.759460E-1	-1.236572E-1
7.284000E+9	-8.749390E-1	-1.471863E-1	7.882690E-1	1.819397E+0	6.831360E-2	-2.156830E-2	-3.821869E-1	-1.217041E-1
7.508500E+9	-8.772583E-1	-1.367798E-1	7.985840E-1	1.746338E+0	6.776810E-2	-2.284241E-2	-3.819580E-1	-1.175995E-1
7.733000E+9	-8.779602E-1	-1.256409E-1	8.067017E-1	1.678406E+0	6.678009E-2	-2.374268E-2	-3.865204E-1	-1.178284E-1
7.957500E+9	-8.788757E-1	-1.160889E-1	8.180542E-1	1.614075E+0	6.699753E-2	-2.528000E-2	-3.903656E-1	-1.144714E-1
8.182000E+9	-8.803101E-1	-1.073608E-1	8.255005E-1	1.552307E+0	6.639481E-2	-2.563095E-2	-3.926849E-1	-1.135864E-1
8.406500E+9	-8.800659E-1	-1.006470E-1	8.300781E-1	1.491760E+0	6.552505E-2	-2.661896E-2	-3.947906E-1	-1.087799E-1
8.631000E+9	-8.818054E-1	-9.045410E-2	8.371582E-1	1.432861E+0	6.513596E-2	-2.851868E-2	-3.980255E-1	-1.084900E-1
8.855500E+9	-8.818359E-1	-8.227539E-2	8.399048E-1	1.377075E+0	6.428146E-2	-2.938080E-2	-4.012451E-1	-1.050415E-1
9.080001E+9	-8.829041E-1	-7.553101E-2	8.426514E-1	1.326172E+0	6.366730E-2	-3.017807E-2	-4.018860E-1	-1.024628E-1
9.304500E+9	-8.830872E-1	-6.555176E-2	8.429565E-1	1.276001E+0	6.323242E-2	-3.213501E-2	-4.052277E-1	-1.004486E-1
9.529000E+9	-8.825378E-1	-5.978394E-2	8.438721E-1	1.227539E+0	6.210899E-2	-3.276062E-2	-4.083099E-1	-9.794617E-2
9.753500E+9	-8.834229E-1	-5.303955E-2	8.445435E-1	1.181213E+0	6.111717E-2	-3.341866E-2	-4.099426E-1	-9.538269E-2
9.978000E+9	-8.830566E-1	-4.528809E-2	8.435059E-1	1.137024E+0	6.068230E-2	-3.510094E-2	-4.123230E-1	-9.474182E-2
1.020250E+10	-8.840027E-1	-3.967285E-2	8.438110E-1	1.094543E+0	6.012344E-2	-3.549194E-2	-4.149933E-1	-9.202576E-2
1.042700E+10	-8.840942E-1	-3.192139E-2	8.422241E-1	1.054382E+0	5.907059E-2	-3.624725E-2	-4.169159E-1	-8.978271E-2
1.065150E+10	-8.833008E-1	-2.502441E-2	8.398437E-1	1.015625E+0	5.793953E-2	-3.750420E-2	-4.184570E-1	-8.952332E-2
1.087600E+10	-8.844910E-1	-1.901245E-2	8.388367E-1	9.781189E-1	5.778313E-2	-3.796577E-2	-4.224091E-1	-8.644104E-2
1.110050E+10	-8.840942E-1	-1.147461E-2	8.363342E-1	9.408569E-1	5.698204E-2	-3.790474E-2	-4.236298E-1	-8.435059E-2
1.132500E+10	-8.826599E-1	-6.866455E-3	8.333740E-1	9.052124E-1	5.552292E-2	-3.967285E-2	-4.248810E-1	-8.349609E-2
1.154950E+10	-8.833008E-1	1.525879E-4	8.312988E-1	8.709717E-1	5.460548E-2	-3.999138E-2	-4.298706E-1	-8.067322E-2
1.177400E+10	-8.827820E-1	6.286621E-3	8.260193E-1	8.388977E-1	5.301285E-2	-4.106140E-2	-4.310455E-1	-7.658386E-2
1.199850E+10	-8.818665E-1	1.107788E-2	8.239136E-1	8.073730E-1	5.297279E-2	-4.183769E-2	-4.338989E-1	-7.655334E-2
1.222300E+10	-8.811646E-1	1.812744E-2	8.183289E-1	7.762756E-1	5.290604E-2	-4.262733E-2	-4.358673E-1	-7.487488E-2
1.244750E+10	-8.811951E-1	2.197266E-2	8.117065E-1	7.458496E-1	5.148697E-2	-4.273415E-2	-4.387207E-1	-7.174683E-2
1.267200E+10	-8.806458E-1	2.819824E-2	8.084106E-1	7.180176E-1	5.044746E-2	-4.405785E-2	-4.407043E-1	-7.167053E-2
1.289650E+10	-8.792114E-1	3.292847E-2	8.014221E-1	6.904907E-1	4.969025E-2	-4.360199E-2	-4.448547E-1	-7.000732E-2
1.312100E+10	-8.800964E-1	3.802490E-2	7.960205E-1	6.640320E-1	4.880714E-2	-4.434967E-2	-4.462585E-1	-6.350708E-2
1.334550E+10	-8.792725E-1	4.339600E-2	7.915649E-1	6.379700E-1	4.715729E-2	-4.435349E-2	-4.475555E-1	-6.314087E-2
1.357000E+10	-8.769226E-1	4.827881E-2	7.866821E-1	6.137695E-1	4.651833E-2	-4.494858E-2	-4.512177E-1	-6.413269E-2
1.379450E+10	-8.778381E-1	5.334473E-2	7.788086E-1	5.900574E-1	4.622841E-2	-4.670525E-2	-4.540100E-1	-5.836487E-2
1.401900E+10	-8.770447E-1	5.859375E-2	7.731323E-1	5.695496E-1	4.421043E-2	-4.693031E-2	-4.547577E-1	-5.789185E-2
1.424350E+10	-8.769531E-1	6.277466E-2	7.677612E-1	5.440369E-1	4.382133E-2	-4.770088E-2	-4.577026E-1	-5.465698E-2
1.446800E+10	-8.760681E-1	6.903076E-2	7.615662E-1	5.240173E-1	4.327393E-2	-4.819107E-2	-4.598389E-1	-4.908752E-2
1.469250E+10	-8.752136E-1	7.305908E-2	7.553101E-1	5.022888E-1	4.262161E-2	-4.770088E-2	-4.582672E-1	-4.737854E-2
1.491700E+10	-8.729858E-1	7.742310E-2	7.498779E-1	4.812622E-1	4.088783E-2	-4.887009E-2	-4.636841E-1	-4.833984E-2
1.514150E+10	-8.730774E-1	8.233643E-2	7.421265E-1	4.620056E-1	4.054070E-2	-4.930878E-2	-4.656830E-1	-4.281616E-2
1.536600E+10	-8.726196E-1	8.737183E-2	7.356262E-1	4.419861E-1	3.874969E-2	-4.921722E-2	-4.648895E-1	-4.060364E-2
1.559050E+10	-8.703003E-1	9.140015E-2	7.299805E-1	4.242554E-1	3.798676E-2	-5.024719E-2	-4.685211E-1	-4.069519E-2
1.581500E+10	-8.693848E-1	9.652710E-2	7.217407E-1	4.047852E-1	3.658676E-2	-4.967117E-2	-4.719849E-1	-3.578186E-2
1.603950E+10	-8.689880E-1	1.000977E-1	7.167358E-1	3.877563E-1	3.739548E-2	-5.054855E-2	-4.726105E-1	-3.326416E-2
1.626400E+10	-8.674927E-1	1.047058E-1	7.091675E-1	3.712463E-1	3.596497E-2	-5.029297E-2	-4.767609E-1	-3.373718E-2
1.648850E+10	-8.670349E-1	1.086426E-1	7.015381E-1	3.558044E-1	3.427505E-2	-5.073166E-2	-4.787903E-1	-2.728271E-2
1.671300E+10	-8.660583E-1	1.140137E-1	6.944885E-1	3.389893E-1	3.360176E-2	-5.145454E-2	-4.796906E-1	-2.633667E-2
1.693750E+10	-8.659363E-1	1.175537E-1	6.885986E-1	3.229675E-1	3.323364E-2	-5.204201E-2	-4.832001E-1	-2.392578E-2
1.716200E+10	-8.648376E-1	1.213074E-1	6.805115E-1	3.101196E-1	3.098679E-2	-5.153084E-2	-4.849091E-1	-1.872253E-2
1.738650E+10	-8.622742E-1	1.256409E-1	6.745911E-1	2.965088E-1	3.017807E-2	-5.201912E-2	-4.862061E-1	-1.609802E-2
1.761100E+10	-8.623047E-1	1.296692E-1	6.654663E-1	2.815552E-1	2.923012E-2	-5.219269E-2	-4.891052E-1	-1.441956E-2
1.783550E+10	-8.619690E-1	1.337585E-1	6.611938E-1	2.679138E-1	2.882767E-2	-5.292892E-2	-4.917297E-1	-7.888794E-3
1.806000E+10	-8.611450E-1	1.376343E-1	6.551819E-1	2.557373E-1	2.607918E-2	-5.352020E-2	-4.905090E-1	-6.851196E-3
1.828450E+10	-8.579407E-1	1.423340E-1	6.468811E-1	2.440796E-1	2.683067E-2	-5.319786E-2	-4.942780E-1	-4.318237E-3
1.850900E+10	-8.579407E-1	1.460571E-1	6.396484E-1	2.313843E-1	2.568436E-2	-5.221748E-2	-4.962006E-1	0.000000E+0
1.873350E+10	-8.565674E-1	1.502686E-1	6.340027E-1	2.175293E-1	2.335548E-2	-5.366325E-2	-4.965973E-1	5.355835E-3
1.895800E+10	-8.547668E-1	1.516418E-1	6.267395E-1	2.049866E-1	2.328682E-2	-5.388260E-2	-4.984436E-1	3.036499E-3
1.918250E+10	-8.536987E-1	1.573486E-1	6.199646E-1	1.959229E-1	2.315903E-2	-5.455017E-2	-5.009766E-1	8.972168E-3
1.940700E+10	-8.518982E-1	1.619568E-1	6.123047E-1	1.849365E-1	2.156448E-2	-5.385590E-2	-5.001526E-1	1.647949E-2
1.963150E+10	-8.505859E-1	1.643982E-1	6.065979E-1	1.735229E-1	1.816177E-2	-5.249405E-2	-4.997101E-1	1.403809E-2
1.985600E+10	-8.505554E-1	1.688538E-1	5.981445E-1	1.644897E-1	1.819420E-2	-5.421448E-2	-5.055542E-1	1.889038E-2
2.008050E+10	-8.488464E-1	1.707153E-1	5.934143E-1	1.551819E-1	1.736641E-2	-5.476570E-2	-5.065918E-1	2.633667E-2
2.030500E+10	-8.470154E-1	1.728516E-1	5.852966E-1	1.465149E-1	1.566887E-2	-5.358505E-2	-5.050964E-1	2.572632E-2
2.052950E+10	-8.475647E-1	1.790161E-1	5.778503E-1	1.371460E-1	1.369667E-2	-5.524254E-2	-5.085754E-1	2.883911E-2
2.075400E+10	-8.443909E-1	1.816101E-1	5.734558E-1	1.287842E-1	1.442719E-2	-5.272484E-2	-5.099792E-1	3.509521E-2
2.097850E+10	-8.449707E-1	1.847534E-1	5.654907E-1	1.191101E-1	1.257896E-2	-5.342102E-2	-5.079346E-1	3.738403E-2
2.120300E+10	-8.420105E-1	1.887817E-1	5.567322E-1	1.116333E-1	1.143646E-2	-5.285454E-2	-5.118408E-1	3.738403E-2
2.142750E+10	-8.428955E-1	1.902771E-1	5.546875E-1	1.045532E-1	1.079750E-2	-5.294228E-2	-5.147400E-1	4.290771E-2
2.165200E+10	-8.402710E-1	1.960449E-1	5.472107E-1	9.408569E-2	8.335114E-3	-5.336571E-2	-5.141296E-1	4.916382E-2
2.187650E+10	-8.389893E-1	1.971741E-1	5.390930E-1	8.697510E-2	8.769989E-3	-5.329514E-2	-5.182190E-1	4.840088E-2
2.210100E+10	-8.375549E-1	2.021179E-1	5.351257E-1	7.904053E-2	7.120132E-3	-5.367661E-2	-5.206909E-1	5.691528E-2
2.232550E+10	-8.350220E-1	2.067871E-1	5.283813E-1	7.495117E-2	7.020950E-3	-5.245399E-2	-5.186768E-1	6.225586E-2
2.255000E+10	-8.370667E-1	2.096252E-1	5.196533E-1	6.814575E-2	4.753113E-3	-5.195618E-2	-5.188599E-1	6.301880E-2
2.277450E+10	-8.328552E-1	2.137756E-1	5.153503E-1	6.188965E-2	4.354477E-3	-5.226135E-2	-5.190735E-1	6.881714E-2
2.299900E+10	-8.327332E-1	2.155151E-1	5.106812E-1	5.230713E-2	4.125595E-3	-5.120087E-2	-5.181274E-1	7.113647E-2
2.322350E+10	-8.301392E-1	2.195435E-1	5.062561E-1	4.537964E-2	9.078979E-4	-5.080414E-2	-5.221252E-1	7.345581E-2
2.344800E+10	-8.318176E-1	2.223511E-1	4.979401E-1	4.319763E-2	2.487183E-3	-5.098534E-2	-5.222473E-1	8.300781E-2
2.367250E+10	-8.280334E-1	2.258911E-1	4.917908E-1	3.683472E-2	-2.384186E-4	-5.156136E-2	-5.216064E-1	8.435059E-2
2.389700E+10	-8.252869E-1	2.281799E-1	4.850006E-1	2.951050E-2	-1.125336E-3	-5.121040E-2	-5.217590E-1	8.511353E-2
2.412150E+10	-8.255310E-1	2.326355E-1	4.807892E-1	2.383423E-2	-3.517151E-3	-4.821205E-2	-5.194702E-1	9.558105E-2
2.434600E+10	-8.220825E-1	2.358398E-1	4.744415E-1	1.966858E-2	-4.104614E-3	-4.826546E-2	-5.213318E-1	9.689331E-2
2.457050E+10	-8.211365E-1	2.390137E-1	4.704742E-1	1.449585E-2	-5.506516E-3	-4.887390E-2	-5.234070E-1	9.915161E-2
2.479500E+10	-8.204041E-1	2.421570E-1	4.616241E-1	8.804321E-3	-7.787704E-3	-4.904175E-2	-5.212097E-1	1.073608E-1
2.501950E+10	-8.159485E-1	2.453003E-1	4.573364E-1	6.256104E-3	-8.575439E-3	-4.809952E-2	-5.192261E-1	1.070557E-1
2.524400E+10	-8.160095E-1	2.468567E-1	4.547729E-1	1.129150E-3	-8.831024E-3	-4.625130E-2	-5.219116E-1	1.108093E-1
2.546850E+10	-8.175659E-1	2.532959E-1	4.481201E-1	-3.952026E-3	-1.107788E-2	-4.475784E-2	-5.204773E-1	1.169128E-1
2.569300E+10	-8.125000E-1	2.535706E-1	4.410400E-1	-6.195068E-3	-1.003647E-2	-4.398155E-2	-5.210876E-1	1.158142E-1
2.591750E+10	-8.121033E-1	2.580566E-1	4.374237E-1	-9.216309E-3	-1.107788E-2	-4.301453E-2	-5.219727E-1	1.191711E-1
2.614200E+10	-8.090820E-1	2.606506E-1	4.319763E-1	-1.327515E-2	-1.253700E-2	-4.249573E-2	-5.250549E-1	1.280212E-1
2.636650E+10	-8.099060E-1	2.614136E-1	4.304810E-1	-1.687622E-2	-1.293373E-2	-4.188156E-2	-5.278625E-1	1.329956E-1
2.659100E+10	-8.061523E-1	2.646790E-1	4.255371E-1	-2.139282E-2	-1.237869E-2	-4.248047E-2	-5.211182E-1	1.368408E-1
2.681550E+10	-8.037415E-1	2.676086E-1	4.191895E-1	-2.435303E-2	-1.509666E-2	-3.947067E-2	-5.261841E-1	1.375732E-1
2.704000E+10	-8.037109E-1	2.710876E-1	4.131927E-1	-2.720642E-2	-1.731300E-2	-4.049873E-2	-5.249023E-1	1.511230E-1
2.726450E+10	-8.000183E-1	2.738342E-1	4.136963E-1	-3.123474E-2	-1.659584E-2	-3.811646E-2	-5.169983E-1	1.471863E-1
2.748900E+10	-8.008728E-1	2.751465E-1	4.073944E-1	-3.613281E-2	-1.664352E-2	-3.902245E-2	-5.206299E-1	1.476746E-1
2.771350E+10	-7.970886E-1	2.789917E-1	4.052734E-1	-3.773499E-2	-1.598167E-2	-3.813744E-2	-5.211792E-1	1.568909E-1
2.793800E+10	-7.978210E-1	2.810364E-1	4.010162E-1	-4.107666E-2	-2.173424E-2	-3.601646E-2	-5.189514E-1	1.586304E-1
2.816250E+10	-7.949829E-1	2.829285E-1	3.932037E-1	-4.257202E-2	-2.023888E-2	-3.587723E-2	-5.220032E-1	1.597290E-1
2.838700E+10	-7.895813E-1	2.832947E-1	3.913574E-1	-4.641724E-2	-2.279091E-2	-3.479195E-2	-5.216370E-1	1.700745E-1
2.861150E+10	-7.913208E-1	2.889709E-1	3.851624E-1	-4.670715E-2	-2.060318E-2	-3.315544E-2	-5.183105E-1	1.717224E-1
2.883600E+10	-7.907410E-1	2.909851E-1	3.847504E-1	-4.943848E-2	-2.248383E-2	-3.360748E-2	-5.193481E-1	1.720886E-1
2.906050E+10	-7.879639E-1	2.925415E-1	3.806152E-1	-5.268860E-2	-2.453423E-2	-3.055000E-2	-5.185242E-1	1.827087E-1
2.928500E+10	-7.864075E-1	2.962341E-1	3.755341E-1	-5.465698E-2	-2.592754E-2	-3.034878E-2	-5.190125E-1	1.834412E-1
2.950950E+10	-7.842407E-1	2.988586E-1	3.750458E-1	-5.772400E-2	-2.280331E-2	-3.076649E-2	-5.214233E-1	1.856995E-1
2.973400E+10	-7.821350E-1	3.000183E-1	3.731232E-1	-5.882263E-2	-2.252579E-2	-2.499866E-2	-5.184021E-1	1.912537E-1
2.995850E+10	-7.807312E-1	3.038330E-1	3.668671E-1	-5.993652E-2	-2.425003E-2	-2.553558E-2	-5.187683E-1	1.960144E-1
3.018300E+10	-7.778625E-1	3.060608E-1	3.672791E-1	-6.512451E-2	-2.518654E-2	-2.478790E-2	-5.195923E-1	2.055359E-1
3.040750E+10	-7.769470E-1	3.074646E-1	3.607330E-1	-6.832886E-2	-2.702522E-2	-2.778053E-2	-5.170898E-1	2.101440E-1
3.063200E+10	-7.747192E-1	3.089905E-1	3.612366E-1	-6.921387E-2	-2.671909E-2	-2.242470E-2	-5.208130E-1	2.150269E-1
3.085650E+10	-7.755127E-1	3.147888E-1	3.578491E-1	-7.252502E-2	-2.606201E-2	-2.136040E-2	-5.123596E-1	2.178345E-1
3.108100E+10	-7.718201E-1	3.126221E-1	3.528442E-1	-7.192993E-2	-2.836227E-2	-2.214432E-2	-5.134583E-1	2.259521E-1
3.130550E+10	-7.725220E-1	3.172302E-1	3.520813E-1	-7.543945E-2	-3.009033E-2	-2.036285E-2	-5.094910E-1	2.301331E-1
3.153000E+10	-7.696838E-1	3.186035E-1	3.470154E-1	-7.862854E-2	-3.273201E-2	-1.667595E-2	-5.098877E-1	2.301941E-1
3.175450E+10	-7.644348E-1	3.219299E-1	3.414612E-1	-8.131409E-2	-2.491760E-2	-1.596737E-2	-5.092163E-1	2.406921E-1
3.197900E+10	-7.594299E-1	3.209839E-1	3.419495E-1	-8.404541E-2	-3.166389E-2	-1.563263E-2	-5.009766E-1	2.420654E-1
3.220350E+10	-7.668152E-1	3.302612E-1	3.445587E-1	-8.731079E-2	-2.655411E-2	-1.654053E-2	-5.068665E-1	2.441406E-1
3.242800E+10	-7.633667E-1	3.266602E-1	3.395386E-1	-8.372498E-2	-3.265953E-2	-9.950638E-3	-5.037537E-1	2.539673E-1
3.265250E+10	-7.611084E-1	3.333130E-1	3.388367E-1	-9.140015E-2	-2.967930E-2	-1.071453E-2	-5.014954E-1	2.575073E-1
3.287700E+10	-7.609863E-1	3.337402E-1	3.355408E-1	-9.104919E-2	-3.300858E-2	-9.309769E-3	-5.036926E-1	2.602844E-1
3.310150E+10	-7.600403E-1	3.380432E-1	3.336029E-1	-9.268188E-2	-3.073978E-2	-9.903908E-3	-4.976501E-1	2.677460E-1
3.332600E+10	-7.542419E-1	3.378296E-1	3.275757E-1	-9.727478E-2	-2.978897E-2	-1.131916E-2	-4.959259E-1	2.707062E-1
3.355050E+10	-7.506104E-1	3.404846E-1	3.281403E-1	-1.014252E-1	-2.949905E-2	-7.811546E-3	-4.945984E-1	2.747040E-1
3.377500E+10	-7.498474E-1	3.444519E-1	3.281708E-1	-9.889221E-2	-3.180695E-2	-6.704330E-3	-4.922333E-1	2.782135E-1
3.399950E+10	-7.500610E-1	3.476562E-1	3.292236E-1	-1.045074E-1	-2.846146E-2	-2.222061E-3	-4.971313E-1	2.849731E-1
3.422400E+10	-7.442627E-1	3.468628E-1	3.255005E-1	-1.085510E-1	-3.099442E-2	-1.907349E-4	-4.924622E-1	2.884064E-1
3.444850E+10	-7.467041E-1	3.465881E-1	3.202820E-1	-1.118164E-1	-2.904892E-2	2.736092E-3	-4.856110E-1	2.912903E-1
3.467300E+10	-7.462158E-1	3.485107E-1	3.284454E-1	-1.086426E-1	-3.089237E-2	4.161835E-3	-4.939575E-1	3.022919E-1
3.489750E+10	-7.411499E-1	3.543396E-1	3.187866E-1	-1.134186E-1	-3.041077E-2	6.561279E-4	-4.861298E-1	3.138123E-1
3.512200E+10	-7.410889E-1	3.540039E-1	3.191376E-1	-1.190643E-1	-3.020477E-2	3.876686E-3	-4.783630E-1	3.088226E-1
3.534650E+10	-7.407227E-1	3.565063E-1	3.177185E-1	-1.187897E-1	-3.025723E-2	4.984856E-3	-4.847412E-1	3.180237E-1
3.557100E+10	-7.330627E-1	3.606567E-1	3.144226E-1	-1.207123E-1	-2.610302E-2	5.749702E-3	-4.693451E-1	3.343353E-1
3.579550E+10	-7.357178E-1	3.570251E-1	3.136292E-1	-1.251373E-1	-2.297497E-2	9.968758E-3	-4.671783E-1	3.334045E-1
3.602000E+10	-7.321167E-1	3.632812E-1	3.113251E-1	-1.271210E-1	-3.050804E-2	3.745079E-3	-4.639130E-1	3.370819E-1
3.624450E+10	-7.315063E-1	3.664856E-1	3.105164E-1	-1.248016E-1	-3.075027E-2	1.292324E-2	-4.662476E-1	3.400421E-1
3.646900E+10	-7.267456E-1	3.694153E-1	3.107300E-1	-1.325226E-1	-2.622986E-2	1.368999E-2	-4.565887E-1	3.500671E-1
3.669350E+10	-7.262573E-1	3.678589E-1	3.071594E-1	-1.345215E-1	-2.779102E-2	1.687717E-2	-4.591980E-1	3.512573E-1
3.691800E+10	-7.266235E-1	3.693237E-1	3.081360E-1	-1.401215E-1	-2.486801E-2	1.557732E-2	-4.491425E-1	3.588104E-1
3.714250E+10	-7.242432E-1	3.729248E-1	3.087463E-1	-1.389008E-1	-2.640438E-2	1.675510E-2	-4.452209E-1	3.711243E-1
3.736700E+10	-7.243042E-1	3.706360E-1	3.058929E-1	-1.423035E-1	-2.522373E-2	2.004147E-2	-4.497833E-1	3.707733E-1
3.759150E+10	-7.231750E-1	3.751831E-1	2.975769E-1	-1.468353E-1	-2.466297E-2	2.249241E-2	-4.399261E-1	3.761902E-1
3.781600E+10	-7.187195E-1	3.792419E-1	2.976532E-1	-1.451263E-1	-2.382374E-2	2.424622E-2	-4.314728E-1	3.778229E-1
3.804050E+10	-7.188110E-1	3.744202E-1	3.013458E-1	-1.592255E-1	-2.084732E-2	1.815605E-2	-4.279175E-1	3.881531E-1
3.826500E+10	-7.131958E-1	3.833008E-1	2.935486E-1	-1.539917E-1	-2.216625E-2	2.104855E-2	-4.232178E-1	3.913422E-1
3.848950E+10	-7.132568E-1	3.854370E-1	2.928925E-1	-1.577606E-1	-1.949310E-2	1.963043E-2	-4.179382E-1	3.923035E-1
3.871400E+10	-7.138062E-1	3.786316E-1	2.933502E-1	-1.653442E-1	-2.035427E-2	2.448082E-2	-4.065704E-1	4.003754E-1
3.893850E+10	-7.095032E-1	3.843689E-1	2.951050E-1	-1.622467E-1	-2.179146E-2	2.178574E-2	-4.011230E-1	4.046936E-1
3.916300E+10	-7.135620E-1	3.869629E-1	2.916870E-1	-1.671753E-1	-1.702499E-2	3.035069E-2	-4.014893E-1	4.073792E-1
