!Date: 10/28/2005, 12:46 PM

!Vgs = -5.000000E+0
!Vds = 2.000000E+1
!Ig = -7.963400E-5
!Id = 2.025700E-2

# HZ S RI R 50
1.000000E+8	9.822998E-1	-8.239746E-2	-4.685059E+0	2.175293E-1	8.835793E-4	6.445408E-3	7.904968E-1	-4.043579E-2
3.245000E+8	9.429321E-1	-2.457886E-1	-4.547852E+0	8.566895E-1	5.482674E-3	2.222729E-2	7.312622E-1	-1.304932E-1
5.490000E+8	8.791504E-1	-3.928223E-1	-4.315918E+0	1.332275E+0	1.215744E-2	3.544617E-2	7.058411E-1	-1.929016E-1
7.735000E+8	7.972717E-1	-5.201416E-1	-4.025146E+0	1.736816E+0	2.091599E-2	4.583359E-2	6.674805E-1	-2.500305E-1
9.980000E+8	7.039490E-1	-6.251526E-1	-3.681152E+0	2.071533E+0	3.060532E-2	5.393982E-2	6.285095E-1	-2.941895E-1
1.222500E+9	6.021729E-1	-7.099304E-1	-3.334473E+0	2.344604E+0	4.036903E-2	5.994225E-2	5.876160E-1	-3.352051E-1
1.447000E+9	4.985352E-1	-7.754822E-1	-2.993896E+0	2.547974E+0	5.076981E-2	6.429291E-2	5.504150E-1	-3.700867E-1
1.671500E+9	3.947449E-1	-8.236084E-1	-2.627563E+0	2.675903E+0	6.072998E-2	6.732178E-2	5.068359E-1	-4.004517E-1
1.896000E+9	2.944336E-1	-8.546448E-1	-2.290894E+0	2.748291E+0	7.200241E-2	6.943893E-2	4.664917E-1	-4.207764E-1
2.120500E+9	1.988525E-1	-8.741455E-1	-1.984131E+0	2.785645E+0	8.205032E-2	6.832123E-2	4.314423E-1	-4.385071E-1
2.345000E+9	1.063232E-1	-8.808899E-1	-1.692261E+0	2.789673E+0	9.048080E-2	6.597519E-2	3.961029E-1	-4.519806E-1
2.569500E+9	2.947998E-2	-8.767395E-1	-1.420654E+0	2.771606E+0	9.877777E-2	6.309891E-2	3.635101E-1	-4.639740E-1
2.794000E+9	-4.458618E-2	-8.709412E-1	-1.181519E+0	2.733521E+0	1.058769E-1	5.974579E-2	3.330078E-1	-4.734802E-1
3.018500E+9	-1.105957E-1	-8.591614E-1	-9.649658E-1	2.671631E+0	1.119308E-1	5.615997E-2	3.042603E-1	-4.810944E-1
3.243000E+9	-1.703491E-1	-8.446045E-1	-7.680664E-1	2.614746E+0	1.170616E-1	5.225754E-2	2.767944E-1	-4.884491E-1
3.467500E+9	-2.259521E-1	-8.284912E-1	-5.952148E-1	2.545410E+0	1.219063E-1	4.824829E-2	2.526855E-1	-4.924011E-1
3.692000E+9	-2.744751E-1	-8.091736E-1	-4.355469E-1	2.460449E+0	1.262817E-1	4.418182E-2	2.285004E-1	-4.988251E-1
3.916500E+9	-3.209229E-1	-7.870789E-1	-2.929687E-1	2.373169E+0	1.305847E-1	3.946686E-2	2.042542E-1	-5.025330E-1
4.141000E+9	-3.617249E-1	-7.651062E-1	-1.614990E-1	2.288818E+0	1.338196E-1	3.466797E-2	1.821289E-1	-5.052185E-1
4.365500E+9	-3.971252E-1	-7.446594E-1	-5.114746E-2	2.199951E+0	1.362534E-1	3.059387E-2	1.625977E-1	-5.086060E-1
4.590000E+9	-4.298401E-1	-7.250977E-1	4.772949E-2	2.122681E+0	1.386490E-1	2.631378E-2	1.428223E-1	-5.100098E-1
4.814500E+9	-4.577332E-1	-7.044067E-1	1.363525E-1	2.033691E+0	1.417923E-1	2.190399E-2	1.257935E-1	-5.137634E-1
5.039000E+9	-4.862061E-1	-6.833191E-1	2.155151E-1	1.953857E+0	1.432953E-1	1.642609E-2	1.055908E-1	-5.174866E-1
5.263500E+9	-5.116272E-1	-6.617432E-1	2.858276E-1	1.866333E+0	1.451569E-1	1.255035E-2	8.615112E-2	-5.169983E-1
5.488000E+9	-5.346680E-1	-6.415100E-1	3.480225E-1	1.793884E+0	1.457367E-1	8.529663E-3	7.147217E-2	-5.177917E-1
5.712500E+9	-5.550232E-1	-6.217957E-1	4.066772E-1	1.717163E+0	1.473160E-1	4.768372E-3	5.578613E-2	-5.203552E-1
5.937000E+9	-5.727234E-1	-6.024170E-1	4.567871E-1	1.646362E+0	1.477737E-1	-2.212524E-4	4.025269E-2	-5.229187E-1
6.161500E+9	-5.885315E-1	-5.869446E-1	4.988403E-1	1.573181E+0	1.484833E-1	-4.753113E-3	2.505493E-2	-5.245361E-1
6.386000E+9	-6.064453E-1	-5.677795E-1	5.405273E-1	1.503174E+0	1.482697E-1	-8.552551E-3	9.735107E-3	-5.267334E-1
6.610500E+9	-6.203308E-1	-5.506592E-1	5.768433E-1	1.435547E+0	1.487122E-1	-1.261139E-2	-7.293701E-3	-5.287476E-1
6.835000E+9	-6.351624E-1	-5.345764E-1	6.083984E-1	1.374878E+0	1.496429E-1	-1.572418E-2	-2.215576E-2	-5.291138E-1
7.059500E+9	-6.452942E-1	-5.183105E-1	6.332397E-1	1.309387E+0	1.487350E-1	-1.956940E-2	-3.405762E-2	-5.309143E-1
7.284000E+9	-6.571960E-1	-5.040894E-1	6.582642E-1	1.250854E+0	1.482468E-1	-2.327728E-2	-5.203247E-2	-5.316772E-1
7.508500E+9	-6.681213E-1	-4.889221E-1	6.802979E-1	1.191345E+0	1.477814E-1	-2.745819E-2	-6.628418E-2	-5.316467E-1
7.733000E+9	-6.774292E-1	-4.734802E-1	6.959839E-1	1.134277E+0	1.478577E-1	-3.104401E-2	-7.839966E-2	-5.329895E-1
7.957500E+9	-6.873779E-1	-4.596863E-1	7.135010E-1	1.079102E+0	1.472702E-1	-3.315735E-2	-9.469604E-2	-5.341187E-1
8.182000E+9	-6.967773E-1	-4.437256E-1	7.285156E-1	1.028687E+0	1.458206E-1	-3.751373E-2	-1.078186E-1	-5.335693E-1
8.406500E+9	-7.033081E-1	-4.333801E-1	7.397461E-1	9.801025E-1	1.443100E-1	-4.007721E-2	-1.219177E-1	-5.333252E-1
8.631000E+9	-7.115173E-1	-4.195251E-1	7.521973E-1	9.318542E-1	1.443787E-1	-4.364014E-2	-1.368713E-1	-5.325012E-1
8.855500E+9	-7.176208E-1	-4.082336E-1	7.585449E-1	8.837280E-1	1.437073E-1	-4.704285E-2	-1.505127E-1	-5.320129E-1
9.080001E+9	-7.244568E-1	-3.966370E-1	7.650452E-1	8.356323E-1	1.427383E-1	-4.901886E-2	-1.627808E-1	-5.312500E-1
9.304500E+9	-7.323914E-1	-3.818054E-1	7.699280E-1	7.936096E-1	1.412430E-1	-5.303955E-2	-1.769104E-1	-5.300598E-1
9.529000E+9	-7.376709E-1	-3.732605E-1	7.734985E-1	7.516479E-1	1.399460E-1	-5.506134E-2	-1.911926E-1	-5.276489E-1
9.753500E+9	-7.428589E-1	-3.620605E-1	7.758484E-1	7.135315E-1	1.386642E-1	-5.751038E-2	-2.023315E-1	-5.243835E-1
9.978000E+9	-7.465210E-1	-3.526611E-1	7.752380E-1	6.737366E-1	1.368637E-1	-6.079865E-2	-2.144775E-1	-5.237732E-1
1.020250E+10	-7.529297E-1	-3.418579E-1	7.759705E-1	6.362000E-1	1.355896E-1	-6.299591E-2	-2.286682E-1	-5.212402E-1
1.042700E+10	-7.578125E-1	-3.307495E-1	7.753296E-1	6.000671E-1	1.338806E-1	-6.583405E-2	-2.401123E-1	-5.208740E-1
1.065150E+10	-7.620850E-1	-3.202515E-1	7.731323E-1	5.665894E-1	1.329193E-1	-6.796265E-2	-2.521973E-1	-5.181885E-1
1.087600E+10	-7.663269E-1	-3.117676E-1	7.728271E-1	5.354004E-1	1.311493E-1	-7.022095E-2	-2.659607E-1	-5.150146E-1
1.110050E+10	-7.700195E-1	-3.016052E-1	7.699890E-1	5.018921E-1	1.294174E-1	-7.295990E-2	-2.780762E-1	-5.113220E-1
1.132500E+10	-7.732239E-1	-2.930908E-1	7.658997E-1	4.705811E-1	1.277313E-1	-7.516479E-2	-2.877197E-1	-5.104065E-1
1.154950E+10	-7.771912E-1	-2.825928E-1	7.608032E-1	4.387207E-1	1.263657E-1	-7.692719E-2	-3.034668E-1	-5.068665E-1
1.177400E+10	-7.807312E-1	-2.725220E-1	7.563782E-1	4.119873E-1	1.250153E-1	-7.887268E-2	-3.134460E-1	-5.020447E-1
1.199850E+10	-7.840881E-1	-2.656250E-1	7.521057E-1	3.835449E-1	1.223679E-1	-8.058929E-2	-3.236237E-1	-4.988403E-1
1.222300E+10	-7.866516E-1	-2.577209E-1	7.466431E-1	3.570251E-1	1.215897E-1	-8.307648E-2	-3.372345E-1	-4.951324E-1
1.244750E+10	-7.901306E-1	-2.500000E-1	7.387390E-1	3.298645E-1	1.198845E-1	-8.443069E-2	-3.482971E-1	-4.894562E-1
1.267200E+10	-7.926331E-1	-2.417297E-1	7.326660E-1	3.049622E-1	1.182060E-1	-8.721542E-2	-3.572845E-1	-4.885712E-1
1.289650E+10	-7.950745E-1	-2.335510E-1	7.252808E-1	2.821960E-1	1.158333E-1	-8.860016E-2	-3.712006E-1	-4.843597E-1
1.312100E+10	-7.992859E-1	-2.243958E-1	7.170105E-1	2.577209E-1	1.139069E-1	-8.994675E-2	-3.809509E-1	-4.770508E-1
1.334550E+10	-7.997437E-1	-2.174072E-1	7.111816E-1	2.384033E-1	1.133118E-1	-9.222412E-2	-3.904724E-1	-4.743958E-1
1.357000E+10	-8.039246E-1	-2.094116E-1	7.028503E-1	2.145081E-1	1.106262E-1	-9.330750E-2	-4.033661E-1	-4.722137E-1
1.379450E+10	-8.047791E-1	-2.027283E-1	6.951904E-1	1.957703E-1	1.084671E-1	-9.532928E-2	-4.142609E-1	-4.631653E-1
1.401900E+10	-8.069153E-1	-1.962585E-1	6.884460E-1	1.775818E-1	1.072311E-1	-9.676743E-2	-4.201813E-1	-4.596405E-1
1.424350E+10	-8.080444E-1	-1.893921E-1	6.799011E-1	1.570129E-1	1.048622E-1	-9.843445E-2	-4.348450E-1	-4.539795E-1
1.446800E+10	-8.109436E-1	-1.835632E-1	6.712952E-1	1.375732E-1	1.026115E-1	-9.873199E-2	-4.432526E-1	-4.447784E-1
1.469250E+10	-8.122253E-1	-1.748352E-1	6.614380E-1	1.197510E-1	1.015968E-1	-1.012459E-1	-4.498749E-1	-4.414673E-1
1.491700E+10	-8.139954E-1	-1.678162E-1	6.535339E-1	1.026611E-1	9.910202E-2	-1.022453E-1	-4.624939E-1	-4.369659E-1
1.514150E+10	-8.144531E-1	-1.610718E-1	6.430359E-1	8.526611E-2	9.723282E-2	-1.039619E-1	-4.730072E-1	-4.271698E-1
1.536600E+10	-8.172302E-1	-1.547852E-1	6.355591E-1	6.854248E-2	9.612274E-2	-1.053391E-1	-4.803162E-1	-4.230042E-1
1.559050E+10	-8.176880E-1	-1.481018E-1	6.255188E-1	5.346680E-2	9.390640E-2	-1.046753E-1	-4.909973E-1	-4.188843E-1
1.581500E+10	-8.196716E-1	-1.417847E-1	6.159668E-1	3.829956E-2	9.133530E-2	-1.076241E-1	-5.006714E-1	-4.092712E-1
1.603950E+10	-8.224182E-1	-1.349487E-1	6.070862E-1	2.523804E-2	8.963776E-2	-1.086731E-1	-5.059814E-1	-4.048157E-1
1.626400E+10	-8.229980E-1	-1.286621E-1	5.976257E-1	1.141357E-2	8.759308E-2	-1.097221E-1	-5.178223E-1	-3.984680E-1
1.648850E+10	-8.241272E-1	-1.231995E-1	5.898437E-1	-1.434326E-3	8.557892E-2	-1.101494E-1	-5.261841E-1	-3.880615E-1
1.671300E+10	-8.249512E-1	-1.161499E-1	5.793762E-1	-1.522827E-2	8.288956E-2	-1.112442E-1	-5.332336E-1	-3.831787E-1
1.693750E+10	-8.263855E-1	-1.117554E-1	5.697937E-1	-2.691650E-2	8.167648E-2	-1.123161E-1	-5.442200E-1	-3.755798E-1
1.716200E+10	-8.271484E-1	-1.053467E-1	5.596008E-1	-3.942871E-2	7.893372E-2	-1.130676E-1	-5.488281E-1	-3.656006E-1
1.738650E+10	-8.293457E-1	-9.774780E-2	5.512085E-1	-5.050659E-2	7.722855E-2	-1.142273E-1	-5.564270E-1	-3.579407E-1
1.761100E+10	-8.298950E-1	-9.280396E-2	5.404053E-1	-5.877686E-2	7.563019E-2	-1.141853E-1	-5.650940E-1	-3.530579E-1
1.783550E+10	-8.319702E-1	-8.755493E-2	5.309143E-1	-6.967163E-2	7.260513E-2	-1.159821E-1	-5.749207E-1	-3.449707E-1
1.806000E+10	-8.337402E-1	-8.096313E-2	5.242615E-1	-8.044434E-2	7.175827E-2	-1.166344E-1	-5.788574E-1	-3.361816E-1
1.828450E+10	-8.331604E-1	-7.504272E-2	5.127258E-1	-9.069824E-2	6.994247E-2	-1.165466E-1	-5.847778E-1	-3.313904E-1
1.850900E+10	-8.345337E-1	-7.135010E-2	5.042419E-1	-9.838867E-2	6.769180E-2	-1.176529E-1	-5.939331E-1	-3.197632E-1
1.873350E+10	-8.344421E-1	-6.457520E-2	4.969330E-1	-1.099854E-1	6.601715E-2	-1.185570E-1	-5.993652E-1	-3.100891E-1
1.895800E+10	-8.353271E-1	-5.926514E-2	4.863129E-1	-1.164398E-1	6.304932E-2	-1.193810E-1	-6.044922E-1	-3.066101E-1
1.918250E+10	-8.343201E-1	-5.535889E-2	4.788971E-1	-1.250153E-1	6.186676E-2	-1.193314E-1	-6.140137E-1	-2.980957E-1
1.940700E+10	-8.358459E-1	-4.858398E-2	4.667358E-1	-1.347961E-1	6.073761E-2	-1.196404E-1	-6.178284E-1	-2.848511E-1
1.963150E+10	-8.368835E-1	-4.208374E-2	4.569702E-1	-1.419067E-1	5.812073E-2	-1.214905E-1	-6.234131E-1	-2.795410E-1
1.985600E+10	-8.381348E-1	-3.720093E-2	4.490051E-1	-1.477356E-1	5.665207E-2	-1.214333E-1	-6.302490E-1	-2.705383E-1
2.008050E+10	-8.379822E-1	-3.298950E-2	4.385834E-1	-1.548920E-1	5.342102E-2	-1.222534E-1	-6.363831E-1	-2.596130E-1
2.030500E+10	-8.392029E-1	-2.725220E-2	4.299927E-1	-1.622009E-1	5.236053E-2	-1.214485E-1	-6.384888E-1	-2.540588E-1
2.052950E+10	-8.395386E-1	-2.200317E-2	4.216614E-1	-1.683044E-1	5.093765E-2	-1.214066E-1	-6.455383E-1	-2.453003E-1
2.075400E+10	-8.388062E-1	-1.846313E-2	4.135742E-1	-1.739960E-1	4.870224E-2	-1.216316E-1	-6.496887E-1	-2.352295E-1
2.097850E+10	-8.406982E-1	-1.330566E-2	4.050598E-1	-1.786957E-1	4.578018E-2	-1.235008E-1	-6.512756E-1	-2.275085E-1
2.120300E+10	-8.383789E-1	-7.080078E-3	3.951111E-1	-1.847229E-1	4.280853E-2	-1.225014E-1	-6.586609E-1	-2.215576E-1
2.142750E+10	-8.425903E-1	-1.647949E-3	3.862762E-1	-1.898041E-1	4.134750E-2	-1.225433E-1	-6.650391E-1	-2.082520E-1
2.165200E+10	-8.423767E-1	3.112793E-3	3.782501E-1	-1.956787E-1	3.918457E-2	-1.231079E-1	-6.684875E-1	-2.022095E-1
2.187650E+10	-8.416748E-1	9.307861E-3	3.724518E-1	-1.998749E-1	3.721619E-2	-1.234589E-1	-6.724854E-1	-1.922913E-1
2.210100E+10	-8.434448E-1	1.556396E-2	3.614349E-1	-2.043915E-1	3.636169E-2	-1.235085E-1	-6.791992E-1	-1.795654E-1
2.232550E+10	-8.424377E-1	2.017212E-2	3.542633E-1	-2.075195E-1	3.458405E-2	-1.230202E-1	-6.808777E-1	-1.701965E-1
2.255000E+10	-8.435669E-1	2.560425E-2	3.470154E-1	-2.135620E-1	3.216553E-2	-1.265717E-1	-6.848755E-1	-1.627197E-1
2.277450E+10	-8.414917E-1	3.198242E-2	3.371887E-1	-2.185822E-1	2.939987E-2	-1.248970E-1	-6.891174E-1	-1.520386E-1
2.299900E+10	-8.426514E-1	3.472900E-2	3.298798E-1	-2.201080E-1	2.861023E-2	-1.246872E-1	-6.908264E-1	-1.416321E-1
2.322350E+10	-8.438110E-1	4.113770E-2	3.245239E-1	-2.274017E-1	2.740860E-2	-1.248360E-1	-6.962280E-1	-1.341553E-1
2.344800E+10	-8.433228E-1	4.421997E-2	3.137817E-1	-2.288055E-1	2.600861E-2	-1.250458E-1	-6.989746E-1	-1.226807E-1
2.367250E+10	-8.437195E-1	5.029297E-2	3.054962E-1	-2.325439E-1	2.429581E-2	-1.247902E-1	-6.993103E-1	-1.120605E-1
2.389700E+10	-8.425903E-1	5.703735E-2	2.983551E-1	-2.355499E-1	2.159882E-2	-1.246071E-1	-7.046204E-1	-1.031494E-1
2.412150E+10	-8.428040E-1	6.036377E-2	2.885590E-1	-2.396851E-1	1.934814E-2	-1.252899E-1	-7.036438E-1	-9.054565E-2
2.434600E+10	-8.420105E-1	6.732178E-2	2.803040E-1	-2.413940E-1	1.655960E-2	-1.249695E-1	-7.037048E-1	-8.221436E-2
2.457050E+10	-8.424988E-1	6.976318E-2	2.745667E-1	-2.436523E-1	1.515961E-2	-1.252899E-1	-7.083435E-1	-7.464600E-2
2.479500E+10	-8.422852E-1	7.751465E-2	2.662201E-1	-2.479248E-1	1.185608E-2	-1.253662E-1	-7.055359E-1	-6.045532E-2
2.501950E+10	-8.405151E-1	7.797241E-2	2.574615E-1	-2.503815E-1	9.208679E-3	-1.267395E-1	-7.036438E-1	-5.560303E-2
2.524400E+10	-8.398743E-1	8.505249E-2	2.482910E-1	-2.503204E-1	9.090424E-3	-1.237984E-1	-7.094116E-1	-4.534912E-2
2.546850E+10	-8.414917E-1	9.097290E-2	2.421875E-1	-2.501831E-1	6.458282E-3	-1.228981E-1	-7.088928E-1	-3.405762E-2
2.569300E+10	-8.403320E-1	9.289551E-2	2.376404E-1	-2.531738E-1	3.726959E-3	-1.239738E-1	-7.090759E-1	-2.883911E-2
2.591750E+10	-8.407593E-1	1.003418E-1	2.284241E-1	-2.552643E-1	3.929138E-3	-1.235466E-1	-7.106018E-1	-1.867676E-2
2.614200E+10	-8.387146E-1	1.036377E-1	2.236786E-1	-2.560730E-1	3.078461E-3	-1.220894E-1	-7.136841E-1	-7.415771E-3
2.636650E+10	-8.405457E-1	1.085510E-1	2.164459E-1	-2.566833E-1	1.155853E-3	-1.239243E-1	-7.153015E-1	4.852295E-3
2.659100E+10	-8.390198E-1	1.130981E-1	2.095337E-1	-2.575378E-1	-9.880066E-4	-1.230354E-1	-7.117310E-1	1.254272E-2
2.681550E+10	-8.366089E-1	1.166687E-1	2.030792E-1	-2.597809E-1	-3.376007E-3	-1.225433E-1	-7.159424E-1	1.980591E-2
2.704000E+10	-8.366394E-1	1.213379E-1	1.936646E-1	-2.588959E-1	-5.546570E-3	-1.232681E-1	-7.134705E-1	3.491211E-2
2.726450E+10	-8.381042E-1	1.261292E-1	1.889496E-1	-2.607422E-1	-8.861542E-3	-1.194229E-1	-7.057190E-1	4.299927E-2
2.748900E+10	-8.351440E-1	1.304932E-1	1.842346E-1	-2.618408E-1	-8.270264E-3	-1.224480E-1	-7.080994E-1	5.001831E-2
2.771350E+10	-8.356018E-1	1.380920E-1	1.756897E-1	-2.644958E-1	-9.429932E-3	-1.208153E-1	-7.073364E-1	5.984497E-2
2.793800E+10	-8.332214E-1	1.406860E-1	1.683044E-1	-2.642365E-1	-1.300430E-2	-1.233635E-1	-7.071533E-1	6.774902E-2
2.816250E+10	-8.313904E-1	1.447449E-1	1.607819E-1	-2.622375E-1	-1.485825E-2	-1.205215E-1	-7.057190E-1	7.757568E-2
2.838700E+10	-8.298340E-1	1.522827E-1	1.563873E-1	-2.638702E-1	-1.486206E-2	-1.233902E-1	-7.045898E-1	8.734131E-2
2.861150E+10	-8.312073E-1	1.543579E-1	1.496429E-1	-2.630615E-1	-1.899719E-2	-1.211739E-1	-7.024231E-1	9.915161E-2
2.883600E+10	-8.278503E-1	1.582336E-1	1.415405E-1	-2.622528E-1	-2.217484E-2	-1.161728E-1	-6.977234E-1	1.026306E-1
2.906050E+10	-8.283691E-1	1.639709E-1	1.373596E-1	-2.598877E-1	-2.143478E-2	-1.170273E-1	-6.995544E-1	1.133423E-1
2.928500E+10	-8.310242E-1	1.692200E-1	1.327972E-1	-2.612305E-1	-2.502060E-2	-1.187286E-1	-6.959229E-1	1.198730E-1
2.950950E+10	-8.258362E-1	1.765137E-1	1.263123E-1	-2.587280E-1	-2.517319E-2	-1.165352E-1	-7.005615E-1	1.301575E-1
2.973400E+10	-8.259888E-1	1.760559E-1	1.216583E-1	-2.595520E-1	-2.563858E-2	-1.175499E-1	-6.939087E-1	1.431274E-1
2.995850E+10	-8.214722E-1	1.834412E-1	1.127625E-1	-2.606049E-1	-2.627182E-2	-1.149788E-1	-6.971130E-1	1.521301E-1
3.018300E+10	-8.194275E-1	1.869812E-1	1.065521E-1	-2.599030E-1	-3.223038E-2	-1.162872E-1	-6.904602E-1	1.647034E-1
3.040750E+10	-8.187256E-1	1.908875E-1	1.032257E-1	-2.610626E-1	-3.029251E-2	-1.165619E-1	-6.872253E-1	1.691589E-1
3.063200E+10	-8.182068E-1	1.933899E-1	9.729004E-2	-2.615356E-1	-3.388214E-2	-1.126747E-1	-6.835937E-1	1.814270E-1
3.085650E+10	-8.177185E-1	1.972046E-1	8.972168E-2	-2.594452E-1	-3.479004E-2	-1.108360E-1	-6.819458E-1	1.894531E-1
3.108100E+10	-8.169861E-1	2.048645E-1	8.851624E-2	-2.586212E-1	-3.577042E-2	-1.135445E-1	-6.773376E-1	2.015991E-1
3.130550E+10	-8.145752E-1	2.066040E-1	7.875061E-2	-2.599792E-1	-3.884125E-2	-1.148376E-1	-6.663818E-1	2.070618E-1
3.153000E+10	-8.172913E-1	2.106323E-1	7.240295E-2	-2.595673E-1	-4.281235E-2	-1.129684E-1	-6.668091E-1	2.125244E-1
3.175450E+10	-8.146973E-1	2.156372E-1	7.264709E-2	-2.595978E-1	-4.439545E-2	-1.097603E-1	-6.665955E-1	2.276611E-1
3.197900E+10	-8.135071E-1	2.210693E-1	6.117249E-2	-2.551270E-1	-4.283142E-2	-1.083450E-1	-6.569214E-1	2.372437E-1
3.220350E+10	-8.079224E-1	2.239380E-1	5.790710E-2	-2.540436E-1	-4.761887E-2	-1.090584E-1	-6.486511E-1	2.396851E-1
3.242800E+10	-8.092346E-1	2.280273E-1	5.346680E-2	-2.544098E-1	-4.679489E-2	-1.094170E-1	-6.511841E-1	2.536621E-1
3.265250E+10	-8.090820E-1	2.322083E-1	5.148315E-2	-2.542419E-1	-5.101013E-2	-1.080856E-1	-6.431274E-1	2.618713E-1
3.287700E+10	-8.040161E-1	2.417908E-1	4.321289E-2	-2.499084E-1	-5.024338E-2	-1.079445E-1	-6.386414E-1	2.655945E-1
3.310150E+10	-8.081360E-1	2.429504E-1	3.992462E-2	-2.460403E-1	-5.701065E-2	-1.024704E-1	-6.276550E-1	2.718506E-1
3.332600E+10	-8.023682E-1	2.507935E-1	3.719330E-2	-2.454605E-1	-5.986404E-2	-1.059189E-1	-6.272583E-1	2.745667E-1
3.355050E+10	-7.984619E-1	2.508545E-1	2.992249E-2	-2.422867E-1	-5.674362E-2	-1.043091E-1	-6.187134E-1	2.887573E-1
3.377500E+10	-7.965698E-1	2.557068E-1	3.011322E-2	-2.412720E-1	-6.008911E-2	-1.026573E-1	-6.141357E-1	2.903137E-1
3.399950E+10	-7.938232E-1	2.635498E-1	2.163696E-2	-2.434692E-1	-6.081009E-2	-1.004791E-1	-6.177368E-1	3.033447E-1
3.422400E+10	-7.928162E-1	2.653198E-1	1.749420E-2	-2.373505E-1	-6.384277E-2	-9.844208E-2	-6.038513E-1	3.143921E-1
3.444850E+10	-7.926025E-1	2.661133E-1	1.765442E-2	-2.413177E-1	-6.217957E-2	-9.777451E-2	-6.033020E-1	3.172302E-1
3.467300E+10	-7.897644E-1	2.701111E-1	1.172638E-2	-2.338943E-1	-6.431961E-2	-9.925461E-2	-6.033020E-1	3.290405E-1
3.489750E+10	-7.872314E-1	2.772522E-1	5.920410E-3	-2.359543E-1	-6.655121E-2	-9.974670E-2	-5.892944E-1	3.367310E-1
3.512200E+10	-7.856445E-1	2.821350E-1	3.700256E-3	-2.349319E-1	-7.101822E-2	-9.792709E-2	-5.808411E-1	3.420410E-1
3.534650E+10	-7.843628E-1	2.823181E-1	-3.005981E-3	-2.312393E-1	-7.371140E-2	-9.801865E-2	-5.763245E-1	3.500977E-1
3.557100E+10	-7.825012E-1	2.835388E-1	-7.759094E-3	-2.332535E-1	-7.242584E-2	-9.690857E-2	-5.644226E-1	3.597717E-1
3.579550E+10	-7.795410E-1	2.926636E-1	-1.253510E-2	-2.265930E-1	-7.342148E-2	-9.815216E-2	-5.552063E-1	3.643188E-1
3.602000E+10	-7.785950E-1	2.931519E-1	-2.092743E-2	-2.309799E-1	-7.877731E-2	-8.911514E-2	-5.531006E-1	3.702087E-1
3.624450E+10	-7.729492E-1	2.981262E-1	-1.946259E-2	-2.179489E-1	-7.678223E-2	-8.862305E-2	-5.477295E-1	3.769836E-1
3.646900E+10	-7.703247E-1	3.051758E-1	-2.597046E-2	-2.179565E-1	-8.123016E-2	-8.929062E-2	-5.395508E-1	3.853149E-1
3.669350E+10	-7.654114E-1	3.071594E-1	-2.949524E-2	-2.159271E-1	-8.461761E-2	-9.028625E-2	-5.235596E-1	3.831787E-1
3.691800E+10	-7.663269E-1	3.111877E-1	-3.125763E-2	-2.146378E-1	-8.665085E-2	-8.725739E-2	-5.189514E-1	3.997192E-1
3.714250E+10	-7.639160E-1	3.103943E-1	-3.753662E-2	-2.111740E-1	-9.164429E-2	-8.565140E-2	-5.101318E-1	4.042664E-1
3.736700E+10	-7.580261E-1	3.162842E-1	-4.042816E-2	-2.082672E-1	-9.512711E-2	-8.288574E-2	-5.030212E-1	4.063416E-1
3.759150E+10	-7.528992E-1	3.202209E-1	-4.882812E-2	-2.055511E-1	-9.301758E-2	-8.565140E-2	-4.947510E-1	4.140472E-1
3.781600E+10	-7.518921E-1	3.213501E-1	-4.547882E-2	-2.082977E-1	-9.066391E-2	-8.062744E-2	-4.887390E-1	4.131775E-1
3.804050E+10	-7.532654E-1	3.266296E-1	-4.729462E-2	-1.957474E-1	-9.999084E-2	-7.510376E-2	-4.804535E-1	4.205933E-1
3.826500E+10	-7.485962E-1	3.309631E-1	-5.482483E-2	-2.006302E-1	-9.691620E-2	-7.733154E-2	-4.665680E-1	4.344482E-1
3.848950E+10	-7.427979E-1	3.367615E-1	-5.440521E-2	-2.000275E-1	-1.002350E-1	-7.598877E-2	-4.608612E-1	4.329376E-1
3.871400E+10	-7.428894E-1	3.356323E-1	-5.548859E-2	-1.943741E-1	-1.021538E-1	-7.345581E-2	-4.477081E-1	4.329681E-1
3.893850E+10	-7.397766E-1	3.368225E-1	-5.917358E-2	-1.894150E-1	-1.017113E-1	-7.257080E-2	-4.291687E-1	4.363708E-1
