!Date: 10/28/2005, 12:46 PM

!Vgs = -6.000000E+0
!Vds = 1.250000E+1
!Ig = -1.020700E-4
!Id = 4.092700E-3

# HZ S RI R 50
1.000000E+8	9.885559E-1	-4.168701E-2	-2.202911E-1	5.546570E-3	2.840519E-3	1.097679E-2	9.496155E-1	-1.196289E-2
3.245000E+8	9.762878E-1	-1.156311E-1	-2.248764E-1	4.928589E-2	5.489349E-3	3.087997E-2	9.257507E-1	-8.898926E-2
5.490000E+8	9.598389E-1	-1.862183E-1	-2.164001E-1	8.704376E-2	1.165199E-2	5.019951E-2	9.194946E-1	-1.412354E-1
7.735000E+8	9.389038E-1	-2.563171E-1	-2.026291E-1	1.228333E-1	2.008057E-2	6.780624E-2	9.026489E-1	-1.935730E-1
9.980000E+8	9.143066E-1	-3.205566E-1	-1.845169E-1	1.546478E-1	3.012848E-2	8.433533E-2	8.847046E-1	-2.398682E-1
1.222500E+9	8.848877E-1	-3.830872E-1	-1.644135E-1	1.838608E-1	4.149246E-2	9.912491E-2	8.648071E-1	-2.881775E-1
1.447000E+9	8.515930E-1	-4.425049E-1	-1.420364E-1	2.092972E-1	5.420685E-2	1.122360E-1	8.434753E-1	-3.329468E-1
1.671500E+9	8.151550E-1	-4.974670E-1	-1.181946E-1	2.329712E-1	6.748199E-2	1.246796E-1	8.186646E-1	-3.739319E-1
1.896000E+9	7.760925E-1	-5.476074E-1	-9.193420E-2	2.545319E-1	8.349609E-2	1.362000E-1	7.957764E-1	-4.117432E-1
2.120500E+9	7.357788E-1	-5.943909E-1	-6.263733E-2	2.708740E-1	1.005630E-1	1.441574E-1	7.713013E-1	-4.513550E-1
2.345000E+9	6.907654E-1	-6.380310E-1	-3.317261E-2	2.838745E-1	1.178589E-1	1.495972E-1	7.441406E-1	-4.878845E-1
2.569500E+9	6.480713E-1	-6.741638E-1	-3.768921E-3	2.935638E-1	1.346970E-1	1.533432E-1	7.157288E-1	-5.228577E-1
2.794000E+9	6.019592E-1	-7.098999E-1	2.409363E-2	3.008270E-1	1.514359E-1	1.550827E-1	6.864624E-1	-5.535889E-1
3.018500E+9	5.564575E-1	-7.399902E-1	5.339050E-2	3.038330E-1	1.675873E-1	1.555023E-1	6.552124E-1	-5.850525E-1
3.243000E+9	5.107422E-1	-7.666626E-1	8.076477E-2	3.057861E-1	1.837463E-1	1.539993E-1	6.230164E-1	-6.132507E-1
3.467500E+9	4.655762E-1	-7.909851E-1	1.070099E-1	3.059235E-1	1.986160E-1	1.522522E-1	5.917358E-1	-6.370239E-1
3.692000E+9	4.205017E-1	-8.110352E-1	1.334991E-1	3.031006E-1	2.138367E-1	1.483383E-1	5.585327E-1	-6.621399E-1
3.916500E+9	3.749390E-1	-8.277893E-1	1.587982E-1	2.983246E-1	2.287903E-1	1.425552E-1	5.258789E-1	-6.820679E-1
4.141000E+9	3.330078E-1	-8.422241E-1	1.828003E-1	2.917480E-1	2.414398E-1	1.372833E-1	4.941406E-1	-7.012939E-1
4.365500E+9	2.905273E-1	-8.551941E-1	2.050934E-1	2.830200E-1	2.543640E-1	1.302032E-1	4.633484E-1	-7.196655E-1
4.590000E+9	2.477722E-1	-8.655396E-1	2.260590E-1	2.736053E-1	2.663574E-1	1.228485E-1	4.302368E-1	-7.361755E-1
4.814500E+9	2.077026E-1	-8.722839E-1	2.461700E-1	2.625885E-1	2.780457E-1	1.141815E-1	3.992004E-1	-7.505493E-1
5.039000E+9	1.678162E-1	-8.783569E-1	2.645264E-1	2.508392E-1	2.883301E-1	1.044769E-1	3.677368E-1	-7.653809E-1
5.263500E+9	1.289062E-1	-8.814087E-1	2.817078E-1	2.373199E-1	2.980042E-1	9.497070E-2	3.346558E-1	-7.760620E-1
5.488000E+9	9.301758E-2	-8.833923E-1	2.972260E-1	2.239532E-1	3.060608E-1	8.491516E-2	3.055115E-1	-7.860718E-1
5.712500E+9	5.603027E-2	-8.850098E-1	3.118896E-1	2.092743E-1	3.142700E-1	7.426453E-2	2.753601E-1	-7.966003E-1
5.937000E+9	2.178955E-2	-8.825378E-1	3.243713E-1	1.941986E-1	3.210907E-1	6.262207E-2	2.431946E-1	-8.056641E-1
6.161500E+9	-1.019287E-2	-8.825684E-1	3.361359E-1	1.793976E-1	3.268280E-1	5.157471E-2	2.148132E-1	-8.132019E-1
6.386000E+9	-4.318237E-2	-8.799438E-1	3.458710E-1	1.640167E-1	3.319550E-1	4.005432E-2	1.846924E-1	-8.193359E-1
6.610500E+9	-7.327271E-2	-8.769226E-1	3.552856E-1	1.483612E-1	3.354187E-1	2.876282E-2	1.535950E-1	-8.254395E-1
6.835000E+9	-1.033936E-1	-8.725891E-1	3.632355E-1	1.338959E-1	3.390656E-1	1.765442E-2	1.252441E-1	-8.284302E-1
7.059500E+9	-1.304626E-1	-8.665771E-1	3.690643E-1	1.175995E-1	3.420105E-1	7.644653E-3	9.982300E-2	-8.309937E-1
7.284000E+9	-1.591187E-1	-8.616638E-1	3.750916E-1	1.018524E-1	3.439178E-1	-4.394531E-3	6.881714E-2	-8.332520E-1
7.508500E+9	-1.862793E-1	-8.551636E-1	3.795013E-1	8.663940E-2	3.451691E-1	-1.528931E-2	4.141235E-2	-8.326416E-1
7.733000E+9	-2.113037E-1	-8.471985E-1	3.833923E-1	7.205200E-2	3.457947E-1	-2.638245E-2	1.562500E-2	-8.341980E-1
7.957500E+9	-2.355652E-1	-8.403931E-1	3.858032E-1	5.732727E-2	3.462677E-1	-3.643799E-2	-1.254272E-2	-8.353882E-1
8.182000E+9	-2.584839E-1	-8.331604E-1	3.882141E-1	4.315186E-2	3.467712E-1	-4.733276E-2	-3.796387E-2	-8.351440E-1
8.406500E+9	-2.810364E-1	-8.255310E-1	3.892365E-1	2.804565E-2	3.445587E-1	-5.813599E-2	-6.402588E-2	-8.319702E-1
8.631000E+9	-3.042297E-1	-8.167114E-1	3.908081E-1	1.400757E-2	3.439331E-1	-6.750488E-2	-9.060669E-2	-8.294678E-1
8.855500E+9	-3.250427E-1	-8.091125E-1	3.898468E-1	4.425049E-4	3.422089E-1	-7.711792E-2	-1.152954E-1	-8.261108E-1
9.080001E+9	-3.439331E-1	-8.014526E-1	3.899384E-1	-1.298523E-2	3.408203E-1	-8.567810E-2	-1.384277E-1	-8.221741E-1
9.304500E+9	-3.645630E-1	-7.915344E-1	3.888092E-1	-2.470398E-2	3.375397E-1	-9.483337E-2	-1.620178E-1	-8.182068E-1
9.529000E+9	-3.821716E-1	-7.835693E-1	3.869629E-1	-3.851318E-2	3.358307E-1	-1.039734E-1	-1.864929E-1	-8.120422E-1
9.753500E+9	-4.015808E-1	-7.737122E-1	3.842773E-1	-5.024719E-2	3.324432E-1	-1.125336E-1	-2.068176E-1	-8.063660E-1
9.978000E+9	-4.181824E-1	-7.640381E-1	3.819733E-1	-6.205750E-2	3.294067E-1	-1.206512E-1	-2.285767E-1	-8.012695E-1
1.020250E+10	-4.360962E-1	-7.557678E-1	3.788757E-1	-7.368469E-2	3.259888E-1	-1.292419E-1	-2.515259E-1	-7.940979E-1
1.042700E+10	-4.524841E-1	-7.460937E-1	3.760223E-1	-8.499146E-2	3.221283E-1	-1.375732E-1	-2.717896E-1	-7.878723E-1
1.065150E+10	-4.674377E-1	-7.371521E-1	3.707428E-1	-9.439087E-2	3.179932E-1	-1.447449E-1	-2.926025E-1	-7.819519E-1
1.087600E+10	-4.828796E-1	-7.276917E-1	3.671722E-1	-1.047974E-1	3.135071E-1	-1.514130E-1	-3.125610E-1	-7.739868E-1
1.110050E+10	-4.977112E-1	-7.173767E-1	3.630981E-1	-1.151581E-1	3.096161E-1	-1.593170E-1	-3.325500E-1	-7.655029E-1
1.132500E+10	-5.115356E-1	-7.086792E-1	3.585205E-1	-1.248169E-1	3.051147E-1	-1.648865E-1	-3.500061E-1	-7.590942E-1
1.154950E+10	-5.263672E-1	-6.982117E-1	3.531799E-1	-1.334991E-1	3.002777E-1	-1.723175E-1	-3.711243E-1	-7.507019E-1
1.177400E+10	-5.379333E-1	-6.891479E-1	3.484802E-1	-1.421051E-1	2.950287E-1	-1.777191E-1	-3.881226E-1	-7.393799E-1
1.199850E+10	-5.520325E-1	-6.807251E-1	3.429260E-1	-1.501160E-1	2.907562E-1	-1.838989E-1	-4.061584E-1	-7.331543E-1
1.222300E+10	-5.630188E-1	-6.708069E-1	3.383789E-1	-1.580200E-1	2.862549E-1	-1.892395E-1	-4.237976E-1	-7.234802E-1
1.244750E+10	-5.757751E-1	-6.607666E-1	3.331299E-1	-1.665649E-1	2.805786E-1	-1.950073E-1	-4.412842E-1	-7.115784E-1
1.267200E+10	-5.877075E-1	-6.512756E-1	3.265839E-1	-1.730957E-1	2.752838E-1	-2.005768E-1	-4.562073E-1	-7.048645E-1
1.289650E+10	-5.982361E-1	-6.416931E-1	3.213959E-1	-1.809235E-1	2.704773E-1	-2.044373E-1	-4.741516E-1	-6.940308E-1
1.312100E+10	-6.096191E-1	-6.322937E-1	3.148041E-1	-1.874237E-1	2.653961E-1	-2.101746E-1	-4.887695E-1	-6.809387E-1
1.334550E+10	-6.197815E-1	-6.233521E-1	3.094330E-1	-1.939850E-1	2.608795E-1	-2.142792E-1	-5.022583E-1	-6.730652E-1
1.357000E+10	-6.316528E-1	-6.118469E-1	3.026581E-1	-1.995697E-1	2.538757E-1	-2.192993E-1	-5.185852E-1	-6.646423E-1
1.379450E+10	-6.393127E-1	-6.051025E-1	2.984161E-1	-2.055054E-1	2.500763E-1	-2.225800E-1	-5.332336E-1	-6.494751E-1
1.401900E+10	-6.487427E-1	-5.951843E-1	2.909393E-1	-2.122498E-1	2.442627E-1	-2.270508E-1	-5.444336E-1	-6.414185E-1
1.424350E+10	-6.584473E-1	-5.863647E-1	2.848358E-1	-2.174225E-1	2.387466E-1	-2.303162E-1	-5.596313E-1	-6.283569E-1
1.446800E+10	-6.663208E-1	-5.765381E-1	2.787018E-1	-2.223663E-1	2.336807E-1	-2.338638E-1	-5.732117E-1	-6.140442E-1
1.469250E+10	-6.761475E-1	-5.678711E-1	2.737427E-1	-2.271881E-1	2.272034E-1	-2.375870E-1	-5.830383E-1	-6.058350E-1
1.491700E+10	-6.849365E-1	-5.600891E-1	2.675934E-1	-2.309418E-1	2.222824E-1	-2.405777E-1	-5.982971E-1	-5.963440E-1
1.514150E+10	-6.925964E-1	-5.491028E-1	2.601776E-1	-2.351379E-1	2.166977E-1	-2.435455E-1	-6.110840E-1	-5.805054E-1
1.536600E+10	-7.007141E-1	-5.405579E-1	2.533417E-1	-2.402802E-1	2.109680E-1	-2.469406E-1	-6.188965E-1	-5.690918E-1
1.559050E+10	-7.094116E-1	-5.321350E-1	2.469635E-1	-2.430573E-1	2.059326E-1	-2.487793E-1	-6.339417E-1	-5.600891E-1
1.581500E+10	-7.155151E-1	-5.226135E-1	2.404633E-1	-2.465591E-1	1.993408E-1	-2.523193E-1	-6.462402E-1	-5.441284E-1
1.603950E+10	-7.230530E-1	-5.125427E-1	2.348633E-1	-2.505798E-1	1.970215E-1	-2.539978E-1	-6.524963E-1	-5.338440E-1
1.626400E+10	-7.314758E-1	-5.047607E-1	2.279053E-1	-2.535706E-1	1.891937E-1	-2.561646E-1	-6.664429E-1	-5.226746E-1
1.648850E+10	-7.382507E-1	-4.956970E-1	2.221527E-1	-2.554474E-1	1.838837E-1	-2.575684E-1	-6.752930E-1	-5.076904E-1
1.671300E+10	-7.444763E-1	-4.871216E-1	2.155457E-1	-2.583771E-1	1.784058E-1	-2.596588E-1	-6.832886E-1	-4.984741E-1
1.693750E+10	-7.503967E-1	-4.799194E-1	2.103271E-1	-2.633514E-1	1.731720E-1	-2.628479E-1	-6.946106E-1	-4.847717E-1
1.716200E+10	-7.561646E-1	-4.702148E-1	2.046967E-1	-2.645416E-1	1.680145E-1	-2.631226E-1	-7.015381E-1	-4.698486E-1
1.738650E+10	-7.631836E-1	-4.622803E-1	1.976471E-1	-2.673492E-1	1.627960E-1	-2.648163E-1	-7.092590E-1	-4.586182E-1
1.761100E+10	-7.683716E-1	-4.534607E-1	1.924133E-1	-2.686310E-1	1.582031E-1	-2.653351E-1	-7.201843E-1	-4.475708E-1
1.783550E+10	-7.761230E-1	-4.441833E-1	1.858826E-1	-2.712555E-1	1.527405E-1	-2.685852E-1	-7.281494E-1	-4.320374E-1
1.806000E+10	-7.816162E-1	-4.356995E-1	1.803741E-1	-2.728729E-1	1.484222E-1	-2.680664E-1	-7.338867E-1	-4.209595E-1
1.828450E+10	-7.872620E-1	-4.275818E-1	1.739807E-1	-2.737885E-1	1.426849E-1	-2.708740E-1	-7.428589E-1	-4.113159E-1
1.850900E+10	-7.919922E-1	-4.194031E-1	1.688843E-1	-2.760620E-1	1.371155E-1	-2.706757E-1	-7.509155E-1	-3.961182E-1
1.873350E+10	-7.982788E-1	-4.107666E-1	1.640472E-1	-2.777405E-1	1.333008E-1	-2.714691E-1	-7.556763E-1	-3.816833E-1
1.895800E+10	-8.012085E-1	-4.023437E-1	1.587372E-1	-2.784271E-1	1.279602E-1	-2.717743E-1	-7.616272E-1	-3.715820E-1
1.918250E+10	-8.077393E-1	-3.929138E-1	1.535034E-1	-2.794952E-1	1.242523E-1	-2.733307E-1	-7.695618E-1	-3.577576E-1
1.940700E+10	-8.117676E-1	-3.842163E-1	1.473236E-1	-2.815704E-1	1.180725E-1	-2.732849E-1	-7.743530E-1	-3.417053E-1
1.963150E+10	-8.160095E-1	-3.791809E-1	1.399384E-1	-2.826538E-1	1.133728E-1	-2.740631E-1	-7.787476E-1	-3.345032E-1
1.985600E+10	-8.199158E-1	-3.689270E-1	1.354523E-1	-2.819977E-1	1.092682E-1	-2.728424E-1	-7.859497E-1	-3.190002E-1
2.008050E+10	-8.240051E-1	-3.615112E-1	1.301575E-1	-2.834167E-1	1.038208E-1	-2.729492E-1	-7.926331E-1	-3.038330E-1
2.030500E+10	-8.291626E-1	-3.530884E-1	1.257782E-1	-2.832489E-1	9.916687E-2	-2.742310E-1	-7.921448E-1	-2.944641E-1
2.052950E+10	-8.324890E-1	-3.453064E-1	1.180420E-1	-2.852173E-1	9.492493E-2	-2.746277E-1	-7.999573E-1	-2.804565E-1
2.075400E+10	-8.384399E-1	-3.383789E-1	1.146545E-1	-2.851257E-1	9.053040E-2	-2.747192E-1	-8.044739E-1	-2.655029E-1
2.097850E+10	-8.417358E-1	-3.300476E-1	1.085815E-1	-2.843323E-1	8.665466E-2	-2.740479E-1	-8.048706E-1	-2.534180E-1
2.120300E+10	-8.438110E-1	-3.218689E-1	1.041260E-1	-2.830963E-1	8.273315E-2	-2.733459E-1	-8.122559E-1	-2.440796E-1
2.142750E+10	-8.499146E-1	-3.146973E-1	9.840393E-2	-2.839813E-1	7.774353E-2	-2.738037E-1	-8.171082E-1	-2.307739E-1
2.165200E+10	-8.531799E-1	-3.049316E-1	9.391785E-2	-2.837219E-1	7.565308E-2	-2.720032E-1	-8.185425E-1	-2.182922E-1
2.187650E+10	-8.548279E-1	-2.970886E-1	8.975220E-2	-2.819214E-1	6.886292E-2	-2.737274E-1	-8.217468E-1	-2.062378E-1
2.210100E+10	-8.615417E-1	-2.874756E-1	8.627319E-2	-2.830963E-1	6.544495E-2	-2.725525E-1	-8.277283E-1	-1.900330E-1
2.232550E+10	-8.623657E-1	-2.789612E-1	7.981873E-2	-2.836761E-1	6.433105E-2	-2.710419E-1	-8.275757E-1	-1.770935E-1
2.255000E+10	-8.658142E-1	-2.712708E-1	7.533264E-2	-2.811584E-1	5.784607E-2	-2.713776E-1	-8.338013E-1	-1.703491E-1
2.277450E+10	-8.662720E-1	-2.633057E-1	7.019043E-2	-2.844391E-1	5.502319E-2	-2.720337E-1	-8.357544E-1	-1.526794E-1
2.299900E+10	-8.700256E-1	-2.559509E-1	6.723022E-2	-2.814026E-1	5.026245E-2	-2.711487E-1	-8.345032E-1	-1.394348E-1
2.322350E+10	-8.732910E-1	-2.492371E-1	6.169128E-2	-2.825470E-1	4.594421E-2	-2.707214E-1	-8.393860E-1	-1.304321E-1
2.344800E+10	-8.754578E-1	-2.453308E-1	5.786133E-2	-2.803497E-1	4.196167E-2	-2.701263E-1	-8.423767E-1	-1.128235E-1
2.367250E+10	-8.783569E-1	-2.349243E-1	5.442810E-2	-2.811737E-1	3.680420E-2	-2.695770E-1	-8.401184E-1	-9.692383E-2
2.389700E+10	-8.785400E-1	-2.275391E-1	5.145264E-2	-2.824249E-1	3.356934E-2	-2.689362E-1	-8.448486E-1	-8.676147E-2
2.412150E+10	-8.848877E-1	-2.222290E-1	4.588318E-2	-2.801208E-1	2.954102E-2	-2.690277E-1	-8.422241E-1	-6.948853E-2
2.434600E+10	-8.865356E-1	-2.133484E-1	4.179382E-2	-2.797546E-1	2.622986E-2	-2.690430E-1	-8.434753E-1	-5.838013E-2
2.457050E+10	-8.887024E-1	-2.081604E-1	3.692627E-2	-2.800140E-1	2.253723E-2	-2.666779E-1	-8.453674E-1	-4.812622E-2
2.479500E+10	-8.899841E-1	-1.990662E-1	3.237915E-2	-2.783356E-1	1.960754E-2	-2.641907E-1	-8.409729E-1	-3.213501E-2
2.501950E+10	-8.910217E-1	-1.926880E-1	2.806091E-2	-2.790222E-1	1.350403E-2	-2.667084E-1	-8.387756E-1	-2.227783E-2
2.524400E+10	-8.949585E-1	-1.859131E-1	2.374268E-2	-2.761993E-1	1.188660E-2	-2.641296E-1	-8.411865E-1	-1.034546E-2
2.546850E+10	-8.972473E-1	-1.762085E-1	1.986694E-2	-2.751465E-1	7.171631E-3	-2.634888E-1	-8.374329E-1	2.410889E-3
2.569300E+10	-8.949890E-1	-1.705933E-1	1.713562E-2	-2.734070E-1	5.416870E-3	-2.593384E-1	-8.372803E-1	1.260376E-2
2.591750E+10	-9.017334E-1	-1.614380E-1	1.220703E-2	-2.742767E-1	2.792358E-3	-2.604065E-1	-8.388672E-1	2.371216E-2
2.614200E+10	-9.018250E-1	-1.547241E-1	1.011658E-2	-2.715759E-1	5.645752E-4	-2.605591E-1	-8.361816E-1	3.640747E-2
2.636650E+10	-9.048767E-1	-1.481628E-1	5.874634E-3	-2.711639E-1	-4.791260E-3	-2.578888E-1	-8.374023E-1	5.401611E-2
2.659100E+10	-9.040222E-1	-1.408386E-1	2.929687E-3	-2.698669E-1	-9.124756E-3	-2.570648E-1	-8.314514E-1	6.338501E-2
2.681550E+10	-9.057922E-1	-1.361084E-1	-2.395630E-3	-2.664948E-1	-1.054382E-2	-2.559967E-1	-8.342590E-1	7.299805E-2
2.704000E+10	-9.081726E-1	-1.271973E-1	-5.294800E-3	-2.687073E-1	-1.249695E-2	-2.555389E-1	-8.330078E-1	9.194946E-2
2.726450E+10	-9.090576E-1	-1.233826E-1	-7.690430E-3	-2.684784E-1	-1.812744E-2	-2.560425E-1	-8.223267E-1	1.013489E-1
2.748900E+10	-9.095154E-1	-1.161499E-1	-1.396179E-2	-2.653351E-1	-2.102661E-2	-2.535400E-1	-8.248596E-1	1.085205E-1
2.771350E+10	-9.077148E-1	-1.064758E-1	-1.544189E-2	-2.631378E-1	-2.458191E-2	-2.527008E-1	-8.204346E-1	1.193848E-1
2.793800E+10	-9.117126E-1	-1.005249E-1	-1.945496E-2	-2.624817E-1	-2.880859E-2	-2.499542E-1	-8.183289E-1	1.325073E-1
2.816250E+10	-9.127808E-1	-9.277344E-2	-2.365112E-2	-2.638397E-1	-2.935791E-2	-2.494812E-1	-8.141174E-1	1.454468E-1
2.838700E+10	-9.148254E-1	-8.605957E-2	-2.529907E-2	-2.606506E-1	-3.183746E-2	-2.486267E-1	-8.109741E-1	1.599426E-1
2.861150E+10	-9.148254E-1	-7.745361E-2	-3.100586E-2	-2.614746E-1	-3.881836E-2	-2.472000E-1	-8.047485E-1	1.694641E-1
2.883600E+10	-9.172668E-1	-7.186890E-2	-3.347778E-2	-2.560883E-1	-4.102325E-2	-2.439423E-1	-8.022156E-1	1.789551E-1
2.906050E+10	-9.169922E-1	-6.924438E-2	-3.593445E-2	-2.556915E-1	-4.113007E-2	-2.449417E-1	-7.970276E-1	1.912842E-1
2.928500E+10	-9.171448E-1	-5.746460E-2	-3.886414E-2	-2.537079E-1	-4.598236E-2	-2.407074E-1	-7.965088E-1	2.004395E-1
2.950950E+10	-9.183044E-1	-5.142212E-2	-4.258728E-2	-2.506561E-1	-4.644775E-2	-2.384415E-1	-7.922974E-1	2.085876E-1
2.973400E+10	-9.235840E-1	-4.598999E-2	-4.435730E-2	-2.515259E-1	-4.724121E-2	-2.392502E-1	-7.916565E-1	2.240295E-1
2.995850E+10	-9.192505E-1	-3.607178E-2	-4.343414E-2	-2.481842E-1	-5.121613E-2	-2.390747E-1	-7.857666E-1	2.326355E-1
3.018300E+10	-9.204712E-1	-3.097534E-2	-4.931641E-2	-2.477417E-1	-5.469513E-2	-2.377090E-1	-7.820740E-1	2.485352E-1
3.040750E+10	-9.221802E-1	-2.459717E-2	-5.356598E-2	-2.490463E-1	-5.780792E-2	-2.385559E-1	-7.762146E-1	2.614746E-1
3.063200E+10	-9.176331E-1	-1.849365E-2	-5.764008E-2	-2.455215E-1	-5.858612E-2	-2.319641E-1	-7.726440E-1	2.727661E-1
3.085650E+10	-9.201050E-1	-1.168823E-2	-5.824280E-2	-2.439270E-1	-6.449890E-2	-2.323761E-1	-7.685547E-1	2.840881E-1
3.108100E+10	-9.201355E-1	-3.479004E-3	-6.449890E-2	-2.440186E-1	-6.610870E-2	-2.337799E-1	-7.594604E-1	2.968140E-1
3.130550E+10	-9.197083E-1	2.532959E-3	-6.204224E-2	-2.394104E-1	-6.681824E-2	-2.331390E-1	-7.509460E-1	3.032227E-1
3.153000E+10	-9.231567E-1	5.249023E-3	-6.344604E-2	-2.425842E-1	-6.897736E-2	-2.329330E-1	-7.489929E-1	3.135681E-1
3.175450E+10	-9.230652E-1	1.416016E-2	-6.945038E-2	-2.412491E-1	-7.276917E-2	-2.279282E-1	-7.370911E-1	3.251953E-1
3.197900E+10	-9.189453E-1	2.374268E-2	-7.375336E-2	-2.354736E-1	-7.477570E-2	-2.250748E-1	-7.280273E-1	3.379822E-1
3.220350E+10	-9.216919E-1	2.938843E-2	-7.532501E-2	-2.308197E-1	-8.242035E-2	-2.275848E-1	-7.220459E-1	3.439331E-1
3.242800E+10	-9.238892E-1	3.308105E-2	-7.906342E-2	-2.316208E-1	-8.145142E-2	-2.251282E-1	-7.169800E-1	3.581848E-1
3.265250E+10	-9.264832E-1	4.266357E-2	-8.351135E-2	-2.328110E-1	-8.673859E-2	-2.199554E-1	-7.057190E-1	3.640137E-1
3.287700E+10	-9.251709E-1	5.072021E-2	-8.494568E-2	-2.284241E-1	-8.773804E-2	-2.209396E-1	-7.041931E-1	3.742981E-1
3.310150E+10	-9.230042E-1	5.392456E-2	-8.620453E-2	-2.255096E-1	-9.044647E-2	-2.160339E-1	-6.871643E-1	3.835144E-1
3.332600E+10	-9.207764E-1	6.149292E-2	-9.285736E-2	-2.282791E-1	-9.429169E-2	-2.234955E-1	-6.800842E-1	3.886719E-1
3.355050E+10	-9.205322E-1	6.771851E-2	-9.297180E-2	-2.242889E-1	-9.033966E-2	-2.130737E-1	-6.800537E-1	3.964539E-1
3.377500E+10	-9.231262E-1	7.659912E-2	-9.349823E-2	-2.232742E-1	-9.423065E-2	-2.119827E-1	-6.665039E-1	4.080505E-1
3.399950E+10	-9.162598E-1	8.026123E-2	-9.601593E-2	-2.202682E-1	-9.663391E-2	-2.112732E-1	-6.631470E-1	4.120483E-1
3.422400E+10	-9.229431E-1	8.752441E-2	-9.735870E-2	-2.201157E-1	-9.906769E-2	-2.114792E-1	-6.546021E-1	4.298401E-1
3.444850E+10	-9.217834E-1	9.353638E-2	-1.017456E-1	-2.203445E-1	-1.003799E-1	-2.097931E-1	-6.477356E-1	4.395447E-1
3.467300E+10	-9.174805E-1	1.011353E-1	-1.015091E-1	-2.166977E-1	-1.019516E-1	-2.073288E-1	-6.397095E-1	4.421997E-1
3.489750E+10	-9.159241E-1	1.063538E-1	-1.032715E-1	-2.171173E-1	-1.020203E-1	-2.052078E-1	-6.282349E-1	4.532776E-1
3.512200E+10	-9.159851E-1	1.083984E-1	-1.083679E-1	-2.141724E-1	-1.109772E-1	-2.028580E-1	-6.184082E-1	4.627075E-1
3.534650E+10	-9.147034E-1	1.152344E-1	-1.097946E-1	-2.131958E-1	-1.119461E-1	-1.990356E-1	-6.155701E-1	4.735413E-1
3.557100E+10	-9.138184E-1	1.219788E-1	-1.149750E-1	-2.098618E-1	-1.116638E-1	-2.055511E-1	-6.031799E-1	4.871521E-1
3.579550E+10	-9.168396E-1	1.301880E-1	-1.184540E-1	-2.103806E-1	-1.175537E-1	-1.962204E-1	-5.885315E-1	4.901733E-1
3.602000E+10	-9.171448E-1	1.348877E-1	-1.216583E-1	-2.087097E-1	-1.184540E-1	-1.982574E-1	-5.796509E-1	4.951782E-1
3.624450E+10	-9.123840E-1	1.490784E-1	-1.261826E-1	-2.055206E-1	-1.203079E-1	-1.970749E-1	-5.691528E-1	5.041504E-1
3.646900E+10	-9.140015E-1	1.530457E-1	-1.237030E-1	-2.070923E-1	-1.227417E-1	-1.928558E-1	-5.593872E-1	5.114746E-1
3.669350E+10	-9.069824E-1	1.538086E-1	-1.255951E-1	-2.009964E-1	-1.267166E-1	-1.932602E-1	-5.449524E-1	5.197144E-1
3.691800E+10	-9.050903E-1	1.635132E-1	-1.285477E-1	-1.976089E-1	-1.261368E-1	-1.918716E-1	-5.332947E-1	5.290527E-1
3.714250E+10	-9.064636E-1	1.663208E-1	-1.312561E-1	-1.975555E-1	-1.301193E-1	-1.899185E-1	-5.240784E-1	5.352173E-1
3.736700E+10	-9.035339E-1	1.743774E-1	-1.341476E-1	-1.977844E-1	-1.329727E-1	-1.888351E-1	-5.149536E-1	5.408936E-1
3.759150E+10	-9.029541E-1	1.836853E-1	-1.332855E-1	-1.933975E-1	-1.367874E-1	-1.891327E-1	-4.981384E-1	5.445251E-1
3.781600E+10	-9.045105E-1	1.885986E-1	-1.409760E-1	-1.931152E-1	-1.384964E-1	-1.862793E-1	-4.963074E-1	5.489807E-1
3.804050E+10	-9.026794E-1	1.875916E-1	-1.405640E-1	-1.854401E-1	-1.395493E-1	-1.798019E-1	-4.721069E-1	5.570068E-1
3.826500E+10	-8.996277E-1	1.967163E-1	-1.414566E-1	-1.896439E-1	-1.420898E-1	-1.809006E-1	-4.564819E-1	5.693970E-1
3.848950E+10	-8.991699E-1	2.065735E-1	-1.509399E-1	-1.845169E-1	-1.480255E-1	-1.798935E-1	-4.492798E-1	5.663452E-1
3.871400E+10	-8.961792E-1	2.077637E-1	-1.489410E-1	-1.830826E-1	-1.497955E-1	-1.784592E-1	-4.344177E-1	5.750427E-1
3.893850E+10	-8.957214E-1	2.183228E-1	-1.530914E-1	-1.823502E-1	-1.460190E-1	-1.743927E-1	-4.136353E-1	5.754395E-1
