!Date: 10/28/2005, 12:46 PM

!Vgs = -7.000000E+0
!Vds = 1.500000E+1
!Ig = -1.392800E-4
!Id = 2.515600E-3

# HZ S RI R 50
1.000000E+8	9.888611E-1	-3.649902E-2	-7.183456E-2	7.801056E-3	1.457691E-3	8.229256E-3	9.737854E-1	-7.873535E-3
3.245000E+8	9.783630E-1	-1.036682E-1	-7.259750E-2	3.490067E-2	5.305290E-3	2.958584E-2	9.515686E-1	-8.517456E-2
5.490000E+8	9.640503E-1	-1.672974E-1	-6.655884E-2	6.085587E-2	1.096153E-2	4.865837E-2	9.461975E-1	-1.368103E-1
7.735000E+8	9.468079E-1	-2.309875E-1	-5.645370E-2	8.407593E-2	1.874924E-2	6.617355E-2	9.306641E-1	-1.885681E-1
9.980000E+8	9.269409E-1	-2.893372E-1	-4.443359E-2	1.053619E-1	2.828979E-2	8.228683E-2	9.142456E-1	-2.348938E-1
1.222500E+9	9.027405E-1	-3.470459E-1	-3.109360E-2	1.246490E-1	3.862381E-2	9.729385E-2	8.963318E-1	-2.826538E-1
1.447000E+9	8.754272E-1	-4.022522E-1	-1.602936E-2	1.421051E-1	5.011749E-2	1.103210E-1	8.756104E-1	-3.277283E-1
1.671500E+9	8.448792E-1	-4.537964E-1	-6.713867E-4	1.588364E-1	6.243134E-2	1.234779E-1	8.522644E-1	-3.696899E-1
1.896000E+9	8.122253E-1	-5.019226E-1	1.737976E-2	1.747589E-1	7.794952E-2	1.355896E-1	8.310547E-1	-4.078674E-1
2.120500E+9	7.784119E-1	-5.473938E-1	3.786469E-2	1.862869E-1	9.407043E-2	1.445236E-1	8.079834E-1	-4.482117E-1
2.345000E+9	7.398682E-1	-5.907288E-1	5.911255E-2	1.953659E-1	1.113815E-1	1.508713E-1	7.807617E-1	-4.866028E-1
2.569500E+9	7.026062E-1	-6.277161E-1	7.942200E-2	2.021561E-1	1.272278E-1	1.557159E-1	7.544861E-1	-5.220642E-1
2.794000E+9	6.632996E-1	-6.646423E-1	9.925842E-2	2.073288E-1	1.435776E-1	1.585922E-1	7.262268E-1	-5.537415E-1
3.018500E+9	6.231079E-1	-6.959534E-1	1.199570E-1	2.101898E-1	1.596146E-1	1.596985E-1	6.958923E-1	-5.865784E-1
3.243000E+9	5.832214E-1	-7.254639E-1	1.400833E-1	2.111511E-1	1.759796E-1	1.597519E-1	6.647034E-1	-6.167908E-1
3.467500E+9	5.422058E-1	-7.525940E-1	1.592712E-1	2.110672E-1	1.915207E-1	1.590500E-1	6.336670E-1	-6.419983E-1
3.692000E+9	5.012207E-1	-7.756348E-1	1.780014E-1	2.089081E-1	2.068405E-1	1.568527E-1	6.006775E-1	-6.700134E-1
3.916500E+9	4.595642E-1	-7.964172E-1	1.968536E-1	2.056656E-1	2.219391E-1	1.527634E-1	5.666199E-1	-6.912842E-1
4.141000E+9	4.208374E-1	-8.148804E-1	2.150650E-1	2.011337E-1	2.361908E-1	1.488342E-1	5.364380E-1	-7.119446E-1
4.365500E+9	3.813477E-1	-8.311157E-1	2.316818E-1	1.949692E-1	2.496033E-1	1.422348E-1	5.047913E-1	-7.326050E-1
4.590000E+9	3.405151E-1	-8.463440E-1	2.478027E-1	1.871262E-1	2.623138E-1	1.354828E-1	4.703674E-1	-7.498779E-1
4.814500E+9	3.019714E-1	-8.568726E-1	2.628174E-1	1.790619E-1	2.746582E-1	1.285095E-1	4.396973E-1	-7.663879E-1
5.039000E+9	2.633972E-1	-8.670959E-1	2.774353E-1	1.694336E-1	2.865753E-1	1.190796E-1	4.071350E-1	-7.827759E-1
5.263500E+9	2.254333E-1	-8.741760E-1	2.909546E-1	1.594696E-1	2.973022E-1	1.099091E-1	3.735046E-1	-7.951355E-1
5.488000E+9	1.902466E-1	-8.806152E-1	3.028870E-1	1.487579E-1	3.065948E-1	1.005249E-1	3.435059E-1	-8.069153E-1
5.712500E+9	1.531982E-1	-8.858948E-1	3.146057E-1	1.365814E-1	3.159332E-1	8.976746E-2	3.120117E-1	-8.181458E-1
5.937000E+9	1.195068E-1	-8.872070E-1	3.244476E-1	1.242523E-1	3.237000E-1	7.942200E-2	2.796936E-1	-8.282471E-1
6.161500E+9	8.703613E-2	-8.906555E-1	3.328705E-1	1.121826E-1	3.303833E-1	6.803894E-2	2.496033E-1	-8.373108E-1
6.386000E+9	5.371094E-2	-8.922729E-1	3.413239E-1	1.000519E-1	3.369598E-1	5.651855E-2	2.182922E-1	-8.441772E-1
6.610500E+9	2.331543E-2	-8.920288E-1	3.481598E-1	8.671570E-2	3.421783E-1	4.516602E-2	1.861877E-1	-8.505859E-1
6.835000E+9	-7.873535E-3	-8.911438E-1	3.546906E-1	7.421875E-2	3.464966E-1	3.395081E-2	1.565247E-1	-8.544922E-1
7.059500E+9	-3.607178E-2	-8.882446E-1	3.596649E-1	6.152344E-2	3.500824E-1	2.378845E-2	1.295471E-1	-8.572693E-1
7.284000E+9	-6.481934E-2	-8.854370E-1	3.638458E-1	4.849243E-2	3.534546E-1	1.167297E-2	9.747314E-2	-8.609924E-1
7.508500E+9	-9.378052E-2	-8.823547E-1	3.675385E-1	3.527832E-2	3.563232E-1	-7.629395E-5	6.890869E-2	-8.610229E-1
7.733000E+9	-1.205139E-1	-8.771973E-1	3.702850E-1	2.293396E-2	3.575592E-1	-1.058960E-2	4.275513E-2	-8.618164E-1
7.957500E+9	-1.461487E-1	-8.724670E-1	3.729095E-1	1.080322E-2	3.589783E-1	-2.192688E-2	1.361084E-2	-8.641052E-1
8.182000E+9	-1.701660E-1	-8.673096E-1	3.738403E-1	-1.632690E-3	3.597412E-1	-3.257751E-2	-1.242065E-2	-8.629761E-1
8.406500E+9	-1.947632E-1	-8.620300E-1	3.751221E-1	-1.354980E-2	3.591919E-1	-4.418945E-2	-4.046631E-2	-8.608704E-1
8.631000E+9	-2.196655E-1	-8.557129E-1	3.750153E-1	-2.644348E-2	3.588867E-1	-5.462646E-2	-6.820679E-2	-8.591614E-1
8.855500E+9	-2.409058E-1	-8.489380E-1	3.754272E-1	-3.752136E-2	3.581390E-1	-6.538391E-2	-9.375000E-2	-8.559875E-1
9.080001E+9	-2.620850E-1	-8.435364E-1	3.737335E-1	-4.895020E-2	3.568268E-1	-7.434082E-2	-1.171875E-1	-8.516235E-1
9.304500E+9	-2.841492E-1	-8.338318E-1	3.725433E-1	-5.964661E-2	3.536377E-1	-8.384705E-2	-1.419983E-1	-8.473816E-1
9.529000E+9	-3.040161E-1	-8.285828E-1	3.710480E-1	-7.061768E-2	3.526001E-1	-9.361267E-2	-1.668396E-1	-8.415833E-1
9.753500E+9	-3.255005E-1	-8.201599E-1	3.685913E-1	-8.210754E-2	3.508148E-1	-1.029663E-1	-1.885376E-1	-8.352661E-1
9.978000E+9	-3.435059E-1	-8.117981E-1	3.666077E-1	-9.095764E-2	3.476105E-1	-1.118774E-1	-2.112427E-1	-8.311462E-1
1.020250E+10	-3.624878E-1	-8.046875E-1	3.630524E-1	-1.016235E-1	3.450623E-1	-1.213226E-1	-2.350464E-1	-8.235168E-1
1.042700E+10	-3.800049E-1	-7.961121E-1	3.595123E-1	-1.117706E-1	3.406525E-1	-1.290588E-1	-2.551270E-1	-8.168640E-1
1.065150E+10	-3.970032E-1	-7.875671E-1	3.563995E-1	-1.209106E-1	3.374786E-1	-1.373901E-1	-2.767029E-1	-8.117676E-1
1.087600E+10	-4.137573E-1	-7.789001E-1	3.520660E-1	-1.296997E-1	3.334503E-1	-1.453400E-1	-2.984314E-1	-8.035278E-1
1.110050E+10	-4.309387E-1	-7.705994E-1	3.479156E-1	-1.379700E-1	3.290558E-1	-1.539459E-1	-3.192444E-1	-7.946777E-1
1.132500E+10	-4.465332E-1	-7.620850E-1	3.438568E-1	-1.466217E-1	3.250580E-1	-1.605835E-1	-3.374329E-1	-7.880554E-1
1.154950E+10	-4.618225E-1	-7.522278E-1	3.388824E-1	-1.550598E-1	3.208923E-1	-1.672974E-1	-3.599548E-1	-7.772827E-1
1.177400E+10	-4.756165E-1	-7.446289E-1	3.359833E-1	-1.621094E-1	3.163757E-1	-1.740265E-1	-3.773193E-1	-7.677917E-1
1.199850E+10	-4.916687E-1	-7.356567E-1	3.305817E-1	-1.703033E-1	3.114014E-1	-1.814728E-1	-3.937073E-1	-7.612610E-1
1.222300E+10	-5.041199E-1	-7.259521E-1	3.249817E-1	-1.771240E-1	3.067322E-1	-1.876526E-1	-4.137878E-1	-7.519531E-1
1.244750E+10	-5.189514E-1	-7.165527E-1	3.198242E-1	-1.843567E-1	3.013458E-1	-1.926575E-1	-4.313965E-1	-7.390137E-1
1.267200E+10	-5.317993E-1	-7.076416E-1	3.144684E-1	-1.902008E-1	2.964325E-1	-1.987457E-1	-4.458008E-1	-7.325134E-1
1.289650E+10	-5.431213E-1	-6.984558E-1	3.094788E-1	-1.966705E-1	2.911530E-1	-2.044220E-1	-4.657898E-1	-7.210693E-1
1.312100E+10	-5.571289E-1	-6.902771E-1	3.030548E-1	-2.031250E-1	2.860718E-1	-2.101288E-1	-4.815063E-1	-7.083740E-1
1.334550E+10	-5.685730E-1	-6.802673E-1	2.981110E-1	-2.088928E-1	2.808228E-1	-2.152405E-1	-4.946899E-1	-7.000122E-1
1.357000E+10	-5.812988E-1	-6.702271E-1	2.917175E-1	-2.140045E-1	2.744904E-1	-2.207642E-1	-5.104980E-1	-6.910400E-1
1.379450E+10	-5.892334E-1	-6.633606E-1	2.866058E-1	-2.203064E-1	2.693329E-1	-2.245941E-1	-5.265198E-1	-6.761780E-1
1.401900E+10	-5.999451E-1	-6.532288E-1	2.817993E-1	-2.235260E-1	2.639618E-1	-2.305450E-1	-5.373840E-1	-6.671753E-1
1.424350E+10	-6.115112E-1	-6.445312E-1	2.754211E-1	-2.290344E-1	2.588196E-1	-2.330017E-1	-5.546875E-1	-6.551514E-1
1.446800E+10	-6.213684E-1	-6.372070E-1	2.687225E-1	-2.345734E-1	2.533417E-1	-2.375641E-1	-5.676270E-1	-6.418762E-1
1.469250E+10	-6.315002E-1	-6.267395E-1	2.640076E-1	-2.384644E-1	2.473907E-1	-2.414169E-1	-5.784607E-1	-6.304932E-1
1.491700E+10	-6.405640E-1	-6.183777E-1	2.572937E-1	-2.431030E-1	2.426071E-1	-2.454224E-1	-5.936890E-1	-6.209717E-1
1.514150E+10	-6.497498E-1	-6.081848E-1	2.509155E-1	-2.467346E-1	2.358475E-1	-2.490845E-1	-6.079102E-1	-6.054687E-1
1.536600E+10	-6.595459E-1	-5.994263E-1	2.450027E-1	-2.497406E-1	2.294312E-1	-2.521362E-1	-6.152039E-1	-5.950012E-1
1.559050E+10	-6.693726E-1	-5.914307E-1	2.383118E-1	-2.535553E-1	2.250519E-1	-2.548370E-1	-6.296692E-1	-5.846863E-1
1.581500E+10	-6.770020E-1	-5.812683E-1	2.326965E-1	-2.568512E-1	2.189636E-1	-2.592621E-1	-6.424255E-1	-5.697021E-1
1.603950E+10	-6.848755E-1	-5.739136E-1	2.275085E-1	-2.593689E-1	2.139282E-1	-2.611389E-1	-6.507874E-1	-5.589600E-1
1.626400E+10	-6.943970E-1	-5.634155E-1	2.219849E-1	-2.640381E-1	2.078552E-1	-2.623444E-1	-6.636047E-1	-5.467224E-1
1.648850E+10	-7.026672E-1	-5.543823E-1	2.152100E-1	-2.653046E-1	2.022705E-1	-2.656860E-1	-6.739807E-1	-5.316162E-1
1.671300E+10	-7.094421E-1	-5.463562E-1	2.090912E-1	-2.680817E-1	1.954956E-1	-2.672882E-1	-6.806335E-1	-5.217896E-1
1.693750E+10	-7.168579E-1	-5.382996E-1	2.036896E-1	-2.696381E-1	1.912231E-1	-2.702484E-1	-6.921387E-1	-5.090637E-1
1.716200E+10	-7.243652E-1	-5.290222E-1	1.976624E-1	-2.729797E-1	1.865540E-1	-2.724304E-1	-7.009277E-1	-4.931030E-1
1.738650E+10	-7.305603E-1	-5.204163E-1	1.929321E-1	-2.746582E-1	1.794281E-1	-2.730103E-1	-7.071838E-1	-4.803772E-1
1.761100E+10	-7.382812E-1	-5.112000E-1	1.872711E-1	-2.761230E-1	1.753387E-1	-2.751465E-1	-7.190552E-1	-4.720154E-1
1.783550E+10	-7.475281E-1	-5.010071E-1	1.808319E-1	-2.785797E-1	1.686707E-1	-2.769928E-1	-7.276611E-1	-4.560852E-1
1.806000E+10	-7.527161E-1	-4.946899E-1	1.763458E-1	-2.801056E-1	1.646729E-1	-2.786560E-1	-7.333374E-1	-4.432678E-1
1.828450E+10	-7.576904E-1	-4.851074E-1	1.704102E-1	-2.811890E-1	1.606445E-1	-2.804260E-1	-7.408447E-1	-4.329834E-1
1.850900E+10	-7.648621E-1	-4.777222E-1	1.653595E-1	-2.832336E-1	1.529388E-1	-2.803345E-1	-7.507324E-1	-4.179993E-1
1.873350E+10	-7.715454E-1	-4.673462E-1	1.586609E-1	-2.851257E-1	1.474304E-1	-2.824097E-1	-7.569885E-1	-4.047852E-1
1.895800E+10	-7.757874E-1	-4.588623E-1	1.525116E-1	-2.857971E-1	1.441345E-1	-2.837219E-1	-7.616882E-1	-3.937378E-1
1.918250E+10	-7.805786E-1	-4.525452E-1	1.482849E-1	-2.882385E-1	1.396027E-1	-2.844391E-1	-7.714233E-1	-3.819885E-1
1.940700E+10	-7.864075E-1	-4.429932E-1	1.415405E-1	-2.877197E-1	1.325073E-1	-2.852478E-1	-7.751160E-1	-3.621521E-1
1.963150E+10	-7.944031E-1	-4.345398E-1	1.375122E-1	-2.882996E-1	1.293488E-1	-2.845917E-1	-7.785645E-1	-3.543396E-1
1.985600E+10	-7.966003E-1	-4.266663E-1	1.314087E-1	-2.883453E-1	1.235657E-1	-2.847137E-1	-7.865906E-1	-3.405151E-1
2.008050E+10	-8.022156E-1	-4.186707E-1	1.254730E-1	-2.899323E-1	1.183319E-1	-2.858887E-1	-7.907410E-1	-3.243713E-1
2.030500E+10	-8.079834E-1	-4.112549E-1	1.221466E-1	-2.890015E-1	1.139679E-1	-2.846527E-1	-7.954712E-1	-3.154297E-1
2.052950E+10	-8.133850E-1	-4.021301E-1	1.167145E-1	-2.901001E-1	1.087189E-1	-2.868652E-1	-8.000488E-1	-3.006897E-1
2.075400E+10	-8.172607E-1	-3.950500E-1	1.114655E-1	-2.892303E-1	1.050415E-1	-2.858124E-1	-8.042603E-1	-2.882385E-1
2.097850E+10	-8.229065E-1	-3.858032E-1	1.065369E-1	-2.910919E-1	9.942627E-2	-2.868958E-1	-8.056946E-1	-2.756348E-1
2.120300E+10	-8.265686E-1	-3.794250E-1	1.020203E-1	-2.910767E-1	9.413147E-2	-2.861328E-1	-8.138733E-1	-2.655640E-1
2.142750E+10	-8.320312E-1	-3.706360E-1	9.736633E-2	-2.893677E-1	9.039307E-2	-2.870483E-1	-8.179321E-1	-2.503052E-1
2.165200E+10	-8.349304E-1	-3.608398E-1	9.191895E-2	-2.890320E-1	8.541870E-2	-2.866211E-1	-8.214417E-1	-2.366028E-1
2.187650E+10	-8.405151E-1	-3.515930E-1	8.879089E-2	-2.890472E-1	8.299255E-2	-2.861176E-1	-8.254700E-1	-2.274475E-1
2.210100E+10	-8.462219E-1	-3.414612E-1	8.314514E-2	-2.902374E-1	7.749939E-2	-2.859802E-1	-8.293762E-1	-2.096558E-1
2.232550E+10	-8.460693E-1	-3.359985E-1	7.911682E-2	-2.888794E-1	7.261658E-2	-2.852478E-1	-8.309021E-1	-1.943970E-1
2.255000E+10	-8.509216E-1	-3.260498E-1	7.356262E-2	-2.900391E-1	6.767273E-2	-2.854614E-1	-8.359070E-1	-1.883850E-1
2.277450E+10	-8.544006E-1	-3.174438E-1	6.988525E-2	-2.891846E-1	6.336975E-2	-2.843018E-1	-8.399353E-1	-1.717529E-1
2.299900E+10	-8.584900E-1	-3.098755E-1	6.596375E-2	-2.883759E-1	6.098938E-2	-2.852173E-1	-8.373413E-1	-1.588745E-1
2.322350E+10	-8.618164E-1	-3.033447E-1	6.057739E-2	-2.897491E-1	5.555725E-2	-2.845459E-1	-8.440857E-1	-1.478271E-1
2.344800E+10	-8.628540E-1	-2.952881E-1	5.632019E-2	-2.864990E-1	5.123901E-2	-2.853851E-1	-8.466187E-1	-1.315308E-1
2.367250E+10	-8.663025E-1	-2.860718E-1	5.158997E-2	-2.877655E-1	4.714966E-2	-2.857666E-1	-8.418579E-1	-1.177063E-1
2.389700E+10	-8.664856E-1	-2.783813E-1	4.803467E-2	-2.879028E-1	4.316711E-2	-2.837067E-1	-8.491821E-1	-1.073303E-1
2.412150E+10	-8.716736E-1	-2.751160E-1	4.188538E-2	-2.862549E-1	3.842163E-2	-2.818146E-1	-8.446045E-1	-8.923340E-2
2.434600E+10	-8.730469E-1	-2.643738E-1	3.971863E-2	-2.847748E-1	3.584290E-2	-2.803955E-1	-8.453979E-1	-7.925415E-2
2.457050E+10	-8.751221E-1	-2.608948E-1	3.678894E-2	-2.854309E-1	2.983093E-2	-2.832947E-1	-8.488464E-1	-6.747437E-2
2.479500E+10	-8.817444E-1	-2.514038E-1	3.135681E-2	-2.832336E-1	2.807617E-2	-2.805176E-1	-8.467102E-1	-5.145264E-2
2.501950E+10	-8.818665E-1	-2.461853E-1	2.792358E-2	-2.849426E-1	2.394104E-2	-2.790222E-1	-8.416443E-1	-4.284668E-2
2.524400E+10	-8.851013E-1	-2.388611E-1	2.241516E-2	-2.855988E-1	2.052307E-2	-2.793732E-1	-8.452759E-1	-2.929687E-2
2.546850E+10	-8.870544E-1	-2.279968E-1	2.018738E-2	-2.812500E-1	1.539612E-2	-2.769318E-1	-8.446655E-1	-1.580811E-2
2.569300E+10	-8.899231E-1	-2.252808E-1	1.663208E-2	-2.798462E-1	1.179504E-2	-2.749786E-1	-8.448181E-1	-7.690430E-3
2.591750E+10	-8.934021E-1	-2.130432E-1	1.249695E-2	-2.803650E-1	8.132935E-3	-2.766571E-1	-8.468018E-1	3.448486E-3
2.614200E+10	-8.948669E-1	-2.060242E-1	1.008606E-2	-2.758179E-1	6.607056E-3	-2.729187E-1	-8.456421E-1	1.907349E-2
2.636650E+10	-8.973389E-1	-2.019348E-1	6.118774E-3	-2.752380E-1	2.227783E-3	-2.721405E-1	-8.438110E-1	3.442383E-2
2.659100E+10	-8.982239E-1	-1.938171E-1	1.464844E-3	-2.761993E-1	9.155273E-5	-2.730865E-1	-8.388672E-1	4.547119E-2
2.681550E+10	-8.991089E-1	-1.872253E-1	1.220703E-4	-2.753448E-1	-5.126953E-3	-2.713165E-1	-8.407288E-1	5.395508E-2
2.704000E+10	-9.024353E-1	-1.791992E-1	-4.821777E-3	-2.744446E-1	-5.676270E-3	-2.689362E-1	-8.380127E-1	7.241821E-2
2.726450E+10	-9.030151E-1	-1.713257E-1	-9.368896E-3	-2.722168E-1	-1.139832E-2	-2.679901E-1	-8.265686E-1	8.380127E-2
2.748900E+10	-9.040222E-1	-1.634827E-1	-1.132202E-2	-2.723846E-1	-1.226807E-2	-2.673035E-1	-8.312683E-1	9.243774E-2
2.771350E+10	-9.062195E-1	-1.569824E-1	-1.567078E-2	-2.699127E-1	-2.069092E-2	-2.653198E-1	-8.273315E-1	1.039124E-1
2.793800E+10	-9.102783E-1	-1.497498E-1	-1.843262E-2	-2.679138E-1	-2.143860E-2	-2.633362E-1	-8.272400E-1	1.141968E-1
2.816250E+10	-9.095459E-1	-1.434937E-1	-2.169800E-2	-2.666168E-1	-2.691650E-2	-2.627106E-1	-8.214111E-1	1.294861E-1
2.838700E+10	-9.143372E-1	-1.356506E-1	-2.760315E-2	-2.669983E-1	-2.684021E-2	-2.637329E-1	-8.214111E-1	1.395874E-1
2.861150E+10	-9.151917E-1	-1.271667E-1	-3.123474E-2	-2.647705E-1	-3.221130E-2	-2.621918E-1	-8.129272E-1	1.526794E-1
2.883600E+10	-9.144287E-1	-1.229248E-1	-3.404236E-2	-2.636414E-1	-3.233337E-2	-2.601013E-1	-8.104553E-1	1.583252E-1
2.906050E+10	-9.165955E-1	-1.158752E-1	-3.652954E-2	-2.627563E-1	-3.532410E-2	-2.595825E-1	-8.052368E-1	1.732788E-1
2.928500E+10	-9.169922E-1	-1.055908E-1	-3.877258E-2	-2.606964E-1	-4.235840E-2	-2.570648E-1	-8.005676E-1	1.788635E-1
2.950950E+10	-9.171448E-1	-1.009216E-1	-4.051208E-2	-2.574768E-1	-4.150391E-2	-2.545471E-1	-8.007812E-1	1.933289E-1
2.973400E+10	-9.207153E-1	-9.271240E-2	-4.264832E-2	-2.577209E-1	-4.380798E-2	-2.541199E-1	-7.981262E-1	2.040100E-1
2.995850E+10	-9.198303E-1	-8.428955E-2	-4.670715E-2	-2.569580E-1	-4.783630E-2	-2.522278E-1	-7.963867E-1	2.178040E-1
3.018300E+10	-9.195251E-1	-7.809448E-2	-4.959106E-2	-2.552185E-1	-5.064392E-2	-2.501373E-1	-7.924500E-1	2.330017E-1
3.040750E+10	-9.190979E-1	-7.421875E-2	-5.186462E-2	-2.530365E-1	-5.326843E-2	-2.503510E-1	-7.845154E-1	2.416382E-1
3.063200E+10	-9.208679E-1	-6.753540E-2	-5.780029E-2	-2.478867E-1	-5.454254E-2	-2.472076E-1	-7.798462E-1	2.536316E-1
3.085650E+10	-9.226685E-1	-5.871582E-2	-5.953979E-2	-2.515259E-1	-6.030273E-2	-2.502441E-1	-7.746582E-1	2.662354E-1
3.108100E+10	-9.245605E-1	-5.520630E-2	-6.187439E-2	-2.506866E-1	-6.067657E-2	-2.447968E-1	-7.698364E-1	2.809143E-1
3.130550E+10	-9.201660E-1	-4.519653E-2	-6.427765E-2	-2.470474E-1	-6.822968E-2	-2.410431E-1	-7.565918E-1	2.871094E-1
3.153000E+10	-9.260559E-1	-4.235840E-2	-6.633759E-2	-2.498550E-1	-6.936646E-2	-2.447510E-1	-7.561646E-1	2.968750E-1
3.175450E+10	-9.213867E-1	-3.100586E-2	-7.093048E-2	-2.441406E-1	-7.109070E-2	-2.418137E-1	-7.499695E-1	3.124084E-1
3.197900E+10	-9.260254E-1	-2.539062E-2	-7.390594E-2	-2.433319E-1	-7.496643E-2	-2.401047E-1	-7.391968E-1	3.211365E-1
3.220350E+10	-9.281616E-1	-1.739502E-2	-7.959747E-2	-2.426300E-1	-7.886505E-2	-2.402725E-1	-7.332764E-1	3.291016E-1
3.242800E+10	-9.265442E-1	-1.434326E-2	-7.788086E-2	-2.424240E-1	-7.843018E-2	-2.376175E-1	-7.267456E-1	3.457336E-1
3.265250E+10	-9.281616E-1	-3.509521E-3	-7.801819E-2	-2.380600E-1	-8.509064E-2	-2.326431E-1	-7.170715E-1	3.471069E-1
3.287700E+10	-9.281616E-1	2.471924E-3	-8.454895E-2	-2.379837E-1	-9.003448E-2	-2.336044E-1	-7.158203E-1	3.555603E-1
3.310150E+10	-9.293518E-1	1.034546E-2	-8.721924E-2	-2.342148E-1	-8.728790E-2	-2.300949E-1	-7.035828E-1	3.687439E-1
3.332600E+10	-9.270630E-1	1.580811E-2	-9.295654E-2	-2.327423E-1	-8.972168E-2	-2.268829E-1	-6.932678E-1	3.744507E-1
3.355050E+10	-9.225464E-1	2.230835E-2	-8.736420E-2	-2.286835E-1	-9.275055E-2	-2.284241E-1	-6.909180E-1	3.856201E-1
3.377500E+10	-9.262390E-1	3.259277E-2	-9.539795E-2	-2.253342E-1	-9.474182E-2	-2.253876E-1	-6.830444E-1	3.893433E-1
3.399950E+10	-9.280396E-1	3.576660E-2	-9.779358E-2	-2.270737E-1	-9.469604E-2	-2.240677E-1	-6.826477E-1	3.966675E-1
3.422400E+10	-9.284058E-1	4.312134E-2	-9.891510E-2	-2.231140E-1	-9.688568E-2	-2.239685E-1	-6.682129E-1	4.176941E-1
3.444850E+10	-9.220276E-1	4.858398E-2	-1.016922E-1	-2.253342E-1	-9.997559E-2	-2.213135E-1	-6.595459E-1	4.212646E-1
3.467300E+10	-9.257812E-1	5.545044E-2	-1.007690E-1	-2.237701E-1	-1.040878E-1	-2.227554E-1	-6.607666E-1	4.361267E-1
3.489750E+10	-9.271240E-1	6.332397E-2	-1.038971E-1	-2.235107E-1	-1.075745E-1	-2.199936E-1	-6.452637E-1	4.465027E-1
3.512200E+10	-9.240112E-1	7.089233E-2	-1.087341E-1	-2.200241E-1	-1.039963E-1	-2.158813E-1	-6.374512E-1	4.482422E-1
3.534650E+10	-9.248047E-1	7.586670E-2	-1.082687E-1	-2.186737E-1	-1.072159E-1	-2.170105E-1	-6.281128E-1	4.545288E-1
3.557100E+10	-9.208374E-1	8.007812E-2	-1.136932E-1	-2.197571E-1	-1.150360E-1	-2.170563E-1	-6.161804E-1	4.737244E-1
3.579550E+10	-9.239807E-1	9.030151E-2	-1.121902E-1	-2.201996E-1	-1.194229E-1	-2.203369E-1	-6.031799E-1	4.758606E-1
3.602000E+10	-9.230652E-1	9.341431E-2	-1.166611E-1	-2.149658E-1	-1.194458E-1	-2.143936E-1	-5.999146E-1	4.844666E-1
3.624450E+10	-9.252319E-1	1.029053E-1	-1.213074E-1	-2.126389E-1	-1.173172E-1	-2.089920E-1	-5.891724E-1	4.902649E-1
3.646900E+10	-9.212952E-1	1.103516E-1	-1.234741E-1	-2.102280E-1	-1.258698E-1	-2.087936E-1	-5.752563E-1	5.095215E-1
3.669350E+10	-9.194946E-1	1.114197E-1	-1.265793E-1	-2.116318E-1	-1.249771E-1	-2.067795E-1	-5.666199E-1	5.061646E-1
3.691800E+10	-9.182739E-1	1.211853E-1	-1.266403E-1	-2.091141E-1	-1.298752E-1	-2.040100E-1	-5.611267E-1	5.157166E-1
3.714250E+10	-9.163818E-1	1.235962E-1	-1.294327E-1	-2.024841E-1	-1.279678E-1	-2.026901E-1	-5.369873E-1	5.208740E-1
3.736700E+10	-9.161987E-1	1.339111E-1	-1.325378E-1	-2.019730E-1	-1.356201E-1	-2.019806E-1	-5.359497E-1	5.290222E-1
3.759150E+10	-9.111328E-1	1.406555E-1	-1.391983E-1	-2.020111E-1	-1.314697E-1	-1.995544E-1	-5.151062E-1	5.401001E-1
3.781600E+10	-9.148865E-1	1.424561E-1	-1.352158E-1	-1.982727E-1	-1.371536E-1	-1.991425E-1	-5.116272E-1	5.413208E-1
3.804050E+10	-9.192200E-1	1.512451E-1	-1.395493E-1	-1.968842E-1	-1.389847E-1	-1.927109E-1	-4.951477E-1	5.593872E-1
3.826500E+10	-9.153442E-1	1.575623E-1	-1.460571E-1	-1.932449E-1	-1.458588E-1	-1.932755E-1	-4.776917E-1	5.565186E-1
3.848950E+10	-9.063416E-1	1.630554E-1	-1.466141E-1	-1.957779E-1	-1.489792E-1	-1.930084E-1	-4.749756E-1	5.626221E-1
3.871400E+10	-9.078979E-1	1.630249E-1	-1.501465E-1	-1.884689E-1	-1.493073E-1	-1.903763E-1	-4.561768E-1	5.620117E-1
3.893850E+10	-9.068604E-1	1.767883E-1	-1.495743E-1	-1.924820E-1	-1.536636E-1	-1.842880E-1	-4.397888E-1	5.678101E-1
