!Date: 10/28/2005, 12:46 PM

!Vgs = -2.000000E+0
!Vds = 1.000000E+1
!Ig = -2.015800E-5
!Id = 5.753900E-1

# HZ S RI R 50
1.000000E+8	9.662781E-1	-1.939697E-1	-1.476172E+1	5.922852E-1	6.718636E-4	8.441925E-3	4.679413E-1	-4.571533E-2
3.245000E+8	7.721558E-1	-5.564880E-1	-1.322607E+1	4.893066E+0	9.132385E-3	2.342606E-2	2.615509E-1	-2.362518E-1
5.490000E+8	5.054321E-1	-7.871399E-1	-1.086133E+1	6.885742E+0	2.120209E-2	3.188515E-2	1.819153E-1	-3.029633E-1
7.735000E+8	2.468872E-1	-8.871460E-1	-8.539551E+0	7.670898E+0	3.278160E-2	3.424454E-2	6.991577E-2	-3.520355E-1
9.980000E+8	2.688599E-2	-9.055176E-1	-6.592529E+0	7.778320E+0	4.179573E-2	3.376007E-2	-1.753235E-2	-3.415680E-1
1.222500E+9	-1.534729E-1	-8.846436E-1	-5.069092E+0	7.577637E+0	4.884911E-2	3.177643E-2	-7.464600E-2	-3.370361E-1
1.447000E+9	-2.955017E-1	-8.453674E-1	-3.876465E+0	7.203125E+0	5.464935E-2	2.910995E-2	-1.289520E-1	-3.214722E-1
1.671500E+9	-4.053955E-1	-7.964783E-1	-2.965820E+0	6.766357E+0	5.894279E-2	2.618790E-2	-1.663361E-1	-3.061371E-1
1.896000E+9	-4.928284E-1	-7.431335E-1	-2.277832E+0	6.314941E+0	6.250763E-2	2.345276E-2	-1.974030E-1	-2.862549E-1
2.120500E+9	-5.592041E-1	-6.920471E-1	-1.738770E+0	5.907471E+0	6.541061E-2	2.041626E-2	-2.200623E-1	-2.715759E-1
2.345000E+9	-6.123962E-1	-6.414185E-1	-1.300781E+0	5.513428E+0	6.728745E-2	1.726532E-2	-2.405090E-1	-2.540588E-1
2.569500E+9	-6.519165E-1	-5.960999E-1	-9.543457E-1	5.145020E+0	6.857681E-2	1.460266E-2	-2.535553E-1	-2.402954E-1
2.794000E+9	-6.865845E-1	-5.571899E-1	-6.860352E-1	4.826904E+0	7.003784E-2	1.186752E-2	-2.661743E-1	-2.294617E-1
3.018500E+9	-7.138062E-1	-5.204163E-1	-4.553223E-1	4.523193E+0	7.035065E-2	9.483337E-3	-2.757568E-1	-2.169647E-1
3.243000E+9	-7.365723E-1	-4.860229E-1	-2.670898E-1	4.256104E+0	7.117081E-2	6.973267E-3	-2.834167E-1	-2.088928E-1
3.467500E+9	-7.564087E-1	-4.559937E-1	-1.076660E-1	4.013672E+0	7.145691E-2	4.932404E-3	-2.922668E-1	-1.996155E-1
3.692000E+9	-7.738037E-1	-4.280701E-1	2.770996E-2	3.786987E+0	7.180405E-2	3.536224E-3	-2.970428E-1	-1.937408E-1
3.916500E+9	-7.874451E-1	-4.000549E-1	1.395264E-1	3.578369E+0	7.224655E-2	1.239777E-3	-3.060913E-1	-1.877899E-1
4.141000E+9	-7.991333E-1	-3.757629E-1	2.348633E-1	3.390381E+0	7.242203E-2	-7.972717E-4	-3.106537E-1	-1.796875E-1
4.365500E+9	-8.082886E-1	-3.536377E-1	3.188477E-1	3.215454E+0	7.286072E-2	-2.326965E-3	-3.157654E-1	-1.761017E-1
4.590000E+9	-8.179321E-1	-3.330688E-1	3.886719E-1	3.050171E+0	7.260895E-2	-4.135132E-3	-3.208923E-1	-1.703491E-1
4.814500E+9	-8.257141E-1	-3.129883E-1	4.462891E-1	2.900513E+0	7.268524E-2	-5.340576E-3	-3.244324E-1	-1.658020E-1
5.039000E+9	-8.313293E-1	-2.943420E-1	4.990234E-1	2.761841E+0	7.265091E-2	-7.087708E-3	-3.292847E-1	-1.623383E-1
5.263500E+9	-8.372498E-1	-2.766724E-1	5.446777E-1	2.634277E+0	7.271957E-2	-8.808136E-3	-3.335266E-1	-1.578064E-1
5.488000E+9	-8.414917E-1	-2.615356E-1	5.837402E-1	2.514404E+0	7.268143E-2	-9.860992E-3	-3.366241E-1	-1.541443E-1
5.712500E+9	-8.467407E-1	-2.466431E-1	6.191406E-1	2.398926E+0	7.212830E-2	-1.141357E-2	-3.401031E-1	-1.509857E-1
5.937000E+9	-8.502197E-1	-2.303162E-1	6.480713E-1	2.293945E+0	7.242966E-2	-1.263046E-2	-3.437805E-1	-1.478119E-1
6.161500E+9	-8.542175E-1	-2.181091E-1	6.760254E-1	2.198608E+0	7.184219E-2	-1.451492E-2	-3.472595E-1	-1.428070E-1
6.386000E+9	-8.574219E-1	-2.047424E-1	7.005615E-1	2.104370E+0	7.175827E-2	-1.604080E-2	-3.475647E-1	-1.416016E-1
6.610500E+9	-8.592529E-1	-1.923828E-1	7.221680E-1	2.016357E+0	7.172394E-2	-1.715851E-2	-3.538971E-1	-1.401062E-1
6.835000E+9	-8.630676E-1	-1.810913E-1	7.402344E-1	1.930847E+0	7.052994E-2	-1.860046E-2	-3.562622E-1	-1.344299E-1
7.059500E+9	-8.648682E-1	-1.700134E-1	7.515259E-1	1.854248E+0	7.066345E-2	-1.996231E-2	-3.552246E-1	-1.357422E-1
7.284000E+9	-8.655701E-1	-1.592712E-1	7.648315E-1	1.779175E+0	6.968689E-2	-2.107239E-2	-3.621826E-1	-1.324310E-1
7.508500E+9	-8.684082E-1	-1.487427E-1	7.756348E-1	1.707397E+0	6.971359E-2	-2.231979E-2	-3.602905E-1	-1.300507E-1
7.733000E+9	-8.686523E-1	-1.381836E-1	7.846069E-1	1.640747E+0	6.868744E-2	-2.273560E-2	-3.665009E-1	-1.306763E-1
7.957500E+9	-8.701782E-1	-1.288147E-1	7.969360E-1	1.579529E+0	6.864929E-2	-2.449799E-2	-3.691559E-1	-1.272125E-1
8.182000E+9	-8.718872E-1	-1.192627E-1	8.051758E-1	1.520142E+0	6.835175E-2	-2.594376E-2	-3.737793E-1	-1.282349E-1
8.406500E+9	-8.719482E-1	-1.119995E-1	8.101807E-1	1.459167E+0	6.826782E-2	-2.617264E-2	-3.747864E-1	-1.229401E-1
8.631000E+9	-8.729858E-1	-1.013489E-1	8.174438E-1	1.401306E+0	6.718063E-2	-2.782059E-2	-3.790741E-1	-1.221161E-1
8.855500E+9	-8.741150E-1	-9.396362E-2	8.209839E-1	1.346985E+0	6.623840E-2	-2.916718E-2	-3.824768E-1	-1.190033E-1
9.080001E+9	-8.741150E-1	-8.651733E-2	8.230591E-1	1.297302E+0	6.572723E-2	-2.990341E-2	-3.826599E-1	-1.164093E-1
9.304500E+9	-8.741760E-1	-7.601929E-2	8.250122E-1	1.247681E+0	6.681824E-2	-3.060532E-2	-3.849945E-1	-1.156158E-1
9.529000E+9	-8.749390E-1	-7.086182E-2	8.272705E-1	1.200012E+0	6.471634E-2	-3.252029E-2	-3.905182E-1	-1.132507E-1
9.753500E+9	-8.750916E-1	-6.317139E-2	8.268433E-1	1.154602E+0	6.372833E-2	-3.234100E-2	-3.921051E-1	-1.103973E-1
9.978000E+9	-8.756714E-1	-5.584717E-2	8.260498E-1	1.113037E+0	6.283569E-2	-3.348160E-2	-3.940735E-1	-1.106110E-1
1.020250E+10	-8.766174E-1	-4.974365E-2	8.269653E-1	1.070435E+0	6.254959E-2	-3.574371E-2	-3.977356E-1	-1.058807E-1
1.042700E+10	-8.780212E-1	-4.223633E-2	8.265991E-1	1.030273E+0	6.129074E-2	-3.550148E-2	-3.987427E-1	-1.055756E-1
1.065150E+10	-8.764954E-1	-3.475952E-2	8.243408E-1	9.924622E-1	6.058502E-2	-3.693771E-2	-4.025421E-1	-1.048737E-1
1.087600E+10	-8.770447E-1	-2.893066E-2	8.233032E-1	9.559937E-1	5.997658E-2	-3.834534E-2	-4.046936E-1	-1.019745E-1
1.110050E+10	-8.759155E-1	-2.142334E-2	8.209229E-1	9.187927E-1	5.900192E-2	-3.804207E-2	-4.077148E-1	-9.988403E-2
1.132500E+10	-8.758240E-1	-1.583862E-2	8.186035E-1	8.842468E-1	5.785370E-2	-3.858757E-2	-4.095612E-1	-1.002502E-1
1.154950E+10	-8.759766E-1	-8.941650E-3	8.159790E-1	8.502502E-1	5.684853E-2	-4.021263E-2	-4.143219E-1	-9.698486E-2
1.177400E+10	-8.760376E-1	-2.960205E-3	8.112488E-1	8.187256E-1	5.610657E-2	-4.006004E-2	-4.145508E-1	-9.489441E-2
1.199850E+10	-8.758240E-1	2.380371E-3	8.092957E-1	7.878113E-1	5.602455E-2	-4.151726E-2	-4.171600E-1	-9.278870E-2
1.222300E+10	-8.752747E-1	7.720947E-3	8.044739E-1	7.576599E-1	5.462265E-2	-4.189491E-2	-4.214325E-1	-9.187317E-2
1.244750E+10	-8.739624E-1	1.303101E-2	7.997742E-1	7.273560E-1	5.349159E-2	-4.273987E-2	-4.236908E-1	-8.772278E-2
1.267200E+10	-8.748474E-1	1.943970E-2	7.943115E-1	6.996765E-1	5.352020E-2	-4.384232E-2	-4.248199E-1	-8.845520E-2
1.289650E+10	-8.733826E-1	2.465820E-2	7.888794E-1	6.729431E-1	5.273819E-2	-4.421616E-2	-4.308929E-1	-8.685303E-2
1.312100E+10	-8.732605E-1	2.929687E-2	7.839661E-1	6.469421E-1	5.146599E-2	-4.439354E-2	-4.330597E-1	-8.151245E-2
1.334550E+10	-8.725891E-1	3.485107E-2	7.792358E-1	6.223755E-1	5.074310E-2	-4.572487E-2	-4.339294E-1	-8.076477E-2
1.357000E+10	-8.705444E-1	3.900146E-2	7.730408E-1	5.971985E-1	5.030060E-2	-4.669380E-2	-4.371948E-1	-8.134460E-2
1.379450E+10	-8.712158E-1	4.446411E-2	7.679749E-1	5.748901E-1	4.816437E-2	-4.629135E-2	-4.405518E-1	-7.545471E-2
1.401900E+10	-8.707275E-1	4.980469E-2	7.619019E-1	5.549927E-1	4.768372E-2	-4.838181E-2	-4.405212E-1	-7.675171E-2
1.424350E+10	-8.696899E-1	5.459595E-2	7.554321E-1	5.305176E-1	4.653740E-2	-4.786873E-2	-4.453735E-1	-7.211304E-2
1.446800E+10	-8.696899E-1	5.978394E-2	7.505798E-1	5.097046E-1	4.553604E-2	-4.873657E-2	-4.468842E-1	-6.797791E-2
1.469250E+10	-8.680420E-1	6.448364E-2	7.460022E-1	4.881592E-1	4.519081E-2	-4.873848E-2	-4.468994E-1	-6.567383E-2
1.491700E+10	-8.689575E-1	6.979370E-2	7.395630E-1	4.680481E-1	4.384232E-2	-4.948425E-2	-4.518127E-1	-6.578064E-2
1.514150E+10	-8.677979E-1	7.373047E-2	7.329102E-1	4.466553E-1	4.222870E-2	-4.930115E-2	-4.547119E-1	-6.071472E-2
1.536600E+10	-8.655396E-1	7.846069E-2	7.252502E-1	4.286804E-1	4.207230E-2	-4.937172E-2	-4.535217E-1	-5.804443E-2
1.559050E+10	-8.640137E-1	8.404541E-2	7.192383E-1	4.103699E-1	4.211235E-2	-5.019379E-2	-4.573517E-1	-5.863953E-2
1.581500E+10	-8.641663E-1	8.822632E-2	7.120361E-1	3.917236E-1	3.977394E-2	-4.988670E-2	-4.621429E-1	-5.455017E-2
1.603950E+10	-8.638000E-1	9.292603E-2	7.068787E-1	3.741455E-1	3.975677E-2	-5.169106E-2	-4.637146E-1	-5.194092E-2
1.626400E+10	-8.617554E-1	9.658813E-2	7.003479E-1	3.590088E-1	3.864861E-2	-5.061722E-2	-4.673920E-1	-5.052185E-2
1.648850E+10	-8.612976E-1	1.003418E-1	6.917725E-1	3.425293E-1	3.658867E-2	-5.169487E-2	-4.689484E-1	-4.615784E-2
1.671300E+10	-8.588562E-1	1.049500E-1	6.853333E-1	3.254700E-1	3.575516E-2	-5.199242E-2	-4.714355E-1	-4.536438E-2
1.693750E+10	-8.598938E-1	1.081543E-1	6.791687E-1	3.118591E-1	3.529930E-2	-5.264854E-2	-4.737091E-1	-4.397583E-2
1.716200E+10	-8.587341E-1	1.138000E-1	6.724548E-1	2.968445E-1	3.351402E-2	-5.307388E-2	-4.752655E-1	-3.758240E-2
1.738650E+10	-8.574829E-1	1.180115E-1	6.664429E-1	2.854309E-1	3.235817E-2	-5.249596E-2	-4.766693E-1	-3.378296E-2
1.761100E+10	-8.565369E-1	1.227722E-1	6.593933E-1	2.704468E-1	3.177261E-2	-5.235100E-2	-4.796600E-1	-3.388977E-2
1.783550E+10	-8.570251E-1	1.265259E-1	6.519470E-1	2.571716E-1	3.123093E-2	-5.321121E-2	-4.835510E-1	-2.813721E-2
1.806000E+10	-8.551025E-1	1.306152E-1	6.463928E-1	2.447815E-1	2.955437E-2	-5.244446E-2	-4.832916E-1	-2.317810E-2
1.828450E+10	-8.519897E-1	1.347656E-1	6.396790E-1	2.328491E-1	2.997398E-2	-5.463028E-2	-4.846344E-1	-2.484131E-2
1.850900E+10	-8.519287E-1	1.375427E-1	6.332092E-1	2.200623E-1	2.728462E-2	-5.448341E-2	-4.888763E-1	-1.922607E-2
1.873350E+10	-8.514404E-1	1.421204E-1	6.259460E-1	2.065125E-1	2.693558E-2	-5.361176E-2	-4.883728E-1	-1.411438E-2
1.895800E+10	-8.494873E-1	1.457520E-1	6.181641E-1	1.957092E-1	2.478027E-2	-5.369568E-2	-4.909363E-1	-1.628113E-2
1.918250E+10	-8.489685E-1	1.491089E-1	6.123352E-1	1.846008E-1	2.499962E-2	-5.394936E-2	-4.930115E-1	-1.025391E-2
1.940700E+10	-8.471375E-1	1.528931E-1	6.045837E-1	1.728516E-1	2.551270E-2	-5.466080E-2	-4.944153E-1	-2.761841E-3
1.963150E+10	-8.459473E-1	1.555481E-1	5.981750E-1	1.632080E-1	2.121925E-2	-5.519104E-2	-4.944458E-1	-4.302979E-3
1.985600E+10	-8.433838E-1	1.598816E-1	5.919800E-1	1.534119E-1	2.214241E-2	-5.535126E-2	-4.984894E-1	6.561279E-4
2.008050E+10	-8.432922E-1	1.619568E-1	5.834656E-1	1.448059E-1	2.114487E-2	-5.450439E-2	-5.003357E-1	7.385254E-3
2.030500E+10	-8.423767E-1	1.661377E-1	5.787659E-1	1.360168E-1	2.030563E-2	-5.579567E-2	-4.990387E-1	7.812500E-3
2.052950E+10	-8.415833E-1	1.696777E-1	5.714417E-1	1.268921E-1	1.729202E-2	-5.536461E-2	-5.027466E-1	1.037598E-2
2.075400E+10	-8.395081E-1	1.726685E-1	5.654602E-1	1.185913E-1	1.617050E-2	-5.515289E-2	-5.041809E-1	1.452637E-2
2.097850E+10	-8.375244E-1	1.762390E-1	5.590515E-1	1.078491E-1	1.596069E-2	-5.435753E-2	-5.023499E-1	1.828003E-2
2.120300E+10	-8.380127E-1	1.803894E-1	5.533752E-1	1.004944E-1	1.493645E-2	-5.327797E-2	-5.064392E-1	1.895142E-2
2.142750E+10	-8.365479E-1	1.841125E-1	5.469666E-1	9.384155E-2	1.431847E-2	-5.381966E-2	-5.107117E-1	2.636719E-2
2.165200E+10	-8.363647E-1	1.878357E-1	5.415649E-1	8.636475E-2	1.281357E-2	-5.451775E-2	-5.095825E-1	2.975464E-2
2.187650E+10	-8.341675E-1	1.903076E-1	5.344543E-1	7.754517E-2	1.165581E-2	-5.323219E-2	-5.126038E-1	3.326416E-2
2.210100E+10	-8.327637E-1	1.952209E-1	5.279236E-1	6.796265E-2	1.154518E-2	-5.376625E-2	-5.170898E-1	3.793335E-2
2.232550E+10	-8.316345E-1	1.978455E-1	5.234680E-1	6.204224E-2	1.032257E-2	-5.221748E-2	-5.146179E-1	4.492187E-2
2.255000E+10	-8.314209E-1	2.012329E-1	5.146179E-1	5.813599E-2	8.897781E-3	-5.325890E-2	-5.131836E-1	4.452515E-2
2.277450E+10	-8.276367E-1	2.034302E-1	5.100098E-1	4.800415E-2	7.574081E-3	-5.322456E-2	-5.150757E-1	5.059814E-2
2.299900E+10	-8.279419E-1	2.077026E-1	5.037231E-1	4.309082E-2	7.291794E-3	-5.167961E-2	-5.160828E-1	5.459595E-2
2.322350E+10	-8.258972E-1	2.124329E-1	4.981842E-1	3.608704E-2	3.679276E-3	-5.290222E-2	-5.180969E-1	5.697632E-2
2.344800E+10	-8.247375E-1	2.136230E-1	4.928589E-1	3.092957E-2	3.459930E-3	-5.296135E-2	-5.186157E-1	6.488037E-2
2.367250E+10	-8.222046E-1	2.174377E-1	4.867859E-1	2.421570E-2	3.715515E-3	-5.334473E-2	-5.159607E-1	6.689453E-2
2.389700E+10	-8.222656E-1	2.218628E-1	4.814606E-1	1.843262E-2	2.050400E-3	-5.136108E-2	-5.230103E-1	6.838989E-2
2.412150E+10	-8.202820E-1	2.240906E-1	4.729462E-1	1.194763E-2	3.967285E-4	-5.164337E-2	-5.185242E-1	7.653809E-2
2.434600E+10	-8.189392E-1	2.298584E-1	4.698792E-1	7.461548E-3	3.185272E-4	-5.270576E-2	-5.181580E-1	7.968140E-2
2.457050E+10	-8.161011E-1	2.304077E-1	4.643860E-1	2.639771E-3	-1.245499E-3	-5.088043E-2	-5.220337E-1	8.297729E-2
2.479500E+10	-8.168030E-1	2.343445E-1	4.559631E-1	-2.441406E-4	-2.162933E-3	-5.137825E-2	-5.177612E-1	9.051514E-2
2.501950E+10	-8.142395E-1	2.365417E-1	4.540253E-1	-5.889893E-3	-5.277634E-3	-5.023575E-2	-5.173645E-1	8.996582E-2
2.524400E+10	-8.134460E-1	2.399597E-1	4.477234E-1	-1.197815E-2	-5.977631E-3	-4.690361E-2	-5.200500E-1	9.338379E-2
2.546850E+10	-8.096313E-1	2.436218E-1	4.425201E-1	-1.466370E-2	-4.604340E-3	-4.743958E-2	-5.206909E-1	9.890747E-2
2.569300E+10	-8.096008E-1	2.450256E-1	4.354248E-1	-1.908875E-2	-6.067276E-3	-4.762459E-2	-5.203552E-1	1.017151E-1
2.591750E+10	-8.095703E-1	2.499390E-1	4.330444E-1	-2.313232E-2	-8.417130E-3	-4.645157E-2	-5.210266E-1	1.038208E-1
2.614200E+10	-8.050232E-1	2.528076E-1	4.262390E-1	-2.453613E-2	-8.365631E-3	-4.764938E-2	-5.247498E-1	1.118164E-1
2.636650E+10	-8.046875E-1	2.541504E-1	4.220428E-1	-3.016663E-2	-8.884430E-3	-4.423904E-2	-5.224304E-1	1.156921E-1
2.659100E+10	-8.002625E-1	2.569580E-1	4.152832E-1	-3.399658E-2	-9.948730E-3	-4.578018E-2	-5.197754E-1	1.187439E-1
2.681550E+10	-8.009033E-1	2.585754E-1	4.128113E-1	-3.727722E-2	-1.088905E-2	-4.231071E-2	-5.236511E-1	1.195984E-1
2.704000E+10	-7.982788E-1	2.620850E-1	4.059448E-1	-3.984070E-2	-1.244354E-2	-4.464531E-2	-5.262756E-1	1.316833E-1
2.726450E+10	-7.949829E-1	2.651062E-1	4.047089E-1	-4.635620E-2	-1.329613E-2	-4.331017E-2	-5.157166E-1	1.324463E-1
2.748900E+10	-7.950745E-1	2.664490E-1	4.000702E-1	-4.981995E-2	-1.470184E-2	-4.309082E-2	-5.157471E-1	1.375732E-1
2.771350E+10	-7.959290E-1	2.712708E-1	3.944397E-1	-5.165100E-2	-1.659393E-2	-4.013252E-2	-5.190125E-1	1.420288E-1
2.793800E+10	-7.923889E-1	2.717896E-1	3.916931E-1	-5.307007E-2	-1.526642E-2	-4.027939E-2	-5.210571E-1	1.413269E-1
2.816250E+10	-7.901917E-1	2.752075E-1	3.860474E-1	-5.709839E-2	-1.782417E-2	-4.111290E-2	-5.181274E-1	1.515198E-1
2.838700E+10	-7.887268E-1	2.760010E-1	3.820953E-1	-5.831909E-2	-2.011108E-2	-3.922462E-2	-5.179749E-1	1.529236E-1
2.861150E+10	-7.880554E-1	2.813721E-1	3.784943E-1	-6.451416E-2	-1.848412E-2	-3.628922E-2	-5.179749E-1	1.561584E-1
2.883600E+10	-7.850037E-1	2.803650E-1	3.711548E-1	-6.211853E-2	-2.033615E-2	-3.781319E-2	-5.159607E-1	1.596680E-1
2.906050E+10	-7.841187E-1	2.855225E-1	3.703766E-1	-6.465149E-2	-2.136230E-2	-3.672791E-2	-5.199280E-1	1.657410E-1
2.928500E+10	-7.835388E-1	2.890930E-1	3.657532E-1	-6.912231E-2	-2.249527E-2	-3.260612E-2	-5.155945E-1	1.696472E-1
2.950950E+10	-7.783508E-1	2.939148E-1	3.618622E-1	-6.787109E-2	-2.263641E-2	-3.279114E-2	-5.183716E-1	1.704712E-1
2.973400E+10	-7.779846E-1	2.934265E-1	3.608246E-1	-7.539368E-2	-1.944256E-2	-3.087997E-2	-5.172119E-1	1.793213E-1
2.995850E+10	-7.775269E-1	2.978516E-1	3.543549E-1	-7.200623E-2	-2.324867E-2	-3.250885E-2	-5.164795E-1	1.838379E-1
3.018300E+10	-7.730103E-1	2.989197E-1	3.552551E-1	-8.222961E-2	-2.305794E-2	-2.964783E-2	-5.194397E-1	1.919861E-1
3.040750E+10	-7.719116E-1	2.989807E-1	3.533020E-1	-8.517456E-2	-2.443314E-2	-3.078270E-2	-5.182190E-1	1.910706E-1
3.063200E+10	-7.703552E-1	3.036499E-1	3.466034E-1	-8.326721E-2	-2.418900E-2	-2.723503E-2	-5.164795E-1	2.029724E-1
3.085650E+10	-7.688293E-1	3.078003E-1	3.445892E-1	-8.656311E-2	-2.560139E-2	-2.847195E-2	-5.124512E-1	2.060242E-1
3.108100E+10	-7.671509E-1	3.086853E-1	3.433838E-1	-8.662415E-2	-2.405071E-2	-2.791882E-2	-5.162354E-1	2.103577E-1
3.130550E+10	-7.615051E-1	3.083191E-1	3.330231E-1	-9.017944E-2	-3.009319E-2	-2.666283E-2	-5.072632E-1	2.152710E-1
3.153000E+10	-7.700500E-1	3.103943E-1	3.343353E-1	-9.405518E-2	-2.387428E-2	-2.438450E-2	-5.072937E-1	2.195129E-1
3.175450E+10	-7.655640E-1	3.138428E-1	3.314209E-1	-9.178162E-2	-2.930641E-2	-2.262497E-2	-5.091248E-1	2.301941E-1
3.197900E+10	-7.593689E-1	3.158569E-1	3.305359E-1	-9.461975E-2	-2.727413E-2	-2.238560E-2	-5.017700E-1	2.249146E-1
3.220350E+10	-7.572327E-1	3.208618E-1	3.247375E-1	-9.906006E-2	-2.976227E-2	-1.784420E-2	-5.029602E-1	2.366028E-1
3.242800E+10	-7.581177E-1	3.216248E-1	3.257599E-1	-1.008911E-1	-3.283691E-2	-1.342773E-2	-5.019226E-1	2.409363E-1
3.265250E+10	-7.561951E-1	3.272400E-1	3.203430E-1	-1.041870E-1	-2.836323E-2	-1.664162E-2	-4.953156E-1	2.424774E-1
3.287700E+10	-7.589722E-1	3.292847E-1	3.232727E-1	-1.038055E-1	-2.601814E-2	-1.401043E-2	-4.955750E-1	2.501221E-1
3.310150E+10	-7.545166E-1	3.297729E-1	3.193665E-1	-1.090393E-1	-3.033829E-2	-1.508522E-2	-4.919891E-1	2.537079E-1
3.332600E+10	-7.506104E-1	3.316345E-1	3.130035E-1	-1.105347E-1	-3.044415E-2	-6.641388E-3	-4.932556E-1	2.544708E-1
3.355050E+10	-7.477722E-1	3.359070E-1	3.108215E-1	-1.118164E-1	-2.474499E-2	-1.141453E-2	-4.925079E-1	2.601166E-1
3.377500E+10	-7.483826E-1	3.380432E-1	3.084564E-1	-1.142578E-1	-2.622032E-2	-9.702682E-3	-4.891205E-1	2.628479E-1
3.399950E+10	-7.442017E-1	3.399963E-1	3.073273E-1	-1.141357E-1	-2.667618E-2	-8.349419E-3	-4.903870E-1	2.689514E-1
3.422400E+10	-7.446289E-1	3.411865E-1	3.071136E-1	-1.171722E-1	-3.187370E-2	-7.749557E-3	-4.892120E-1	2.797241E-1
3.444850E+10	-7.413025E-1	3.409119E-1	3.036652E-1	-1.225281E-1	-2.110291E-2	-9.003639E-3	-4.816284E-1	2.808990E-1
3.467300E+10	-7.400513E-1	3.445435E-1	3.069458E-1	-1.192780E-1	-2.977657E-2	-5.143166E-3	-4.860687E-1	2.868805E-1
3.489750E+10	-7.385559E-1	3.469543E-1	3.009338E-1	-1.244049E-1	-2.847385E-2	-6.126404E-3	-4.783325E-1	2.978668E-1
3.512200E+10	-7.357178E-1	3.491821E-1	2.988434E-1	-1.275330E-1	-2.612782E-2	-3.483772E-3	-4.716187E-1	2.925873E-1
3.534650E+10	-7.377319E-1	3.446960E-1	2.971954E-1	-1.311035E-1	-2.472305E-2	-2.725601E-3	-4.766083E-1	3.000183E-1
3.557100E+10	-7.365112E-1	3.506165E-1	2.964935E-1	-1.287537E-1	-2.620697E-2	1.314163E-3	-4.660034E-1	3.176880E-1
3.579550E+10	-7.322388E-1	3.500671E-1	2.939606E-1	-1.356354E-1	-2.708721E-2	2.040863E-4	-4.640198E-1	3.145752E-1
3.602000E+10	-7.323303E-1	3.536377E-1	2.913513E-1	-1.344299E-1	-2.765846E-2	3.196716E-3	-4.618530E-1	3.181458E-1
3.624450E+10	-7.289124E-1	3.575134E-1	2.873535E-1	-1.352386E-1	-2.637196E-2	6.109238E-3	-4.605560E-1	3.194427E-1
3.646900E+10	-7.277222E-1	3.637390E-1	2.878113E-1	-1.462555E-1	-2.050781E-2	5.737305E-3	-4.590149E-1	3.294373E-1
3.669350E+10	-7.250977E-1	3.608398E-1	2.819366E-1	-1.471100E-1	-2.877045E-2	5.939484E-3	-4.508057E-1	3.313141E-1
3.691800E+10	-7.220764E-1	3.635864E-1	2.861023E-1	-1.447601E-1	-2.678013E-2	8.066177E-3	-4.487915E-1	3.441010E-1
3.714250E+10	-7.211304E-1	3.644714E-1	2.828979E-1	-1.490936E-1	-2.634430E-2	1.220703E-2	-4.440765E-1	3.442383E-1
3.736700E+10	-7.164612E-1	3.667603E-1	2.806854E-1	-1.505432E-1	-2.262878E-2	1.071262E-2	-4.383698E-1	3.492889E-1
3.759150E+10	-7.192993E-1	3.705139E-1	2.804108E-1	-1.558228E-1	-2.498722E-2	1.151276E-2	-4.313202E-1	3.523560E-1
3.781600E+10	-7.098083E-1	3.697510E-1	2.771912E-1	-1.591187E-1	-2.229500E-2	8.836746E-3	-4.280701E-1	3.638153E-1
3.804050E+10	-7.153931E-1	3.719482E-1	2.711792E-1	-1.532593E-1	-2.411938E-2	1.330090E-2	-4.253540E-1	3.684235E-1
3.826500E+10	-7.132568E-1	3.767090E-1	2.682343E-1	-1.591797E-1	-2.641773E-2	1.845837E-2	-4.177094E-1	3.765564E-1
3.848950E+10	-7.082825E-1	3.791199E-1	2.716980E-1	-1.627350E-1	-1.967335E-2	1.550484E-2	-4.108276E-1	3.764496E-1
3.871400E+10	-7.123718E-1	3.732300E-1	2.727966E-1	-1.641693E-1	-2.337265E-2	1.603222E-2	-4.036255E-1	3.789673E-1
3.893850E+10	-7.082520E-1	3.808899E-1	2.598724E-1	-1.697083E-1	-2.158451E-2	2.471161E-2	-3.979950E-1	3.824005E-1
3.916300E+10	-7.117615E-1	3.788452E-1	2.671051E-1	-1.716614E-1	-1.813221E-2	2.000046E-2	-3.939819E-1	3.886719E-1
