!Date: 10/28/2005, 12:46 PM

!Vgs = -5.000000E+0
!Vds = 5.000000E+0
!Ig = -4.256700E-5
!Id = 8.715800E-3

# HZ S RI R 50
1.000000E+8	9.853821E-1	-8.364868E-2	-2.481445E+0	1.315918E-1	1.367569E-3	1.086998E-2	8.853455E-1	-3.018188E-2
3.245000E+8	9.441223E-1	-2.474060E-1	-2.387329E+0	5.106201E-1	8.096695E-3	3.514099E-2	8.451843E-1	-1.289062E-1
5.490000E+8	8.786316E-1	-3.943481E-1	-2.245361E+0	7.999268E-1	1.893044E-2	5.536652E-2	8.216248E-1	-2.010193E-1
7.735000E+8	7.934570E-1	-5.211792E-1	-2.044556E+0	1.031860E+0	3.351593E-2	7.167816E-2	7.833252E-1	-2.667236E-1
9.980000E+8	6.981812E-1	-6.239929E-1	-1.822754E+0	1.217834E+0	4.893112E-2	8.415604E-2	7.444763E-1	-3.190002E-1
1.222500E+9	5.929260E-1	-7.060242E-1	-1.608765E+0	1.372620E+0	6.515121E-2	9.290314E-2	7.017822E-1	-3.677979E-1
1.447000E+9	4.872131E-1	-7.676086E-1	-1.392395E+0	1.471436E+0	8.175659E-2	9.859467E-2	6.594543E-1	-4.093628E-1
1.671500E+9	3.842468E-1	-8.098755E-1	-1.171753E+0	1.530457E+0	9.791946E-2	1.020355E-1	6.158752E-1	-4.435730E-1
1.896000E+9	2.855530E-1	-8.370361E-1	-9.745483E-1	1.567993E+0	1.148300E-1	1.027908E-1	5.738525E-1	-4.706421E-1
2.120500E+9	1.946716E-1	-8.523865E-1	-7.879639E-1	1.568054E+0	1.298218E-1	1.011810E-1	5.367126E-1	-4.953003E-1
2.345000E+9	1.064148E-1	-8.564453E-1	-6.138306E-1	1.543518E+0	1.437378E-1	9.621429E-2	4.981689E-1	-5.151978E-1
2.569500E+9	3.292847E-2	-8.512268E-1	-4.603882E-1	1.523621E+0	1.554184E-1	9.106445E-2	4.617615E-1	-5.321960E-1
2.794000E+9	-3.820801E-2	-8.439941E-1	-3.250732E-1	1.483032E+0	1.661072E-1	8.576965E-2	4.285583E-1	-5.455627E-1
3.018500E+9	-1.014099E-1	-8.305359E-1	-2.036743E-1	1.429138E+0	1.752853E-1	7.839966E-2	3.948364E-1	-5.600586E-1
3.243000E+9	-1.598511E-1	-8.146057E-1	-9.448242E-2	1.380066E+0	1.829147E-1	7.158661E-2	3.634338E-1	-5.715332E-1
3.467500E+9	-2.108154E-1	-7.983093E-1	-1.037598E-3	1.328735E+0	1.894913E-1	6.475830E-2	3.363342E-1	-5.802002E-1
3.692000E+9	-2.563171E-1	-7.789307E-1	8.331299E-2	1.271729E+0	1.956787E-1	5.740356E-2	3.073120E-1	-5.919800E-1
3.916500E+9	-2.971191E-1	-7.599487E-1	1.572266E-1	1.208374E+0	2.011719E-1	4.981995E-2	2.793579E-1	-5.990295E-1
4.141000E+9	-3.355408E-1	-7.392273E-1	2.215576E-1	1.147217E+0	2.053909E-1	4.280853E-2	2.534180E-1	-6.068420E-1
4.365500E+9	-3.686829E-1	-7.196045E-1	2.767334E-1	1.086121E+0	2.087784E-1	3.479767E-2	2.284241E-1	-6.145630E-1
4.590000E+9	-4.020081E-1	-6.986694E-1	3.265381E-1	1.034363E+0	2.125473E-1	2.845001E-2	2.024231E-1	-6.207886E-1
4.814500E+9	-4.270935E-1	-6.805115E-1	3.694763E-1	9.785767E-1	2.152939E-1	2.083588E-2	1.804810E-1	-6.281738E-1
5.039000E+9	-4.525452E-1	-6.609802E-1	4.074707E-1	9.257202E-1	2.174606E-1	1.323700E-2	1.556702E-1	-6.341553E-1
5.263500E+9	-4.753418E-1	-6.427917E-1	4.387512E-1	8.689575E-1	2.184601E-1	6.126404E-3	1.311951E-1	-6.388550E-1
5.488000E+9	-4.961243E-1	-6.243896E-1	4.654541E-1	8.164062E-1	2.197723E-1	-3.890991E-4	1.092529E-1	-6.414185E-1
5.712500E+9	-5.170288E-1	-6.059265E-1	4.897461E-1	7.677307E-1	2.212753E-1	-6.935120E-3	8.740234E-2	-6.470032E-1
5.937000E+9	-5.343018E-1	-5.872498E-1	5.101929E-1	7.213135E-1	2.213440E-1	-1.442719E-2	6.488037E-2	-6.513672E-1
6.161500E+9	-5.493469E-1	-5.732117E-1	5.272522E-1	6.791382E-1	2.218323E-1	-2.030182E-2	4.473877E-2	-6.560974E-1
6.386000E+9	-5.650330E-1	-5.571594E-1	5.426941E-1	6.320190E-1	2.201462E-1	-2.626801E-2	2.264404E-2	-6.582642E-1
6.610500E+9	-5.784912E-1	-5.429382E-1	5.542908E-1	5.888672E-1	2.205353E-1	-3.269196E-2	-8.850098E-4	-6.616821E-1
6.835000E+9	-5.922241E-1	-5.282593E-1	5.625610E-1	5.484924E-1	2.200241E-1	-3.814697E-2	-2.175903E-2	-6.610107E-1
7.059500E+9	-6.022339E-1	-5.144958E-1	5.697632E-1	5.102844E-1	2.193375E-1	-4.365540E-2	-3.915405E-2	-6.646423E-1
7.284000E+9	-6.142883E-1	-5.006104E-1	5.741272E-1	4.709778E-1	2.176666E-1	-4.936218E-2	-6.378174E-2	-6.655273E-1
7.508500E+9	-6.260681E-1	-4.859314E-1	5.782166E-1	4.342651E-1	2.165222E-1	-5.473328E-2	-8.352661E-2	-6.639404E-1
7.733000E+9	-6.356201E-1	-4.719238E-1	5.802307E-1	4.016724E-1	2.149200E-1	-6.019592E-2	-1.021729E-1	-6.651306E-1
7.957500E+9	-6.439819E-1	-4.608765E-1	5.819092E-1	3.703918E-1	2.140274E-1	-6.511688E-2	-1.240845E-1	-6.658630E-1
8.182000E+9	-6.534119E-1	-4.484863E-1	5.823364E-1	3.391113E-1	2.121353E-1	-6.989288E-2	-1.429138E-1	-6.662903E-1
8.406500E+9	-6.604614E-1	-4.383240E-1	5.806274E-1	3.074036E-1	2.094727E-1	-7.471466E-2	-1.623535E-1	-6.625671E-1
8.631000E+9	-6.694946E-1	-4.255676E-1	5.783081E-1	2.784424E-1	2.071075E-1	-7.854462E-2	-1.842346E-1	-6.611633E-1
8.855500E+9	-6.768188E-1	-4.137878E-1	5.755005E-1	2.508240E-1	2.056732E-1	-8.396149E-2	-2.025146E-1	-6.578369E-1
9.080001E+9	-6.832581E-1	-4.047546E-1	5.719604E-1	2.249146E-1	2.041702E-1	-8.790588E-2	-2.200928E-1	-6.547852E-1
9.304500E+9	-6.902466E-1	-3.927002E-1	5.675354E-1	2.011414E-1	1.994019E-1	-9.294891E-2	-2.444458E-1	-6.447144E-1
9.529000E+9	-6.954651E-1	-3.851929E-1	5.618286E-1	1.759949E-1	1.992950E-1	-9.590912E-2	-2.583923E-1	-6.486206E-1
9.753500E+9	-7.022705E-1	-3.734741E-1	5.557861E-1	1.526489E-1	1.957245E-1	-9.911346E-2	-2.749023E-1	-6.432190E-1
9.978000E+9	-7.084045E-1	-3.638000E-1	5.488281E-1	1.307373E-1	1.934586E-1	-1.030960E-1	-2.915344E-1	-6.395264E-1
1.020250E+10	-7.145386E-1	-3.550110E-1	5.427551E-1	1.107788E-1	1.908722E-1	-1.070404E-1	-3.101807E-1	-6.334534E-1
1.042700E+10	-7.196350E-1	-3.452148E-1	5.360718E-1	9.222412E-2	1.885605E-1	-1.106415E-1	-3.266296E-1	-6.285400E-1
1.065150E+10	-7.238464E-1	-3.370056E-1	5.284119E-1	7.327271E-2	1.851578E-1	-1.140518E-1	-3.432312E-1	-6.249390E-1
1.087600E+10	-7.289124E-1	-3.287659E-1	5.210571E-1	5.511475E-2	1.822281E-1	-1.167755E-1	-3.600769E-1	-6.181030E-1
1.110050E+10	-7.342224E-1	-3.195190E-1	5.127869E-1	3.726196E-2	1.795120E-1	-1.206741E-1	-3.760681E-1	-6.116943E-1
1.132500E+10	-7.380676E-1	-3.099365E-1	5.044250E-1	2.096558E-2	1.761780E-1	-1.235428E-1	-3.909302E-1	-6.059570E-1
1.154950E+10	-7.433167E-1	-3.014221E-1	4.968414E-1	5.966187E-3	1.737137E-1	-1.260376E-1	-4.085083E-1	-5.985718E-1
1.177400E+10	-7.459412E-1	-2.944641E-1	4.893036E-1	-8.560181E-3	1.708908E-1	-1.282730E-1	-4.225159E-1	-5.904846E-1
1.199850E+10	-7.499084E-1	-2.877502E-1	4.808350E-1	-2.366638E-2	1.681366E-1	-1.306763E-1	-4.368591E-1	-5.852966E-1
1.222300E+10	-7.537231E-1	-2.785339E-1	4.699860E-1	-3.805542E-2	1.650162E-1	-1.334686E-1	-4.524841E-1	-5.773315E-1
1.244750E+10	-7.577209E-1	-2.711792E-1	4.608459E-1	-5.090332E-2	1.623993E-1	-1.361237E-1	-4.670410E-1	-5.667114E-1
1.267200E+10	-7.619934E-1	-2.626953E-1	4.535370E-1	-6.198120E-2	1.592636E-1	-1.389008E-1	-4.791260E-1	-5.622559E-1
1.289650E+10	-7.640381E-1	-2.567444E-1	4.450531E-1	-7.186890E-2	1.565247E-1	-1.410141E-1	-4.946289E-1	-5.523376E-1
1.312100E+10	-7.679749E-1	-2.495422E-1	4.353943E-1	-8.444214E-2	1.525497E-1	-1.433411E-1	-5.077209E-1	-5.415039E-1
1.334550E+10	-7.709045E-1	-2.433777E-1	4.258118E-1	-9.465027E-2	1.497955E-1	-1.449280E-1	-5.179749E-1	-5.360718E-1
1.357000E+10	-7.752075E-1	-2.338257E-1	4.174957E-1	-1.043396E-1	1.457520E-1	-1.462555E-1	-5.341797E-1	-5.284119E-1
1.379450E+10	-7.767944E-1	-2.290039E-1	4.093018E-1	-1.130981E-1	1.435471E-1	-1.493683E-1	-5.449524E-1	-5.137939E-1
1.401900E+10	-7.795410E-1	-2.232361E-1	3.996735E-1	-1.223755E-1	1.411285E-1	-1.508331E-1	-5.534973E-1	-5.080872E-1
1.424350E+10	-7.826843E-1	-2.150574E-1	3.890686E-1	-1.314240E-1	1.379929E-1	-1.529541E-1	-5.694275E-1	-4.981079E-1
1.446800E+10	-7.851562E-1	-2.080994E-1	3.811340E-1	-1.401215E-1	1.352539E-1	-1.557465E-1	-5.800781E-1	-4.856873E-1
1.469250E+10	-7.876282E-1	-1.999817E-1	3.724823E-1	-1.476898E-1	1.309891E-1	-1.547394E-1	-5.882874E-1	-4.776611E-1
1.491700E+10	-7.900696E-1	-1.946106E-1	3.642883E-1	-1.536560E-1	1.283646E-1	-1.574707E-1	-6.009521E-1	-4.688416E-1
1.514150E+10	-7.923584E-1	-1.880493E-1	3.543701E-1	-1.618958E-1	1.255341E-1	-1.585083E-1	-6.111450E-1	-4.558411E-1
1.536600E+10	-7.946777E-1	-1.830750E-1	3.463287E-1	-1.686707E-1	1.223984E-1	-1.604538E-1	-6.191406E-1	-4.463501E-1
1.559050E+10	-7.984314E-1	-1.749268E-1	3.364563E-1	-1.751099E-1	1.199112E-1	-1.609573E-1	-6.302795E-1	-4.385376E-1
1.581500E+10	-7.993774E-1	-1.692505E-1	3.280640E-1	-1.810303E-1	1.164627E-1	-1.619949E-1	-6.407776E-1	-4.245605E-1
1.603950E+10	-8.025208E-1	-1.629333E-1	3.199615E-1	-1.860352E-1	1.125412E-1	-1.639557E-1	-6.489563E-1	-4.143677E-1
1.626400E+10	-8.036499E-1	-1.570740E-1	3.126526E-1	-1.891327E-1	1.098785E-1	-1.642990E-1	-6.602478E-1	-4.049072E-1
1.648850E+10	-8.046875E-1	-1.518555E-1	3.031006E-1	-1.943817E-1	1.075287E-1	-1.648788E-1	-6.682129E-1	-3.920288E-1
1.671300E+10	-8.063354E-1	-1.443787E-1	2.935028E-1	-2.007446E-1	1.044159E-1	-1.665268E-1	-6.753845E-1	-3.823242E-1
1.693750E+10	-8.088379E-1	-1.386719E-1	2.866211E-1	-2.040558E-1	1.012878E-1	-1.680374E-1	-6.835937E-1	-3.717957E-1
1.716200E+10	-8.110352E-1	-1.331177E-1	2.796936E-1	-2.073669E-1	9.855652E-2	-1.681137E-1	-6.900940E-1	-3.571472E-1
1.738650E+10	-8.124084E-1	-1.277466E-1	2.718353E-1	-2.116241E-1	9.410095E-2	-1.688461E-1	-6.972046E-1	-3.465576E-1
1.761100E+10	-8.132935E-1	-1.228638E-1	2.632141E-1	-2.134094E-1	9.267426E-2	-1.692276E-1	-7.062683E-1	-3.381042E-1
1.783550E+10	-8.159485E-1	-1.150513E-1	2.552490E-1	-2.159576E-1	8.948517E-2	-1.714172E-1	-7.134399E-1	-3.218994E-1
1.806000E+10	-8.180237E-1	-1.106567E-1	2.495499E-1	-2.201843E-1	8.559418E-2	-1.713486E-1	-7.197571E-1	-3.139343E-1
1.828450E+10	-8.193359E-1	-1.027527E-1	2.430954E-1	-2.224197E-1	8.361816E-2	-1.711655E-1	-7.244568E-1	-3.039856E-1
1.850900E+10	-8.200989E-1	-9.796143E-2	2.342377E-1	-2.245255E-1	8.185577E-2	-1.720123E-1	-7.312012E-1	-2.905273E-1
1.873350E+10	-8.221741E-1	-9.173584E-2	2.270966E-1	-2.286606E-1	7.828522E-2	-1.739120E-1	-7.352905E-1	-2.763367E-1
1.895800E+10	-8.213806E-1	-8.786011E-2	2.195206E-1	-2.295532E-1	7.482910E-2	-1.729431E-1	-7.404785E-1	-2.698669E-1
1.918250E+10	-8.233337E-1	-8.288574E-2	2.128067E-1	-2.312088E-1	7.217407E-2	-1.750336E-1	-7.478638E-1	-2.566223E-1
1.940700E+10	-8.232117E-1	-7.586670E-2	2.051773E-1	-2.346268E-1	7.001495E-2	-1.727982E-1	-7.519226E-1	-2.404785E-1
1.963150E+10	-8.271790E-1	-7.070923E-2	1.976013E-1	-2.361526E-1	6.782532E-2	-1.741791E-1	-7.566833E-1	-2.327881E-1
1.985600E+10	-8.283997E-1	-6.640625E-2	1.943970E-1	-2.367401E-1	6.429291E-2	-1.735153E-1	-7.612000E-1	-2.202454E-1
2.008050E+10	-8.287659E-1	-6.143188E-2	1.851501E-1	-2.380142E-1	6.144714E-2	-1.741562E-1	-7.672729E-1	-2.059021E-1
2.030500E+10	-8.296814E-1	-5.459595E-2	1.790619E-1	-2.371521E-1	5.797577E-2	-1.747360E-1	-7.671204E-1	-1.961670E-1
2.052950E+10	-8.307190E-1	-4.925537E-2	1.712799E-1	-2.398071E-1	5.590820E-2	-1.750946E-1	-7.733765E-1	-1.849976E-1
2.075400E+10	-8.320312E-1	-4.684448E-2	1.676712E-1	-2.414093E-1	5.306244E-2	-1.736984E-1	-7.755432E-1	-1.727905E-1
2.097850E+10	-8.338318E-1	-3.967285E-2	1.593933E-1	-2.429733E-1	4.991913E-2	-1.755142E-1	-7.758789E-1	-1.607666E-1
2.120300E+10	-8.327637E-1	-3.485107E-2	1.530228E-1	-2.424927E-1	4.843140E-2	-1.728210E-1	-7.807312E-1	-1.512756E-1
2.142750E+10	-8.357849E-1	-2.700806E-2	1.492310E-1	-2.427292E-1	4.799652E-2	-1.756058E-1	-7.868958E-1	-1.381836E-1
2.165200E+10	-8.365784E-1	-2.166748E-2	1.426010E-1	-2.445831E-1	4.256439E-2	-1.740570E-1	-7.881470E-1	-1.263428E-1
2.187650E+10	-8.367615E-1	-1.663208E-2	1.375961E-1	-2.453384E-1	3.948975E-2	-1.742554E-1	-7.895508E-1	-1.177368E-1
2.210100E+10	-8.383484E-1	-1.229858E-2	1.329346E-1	-2.436905E-1	3.610229E-2	-1.736755E-1	-7.936707E-1	-1.005554E-1
2.232550E+10	-8.391724E-1	-6.439209E-3	1.236801E-1	-2.456055E-1	3.625488E-2	-1.748505E-1	-7.947693E-1	-8.666992E-2
2.255000E+10	-8.390808E-1	-2.105713E-3	1.208725E-1	-2.465820E-1	3.266144E-2	-1.760559E-1	-7.951355E-1	-7.983398E-2
2.277450E+10	-8.388977E-1	5.523682E-3	1.161652E-1	-2.467041E-1	2.920532E-2	-1.749649E-1	-7.997742E-1	-6.262207E-2
2.299900E+10	-8.403931E-1	9.460449E-3	1.098175E-1	-2.458344E-1	2.699280E-2	-1.747284E-1	-7.962036E-1	-5.145264E-2
2.322350E+10	-8.401489E-1	1.486206E-2	1.036377E-1	-2.457504E-1	2.549744E-2	-1.763611E-1	-8.021851E-1	-4.260254E-2
2.344800E+10	-8.390198E-1	1.834106E-2	1.001511E-1	-2.453613E-1	2.191162E-2	-1.734314E-1	-8.031921E-1	-2.804565E-2
2.367250E+10	-8.411255E-1	2.539062E-2	9.317017E-2	-2.448349E-1	2.132416E-2	-1.727753E-1	-8.007812E-1	-1.498413E-2
2.389700E+10	-8.382263E-1	3.109741E-2	8.903503E-2	-2.463226E-1	2.030182E-2	-1.748581E-1	-8.015137E-1	-3.997803E-3
2.412150E+10	-8.413086E-1	3.561401E-2	8.245087E-2	-2.447815E-1	1.505280E-2	-1.735992E-1	-7.997437E-1	1.043701E-2
2.434600E+10	-8.401794E-1	4.022217E-2	7.765961E-2	-2.439346E-1	1.369476E-2	-1.737671E-1	-7.981567E-1	1.846313E-2
2.457050E+10	-8.416443E-1	4.415894E-2	7.383728E-2	-2.447739E-1	1.034546E-2	-1.724701E-1	-8.009644E-1	3.292847E-2
2.479500E+10	-8.416748E-1	4.962158E-2	6.646729E-2	-2.432251E-1	6.179810E-3	-1.717911E-1	-7.966309E-1	4.547119E-2
2.501950E+10	-8.408813E-1	5.581665E-2	6.333923E-2	-2.426376E-1	3.929138E-3	-1.728439E-1	-7.911072E-1	5.712891E-2
2.524400E+10	-8.417664E-1	6.170654E-2	5.493164E-2	-2.408905E-1	1.739502E-3	-1.720657E-1	-7.917786E-1	6.451416E-2
2.546850E+10	-8.387451E-1	6.628418E-2	5.391693E-2	-2.376785E-1	1.213074E-3	-1.699600E-1	-7.906189E-1	7.766724E-2
2.569300E+10	-8.407898E-1	7.064819E-2	4.805756E-2	-2.376633E-1	-4.058838E-3	-1.658707E-1	-7.912903E-1	8.517456E-2
2.591750E+10	-8.416443E-1	7.644653E-2	4.382324E-2	-2.376633E-1	-5.233765E-3	-1.689911E-1	-7.899780E-1	9.616089E-2
2.614200E+10	-8.394470E-1	8.013916E-2	4.048920E-2	-2.343750E-1	-7.583618E-3	-1.680450E-1	-7.867126E-1	1.098633E-1
2.636650E+10	-8.400574E-1	8.489990E-2	3.721619E-2	-2.355042E-1	-9.017944E-3	-1.665649E-1	-7.850952E-1	1.244812E-1
2.659100E+10	-8.404236E-1	8.895874E-2	3.377533E-2	-2.341003E-1	-1.154327E-2	-1.674805E-1	-7.794800E-1	1.332703E-1
2.681550E+10	-8.393555E-1	9.255981E-2	2.805328E-2	-2.323608E-1	-1.383972E-2	-1.651306E-1	-7.809143E-1	1.424866E-1
2.704000E+10	-8.370056E-1	1.005249E-1	2.230835E-2	-2.300720E-1	-1.557159E-2	-1.653214E-1	-7.762146E-1	1.604309E-1
2.726450E+10	-8.366394E-1	1.058044E-1	2.177429E-2	-2.310257E-1	-1.943207E-2	-1.654510E-1	-7.672119E-1	1.675110E-1
2.748900E+10	-8.352966E-1	1.103516E-1	1.463318E-2	-2.272491E-1	-1.934052E-2	-1.634674E-1	-7.673340E-1	1.747742E-1
2.771350E+10	-8.360596E-1	1.141052E-1	1.205444E-2	-2.315369E-1	-2.178955E-2	-1.623611E-1	-7.635193E-1	1.884155E-1
2.793800E+10	-8.362427E-1	1.147766E-1	5.737305E-3	-2.274857E-1	-2.394867E-2	-1.634979E-1	-7.607727E-1	1.966248E-1
2.816250E+10	-8.366089E-1	1.220093E-1	3.509521E-3	-2.262650E-1	-2.659607E-2	-1.614151E-1	-7.603455E-1	2.083435E-1
2.838700E+10	-8.352356E-1	1.296997E-1	-1.594543E-3	-2.232056E-1	-3.241730E-2	-1.607590E-1	-7.536011E-1	2.187195E-1
2.861150E+10	-8.335876E-1	1.331482E-1	-5.371094E-3	-2.240448E-1	-3.149414E-2	-1.610184E-1	-7.443848E-1	2.283936E-1
2.883600E+10	-8.349609E-1	1.400452E-1	-8.316040E-3	-2.181931E-1	-3.516388E-2	-1.586838E-1	-7.398987E-1	2.327576E-1
2.906050E+10	-8.338318E-1	1.426392E-1	-1.218414E-2	-2.169876E-1	-3.450775E-2	-1.576996E-1	-7.353210E-1	2.503357E-1
2.928500E+10	-8.347168E-1	1.474915E-1	-1.595306E-2	-2.179794E-1	-3.993988E-2	-1.574554E-1	-7.313843E-1	2.599182E-1
2.950950E+10	-8.313293E-1	1.534119E-1	-1.856232E-2	-2.107468E-1	-4.367065E-2	-1.563339E-1	-7.276917E-1	2.642517E-1
2.973400E+10	-8.315125E-1	1.582947E-1	-2.045441E-2	-2.129440E-1	-4.144287E-2	-1.538849E-1	-7.242432E-1	2.762146E-1
2.995850E+10	-8.285828E-1	1.631470E-1	-2.548218E-2	-2.082977E-1	-4.354858E-2	-1.550293E-1	-7.188721E-1	2.865906E-1
3.018300E+10	-8.269958E-1	1.643066E-1	-3.005981E-2	-2.092361E-1	-4.365540E-2	-1.526566E-1	-7.145081E-1	2.985840E-1
3.040750E+10	-8.271484E-1	1.719360E-1	-3.212738E-2	-2.064743E-1	-4.859924E-2	-1.541824E-1	-7.063904E-1	3.078003E-1
3.063200E+10	-8.238220E-1	1.769409E-1	-3.273773E-2	-2.095642E-1	-5.168915E-2	-1.526108E-1	-7.041016E-1	3.207703E-1
3.085650E+10	-8.255005E-1	1.817627E-1	-3.942108E-2	-2.042770E-1	-5.339050E-2	-1.535110E-1	-6.929321E-1	3.283997E-1
3.108100E+10	-8.246765E-1	1.847229E-1	-4.165649E-2	-2.046356E-1	-5.382538E-2	-1.485138E-1	-6.922913E-1	3.406067E-1
3.130550E+10	-8.205566E-1	1.890259E-1	-4.544830E-2	-2.035751E-1	-6.198883E-2	-1.470566E-1	-6.784668E-1	3.473816E-1
3.153000E+10	-8.237000E-1	1.925964E-1	-4.640198E-2	-2.012253E-1	-6.242371E-2	-1.473007E-1	-6.763000E-1	3.568115E-1
3.175450E+10	-8.164062E-1	2.018738E-1	-5.262756E-2	-1.977997E-1	-6.660461E-2	-1.479187E-1	-6.633301E-1	3.710022E-1
3.197900E+10	-8.174438E-1	2.052307E-1	-5.305481E-2	-1.965103E-1	-6.454468E-2	-1.442871E-1	-6.523743E-1	3.764648E-1
3.220350E+10	-8.188782E-1	2.077942E-1	-5.506897E-2	-1.946182E-1	-6.664276E-2	-1.455002E-1	-6.514282E-1	3.822021E-1
3.242800E+10	-8.151550E-1	2.097473E-1	-6.114197E-2	-1.917114E-1	-6.803131E-2	-1.398697E-1	-6.416321E-1	3.937378E-1
3.265250E+10	-8.168335E-1	2.189636E-1	-6.187439E-2	-1.900558E-1	-7.437897E-2	-1.386414E-1	-6.265564E-1	4.010620E-1
3.287700E+10	-8.136292E-1	2.254639E-1	-6.232452E-2	-1.844025E-1	-7.208252E-2	-1.384811E-1	-6.268005E-1	4.034424E-1
3.310150E+10	-8.159485E-1	2.268372E-1	-6.998444E-2	-1.849289E-1	-7.600403E-2	-1.383209E-1	-6.141663E-1	4.144592E-1
3.332600E+10	-8.061523E-1	2.315674E-1	-7.351685E-2	-1.830597E-1	-7.727051E-2	-1.371384E-1	-6.005859E-1	4.225464E-1
3.355050E+10	-8.079834E-1	2.381592E-1	-7.260132E-2	-1.806335E-1	-8.133698E-2	-1.328812E-1	-5.979004E-1	4.275818E-1
3.377500E+10	-8.067322E-1	2.414551E-1	-7.553101E-2	-1.802673E-1	-7.749176E-2	-1.360550E-1	-5.927734E-1	4.278564E-1
3.399950E+10	-8.041382E-1	2.440796E-1	-8.185577E-2	-1.793289E-1	-8.506012E-2	-1.359863E-1	-5.852966E-1	4.405212E-1
3.422400E+10	-8.032532E-1	2.496643E-1	-8.316803E-2	-1.768799E-1	-8.374023E-2	-1.318970E-1	-5.758667E-1	4.499817E-1
3.444850E+10	-8.005676E-1	2.514343E-1	-8.280182E-2	-1.704636E-1	-8.572388E-2	-1.282272E-1	-5.681458E-1	4.607544E-1
3.467300E+10	-7.988586E-1	2.554932E-1	-8.555603E-2	-1.722946E-1	-9.146118E-2	-1.308060E-1	-5.622864E-1	4.691467E-1
3.489750E+10	-7.988892E-1	2.607727E-1	-8.791351E-2	-1.695328E-1	-9.272766E-2	-1.302719E-1	-5.491333E-1	4.764099E-1
3.512200E+10	-7.987976E-1	2.659302E-1	-9.286499E-2	-1.651230E-1	-9.206390E-2	-1.271439E-1	-5.368958E-1	4.744263E-1
3.534650E+10	-7.941895E-1	2.710876E-1	-9.124756E-2	-1.664505E-1	-1.025772E-1	-1.287308E-1	-5.283813E-1	4.874878E-1
3.557100E+10	-7.877197E-1	2.708435E-1	-1.000061E-1	-1.629715E-1	-9.681320E-2	-1.235123E-1	-5.107117E-1	4.944763E-1
3.579550E+10	-7.915649E-1	2.780151E-1	-9.862518E-2	-1.625900E-1	-1.041565E-1	-1.178932E-1	-5.034180E-1	4.973450E-1
3.602000E+10	-7.900391E-1	2.841187E-1	-9.832764E-2	-1.564636E-1	-1.024895E-1	-1.197090E-1	-4.975586E-1	5.024109E-1
3.624450E+10	-7.801514E-1	2.893372E-1	-1.064606E-1	-1.555023E-1	-1.066742E-1	-1.136665E-1	-4.885254E-1	5.067749E-1
3.646900E+10	-7.797241E-1	2.921448E-1	-1.095047E-1	-1.541977E-1	-1.088142E-1	-1.155052E-1	-4.737549E-1	5.156860E-1
3.669350E+10	-7.779236E-1	2.930908E-1	-1.101074E-1	-1.489792E-1	-1.121979E-1	-1.134758E-1	-4.613953E-1	5.139465E-1
3.691800E+10	-7.781067E-1	2.973022E-1	-1.131821E-1	-1.482162E-1	-1.102676E-1	-1.141815E-1	-4.470215E-1	5.242310E-1
3.714250E+10	-7.722473E-1	2.976379E-1	-1.136169E-1	-1.471481E-1	-1.144447E-1	-1.070900E-1	-4.374084E-1	5.271912E-1
3.736700E+10	-7.660217E-1	3.032227E-1	-1.172104E-1	-1.415939E-1	-1.149483E-1	-1.033058E-1	-4.330139E-1	5.310974E-1
3.759150E+10	-7.674255E-1	3.118591E-1	-1.163177E-1	-1.331482E-1	-1.201668E-1	-1.041794E-1	-4.165649E-1	5.381165E-1
3.781600E+10	-7.638245E-1	3.114319E-1	-1.189957E-1	-1.376114E-1	-1.178246E-1	-1.015434E-1	-4.038696E-1	5.363159E-1
3.804050E+10	-7.619019E-1	3.138733E-1	-1.286697E-1	-1.334457E-1	-1.231346E-1	-9.394073E-2	-3.875427E-1	5.415955E-1
3.826500E+10	-7.617798E-1	3.165894E-1	-1.274261E-1	-1.324081E-1	-1.299896E-1	-9.609222E-2	-3.701782E-1	5.508118E-1
3.848950E+10	-7.580261E-1	3.278198E-1	-1.319504E-1	-1.268311E-1	-1.282425E-1	-9.228516E-2	-3.645935E-1	5.479431E-1
3.871400E+10	-7.496338E-1	3.276367E-1	-1.291733E-1	-1.223755E-1	-1.298904E-1	-9.099579E-2	-3.514404E-1	5.428467E-1
3.893850E+10	-7.497559E-1	3.315430E-1	-1.322250E-1	-1.161652E-1	-1.270142E-1	-8.455658E-2	-3.352661E-1	5.444031E-1
