!Date: 10/28/2005, 12:46 PM

!Vgs = 0.000000E+0
!Vds = 7.500000E+0
!Ig = -4.837300E-6
!Id = 9.301500E-1

# HZ S RI R 50
1.000000E+8	9.612427E-1	-1.991577E-1	-8.851074E+0	8.642578E-2	-9.961128E-4	1.185846E-2	2.096481E-1	-7.313538E-2
3.245000E+8	7.443848E-1	-5.864868E-1	-7.723389E+0	2.935791E+0	1.351357E-2	3.348541E-2	-4.905701E-2	-2.031555E-1
5.490000E+8	4.509888E-1	-8.130493E-1	-6.140137E+0	4.195801E+0	3.109169E-2	4.409027E-2	-9.643555E-2	-2.320709E-1
7.735000E+8	1.777344E-1	-8.972778E-1	-4.689941E+0	4.618408E+0	4.722404E-2	4.675865E-2	-1.931763E-1	-2.757568E-1
9.980000E+8	-4.544067E-2	-8.962708E-1	-3.520264E+0	4.582275E+0	5.951500E-2	4.539299E-2	-2.615662E-1	-2.521973E-1
1.222500E+9	-2.218628E-1	-8.587036E-1	-2.629395E+0	4.381592E+0	6.865311E-2	4.177094E-2	-3.006592E-1	-2.451935E-1
1.447000E+9	-3.552246E-1	-8.075256E-1	-1.961670E+0	4.104736E+0	7.586288E-2	3.786850E-2	-3.431244E-1	-2.259979E-1
1.671500E+9	-4.552307E-1	-7.515564E-1	-1.469482E+0	3.815796E+0	8.130646E-2	3.371811E-2	-3.680420E-1	-2.107544E-1
1.896000E+9	-5.330200E-1	-6.946716E-1	-1.100464E+0	3.536621E+0	8.502197E-2	2.949142E-2	-3.904419E-1	-1.916046E-1
2.120500E+9	-5.913696E-1	-6.424255E-1	-8.143311E-1	3.286133E+0	8.872986E-2	2.559280E-2	-4.057770E-1	-1.797638E-1
2.345000E+9	-6.376038E-1	-5.912781E-1	-5.849609E-1	3.051025E+0	9.093475E-2	2.152252E-2	-4.215240E-1	-1.618805E-1
2.569500E+9	-6.712952E-1	-5.470581E-1	-4.062500E-1	2.833618E+0	9.291458E-2	1.789093E-2	-4.278870E-1	-1.494904E-1
2.794000E+9	-7.014160E-1	-5.095215E-1	-2.653809E-1	2.647583E+0	9.415054E-2	1.495361E-2	-4.389496E-1	-1.391754E-1
3.018500E+9	-7.243042E-1	-4.735413E-1	-1.514893E-1	2.472290E+0	9.490204E-2	1.185989E-2	-4.436493E-1	-1.251831E-1
3.243000E+9	-7.429810E-1	-4.404602E-1	-5.712891E-2	2.320435E+0	9.542084E-2	8.560181E-3	-4.475708E-1	-1.202240E-1
3.467500E+9	-7.599792E-1	-4.116821E-1	2.368164E-2	2.182373E+0	9.578323E-2	6.458282E-3	-4.564362E-1	-1.087036E-1
3.692000E+9	-7.736206E-1	-3.850098E-1	8.996582E-2	2.055908E+0	9.674454E-2	4.085541E-3	-4.560089E-1	-1.017303E-1
3.916500E+9	-7.856750E-1	-3.598022E-1	1.437378E-1	1.939758E+0	9.677124E-2	1.281738E-3	-4.642487E-1	-9.648132E-2
4.141000E+9	-7.949219E-1	-3.363037E-1	1.914062E-1	1.834473E+0	9.729004E-2	-5.340576E-4	-4.648132E-1	-8.551025E-2
4.365500E+9	-8.013000E-1	-3.157349E-1	2.327271E-1	1.738403E+0	9.701538E-2	-2.681732E-3	-4.666901E-1	-8.381653E-2
4.590000E+9	-8.094482E-1	-2.972412E-1	2.669067E-1	1.647766E+0	9.717178E-2	-4.928589E-3	-4.721985E-1	-7.481384E-2
4.814500E+9	-8.163452E-1	-2.788696E-1	2.944336E-1	1.566223E+0	9.766388E-2	-6.935120E-3	-4.718933E-1	-6.980896E-2
5.039000E+9	-8.209229E-1	-2.618103E-1	3.201294E-1	1.490906E+0	9.733200E-2	-8.762360E-3	-4.746246E-1	-6.578064E-2
5.263500E+9	-8.256836E-1	-2.451782E-1	3.424072E-1	1.420593E+0	9.708405E-2	-1.062393E-2	-4.765625E-1	-5.920410E-2
5.488000E+9	-8.290405E-1	-2.318726E-1	3.618774E-1	1.356628E+0	9.671402E-2	-1.265335E-2	-4.783478E-1	-5.459595E-2
5.712500E+9	-8.333740E-1	-2.177734E-1	3.795166E-1	1.293518E+0	9.664536E-2	-1.462173E-2	-4.794464E-1	-5.108643E-2
5.937000E+9	-8.362427E-1	-2.028503E-1	3.939209E-1	1.236328E+0	9.678650E-2	-1.612473E-2	-4.810028E-1	-4.641724E-2
6.161500E+9	-8.391418E-1	-1.920776E-1	4.067383E-1	1.184387E+0	9.595871E-2	-1.814651E-2	-4.827271E-1	-3.997803E-2
6.386000E+9	-8.419800E-1	-1.792908E-1	4.184570E-1	1.133240E+0	9.555817E-2	-1.941681E-2	-4.806976E-1	-3.721619E-2
6.610500E+9	-8.437500E-1	-1.683044E-1	4.287720E-1	1.084778E+0	9.496689E-2	-2.141190E-2	-4.847412E-1	-3.546143E-2
6.835000E+9	-8.468628E-1	-1.581726E-1	4.378052E-1	1.037537E+0	9.486389E-2	-2.339935E-2	-4.837189E-1	-2.676392E-2
7.059500E+9	-8.480225E-1	-1.484070E-1	4.426880E-1	9.961548E-1	9.391022E-2	-2.450562E-2	-4.809113E-1	-2.912903E-2
7.284000E+9	-8.488770E-1	-1.387024E-1	4.474792E-1	9.572449E-1	9.407806E-2	-2.539825E-2	-4.868927E-1	-2.290344E-2
7.508500E+9	-8.517761E-1	-1.283264E-1	4.522095E-1	9.188538E-1	9.346008E-2	-2.705002E-2	-4.807739E-1	-2.218628E-2
7.733000E+9	-8.511658E-1	-1.184082E-1	4.566956E-1	8.838806E-1	9.327698E-2	-2.816772E-2	-4.888153E-1	-2.156067E-2
7.957500E+9	-8.525391E-1	-1.102905E-1	4.635620E-1	8.494873E-1	9.219742E-2	-3.015518E-2	-4.862061E-1	-1.470947E-2
8.182000E+9	-8.537292E-1	-1.008911E-1	4.688416E-1	8.181152E-1	9.149551E-2	-3.092957E-2	-4.914246E-1	-1.507568E-2
8.406500E+9	-8.540649E-1	-9.448242E-2	4.701843E-1	7.848816E-1	9.152603E-2	-3.257370E-2	-4.895172E-1	-6.774902E-3
8.631000E+9	-8.550110E-1	-8.581543E-2	4.732666E-1	7.543945E-1	9.074402E-2	-3.388977E-2	-4.897461E-1	-6.378174E-3
8.855500E+9	-8.549805E-1	-7.833862E-2	4.743652E-1	7.251587E-1	9.017944E-2	-3.540802E-2	-4.916840E-1	-2.151489E-3
9.080001E+9	-8.561096E-1	-7.144165E-2	4.757996E-1	6.983337E-1	8.892822E-2	-3.747940E-2	-4.905090E-1	2.075195E-3
9.304500E+9	-8.556519E-1	-6.176758E-2	4.770203E-1	6.715698E-1	8.768463E-2	-3.850174E-2	-4.905548E-1	2.349854E-3
9.529000E+9	-8.558350E-1	-5.673218E-2	4.770203E-1	6.464844E-1	8.744049E-2	-3.910828E-2	-4.934540E-1	6.973267E-3
9.753500E+9	-8.565063E-1	-5.029297E-2	4.781494E-1	6.225281E-1	8.715439E-2	-4.048920E-2	-4.911194E-1	1.098633E-2
9.978000E+9	-8.561707E-1	-4.351807E-2	4.780273E-1	5.983582E-1	8.541489E-2	-4.184341E-2	-4.922943E-1	1.072693E-2
1.020250E+10	-8.567810E-1	-3.704834E-2	4.773254E-1	5.764160E-1	8.524323E-2	-4.255295E-2	-4.939575E-1	1.638794E-2
1.042700E+10	-8.570251E-1	-3.021240E-2	4.770508E-1	5.557251E-1	8.455658E-2	-4.413986E-2	-4.920502E-1	1.817322E-2
1.065150E+10	-8.569641E-1	-2.462769E-2	4.759521E-1	5.350952E-1	8.272171E-2	-4.447937E-2	-4.933014E-1	2.014160E-2
1.087600E+10	-8.571167E-1	-1.806641E-2	4.751892E-1	5.151367E-1	8.270645E-2	-4.588699E-2	-4.945221E-1	2.418518E-2
1.110050E+10	-8.569031E-1	-1.257324E-2	4.750061E-1	4.946136E-1	8.147812E-2	-4.703522E-2	-4.939575E-1	2.760315E-2
1.132500E+10	-8.564148E-1	-6.744385E-3	4.724426E-1	4.764709E-1	8.072281E-2	-4.789734E-2	-4.943390E-1	2.864075E-2
1.154950E+10	-8.564758E-1	4.272461E-4	4.709167E-1	4.577637E-1	7.954025E-2	-4.919434E-2	-4.959106E-1	3.271484E-2
1.177400E+10	-8.554687E-1	5.340576E-3	4.704285E-1	4.412537E-1	7.817078E-2	-5.027390E-2	-4.953613E-1	3.553772E-2
1.199850E+10	-8.554687E-1	1.071167E-2	4.683838E-1	4.250946E-1	7.791519E-2	-5.130386E-2	-4.964142E-1	3.744507E-2
1.222300E+10	-8.548889E-1	1.541138E-2	4.656525E-1	4.083557E-1	7.713318E-2	-5.273819E-2	-4.967346E-1	3.909302E-2
1.244750E+10	-8.543091E-1	2.093506E-2	4.635773E-1	3.917236E-1	7.628632E-2	-5.173111E-2	-4.969940E-1	4.411316E-2
1.267200E+10	-8.553162E-1	2.609253E-2	4.611664E-1	3.769989E-1	7.522964E-2	-5.342102E-2	-4.967651E-1	4.447937E-2
1.289650E+10	-8.535767E-1	3.100586E-2	4.577026E-1	3.619690E-1	7.460785E-2	-5.380249E-2	-4.991150E-1	4.620361E-2
1.312100E+10	-8.536987E-1	3.588867E-2	4.558411E-1	3.470306E-1	7.287598E-2	-5.486298E-2	-4.988708E-1	5.133057E-2
1.334550E+10	-8.540344E-1	4.064941E-2	4.531860E-1	3.340149E-1	7.264709E-2	-5.548096E-2	-4.977570E-1	5.262756E-2
1.357000E+10	-8.526611E-1	4.467773E-2	4.502716E-1	3.205261E-1	7.139587E-2	-5.676270E-2	-4.986877E-1	5.253601E-2
1.379450E+10	-8.521423E-1	5.044556E-2	4.478607E-1	3.076935E-1	7.066727E-2	-5.715179E-2	-5.009766E-1	5.685425E-2
1.401900E+10	-8.514709E-1	5.426025E-2	4.453278E-1	2.964783E-1	6.969833E-2	-5.788422E-2	-4.971466E-1	5.888367E-2
1.424350E+10	-8.505249E-1	6.027222E-2	4.399872E-1	2.835999E-1	6.827927E-2	-5.917358E-2	-4.994507E-1	6.086731E-2
1.446800E+10	-8.505249E-1	6.539917E-2	4.399261E-1	2.721710E-1	6.711960E-2	-5.970001E-2	-5.005493E-1	6.713867E-2
1.469250E+10	-8.495483E-1	6.866455E-2	4.370117E-1	2.612305E-1	6.634903E-2	-5.999374E-2	-4.965363E-1	7.107544E-2
1.491700E+10	-8.482666E-1	7.385254E-2	4.324646E-1	2.496643E-1	6.544113E-2	-6.088257E-2	-4.999695E-1	6.958008E-2
1.514150E+10	-8.481750E-1	7.800293E-2	4.292755E-1	2.381287E-1	6.319427E-2	-6.054306E-2	-5.006104E-1	7.479858E-2
1.536600E+10	-8.465271E-1	8.331299E-2	4.253540E-1	2.269745E-1	6.303787E-2	-6.150055E-2	-4.977264E-1	7.810974E-2
1.559050E+10	-8.457947E-1	8.612061E-2	4.213409E-1	2.186890E-1	6.325531E-2	-6.235504E-2	-4.994507E-1	7.722473E-2
1.581500E+10	-8.452148E-1	9.024048E-2	4.196014E-1	2.071075E-1	6.122971E-2	-6.258392E-2	-5.002747E-1	8.068848E-2
1.603950E+10	-8.449707E-1	9.603882E-2	4.151611E-1	1.983490E-1	6.031418E-2	-6.400681E-2	-4.993744E-1	8.493042E-2
1.626400E+10	-8.430176E-1	9.997559E-2	4.120331E-1	1.884613E-1	5.882263E-2	-6.459808E-2	-5.007935E-1	8.422852E-2
1.648850E+10	-8.426819E-1	1.032715E-1	4.097137E-1	1.805725E-1	5.752563E-2	-6.465530E-2	-5.019226E-1	8.999634E-2
1.671300E+10	-8.417969E-1	1.073914E-1	4.059296E-1	1.710205E-1	5.730438E-2	-6.608963E-2	-5.013733E-1	9.088135E-2
1.693750E+10	-8.413391E-1	1.114197E-1	4.014435E-1	1.623535E-1	5.575562E-2	-6.494904E-2	-5.014648E-1	9.326172E-2
1.716200E+10	-8.404846E-1	1.156006E-1	3.981171E-1	1.546326E-1	5.441284E-2	-6.661606E-2	-5.028381E-1	9.640503E-2
1.738650E+10	-8.391113E-1	1.208191E-1	3.964081E-1	1.476898E-1	5.387878E-2	-6.716537E-2	-5.011292E-1	1.015015E-1
1.761100E+10	-8.391418E-1	1.234741E-1	3.923492E-1	1.398926E-1	5.305862E-2	-6.721497E-2	-5.021667E-1	1.002197E-1
1.783550E+10	-8.359375E-1	1.264648E-1	3.858337E-1	1.305695E-1	5.063248E-2	-6.682968E-2	-5.044250E-1	1.062317E-1
1.806000E+10	-8.369751E-1	1.294250E-1	3.831177E-1	1.246948E-1	4.986191E-2	-6.769180E-2	-5.024414E-1	1.099548E-1
1.828450E+10	-8.333740E-1	1.354065E-1	3.810730E-1	1.169891E-1	5.001450E-2	-6.672287E-2	-4.997253E-1	1.092072E-1
1.850900E+10	-8.337402E-1	1.386719E-1	3.771515E-1	1.095734E-1	4.708481E-2	-6.828690E-2	-5.051880E-1	1.141357E-1
1.873350E+10	-8.345947E-1	1.426392E-1	3.743134E-1	1.034393E-1	4.636002E-2	-6.933212E-2	-4.999084E-1	1.191254E-1
1.895800E+10	-8.319397E-1	1.455078E-1	3.694611E-1	9.588623E-2	4.639435E-2	-6.890869E-2	-5.002747E-1	1.183167E-1
1.918250E+10	-8.305359E-1	1.505127E-1	3.656616E-1	9.162903E-2	4.317093E-2	-6.845474E-2	-5.036316E-1	1.218262E-1
1.940700E+10	-8.281250E-1	1.530762E-1	3.618317E-1	8.361816E-2	4.323578E-2	-6.951904E-2	-5.000000E-1	1.306610E-1
1.963150E+10	-8.279419E-1	1.567688E-1	3.600006E-1	7.864380E-2	4.227066E-2	-6.991959E-2	-4.987793E-1	1.284332E-1
1.985600E+10	-8.271790E-1	1.603699E-1	3.555145E-1	7.330322E-2	4.078674E-2	-6.922531E-2	-5.018921E-1	1.319275E-1
2.008050E+10	-8.258362E-1	1.627808E-1	3.516541E-1	6.645203E-2	3.904724E-2	-6.961060E-2	-5.022888E-1	1.389771E-1
2.030500E+10	-8.238525E-1	1.673584E-1	3.482971E-1	6.280518E-2	3.884506E-2	-6.966400E-2	-4.968567E-1	1.381226E-1
2.052950E+10	-8.229675E-1	1.697693E-1	3.456421E-1	5.674744E-2	3.664017E-2	-7.001114E-2	-5.004272E-1	1.400757E-1
2.075400E+10	-8.227234E-1	1.730042E-1	3.414764E-1	5.079651E-2	3.610229E-2	-7.001114E-2	-5.005798E-1	1.475525E-1
2.097850E+10	-8.218689E-1	1.766968E-1	3.374481E-1	4.760742E-2	3.456879E-2	-7.064438E-2	-4.970856E-1	1.482849E-1
2.120300E+10	-8.178406E-1	1.799316E-1	3.331909E-1	4.223633E-2	3.301239E-2	-7.006073E-2	-4.986420E-1	1.480560E-1
2.142750E+10	-8.186340E-1	1.823730E-1	3.327942E-1	3.753662E-2	3.356171E-2	-7.106018E-2	-4.993896E-1	1.546478E-1
2.165200E+10	-8.180237E-1	1.861572E-1	3.290405E-1	3.433228E-2	3.387833E-2	-7.109833E-2	-4.975128E-1	1.573029E-1
2.187650E+10	-8.161621E-1	1.882019E-1	3.266907E-1	2.917480E-2	3.125000E-2	-7.059097E-2	-4.985809E-1	1.580048E-1
2.210100E+10	-8.139954E-1	1.941833E-1	3.222046E-1	2.351379E-2	3.042221E-2	-7.037354E-2	-4.992523E-1	1.664124E-1
2.232550E+10	-8.136902E-1	1.975403E-1	3.182983E-1	1.947021E-2	2.845383E-2	-7.024765E-2	-4.954681E-1	1.725006E-1
2.255000E+10	-8.128052E-1	1.999207E-1	3.161926E-1	1.791382E-2	2.843094E-2	-7.014465E-2	-4.971161E-1	1.705322E-1
2.277450E+10	-8.110352E-1	2.043457E-1	3.123169E-1	1.097107E-2	2.572632E-2	-7.065964E-2	-4.936829E-1	1.789398E-1
2.299900E+10	-8.088379E-1	2.069397E-1	3.079071E-1	8.285522E-3	2.563858E-2	-7.108688E-2	-4.943390E-1	1.794586E-1
2.322350E+10	-8.081055E-1	2.084045E-1	3.054962E-1	2.639771E-3	2.243423E-2	-6.934738E-2	-4.954681E-1	1.782227E-1
2.344800E+10	-8.064880E-1	2.111206E-1	3.031311E-1	-5.187988E-4	2.066803E-2	-6.990814E-2	-4.951477E-1	1.869507E-1
2.367250E+10	-8.063660E-1	2.160950E-1	2.992859E-1	-4.989624E-3	2.175522E-2	-7.092285E-2	-4.903870E-1	1.907501E-1
2.389700E+10	-8.031921E-1	2.173767E-1	2.946777E-1	-6.515503E-3	2.002335E-2	-7.079315E-2	-4.926605E-1	1.922913E-1
2.412150E+10	-8.023682E-1	2.212830E-1	2.925720E-1	-1.019287E-2	1.821136E-2	-6.906128E-2	-4.882355E-1	1.989594E-1
2.434600E+10	-8.005676E-1	2.248230E-1	2.911377E-1	-1.329041E-2	1.884079E-2	-6.903076E-2	-4.850311E-1	1.979218E-1
2.457050E+10	-7.976379E-1	2.272339E-1	2.890778E-1	-1.652527E-2	1.496506E-2	-6.798172E-2	-4.875641E-1	2.021179E-1
2.479500E+10	-7.985229E-1	2.331848E-1	2.831116E-1	-1.716614E-2	1.428223E-2	-6.989288E-2	-4.819794E-1	2.086639E-1
2.501950E+10	-7.962952E-1	2.326965E-1	2.805634E-1	-2.243042E-2	1.466370E-2	-6.793976E-2	-4.785919E-1	2.087250E-1
2.524400E+10	-7.937317E-1	2.359009E-1	2.785339E-1	-2.391052E-2	1.120377E-2	-6.744385E-2	-4.802704E-1	2.119751E-1
2.546850E+10	-7.914124E-1	2.412415E-1	2.753296E-1	-2.833557E-2	1.159286E-2	-6.623459E-2	-4.757385E-1	2.176208E-1
2.569300E+10	-7.915649E-1	2.423706E-1	2.710419E-1	-2.804565E-2	1.113129E-2	-6.703949E-2	-4.760590E-1	2.145996E-1
2.591750E+10	-7.889709E-1	2.450562E-1	2.710571E-1	-3.239441E-2	1.029968E-2	-6.340790E-2	-4.762726E-1	2.177429E-1
2.614200E+10	-7.870789E-1	2.481689E-1	2.676392E-1	-3.309631E-2	9.799957E-3	-6.620026E-2	-4.774933E-1	2.261505E-1
2.636650E+10	-7.857666E-1	2.496338E-1	2.655334E-1	-3.878784E-2	8.831024E-3	-6.526184E-2	-4.764252E-1	2.293396E-1
2.659100E+10	-7.847900E-1	2.531128E-1	2.601318E-1	-3.912354E-2	7.316589E-3	-6.498718E-2	-4.710693E-1	2.329254E-1
2.681550E+10	-7.827454E-1	2.530212E-1	2.584076E-1	-4.197693E-2	5.882263E-3	-6.484985E-2	-4.734039E-1	2.334442E-1
2.704000E+10	-7.808838E-1	2.593384E-1	2.558289E-1	-4.287720E-2	4.848480E-3	-6.454468E-2	-4.692230E-1	2.441559E-1
2.726450E+10	-7.785645E-1	2.609253E-1	2.533264E-1	-4.742432E-2	2.162933E-3	-6.418610E-2	-4.617462E-1	2.458801E-1
2.748900E+10	-7.764893E-1	2.609863E-1	2.542114E-1	-4.660034E-2	2.023697E-3	-6.180191E-2	-4.627838E-1	2.454834E-1
2.771350E+10	-7.759094E-1	2.655029E-1	2.486420E-1	-5.377197E-2	3.004074E-3	-6.155205E-2	-4.610291E-1	2.469025E-1
2.793800E+10	-7.744751E-1	2.652283E-1	2.460709E-1	-5.196381E-2	-3.019333E-3	-6.241608E-2	-4.583893E-1	2.513123E-1
2.816250E+10	-7.742310E-1	2.689514E-1	2.475204E-1	-5.568695E-2	-1.590729E-3	-6.282043E-2	-4.593048E-1	2.539825E-1
2.838700E+10	-7.704468E-1	2.721252E-1	2.437363E-1	-5.756378E-2	-1.781464E-3	-5.872917E-2	-4.544373E-1	2.622681E-1
2.861150E+10	-7.713013E-1	2.745972E-1	2.403870E-1	-5.918121E-2	-1.934052E-3	-5.953979E-2	-4.506683E-1	2.633667E-1
2.883600E+10	-7.661133E-1	2.773437E-1	2.350998E-1	-6.097412E-2	-5.050659E-3	-5.687904E-2	-4.484406E-1	2.639465E-1
2.906050E+10	-7.676086E-1	2.805786E-1	2.338257E-1	-6.079865E-2	-2.323151E-3	-5.427361E-2	-4.481964E-1	2.675934E-1
2.928500E+10	-7.650146E-1	2.836914E-1	2.353134E-1	-6.589508E-2	-3.982544E-3	-5.571175E-2	-4.452972E-1	2.700958E-1
2.950950E+10	-7.638855E-1	2.854919E-1	2.342606E-1	-6.838989E-2	-4.133224E-3	-5.622292E-2	-4.455566E-1	2.746735E-1
2.973400E+10	-7.616272E-1	2.879639E-1	2.303696E-1	-6.740570E-2	-5.201340E-3	-5.169868E-2	-4.476929E-1	2.768707E-1
2.995850E+10	-7.566528E-1	2.919922E-1	2.282104E-1	-6.833649E-2	-6.332397E-3	-5.356026E-2	-4.405975E-1	2.789459E-1
3.018300E+10	-7.554321E-1	2.911377E-1	2.279587E-1	-7.483673E-2	-7.902145E-3	-5.420303E-2	-4.405975E-1	2.905731E-1
3.040750E+10	-7.555237E-1	2.942810E-1	2.262039E-1	-7.489014E-2	-8.312225E-3	-5.500984E-2	-4.364777E-1	2.877197E-1
3.063200E+10	-7.531738E-1	2.956238E-1	2.235413E-1	-7.760620E-2	-6.544113E-3	-5.367470E-2	-4.324799E-1	2.997894E-1
3.085650E+10	-7.492676E-1	2.995300E-1	2.212524E-1	-8.022308E-2	-9.326935E-3	-4.994202E-2	-4.312592E-1	3.011169E-1
3.108100E+10	-7.510681E-1	3.013611E-1	2.192078E-1	-7.974243E-2	-1.171303E-2	-4.755020E-2	-4.266052E-1	3.056030E-1
3.130550E+10	-7.473755E-1	3.028564E-1	2.189789E-1	-8.543396E-2	-1.123238E-2	-5.025291E-2	-4.173279E-1	3.082581E-1
3.153000E+10	-7.456055E-1	3.020325E-1	2.159576E-1	-8.367157E-2	-1.226044E-2	-4.978561E-2	-4.197235E-1	3.044739E-1
3.175450E+10	-7.449646E-1	3.065796E-1	2.128830E-1	-8.519745E-2	-1.342964E-2	-4.286385E-2	-4.160461E-1	3.165283E-1
3.197900E+10	-7.440796E-1	3.082886E-1	2.137451E-1	-9.061432E-2	-1.565170E-2	-4.570007E-2	-4.088135E-1	3.146515E-1
3.220350E+10	-7.417297E-1	3.147583E-1	2.091522E-1	-9.146118E-2	-1.415825E-2	-4.328918E-2	-4.149780E-1	3.162537E-1
3.242800E+10	-7.417603E-1	3.143616E-1	2.073212E-1	-8.978271E-2	-1.020813E-2	-4.293442E-2	-4.057617E-1	3.196259E-1
3.265250E+10	-7.461548E-1	3.161011E-1	2.086029E-1	-9.335327E-2	-1.333427E-2	-4.176140E-2	-3.977051E-1	3.224487E-1
3.287700E+10	-7.392273E-1	3.200378E-1	2.048874E-1	-9.302521E-2	-1.487732E-2	-3.814316E-2	-4.017792E-1	3.249664E-1
3.310150E+10	-7.396240E-1	3.199768E-1	2.038116E-1	-9.844971E-2	-1.410866E-2	-3.633499E-2	-3.911285E-1	3.265839E-1
3.332600E+10	-7.319641E-1	3.237305E-1	2.042084E-1	-9.966278E-2	-1.305580E-2	-3.792000E-2	-3.856812E-1	3.306427E-1
3.355050E+10	-7.296143E-1	3.247986E-1	1.991425E-1	-9.878540E-2	-1.172829E-2	-3.942490E-2	-3.899078E-1	3.314514E-1
3.377500E+10	-7.313232E-1	3.282776E-1	1.946793E-1	-1.011429E-1	-1.271820E-2	-3.598022E-2	-3.779144E-1	3.320465E-1
3.399950E+10	-7.305908E-1	3.271790E-1	1.933670E-1	-1.032104E-1	-1.257896E-2	-3.498268E-2	-3.885651E-1	3.339691E-1
3.422400E+10	-7.302551E-1	3.316956E-1	1.956635E-1	-1.049500E-1	-1.298523E-2	-3.534698E-2	-3.787842E-1	3.462677E-1
3.444850E+10	-7.276306E-1	3.346863E-1	1.904221E-1	-1.157608E-1	-1.458359E-2	-3.570557E-2	-3.719635E-1	3.468628E-1
3.467300E+10	-7.254639E-1	3.337402E-1	1.970444E-1	-1.102066E-1	-1.707935E-2	-2.963161E-2	-3.718872E-1	3.500214E-1
3.489750E+10	-7.221069E-1	3.369446E-1	1.940918E-1	-1.141357E-1	-1.498032E-2	-2.959728E-2	-3.681946E-1	3.557892E-1
3.512200E+10	-7.239380E-1	3.373718E-1	1.902237E-1	-1.142044E-1	-1.107597E-2	-3.425980E-2	-3.560944E-1	3.527985E-1
3.534650E+10	-7.251282E-1	3.417358E-1	1.850281E-1	-1.161499E-1	-1.461792E-2	-3.173828E-2	-3.560181E-1	3.557739E-1
3.557100E+10	-7.206116E-1	3.407898E-1	1.835251E-1	-1.218796E-1	-1.192951E-2	-2.934647E-2	-3.470001E-1	3.660431E-1
3.579550E+10	-7.190857E-1	3.457336E-1	1.822510E-1	-1.149902E-1	-1.361465E-2	-2.956581E-2	-3.475037E-1	3.644714E-1
3.602000E+10	-7.161560E-1	3.445435E-1	1.817169E-1	-1.218491E-1	-1.426411E-2	-2.842140E-2	-3.448792E-1	3.643494E-1
3.624450E+10	-7.136841E-1	3.462219E-1	1.836014E-1	-1.259155E-1	-1.340961E-2	-2.892494E-2	-3.428497E-1	3.663330E-1
3.646900E+10	-7.139587E-1	3.515015E-1	1.770706E-1	-1.308212E-1	-1.472950E-2	-3.007793E-2	-3.290863E-1	3.717957E-1
3.669350E+10	-7.114563E-1	3.489380E-1	1.784515E-1	-1.321411E-1	-1.717949E-2	-2.532101E-2	-3.234100E-1	3.719482E-1
3.691800E+10	-7.105103E-1	3.536682E-1	1.737366E-1	-1.311874E-1	-1.105976E-2	-2.387238E-2	-3.192749E-1	3.696289E-1
3.714250E+10	-7.081299E-1	3.513794E-1	1.748581E-1	-1.330948E-1	-1.225471E-2	-2.100849E-2	-3.160858E-1	3.819580E-1
3.736700E+10	-7.028503E-1	3.561707E-1	1.680832E-1	-1.337128E-1	-1.613712E-2	-2.205372E-2	-3.095551E-1	3.704071E-1
3.759150E+10	-7.003174E-1	3.527527E-1	1.671982E-1	-1.366272E-1	-1.263237E-2	-2.684212E-2	-3.078003E-1	3.825378E-1
3.781600E+10	-7.000732E-1	3.560486E-1	1.635513E-1	-1.329117E-1	-1.157284E-2	-2.464485E-2	-2.980042E-1	3.835754E-1
3.804050E+10	-6.991882E-1	3.585815E-1	1.664276E-1	-1.376190E-1	-2.119064E-2	-1.890373E-2	-2.968292E-1	3.861237E-1
3.826500E+10	-6.971436E-1	3.654480E-1	1.635513E-1	-1.404953E-1	-1.018524E-2	-2.134609E-2	-2.804718E-1	3.915863E-1
3.848950E+10	-6.973572E-1	3.648376E-1	1.596146E-1	-1.438446E-1	-1.421165E-2	-2.035713E-2	-2.742920E-1	3.842163E-1
3.871400E+10	-6.946716E-1	3.627319E-1	1.581497E-1	-1.476746E-1	-1.538944E-2	-1.911545E-2	-2.751160E-1	3.853302E-1
3.893850E+10	-7.008362E-1	3.675232E-1	1.581573E-1	-1.457748E-1	-8.906364E-3	-1.975441E-2	-2.654419E-1	3.890839E-1
3.916300E+10	-6.978149E-1	3.699036E-1	1.465607E-1	-1.493301E-1	-1.208448E-2	-1.348448E-2	-2.628784E-1	3.837433E-1
3.938750E+10	-6.980286E-1	3.754883E-1	1.516342E-1	-1.553497E-1	-1.009941E-2	-1.425409E-2	-2.707214E-1	3.915863E-1
