!Date: 10/28/2005, 12:46 PM

!Vgs = -7.000000E+0
!Vds = 1.000000E+1
!Ig = -1.074700E-4
!Id = 1.901500E-3

# HZ S RI R 50
1.000000E+8	9.904785E-1	-3.781128E-2	-3.757858E-2	1.005363E-2	2.224922E-3	9.361267E-3	9.807434E-1	-9.826660E-3
3.245000E+8	9.784241E-1	-1.047974E-1	-3.273201E-2	3.660965E-2	5.846024E-3	3.272247E-2	9.602051E-1	-8.734131E-2
5.490000E+8	9.636536E-1	-1.699524E-1	-2.584267E-2	6.045723E-2	1.208687E-2	5.429268E-2	9.542847E-1	-1.412048E-1
7.735000E+8	9.461365E-1	-2.345886E-1	-1.565552E-2	8.270264E-2	2.149963E-2	7.373047E-2	9.386902E-1	-1.962585E-1
9.980000E+8	9.251099E-1	-2.936707E-1	-3.601074E-3	1.028404E-1	3.171921E-2	9.122467E-2	9.210205E-1	-2.445984E-1
1.222500E+9	9.002686E-1	-3.522034E-1	9.910583E-3	1.212654E-1	4.384995E-2	1.071129E-1	9.016418E-1	-2.950745E-1
1.447000E+9	8.717041E-1	-4.075623E-1	2.490997E-2	1.374435E-1	5.666351E-2	1.220093E-1	8.793030E-1	-3.411560E-1
1.671500E+9	8.401489E-1	-4.600525E-1	4.018402E-2	1.534271E-1	7.096863E-2	1.356583E-1	8.538208E-1	-3.844910E-1
1.896000E+9	8.065186E-1	-5.079651E-1	5.933380E-2	1.677628E-1	8.805847E-2	1.480789E-1	8.307495E-1	-4.244080E-1
2.120500E+9	7.717590E-1	-5.531006E-1	8.000946E-2	1.781769E-1	1.061325E-1	1.577377E-1	8.052368E-1	-4.657288E-1
2.345000E+9	7.323303E-1	-5.967712E-1	1.009216E-1	1.864548E-1	1.251907E-1	1.638718E-1	7.762756E-1	-5.046387E-1
2.569500E+9	6.935425E-1	-6.336670E-1	1.207275E-1	1.913528E-1	1.435471E-1	1.686859E-1	7.481689E-1	-5.402222E-1
2.794000E+9	6.539612E-1	-6.696472E-1	1.407623E-1	1.950150E-1	1.611404E-1	1.710052E-1	7.176819E-1	-5.730286E-1
3.018500E+9	6.127014E-1	-7.011414E-1	1.606598E-1	1.969910E-1	1.795425E-1	1.720276E-1	6.853333E-1	-6.054382E-1
3.243000E+9	5.719299E-1	-7.294922E-1	1.802368E-1	1.962128E-1	1.967316E-1	1.717224E-1	6.522827E-1	-6.350403E-1
3.467500E+9	5.305786E-1	-7.556458E-1	1.991959E-1	1.950150E-1	2.138290E-1	1.697083E-1	6.192017E-1	-6.609192E-1
3.692000E+9	4.891052E-1	-7.782288E-1	2.171631E-1	1.914215E-1	2.304993E-1	1.667404E-1	5.853271E-1	-6.876526E-1
3.916500E+9	4.468079E-1	-7.981567E-1	2.350693E-1	1.862717E-1	2.472229E-1	1.613235E-1	5.502625E-1	-7.096863E-1
4.141000E+9	4.071655E-1	-8.156128E-1	2.521667E-1	1.808014E-1	2.612610E-1	1.556396E-1	5.178833E-1	-7.289429E-1
4.365500E+9	3.687439E-1	-8.316650E-1	2.682953E-1	1.729584E-1	2.765656E-1	1.488190E-1	4.849854E-1	-7.485046E-1
4.590000E+9	3.274536E-1	-8.454590E-1	2.834320E-1	1.647949E-1	2.898407E-1	1.404419E-1	4.492187E-1	-7.657776E-1
4.814500E+9	2.888489E-1	-8.562622E-1	2.980042E-1	1.552277E-1	3.028870E-1	1.313629E-1	4.167786E-1	-7.800598E-1
5.039000E+9	2.510376E-1	-8.652344E-1	3.113861E-1	1.447296E-1	3.148041E-1	1.214752E-1	3.834839E-1	-7.959595E-1
5.263500E+9	2.130127E-1	-8.712463E-1	3.238068E-1	1.336975E-1	3.259583E-1	1.106262E-1	3.492737E-1	-8.076477E-1
5.488000E+9	1.780090E-1	-8.777161E-1	3.341217E-1	1.220856E-1	3.357849E-1	9.994507E-2	3.184509E-1	-8.179932E-1
5.712500E+9	1.413269E-1	-8.818359E-1	3.443298E-1	1.093292E-1	3.450623E-1	8.798218E-2	2.860718E-1	-8.287659E-1
5.937000E+9	1.080322E-1	-8.829346E-1	3.536987E-1	9.645081E-2	3.527069E-1	7.556152E-2	2.530823E-1	-8.375244E-1
6.161500E+9	7.571411E-2	-8.857117E-1	3.612671E-1	8.332825E-2	3.592834E-1	6.318665E-2	2.222595E-1	-8.447876E-1
6.386000E+9	4.217529E-2	-8.863831E-1	3.681641E-1	7.022095E-2	3.656769E-1	5.046082E-2	1.899414E-1	-8.510437E-1
6.610500E+9	1.306152E-2	-8.862610E-1	3.740692E-1	5.720520E-2	3.705750E-1	3.857422E-2	1.574707E-1	-8.562012E-1
6.835000E+9	-1.831055E-2	-8.851013E-1	3.788147E-1	4.429626E-2	3.749695E-1	2.619934E-2	1.273804E-1	-8.588562E-1
7.059500E+9	-4.614258E-2	-8.815308E-1	3.824921E-1	3.189087E-2	3.777466E-1	1.463318E-2	9.954834E-2	-8.610535E-1
7.284000E+9	-7.501221E-2	-8.789673E-1	3.856201E-1	1.773071E-2	3.806000E-1	1.449585E-3	6.802368E-2	-8.631592E-1
7.508500E+9	-1.027832E-1	-8.747559E-1	3.885498E-1	4.989624E-3	3.826294E-1	-1.123047E-2	3.942871E-2	-8.618469E-1
7.733000E+9	-1.285706E-1	-8.697815E-1	3.896027E-1	-7.751465E-3	3.830872E-1	-2.270508E-2	1.361084E-2	-8.627319E-1
7.957500E+9	-1.542358E-1	-8.651123E-1	3.910217E-1	-1.983643E-2	3.839111E-1	-3.512573E-2	-1.684570E-2	-8.626709E-1
8.182000E+9	-1.786804E-1	-8.601074E-1	3.918457E-1	-3.167725E-2	3.849640E-1	-4.640198E-2	-4.226685E-2	-8.612061E-1
8.406500E+9	-2.024841E-1	-8.542480E-1	3.903198E-1	-4.454041E-2	3.836823E-1	-5.769348E-2	-7.028198E-2	-8.576050E-1
8.631000E+9	-2.264709E-1	-8.482971E-1	3.906860E-1	-5.587769E-2	3.826599E-1	-6.896973E-2	-9.704590E-2	-8.555603E-1
8.855500E+9	-2.470703E-1	-8.414001E-1	3.894806E-1	-6.767273E-2	3.812256E-1	-8.036804E-2	-1.233826E-1	-8.510437E-1
9.080001E+9	-2.684631E-1	-8.356628E-1	3.873138E-1	-7.910156E-2	3.797150E-1	-9.056091E-2	-1.468811E-1	-8.452759E-1
9.304500E+9	-2.911682E-1	-8.265076E-1	3.841553E-1	-9.091187E-2	3.762512E-1	-1.015320E-1	-1.720886E-1	-8.409424E-1
9.529000E+9	-3.097229E-1	-8.204651E-1	3.830261E-1	-1.006165E-1	3.740082E-1	-1.111145E-1	-1.957397E-1	-8.342285E-1
9.753500E+9	-3.299255E-1	-8.117371E-1	3.797607E-1	-1.111450E-1	3.714905E-1	-1.207428E-1	-2.174988E-1	-8.270569E-1
9.978000E+9	-3.482361E-1	-8.049011E-1	3.743744E-1	-1.210022E-1	3.673401E-1	-1.306763E-1	-2.395325E-1	-8.225708E-1
1.020250E+10	-3.674622E-1	-7.976074E-1	3.722076E-1	-1.310577E-1	3.645325E-1	-1.400299E-1	-2.631836E-1	-8.132935E-1
1.042700E+10	-3.855896E-1	-7.876587E-1	3.686523E-1	-1.405029E-1	3.595276E-1	-1.485443E-1	-2.839355E-1	-8.070984E-1
1.065150E+10	-4.018860E-1	-7.799988E-1	3.632202E-1	-1.492767E-1	3.553162E-1	-1.566467E-1	-3.034363E-1	-7.988892E-1
1.087600E+10	-4.187012E-1	-7.719421E-1	3.586426E-1	-1.578674E-1	3.506927E-1	-1.651459E-1	-3.249207E-1	-7.902222E-1
1.110050E+10	-4.349976E-1	-7.625427E-1	3.538971E-1	-1.671448E-1	3.460846E-1	-1.734161E-1	-3.460083E-1	-7.822571E-1
1.132500E+10	-4.505920E-1	-7.541809E-1	3.488007E-1	-1.739960E-1	3.398590E-1	-1.804199E-1	-3.635864E-1	-7.743530E-1
1.154950E+10	-4.659729E-1	-7.450256E-1	3.437653E-1	-1.809845E-1	3.351135E-1	-1.871338E-1	-3.856201E-1	-7.634583E-1
1.177400E+10	-4.797668E-1	-7.363281E-1	3.391266E-1	-1.891632E-1	3.305969E-1	-1.939697E-1	-4.025269E-1	-7.532349E-1
1.199850E+10	-4.953308E-1	-7.273865E-1	3.336945E-1	-1.966400E-1	3.250580E-1	-2.020874E-1	-4.199524E-1	-7.454224E-1
1.222300E+10	-5.074463E-1	-7.181091E-1	3.280182E-1	-2.029114E-1	3.207855E-1	-2.068481E-1	-4.386292E-1	-7.345886E-1
1.244750E+10	-5.216980E-1	-7.094116E-1	3.209534E-1	-2.091827E-1	3.136902E-1	-2.136230E-1	-4.557495E-1	-7.232056E-1
1.267200E+10	-5.343628E-1	-7.012329E-1	3.160248E-1	-2.162781E-1	3.089142E-1	-2.194824E-1	-4.704285E-1	-7.144775E-1
1.289650E+10	-5.453186E-1	-6.920776E-1	3.101654E-1	-2.210846E-1	3.025208E-1	-2.247314E-1	-4.890137E-1	-7.028809E-1
1.312100E+10	-5.591431E-1	-6.839294E-1	3.040314E-1	-2.276154E-1	2.966309E-1	-2.308960E-1	-5.038147E-1	-6.903687E-1
1.334550E+10	-5.708008E-1	-6.744995E-1	2.982788E-1	-2.321625E-1	2.906647E-1	-2.359467E-1	-5.157166E-1	-6.816101E-1
1.357000E+10	-5.835266E-1	-6.636963E-1	2.925110E-1	-2.379913E-1	2.835846E-1	-2.410736E-1	-5.332336E-1	-6.721497E-1
1.379450E+10	-5.917664E-1	-6.569824E-1	2.871399E-1	-2.433319E-1	2.793884E-1	-2.442322E-1	-5.478821E-1	-6.571350E-1
1.401900E+10	-6.024475E-1	-6.477051E-1	2.813110E-1	-2.474976E-1	2.731018E-1	-2.500153E-1	-5.588379E-1	-6.472778E-1
1.424350E+10	-6.143188E-1	-6.389771E-1	2.739410E-1	-2.517853E-1	2.669220E-1	-2.532806E-1	-5.750122E-1	-6.347046E-1
1.446800E+10	-6.231384E-1	-6.298828E-1	2.682800E-1	-2.559509E-1	2.617187E-1	-2.586670E-1	-5.867615E-1	-6.208496E-1
1.469250E+10	-6.329346E-1	-6.197510E-1	2.624207E-1	-2.600098E-1	2.550964E-1	-2.615509E-1	-5.964966E-1	-6.114197E-1
1.491700E+10	-6.423950E-1	-6.127625E-1	2.549438E-1	-2.648773E-1	2.494049E-1	-2.655487E-1	-6.132507E-1	-6.000061E-1
1.514150E+10	-6.519165E-1	-6.027832E-1	2.489319E-1	-2.678223E-1	2.419891E-1	-2.693329E-1	-6.247559E-1	-5.846252E-1
1.536600E+10	-6.619873E-1	-5.931091E-1	2.429504E-1	-2.716675E-1	2.366486E-1	-2.724762E-1	-6.330261E-1	-5.730286E-1
1.559050E+10	-6.702881E-1	-5.850830E-1	2.365723E-1	-2.732391E-1	2.301331E-1	-2.741547E-1	-6.462097E-1	-5.625916E-1
1.581500E+10	-6.780396E-1	-5.764465E-1	2.298737E-1	-2.768097E-1	2.242432E-1	-2.785492E-1	-6.582336E-1	-5.482788E-1
1.603950E+10	-6.886902E-1	-5.676270E-1	2.235870E-1	-2.799835E-1	2.201233E-1	-2.811127E-1	-6.661987E-1	-5.368347E-1
1.626400E+10	-6.949158E-1	-5.594482E-1	2.177582E-1	-2.826538E-1	2.122498E-1	-2.827911E-1	-6.791992E-1	-5.246582E-1
1.648850E+10	-7.035828E-1	-5.491943E-1	2.130280E-1	-2.845917E-1	2.055511E-1	-2.843170E-1	-6.882935E-1	-5.093689E-1
1.671300E+10	-7.115479E-1	-5.413513E-1	2.053528E-1	-2.867432E-1	2.011108E-1	-2.877655E-1	-6.953735E-1	-4.971008E-1
1.693750E+10	-7.178345E-1	-5.327454E-1	1.992493E-1	-2.892609E-1	1.939392E-1	-2.891846E-1	-7.077332E-1	-4.862366E-1
1.716200E+10	-7.257690E-1	-5.232544E-1	1.931000E-1	-2.914734E-1	1.882324E-1	-2.904968E-1	-7.135620E-1	-4.700623E-1
1.738650E+10	-7.327881E-1	-5.154419E-1	1.878662E-1	-2.932434E-1	1.827545E-1	-2.923431E-1	-7.214966E-1	-4.580994E-1
1.761100E+10	-7.387390E-1	-5.076294E-1	1.822357E-1	-2.945099E-1	1.773071E-1	-2.937469E-1	-7.305603E-1	-4.490051E-1
1.783550E+10	-7.482910E-1	-4.980774E-1	1.763763E-1	-2.958527E-1	1.707916E-1	-2.945251E-1	-7.392883E-1	-4.314880E-1
1.806000E+10	-7.527161E-1	-4.899902E-1	1.716309E-1	-2.965088E-1	1.669464E-1	-2.979126E-1	-7.453003E-1	-4.193115E-1
1.828450E+10	-7.593994E-1	-4.807129E-1	1.652222E-1	-2.984467E-1	1.615448E-1	-2.985535E-1	-7.529907E-1	-4.090271E-1
1.850900E+10	-7.648621E-1	-4.732056E-1	1.604309E-1	-2.988434E-1	1.551056E-1	-2.980499E-1	-7.598572E-1	-3.953247E-1
1.873350E+10	-7.724609E-1	-4.644165E-1	1.538696E-1	-3.001862E-1	1.496124E-1	-3.000336E-1	-7.646484E-1	-3.790894E-1
1.895800E+10	-7.770996E-1	-4.551392E-1	1.470184E-1	-3.005066E-1	1.445465E-1	-3.022156E-1	-7.736816E-1	-3.701477E-1
1.918250E+10	-7.830505E-1	-4.481506E-1	1.438293E-1	-3.028107E-1	1.403198E-1	-3.010864E-1	-7.792053E-1	-3.568726E-1
1.940700E+10	-7.879333E-1	-4.390259E-1	1.381683E-1	-3.029633E-1	1.333923E-1	-3.011780E-1	-7.832947E-1	-3.398132E-1
1.963150E+10	-7.949219E-1	-4.300232E-1	1.321411E-1	-3.018341E-1	1.293793E-1	-3.018036E-1	-7.868042E-1	-3.296509E-1
1.985600E+10	-7.997437E-1	-4.214783E-1	1.265259E-1	-3.022461E-1	1.224213E-1	-3.026733E-1	-7.955017E-1	-3.162231E-1
2.008050E+10	-8.041992E-1	-4.138794E-1	1.211243E-1	-3.046875E-1	1.181183E-1	-3.036346E-1	-8.005371E-1	-2.999878E-1
2.030500E+10	-8.078613E-1	-4.053955E-1	1.171722E-1	-3.036194E-1	1.145020E-1	-3.017273E-1	-8.007202E-1	-2.890930E-1
2.052950E+10	-8.138733E-1	-3.988342E-1	1.112976E-1	-3.050385E-1	1.087494E-1	-3.031769E-1	-8.079529E-1	-2.779541E-1
2.075400E+10	-8.186340E-1	-3.910522E-1	1.064606E-1	-3.043213E-1	1.039429E-1	-3.025970E-1	-8.112793E-1	-2.623291E-1
2.097850E+10	-8.236389E-1	-3.819885E-1	1.013794E-1	-3.035431E-1	9.829712E-2	-3.032837E-1	-8.123474E-1	-2.520142E-1
2.120300E+10	-8.285522E-1	-3.742371E-1	9.603882E-2	-3.029938E-1	9.382629E-2	-3.024597E-1	-8.188171E-1	-2.424011E-1
2.142750E+10	-8.323975E-1	-3.659668E-1	9.111023E-2	-3.035431E-1	8.872986E-2	-3.018494E-1	-8.239136E-1	-2.267456E-1
2.165200E+10	-8.370667E-1	-3.561707E-1	8.699036E-2	-3.013611E-1	8.352661E-2	-3.028412E-1	-8.271484E-1	-2.138977E-1
2.187650E+10	-8.402405E-1	-3.471985E-1	8.309937E-2	-3.026733E-1	7.897949E-2	-3.007965E-1	-8.284607E-1	-2.023926E-1
2.210100E+10	-8.466492E-1	-3.403015E-1	7.818604E-2	-3.015900E-1	7.418823E-2	-3.018646E-1	-8.355103E-1	-1.865845E-1
2.232550E+10	-8.476562E-1	-3.348083E-1	7.321167E-2	-3.003540E-1	7.244873E-2	-2.995911E-1	-8.348083E-1	-1.740723E-1
2.255000E+10	-8.520203E-1	-3.238525E-1	6.866455E-2	-3.016663E-1	6.729126E-2	-3.020935E-1	-8.383484E-1	-1.626587E-1
2.277450E+10	-8.543091E-1	-3.135071E-1	6.445312E-2	-3.019562E-1	6.169128E-2	-3.010406E-1	-8.397217E-1	-1.489258E-1
2.299900E+10	-8.592834E-1	-3.063049E-1	6.031799E-2	-3.007965E-1	5.740356E-2	-2.994995E-1	-8.392944E-1	-1.365662E-1
2.322350E+10	-8.605652E-1	-2.977905E-1	5.358887E-2	-3.023224E-1	5.094910E-2	-3.008118E-1	-8.465271E-1	-1.223145E-1
2.344800E+10	-8.629456E-1	-2.910156E-1	5.116272E-2	-2.988586E-1	4.666138E-2	-2.986755E-1	-8.470154E-1	-1.086121E-1
2.367250E+10	-8.669128E-1	-2.819214E-1	4.570007E-2	-2.991333E-1	4.394531E-2	-2.972412E-1	-8.457642E-1	-9.466553E-2
2.389700E+10	-8.663635E-1	-2.753906E-1	4.107666E-2	-2.987976E-1	3.813171E-2	-2.968750E-1	-8.461609E-1	-8.444214E-2
2.412150E+10	-8.707581E-1	-2.713013E-1	3.747559E-2	-2.968445E-1	3.536987E-2	-2.946625E-1	-8.470154E-1	-6.741333E-2
2.434600E+10	-8.714294E-1	-2.616882E-1	3.497314E-2	-2.966156E-1	3.245544E-2	-2.958527E-1	-8.455505E-1	-5.603027E-2
2.457050E+10	-8.777161E-1	-2.554321E-1	3.045654E-2	-2.944336E-1	2.818298E-2	-2.932892E-1	-8.471375E-1	-4.498291E-2
2.479500E+10	-8.815613E-1	-2.487183E-1	2.694702E-2	-2.953186E-1	2.343750E-2	-2.942657E-1	-8.453674E-1	-2.819824E-2
2.501950E+10	-8.805847E-1	-2.423706E-1	2.023315E-2	-2.958527E-1	2.011108E-2	-2.932434E-1	-8.428955E-1	-1.818848E-2
2.524400E+10	-8.858337E-1	-2.341614E-1	1.788330E-2	-2.904816E-1	1.475525E-2	-2.899628E-1	-8.445740E-1	-7.507324E-3
2.546850E+10	-8.883362E-1	-2.247925E-1	1.480103E-2	-2.916412E-1	1.071167E-2	-2.878723E-1	-8.410645E-1	7.232666E-3
2.569300E+10	-8.905334E-1	-2.198181E-1	9.613037E-3	-2.906799E-1	8.148193E-3	-2.880859E-1	-8.411865E-1	1.303101E-2
2.591750E+10	-8.936157E-1	-2.098694E-1	7.553101E-3	-2.880402E-1	5.767822E-3	-2.863464E-1	-8.404846E-1	2.621460E-2
2.614200E+10	-8.951721E-1	-2.023621E-1	4.791260E-3	-2.853394E-1	3.387451E-3	-2.857056E-1	-8.394775E-1	4.333496E-2
2.636650E+10	-8.977966E-1	-1.966248E-1	2.899170E-4	-2.841644E-1	-2.487183E-3	-2.839966E-1	-8.403320E-1	5.667114E-2
2.659100E+10	-8.974609E-1	-1.888733E-1	-3.463745E-3	-2.861023E-1	-4.623413E-3	-2.841034E-1	-8.341675E-1	6.649780E-2
2.681550E+10	-9.012756E-1	-1.833191E-1	-9.063721E-3	-2.838440E-1	-1.005554E-2	-2.838745E-1	-8.345337E-1	7.604980E-2
2.704000E+10	-9.020081E-1	-1.756287E-1	-9.811401E-3	-2.803802E-1	-1.310730E-2	-2.804108E-1	-8.369141E-1	9.661865E-2
2.726450E+10	-9.043884E-1	-1.667175E-1	-1.708984E-2	-2.819061E-1	-1.690674E-2	-2.823334E-1	-8.244934E-1	1.054382E-1
2.748900E+10	-9.057922E-1	-1.597900E-1	-1.914978E-2	-2.789612E-1	-2.130127E-2	-2.779846E-1	-8.229675E-1	1.152344E-1
2.771350E+10	-9.058838E-1	-1.520386E-1	-2.195740E-2	-2.798615E-1	-2.279663E-2	-2.775879E-1	-8.239746E-1	1.257324E-1
2.793800E+10	-9.095764E-1	-1.471558E-1	-2.465820E-2	-2.745361E-1	-2.885437E-2	-2.808228E-1	-8.232117E-1	1.351013E-1
2.816250E+10	-9.114380E-1	-1.362305E-1	-2.812195E-2	-2.758942E-1	-2.955627E-2	-2.755280E-1	-8.184204E-1	1.461182E-1
2.838700E+10	-9.118347E-1	-1.312561E-1	-3.147888E-2	-2.763977E-1	-3.450012E-2	-2.732697E-1	-8.143311E-1	1.623230E-1
2.861150E+10	-9.156189E-1	-1.242371E-1	-3.405762E-2	-2.747345E-1	-3.726196E-2	-2.731781E-1	-8.067017E-1	1.746521E-1
2.883600E+10	-9.161987E-1	-1.150513E-1	-3.883362E-2	-2.696228E-1	-4.003906E-2	-2.721252E-1	-8.031311E-1	1.801758E-1
2.906050E+10	-9.156189E-1	-1.104126E-1	-4.135132E-2	-2.682648E-1	-4.100037E-2	-2.681885E-1	-7.986145E-1	1.947327E-1
2.928500E+10	-9.160767E-1	-1.036682E-1	-4.400635E-2	-2.684326E-1	-4.542542E-2	-2.670135E-1	-7.958984E-1	2.030334E-1
2.950950E+10	-9.190979E-1	-9.573364E-2	-4.626465E-2	-2.647552E-1	-4.734802E-2	-2.673187E-1	-7.925720E-1	2.109070E-1
2.973400E+10	-9.193420E-1	-9.152222E-2	-5.314636E-2	-2.671661E-1	-5.044556E-2	-2.640839E-1	-7.914124E-1	2.234802E-1
2.995850E+10	-9.194641E-1	-8.090210E-2	-5.284119E-2	-2.637024E-1	-5.398560E-2	-2.629242E-1	-7.908325E-1	2.358093E-1
3.018300E+10	-9.200134E-1	-7.568359E-2	-5.526733E-2	-2.628479E-1	-5.545044E-2	-2.620697E-1	-7.818909E-1	2.516785E-1
3.040750E+10	-9.198303E-1	-6.887817E-2	-5.857849E-2	-2.575378E-1	-5.958557E-2	-2.599335E-1	-7.771606E-1	2.590027E-1
3.063200E+10	-9.182434E-1	-6.274414E-2	-6.068420E-2	-2.589417E-1	-6.008911E-2	-2.563782E-1	-7.758484E-1	2.709045E-1
3.085650E+10	-9.242554E-1	-5.465698E-2	-6.788635E-2	-2.607574E-1	-6.605530E-2	-2.581024E-1	-7.693787E-1	2.839966E-1
3.108100E+10	-9.213867E-1	-4.891968E-2	-6.703186E-2	-2.575378E-1	-6.716919E-2	-2.529297E-1	-7.591858E-1	2.991028E-1
3.130550E+10	-9.218445E-1	-4.272461E-2	-6.941223E-2	-2.552948E-1	-7.189941E-2	-2.577820E-1	-7.524414E-1	3.048401E-1
3.153000E+10	-9.273682E-1	-3.601074E-2	-7.351685E-2	-2.549438E-1	-7.659912E-2	-2.509003E-1	-7.461243E-1	3.173523E-1
3.175450E+10	-9.252930E-1	-2.740479E-2	-7.691956E-2	-2.534790E-1	-7.440186E-2	-2.490005E-1	-7.393188E-1	3.322754E-1
3.197900E+10	-9.254150E-1	-2.255249E-2	-8.226013E-2	-2.513580E-1	-7.855225E-2	-2.509613E-1	-7.302246E-1	3.387756E-1
3.220350E+10	-9.254456E-1	-1.495361E-2	-8.421326E-2	-2.487259E-1	-8.665466E-2	-2.459183E-1	-7.265015E-1	3.494873E-1
3.242800E+10	-9.274292E-1	-7.659912E-3	-8.355713E-2	-2.461700E-1	-8.625031E-2	-2.449799E-1	-7.169189E-1	3.613892E-1
3.265250E+10	-9.319763E-1	1.495361E-3	-8.988190E-2	-2.424774E-1	-8.903503E-2	-2.420349E-1	-7.063293E-1	3.649597E-1
3.287700E+10	-9.251404E-1	6.378174E-3	-8.942413E-2	-2.394867E-1	-9.422302E-2	-2.400665E-1	-7.036133E-1	3.738708E-1
3.310150E+10	-9.266052E-1	9.979248E-3	-9.246826E-2	-2.427063E-1	-9.500122E-2	-2.382812E-1	-6.895752E-1	3.838196E-1
3.332600E+10	-9.244385E-1	1.861572E-2	-9.369659E-2	-2.393875E-1	-9.224701E-2	-2.393875E-1	-6.845093E-1	3.898315E-1
3.355050E+10	-9.262085E-1	2.792358E-2	-9.506989E-2	-2.322617E-1	-9.932709E-2	-2.361908E-1	-6.798401E-1	4.006042E-1
3.377500E+10	-9.281006E-1	3.515625E-2	-9.893036E-2	-2.344971E-1	-1.011505E-1	-2.346725E-1	-6.698608E-1	4.071045E-1
3.399950E+10	-9.283447E-1	3.909302E-2	-1.003113E-1	-2.295456E-1	-1.024628E-1	-2.346497E-1	-6.655273E-1	4.125671E-1
3.422400E+10	-9.269104E-1	4.907227E-2	-1.049042E-1	-2.316208E-1	-1.043854E-1	-2.281113E-1	-6.588440E-1	4.323730E-1
3.444850E+10	-9.266357E-1	5.340576E-2	-1.051788E-1	-2.298889E-1	-1.043015E-1	-2.300262E-1	-6.468201E-1	4.425049E-1
3.467300E+10	-9.248047E-1	6.015015E-2	-1.085281E-1	-2.313614E-1	-1.084137E-1	-2.295685E-1	-6.460876E-1	4.448547E-1
3.489750E+10	-9.248047E-1	6.701660E-2	-1.104050E-1	-2.246170E-1	-1.135483E-1	-2.266159E-1	-6.327820E-1	4.575806E-1
3.512200E+10	-9.256592E-1	7.397461E-2	-1.103134E-1	-2.242661E-1	-1.171494E-1	-2.261810E-1	-6.198730E-1	4.647522E-1
3.534650E+10	-9.230347E-1	7.464600E-2	-1.147308E-1	-2.220993E-1	-1.144104E-1	-2.243958E-1	-6.151733E-1	4.738770E-1
3.557100E+10	-9.232483E-1	8.496094E-2	-1.172791E-1	-2.189255E-1	-1.177216E-1	-2.225037E-1	-6.032410E-1	4.872437E-1
3.579550E+10	-9.214172E-1	8.914185E-2	-1.212158E-1	-2.214737E-1	-1.210327E-1	-2.186279E-1	-5.835571E-1	4.907532E-1
3.602000E+10	-9.259949E-1	9.683228E-2	-1.240540E-1	-2.217484E-1	-1.241455E-1	-2.218323E-1	-5.802307E-1	4.934387E-1
3.624450E+10	-9.201965E-1	1.077271E-1	-1.288681E-1	-2.169724E-1	-1.301041E-1	-2.173386E-1	-5.757141E-1	5.025330E-1
3.646900E+10	-9.210815E-1	1.106262E-1	-1.323471E-1	-2.154007E-1	-1.303940E-1	-2.194061E-1	-5.585632E-1	5.129700E-1
3.669350E+10	-9.205322E-1	1.177673E-1	-1.300735E-1	-2.189789E-1	-1.319504E-1	-2.113724E-1	-5.519409E-1	5.139465E-1
3.691800E+10	-9.165344E-1	1.243896E-1	-1.366653E-1	-2.127075E-1	-1.327286E-1	-2.138977E-1	-5.359497E-1	5.316162E-1
3.714250E+10	-9.173889E-1	1.262207E-1	-1.374664E-1	-2.084961E-1	-1.411819E-1	-2.046280E-1	-5.269165E-1	5.300598E-1
3.736700E+10	-9.159851E-1	1.375122E-1	-1.365356E-1	-2.044601E-1	-1.433868E-1	-2.055740E-1	-5.179443E-1	5.424194E-1
3.759150E+10	-9.137573E-1	1.424561E-1	-1.419067E-1	-2.059708E-1	-1.430130E-1	-2.038193E-1	-4.997864E-1	5.508728E-1
3.781600E+10	-9.110413E-1	1.477966E-1	-1.454468E-1	-2.082062E-1	-1.412659E-1	-2.017059E-1	-4.941711E-1	5.522156E-1
3.804050E+10	-9.177246E-1	1.502991E-1	-1.449432E-1	-2.005615E-1	-1.455460E-1	-2.016220E-1	-4.777527E-1	5.650940E-1
3.826500E+10	-9.065247E-1	1.628113E-1	-1.523819E-1	-1.989670E-1	-1.500702E-1	-1.981430E-1	-4.622498E-1	5.686646E-1
3.848950E+10	-9.093628E-1	1.682739E-1	-1.506424E-1	-2.007523E-1	-1.496658E-1	-2.008438E-1	-4.538574E-1	5.737305E-1
3.871400E+10	-9.099731E-1	1.672363E-1	-1.530151E-1	-1.967850E-1	-1.581268E-1	-1.939850E-1	-4.387207E-1	5.776062E-1
3.893850E+10	-9.120483E-1	1.823730E-1	-1.555862E-1	-1.942596E-1	-1.523895E-1	-1.982498E-1	-4.169617E-1	5.794067E-1
