!Date: 10/28/2005, 12:46 PM

!Vgs = -2.000000E+0
!Vds = 1.500000E+1
!Ig = -2.892000E-5
!Id = 5.626300E-1

# HZ S RI R 50
1.000000E+8	9.626770E-1	-1.825562E-1	-1.516748E+1	4.892578E-1	1.572371E-3	6.582737E-3	5.593262E-1	-2.993774E-2
3.245000E+8	7.972717E-1	-5.256348E-1	-1.383350E+1	4.831055E+0	8.432388E-3	2.106094E-2	3.643188E-1	-2.290802E-1
5.490000E+8	5.547180E-1	-7.559509E-1	-1.161621E+1	6.904785E+0	1.867390E-2	2.927113E-2	2.936707E-1	-3.006439E-1
7.735000E+8	3.093872E-1	-8.692017E-1	-9.323242E+0	7.824707E+0	2.935028E-2	3.258324E-2	1.839752E-1	-3.562927E-1
9.980000E+8	9.384155E-2	-9.020386E-1	-7.327637E+0	8.072266E+0	3.764725E-2	3.269005E-2	9.638977E-2	-3.531189E-1
1.222500E+9	-8.679199E-2	-8.936768E-1	-5.723633E+0	7.974854E+0	4.478455E-2	3.103638E-2	3.585815E-2	-3.539581E-1
1.447000E+9	-2.344666E-1	-8.636169E-1	-4.441895E+0	7.666748E+0	5.059242E-2	2.871895E-2	-2.070618E-2	-3.424530E-1
1.671500E+9	-3.495178E-1	-8.218689E-1	-3.439453E+0	7.260742E+0	5.464363E-2	2.656364E-2	-6.146240E-2	-3.307495E-1
1.896000E+9	-4.430847E-1	-7.719727E-1	-2.670898E+0	6.819336E+0	5.854797E-2	2.367210E-2	-9.582520E-2	-3.123932E-1
2.120500E+9	-5.145264E-1	-7.233276E-1	-2.064453E+0	6.412354E+0	6.090546E-2	2.090073E-2	-1.197662E-1	-2.998657E-1
2.345000E+9	-5.726929E-1	-6.736450E-1	-1.566406E+0	6.011230E+0	6.347275E-2	1.818085E-2	-1.427002E-1	-2.837524E-1
2.569500E+9	-6.167297E-1	-6.290588E-1	-1.168701E+0	5.630371E+0	6.495667E-2	1.499939E-2	-1.581268E-1	-2.716980E-1
2.794000E+9	-6.548462E-1	-5.898437E-1	-8.586426E-1	5.295166E+0	6.601334E-2	1.236725E-2	-1.718292E-1	-2.615814E-1
3.018500E+9	-6.855164E-1	-5.522156E-1	-5.905762E-1	4.976318E+0	6.759262E-2	1.039124E-2	-1.828537E-1	-2.498093E-1
3.243000E+9	-7.108459E-1	-5.177307E-1	-3.671875E-1	4.691162E+0	6.758499E-2	7.907867E-3	-1.926804E-1	-2.440796E-1
3.467500E+9	-7.333984E-1	-4.877930E-1	-1.811523E-1	4.429199E+0	6.798553E-2	5.840302E-3	-2.028046E-1	-2.363205E-1
3.692000E+9	-7.528076E-1	-4.581299E-1	-2.246094E-2	4.184082E+0	6.906509E-2	4.043579E-3	-2.084808E-1	-2.311020E-1
3.916500E+9	-7.680664E-1	-4.291382E-1	1.101074E-1	3.959229E+0	6.974030E-2	2.407074E-3	-2.186203E-1	-2.261353E-1
4.141000E+9	-7.818909E-1	-4.043884E-1	2.237549E-1	3.752441E+0	6.976318E-2	5.760193E-4	-2.244873E-1	-2.190399E-1
4.365500E+9	-7.923279E-1	-3.813477E-1	3.229980E-1	3.559326E+0	6.959152E-2	-1.018524E-3	-2.305527E-1	-2.162476E-1
4.590000E+9	-8.034363E-1	-3.596191E-1	4.069824E-1	3.379761E+0	7.030106E-2	-2.544403E-3	-2.371216E-1	-2.113419E-1
4.814500E+9	-8.124390E-1	-3.387756E-1	4.748535E-1	3.215088E+0	7.039642E-2	-4.585266E-3	-2.418365E-1	-2.081146E-1
5.039000E+9	-8.187256E-1	-3.197327E-1	5.384521E-1	3.062866E+0	6.977844E-2	-6.061554E-3	-2.481003E-1	-2.057419E-1
5.263500E+9	-8.259888E-1	-3.013916E-1	5.928955E-1	2.920410E+0	6.945038E-2	-7.446289E-3	-2.527161E-1	-2.017365E-1
5.488000E+9	-8.311462E-1	-2.857361E-1	6.387939E-1	2.787231E+0	6.942749E-2	-8.678436E-3	-2.580109E-1	-1.991425E-1
5.712500E+9	-8.371277E-1	-2.695923E-1	6.796875E-1	2.660400E+0	6.952667E-2	-1.026917E-2	-2.619476E-1	-1.966095E-1
5.937000E+9	-8.415222E-1	-2.528076E-1	7.160645E-1	2.543457E+0	6.926346E-2	-1.158905E-2	-2.663116E-1	-1.947632E-1
6.161500E+9	-8.457031E-1	-2.399902E-1	7.485352E-1	2.437622E+0	6.965256E-2	-1.350403E-2	-2.707214E-1	-1.913605E-1
6.386000E+9	-8.498230E-1	-2.253723E-1	7.774658E-1	2.332031E+0	6.893539E-2	-1.456070E-2	-2.722015E-1	-1.909637E-1
6.610500E+9	-8.523254E-1	-2.126465E-1	8.050537E-1	2.234741E+0	6.901550E-2	-1.530838E-2	-2.794800E-1	-1.912231E-1
6.835000E+9	-8.557129E-1	-2.008972E-1	8.258057E-1	2.139038E+0	6.877518E-2	-1.708603E-2	-2.830353E-1	-1.857452E-1
7.059500E+9	-8.577576E-1	-1.900024E-1	8.403320E-1	2.053223E+0	6.778336E-2	-1.851273E-2	-2.834778E-1	-1.877899E-1
7.284000E+9	-8.594055E-1	-1.786499E-1	8.572388E-1	1.969238E+0	6.697464E-2	-2.003479E-2	-2.926331E-1	-1.862640E-1
7.508500E+9	-8.622742E-1	-1.669922E-1	8.697510E-1	1.888306E+0	6.650543E-2	-2.099609E-2	-2.908325E-1	-1.834412E-1
7.733000E+9	-8.627930E-1	-1.559448E-1	8.814087E-1	1.815186E+0	6.658936E-2	-2.220917E-2	-2.987671E-1	-1.861267E-1
7.957500E+9	-8.648071E-1	-1.463623E-1	8.940430E-1	1.744507E+0	6.629181E-2	-2.283859E-2	-3.014526E-1	-1.826477E-1
8.182000E+9	-8.674011E-1	-1.360474E-1	9.052124E-1	1.678101E+0	6.590652E-2	-2.398300E-2	-3.063507E-1	-1.848297E-1
8.406500E+9	-8.669128E-1	-1.281738E-1	9.118652E-1	1.609558E+0	6.508255E-2	-2.487183E-2	-3.105621E-1	-1.791992E-1
8.631000E+9	-8.687134E-1	-1.181030E-1	9.187012E-1	1.545471E+0	6.462860E-2	-2.665329E-2	-3.147125E-1	-1.810455E-1
8.855500E+9	-8.695068E-1	-1.097717E-1	9.235840E-1	1.483826E+0	6.371689E-2	-2.745819E-2	-3.206177E-1	-1.783447E-1
9.080001E+9	-8.709106E-1	-1.018372E-1	9.270630E-1	1.427734E+0	6.369781E-2	-2.844238E-2	-3.213043E-1	-1.765137E-1
9.304500E+9	-8.702393E-1	-9.268188E-2	9.290161E-1	1.372498E+0	6.268311E-2	-2.941513E-2	-3.261261E-1	-1.770630E-1
9.529000E+9	-8.717957E-1	-8.578491E-2	9.313354E-1	1.318237E+0	6.196213E-2	-3.072357E-2	-3.319855E-1	-1.741180E-1
9.753500E+9	-8.722839E-1	-7.772827E-2	9.313354E-1	1.266785E+0	6.076050E-2	-3.213882E-2	-3.348541E-1	-1.723785E-1
9.978000E+9	-8.717957E-1	-6.933594E-2	9.300537E-1	1.219421E+0	6.088066E-2	-3.208351E-2	-3.376465E-1	-1.730652E-1
1.020250E+10	-8.729858E-1	-6.317139E-2	9.298096E-1	1.172424E+0	6.007957E-2	-3.358078E-2	-3.432312E-1	-1.699524E-1
1.042700E+10	-8.726501E-1	-5.587769E-2	9.309082E-1	1.127808E+0	5.932808E-2	-3.431129E-2	-3.448486E-1	-1.702118E-1
1.065150E+10	-8.725586E-1	-4.876709E-2	9.285889E-1	1.085632E+0	5.833626E-2	-3.507233E-2	-3.488922E-1	-1.685791E-1
1.087600E+10	-8.737488E-1	-4.217529E-2	9.256592E-1	1.043030E+0	5.805397E-2	-3.543091E-2	-3.543396E-1	-1.671600E-1
1.110050E+10	-8.735962E-1	-3.497314E-2	9.247437E-1	1.001953E+0	5.706978E-2	-3.633308E-2	-3.566589E-1	-1.650085E-1
1.132500E+10	-8.725891E-1	-2.877808E-2	9.223328E-1	9.631042E-1	5.610466E-2	-3.753662E-2	-3.601685E-1	-1.649475E-1
1.154950E+10	-8.733215E-1	-2.169800E-2	9.182129E-1	9.243164E-1	5.633736E-2	-3.811836E-2	-3.666992E-1	-1.619720E-1
1.177400E+10	-8.718567E-1	-1.525879E-2	9.128723E-1	8.900452E-1	5.437851E-2	-3.910637E-2	-3.684998E-1	-1.599579E-1
1.199850E+10	-8.727417E-1	-9.582520E-3	9.097290E-1	8.554077E-1	5.365944E-2	-3.972244E-2	-3.720245E-1	-1.607056E-1
1.222300E+10	-8.729248E-1	-4.333496E-3	9.044189E-1	8.201599E-1	5.363083E-2	-3.966904E-2	-3.763428E-1	-1.590271E-1
1.244750E+10	-8.713989E-1	1.312256E-3	8.982849E-1	7.871094E-1	5.203438E-2	-4.181862E-2	-3.810577E-1	-1.553040E-1
1.267200E+10	-8.719177E-1	7.873535E-3	8.935242E-1	7.560120E-1	5.123138E-2	-4.091263E-2	-3.844147E-1	-1.563110E-1
1.289650E+10	-8.704224E-1	1.296997E-2	8.856812E-1	7.258911E-1	5.126762E-2	-4.272270E-2	-3.902435E-1	-1.549683E-1
1.312100E+10	-8.709106E-1	1.821899E-2	8.800049E-1	6.963501E-1	4.955292E-2	-4.296112E-2	-3.937073E-1	-1.496582E-1
1.334550E+10	-8.696289E-1	2.377319E-2	8.742371E-1	6.687012E-1	4.889488E-2	-4.356575E-2	-3.960724E-1	-1.501312E-1
1.357000E+10	-8.682556E-1	2.746582E-2	8.688354E-1	6.404724E-1	4.901695E-2	-4.411507E-2	-4.013367E-1	-1.504059E-1
1.379450E+10	-8.695374E-1	3.356934E-2	8.619080E-1	6.145935E-1	4.755020E-2	-4.489708E-2	-4.065704E-1	-1.449127E-1
1.401900E+10	-8.678284E-1	3.970337E-2	8.545227E-1	5.926514E-1	4.722023E-2	-4.618073E-2	-4.068756E-1	-1.457520E-1
1.424350E+10	-8.665161E-1	4.449463E-2	8.471375E-1	5.644836E-1	4.605293E-2	-4.587364E-2	-4.137421E-1	-1.423187E-1
1.446800E+10	-8.669739E-1	4.974365E-2	8.418884E-1	5.412598E-1	4.501724E-2	-4.591560E-2	-4.153442E-1	-1.368408E-1
1.469250E+10	-8.656311E-1	5.416870E-2	8.333435E-1	5.178528E-1	4.358864E-2	-4.706573E-2	-4.168549E-1	-1.350555E-1
1.491700E+10	-8.642578E-1	5.920410E-2	8.268127E-1	4.947205E-1	4.269981E-2	-4.717445E-2	-4.214783E-1	-1.357574E-1
1.514150E+10	-8.639526E-1	6.378174E-2	8.200073E-1	4.734192E-1	4.166985E-2	-4.756355E-2	-4.256134E-1	-1.301727E-1
1.536600E+10	-8.620911E-1	6.921387E-2	8.105164E-1	4.509277E-1	4.083061E-2	-4.938698E-2	-4.272003E-1	-1.283417E-1
1.559050E+10	-8.622437E-1	7.394409E-2	8.044434E-1	4.306335E-1	3.954315E-2	-4.957390E-2	-4.332275E-1	-1.287689E-1
1.581500E+10	-8.617859E-1	7.812500E-2	7.958374E-1	4.092712E-1	3.918457E-2	-4.848480E-2	-4.380188E-1	-1.243439E-1
1.603950E+10	-8.615417E-1	8.288574E-2	7.888184E-1	3.912354E-1	3.867531E-2	-4.951477E-2	-4.386902E-1	-1.218109E-1
1.626400E+10	-8.582153E-1	8.697510E-2	7.797241E-1	3.729553E-1	3.710175E-2	-5.089188E-2	-4.455719E-1	-1.203918E-1
1.648850E+10	-8.587341E-1	9.118652E-2	7.721863E-1	3.558044E-1	3.639793E-2	-4.954147E-2	-4.476929E-1	-1.152802E-1
1.671300E+10	-8.574829E-1	9.619141E-2	7.640076E-1	3.372498E-1	3.587914E-2	-5.024910E-2	-4.503021E-1	-1.135406E-1
1.693750E+10	-8.566589E-1	9.942627E-2	7.569580E-1	3.197021E-1	3.480339E-2	-5.108833E-2	-4.547119E-1	-1.121826E-1
1.716200E+10	-8.562317E-1	1.055298E-1	7.477112E-1	3.055725E-1	3.360939E-2	-5.100822E-2	-4.579315E-1	-1.068573E-1
1.738650E+10	-8.551025E-1	1.092224E-1	7.424927E-1	2.919312E-1	3.200912E-2	-5.122948E-2	-4.595032E-1	-1.035156E-1
1.761100E+10	-8.537292E-1	1.118774E-1	7.330627E-1	2.739258E-1	3.119850E-2	-5.105591E-2	-4.647522E-1	-1.015472E-1
1.783550E+10	-8.515320E-1	1.168518E-1	7.247620E-1	2.593689E-1	2.951431E-2	-5.115128E-2	-4.687347E-1	-9.640503E-2
1.806000E+10	-8.525696E-1	1.209717E-1	7.177124E-1	2.448120E-1	2.893829E-2	-5.208778E-2	-4.689484E-1	-9.231567E-2
1.828450E+10	-8.506775E-1	1.271057E-1	7.113953E-1	2.324829E-1	2.880287E-2	-5.105209E-2	-4.725494E-1	-9.223938E-2
1.850900E+10	-8.516541E-1	1.293640E-1	7.033386E-1	2.188110E-1	2.607727E-2	-5.270958E-2	-4.767609E-1	-8.778381E-2
1.873350E+10	-8.497925E-1	1.338806E-1	6.941528E-1	2.027893E-1	2.601814E-2	-5.184364E-2	-4.768677E-1	-8.192444E-2
1.895800E+10	-8.476257E-1	1.373901E-1	6.859131E-1	1.911926E-1	2.584457E-2	-5.350876E-2	-4.790039E-1	-8.293152E-2
1.918250E+10	-8.462830E-1	1.404114E-1	6.788635E-1	1.787415E-1	2.379608E-2	-5.310631E-2	-4.856567E-1	-7.945251E-2
1.940700E+10	-8.442688E-1	1.439209E-1	6.705933E-1	1.683350E-1	2.340889E-2	-5.294418E-2	-4.848785E-1	-7.032776E-2
1.963150E+10	-8.434448E-1	1.465149E-1	6.627197E-1	1.551819E-1	2.240944E-2	-5.304337E-2	-4.865570E-1	-7.032776E-2
1.985600E+10	-8.427734E-1	1.514282E-1	6.547852E-1	1.461792E-1	1.978302E-2	-5.327415E-2	-4.932404E-1	-6.677246E-2
2.008050E+10	-8.408813E-1	1.540222E-1	6.464233E-1	1.348267E-1	2.094841E-2	-5.455208E-2	-4.938202E-1	-5.897522E-2
2.030500E+10	-8.403015E-1	1.583862E-1	6.384277E-1	1.249695E-1	1.982117E-2	-5.334473E-2	-4.958038E-1	-5.816650E-2
2.052950E+10	-8.385010E-1	1.619263E-1	6.315308E-1	1.148682E-1	1.723289E-2	-5.438805E-2	-4.987335E-1	-5.693054E-2
2.075400E+10	-8.374023E-1	1.648865E-1	6.259460E-1	1.049805E-1	1.739502E-2	-5.344963E-2	-5.018921E-1	-4.879761E-2
2.097850E+10	-8.366699E-1	1.679687E-1	6.165161E-1	9.533691E-2	1.521301E-2	-5.408287E-2	-5.017090E-1	-4.626465E-2
2.120300E+10	-8.348083E-1	1.717529E-1	6.077271E-1	8.520508E-2	1.349449E-2	-5.207825E-2	-5.058289E-1	-4.617310E-2
2.142750E+10	-8.348389E-1	1.740417E-1	6.019592E-1	7.852173E-2	1.360512E-2	-5.273819E-2	-5.102844E-1	-3.958130E-2
2.165200E+10	-8.336792E-1	1.767273E-1	5.950012E-1	6.774902E-2	1.177025E-2	-5.264854E-2	-5.117187E-1	-3.585815E-2
2.187650E+10	-8.317566E-1	1.816101E-1	5.865173E-1	6.072998E-2	9.458542E-3	-5.275536E-2	-5.133057E-1	-3.424072E-2
2.210100E+10	-8.311462E-1	1.867371E-1	5.804749E-1	5.172729E-2	9.407043E-3	-5.296326E-2	-5.174561E-1	-2.536011E-2
2.232550E+10	-8.294678E-1	1.896362E-1	5.709839E-1	4.421997E-2	1.032066E-2	-5.203629E-2	-5.145569E-1	-1.910400E-2
2.255000E+10	-8.290100E-1	1.940308E-1	5.648193E-1	3.747559E-2	8.853912E-3	-5.295944E-2	-5.177917E-1	-1.934814E-2
2.277450E+10	-8.279419E-1	1.968689E-1	5.588684E-1	2.807617E-2	6.978989E-3	-5.142021E-2	-5.186157E-1	-1.260376E-2
2.299900E+10	-8.245239E-1	1.997375E-1	5.534973E-1	2.185059E-2	7.617950E-3	-5.204010E-2	-5.198669E-1	-8.117676E-3
2.322350E+10	-8.247070E-1	2.034302E-1	5.479431E-1	1.348877E-2	4.756927E-3	-5.291367E-2	-5.255127E-1	-7.446289E-3
2.344800E+10	-8.211670E-1	2.041626E-1	5.386963E-1	8.758545E-3	4.224777E-3	-5.271530E-2	-5.260315E-1	2.807617E-3
2.367250E+10	-8.220215E-1	2.101135E-1	5.309753E-1	8.239746E-4	3.042221E-3	-5.052185E-2	-5.242310E-1	6.927490E-3
2.389700E+10	-8.204346E-1	2.133179E-1	5.263062E-1	-6.378174E-3	9.403229E-4	-5.043602E-2	-5.297546E-1	7.171631E-3
2.412150E+10	-8.197327E-1	2.149658E-1	5.178528E-1	-1.019287E-2	6.103516E-5	-4.958725E-2	-5.296326E-1	1.583862E-2
2.434600E+10	-8.172913E-1	2.199097E-1	5.112915E-1	-1.745605E-2	-2.025604E-3	-4.964066E-2	-5.262451E-1	1.812744E-2
2.457050E+10	-8.131104E-1	2.213745E-1	5.043945E-1	-2.301025E-2	-1.203537E-3	-4.970932E-2	-5.301819E-1	2.264404E-2
2.479500E+10	-8.153381E-1	2.262268E-1	4.983215E-1	-2.729797E-2	-4.072189E-3	-5.021858E-2	-5.303040E-1	3.057861E-2
2.501950E+10	-8.114929E-1	2.266541E-1	4.908905E-1	-3.132629E-2	-3.946304E-3	-5.028152E-2	-5.294495E-1	3.195190E-2
2.524400E+10	-8.096924E-1	2.308044E-1	4.847260E-1	-3.521729E-2	-4.871368E-3	-4.732132E-2	-5.303955E-1	3.433228E-2
2.546850E+10	-8.104553E-1	2.343750E-1	4.793701E-1	-4.203796E-2	-7.402420E-3	-4.737854E-2	-5.320129E-1	4.187012E-2
2.569300E+10	-8.078308E-1	2.355042E-1	4.743805E-1	-4.490662E-2	-6.774902E-3	-4.615402E-2	-5.326843E-1	4.232788E-2
2.591750E+10	-8.067627E-1	2.416992E-1	4.680481E-1	-5.029297E-2	-6.963730E-3	-4.583168E-2	-5.365295E-1	4.592896E-2
2.614200E+10	-8.049011E-1	2.429504E-1	4.605560E-1	-5.409241E-2	-9.160995E-3	-4.563332E-2	-5.381470E-1	5.432129E-2
2.636650E+10	-8.036804E-1	2.459412E-1	4.558105E-1	-5.967712E-2	-9.210587E-3	-4.607582E-2	-5.373840E-1	5.886841E-2
2.659100E+10	-8.001404E-1	2.481689E-1	4.508972E-1	-6.213379E-2	-1.003075E-2	-4.388428E-2	-5.387268E-1	6.378174E-2
2.681550E+10	-7.988281E-1	2.510071E-1	4.453278E-1	-6.660461E-2	-1.421738E-2	-4.105186E-2	-5.382996E-1	6.597900E-2
2.704000E+10	-7.996521E-1	2.552795E-1	4.352112E-1	-7.029724E-2	-1.290131E-2	-4.446983E-2	-5.393372E-1	8.059692E-2
2.726450E+10	-7.957764E-1	2.575684E-1	4.355164E-1	-7.530212E-2	-1.381302E-2	-4.210472E-2	-5.343933E-1	7.879639E-2
2.748900E+10	-7.949524E-1	2.596741E-1	4.298096E-1	-7.977295E-2	-1.597404E-2	-3.871918E-2	-5.374756E-1	8.227539E-2
2.771350E+10	-7.919617E-1	2.615967E-1	4.221039E-1	-8.042908E-2	-1.530647E-2	-3.831863E-2	-5.395203E-1	8.804321E-2
2.793800E+10	-7.919006E-1	2.617187E-1	4.185944E-1	-8.676147E-2	-1.490402E-2	-3.819847E-2	-5.393982E-1	9.057617E-2
2.816250E+10	-7.889099E-1	2.657166E-1	4.141846E-1	-8.493042E-2	-1.852226E-2	-4.180717E-2	-5.385742E-1	9.695435E-2
2.838700E+10	-7.866211E-1	2.668762E-1	4.063568E-1	-9.082031E-2	-1.776123E-2	-3.734207E-2	-5.401001E-1	1.019592E-1
2.861150E+10	-7.867737E-1	2.740173E-1	4.046173E-1	-9.552002E-2	-1.653671E-2	-3.612900E-2	-5.381470E-1	1.055908E-1
2.883600E+10	-7.844238E-1	2.763367E-1	3.982391E-1	-9.658813E-2	-1.979637E-2	-3.589821E-2	-5.418701E-1	1.102295E-1
2.906050E+10	-7.826538E-1	2.790833E-1	3.915405E-1	-9.893799E-2	-1.899147E-2	-3.493309E-2	-5.404053E-1	1.159363E-1
2.928500E+10	-7.810974E-1	2.810974E-1	3.904266E-1	-1.019592E-1	-2.147102E-2	-3.059959E-2	-5.348511E-1	1.197205E-1
2.950950E+10	-7.787476E-1	2.844238E-1	3.874054E-1	-1.036835E-1	-2.274513E-2	-3.284454E-2	-5.395203E-1	1.235352E-1
2.973400E+10	-7.789917E-1	2.872314E-1	3.828735E-1	-1.027985E-1	-2.205753E-2	-3.070736E-2	-5.405273E-1	1.300049E-1
2.995850E+10	-7.757263E-1	2.908325E-1	3.746796E-1	-1.085968E-1	-2.439499E-2	-3.142929E-2	-5.411987E-1	1.358337E-1
3.018300E+10	-7.720032E-1	2.918091E-1	3.724365E-1	-1.121674E-1	-2.280712E-2	-3.085327E-2	-5.415955E-1	1.423950E-1
3.040750E+10	-7.752991E-1	2.944336E-1	3.671417E-1	-1.156921E-1	-2.294159E-2	-2.892590E-2	-5.403748E-1	1.497192E-1
3.063200E+10	-7.706909E-1	2.944946E-1	3.645935E-1	-1.191711E-1	-2.262592E-2	-2.686214E-2	-5.431519E-1	1.557922E-1
3.085650E+10	-7.692566E-1	2.998047E-1	3.593750E-1	-1.204834E-1	-2.600670E-2	-2.795982E-2	-5.393677E-1	1.538391E-1
3.108100E+10	-7.697754E-1	3.023071E-1	3.572235E-1	-1.199493E-1	-2.647877E-2	-2.482414E-2	-5.383301E-1	1.657410E-1
3.130550E+10	-7.662964E-1	3.009949E-1	3.531647E-1	-1.208954E-1	-2.760601E-2	-2.467442E-2	-5.325012E-1	1.773071E-1
3.153000E+10	-7.677612E-1	3.087158E-1	3.497620E-1	-1.213531E-1	-2.493095E-2	-2.751827E-2	-5.344238E-1	1.713257E-1
3.175450E+10	-7.608032E-1	3.085022E-1	3.445282E-1	-1.252594E-1	-2.773666E-2	-2.522945E-2	-5.350952E-1	1.864319E-1
3.197900E+10	-7.633667E-1	3.067322E-1	3.399506E-1	-1.273651E-1	-2.919102E-2	-1.797104E-2	-5.226440E-1	1.860046E-1
3.220350E+10	-7.593689E-1	3.156128E-1	3.365021E-1	-1.334229E-1	-2.542877E-2	-2.005863E-2	-5.255432E-1	1.898804E-1
3.242800E+10	-7.630920E-1	3.185120E-1	3.342133E-1	-1.338501E-1	-3.150368E-2	-2.182579E-2	-5.288086E-1	1.986694E-1
3.265250E+10	-7.601013E-1	3.198547E-1	3.304749E-1	-1.352386E-1	-3.062630E-2	-1.491737E-2	-5.223999E-1	1.958313E-1
3.287700E+10	-7.574768E-1	3.194580E-1	3.291626E-1	-1.384888E-1	-2.707577E-2	-1.536560E-2	-5.271912E-1	2.043457E-1
3.310150E+10	-7.544556E-1	3.237610E-1	3.257446E-1	-1.355286E-1	-2.878952E-2	-1.175976E-2	-5.211792E-1	2.080078E-1
3.332600E+10	-7.509155E-1	3.273621E-1	3.213501E-1	-1.428375E-1	-2.592564E-2	-8.615494E-3	-5.249329E-1	2.110291E-1
3.355050E+10	-7.480164E-1	3.287354E-1	3.185425E-1	-1.444702E-1	-2.958679E-2	-1.345348E-2	-5.232849E-1	2.172546E-1
3.377500E+10	-7.443237E-1	3.296509E-1	3.147888E-1	-1.417847E-1	-2.678013E-2	-1.148701E-2	-5.180969E-1	2.222900E-1
3.399950E+10	-7.439270E-1	3.314819E-1	3.114166E-1	-1.422119E-1	-2.976036E-2	-1.081276E-2	-5.198975E-1	2.272949E-1
3.422400E+10	-7.443848E-1	3.348694E-1	3.089142E-1	-1.494293E-1	-2.765656E-2	-9.098053E-3	-5.157776E-1	2.424622E-1
3.444850E+10	-7.428894E-1	3.373108E-1	3.036652E-1	-1.554718E-1	-2.921963E-2	-8.297920E-3	-5.166626E-1	2.402649E-1
3.467300E+10	-7.416382E-1	3.388062E-1	3.125458E-1	-1.523437E-1	-2.992153E-2	-6.058693E-3	-5.153809E-1	2.492065E-1
3.489750E+10	-7.389221E-1	3.407898E-1	3.001556E-1	-1.518860E-1	-2.896976E-2	-3.143311E-3	-5.109558E-1	2.620850E-1
3.512200E+10	-7.380371E-1	3.391418E-1	3.015747E-1	-1.576843E-1	-2.962208E-2	-5.401611E-3	-5.061951E-1	2.588196E-1
3.534650E+10	-7.354736E-1	3.415833E-1	2.958374E-1	-1.553497E-1	-3.134346E-2	-2.601624E-3	-5.069580E-1	2.711182E-1
3.557100E+10	-7.322693E-1	3.468933E-1	2.969818E-1	-1.617126E-1	-2.858067E-2	-3.717422E-3	-5.000000E-1	2.766876E-1
3.579550E+10	-7.319031E-1	3.489380E-1	2.938232E-1	-1.650848E-1	-3.471756E-2	-1.010895E-4	-5.001221E-1	2.789612E-1
3.602000E+10	-7.304687E-1	3.498840E-1	2.861938E-1	-1.662598E-1	-3.391838E-2	4.007339E-3	-4.985046E-1	2.814941E-1
3.624450E+10	-7.332764E-1	3.509827E-1	2.856903E-1	-1.638794E-1	-3.541565E-2	6.675720E-5	-4.920044E-1	2.904358E-1
3.646900E+10	-7.274170E-1	3.586731E-1	2.860870E-1	-1.707306E-1	-2.781391E-2	2.524376E-3	-4.940796E-1	2.993927E-1
3.669350E+10	-7.279663E-1	3.585815E-1	2.768860E-1	-1.729279E-1	-3.095341E-2	3.635406E-3	-4.809570E-1	3.032532E-1
3.691800E+10	-7.257690E-1	3.562622E-1	2.777100E-1	-1.724701E-1	-3.194618E-2	3.318787E-4	-4.797974E-1	3.060913E-1
3.714250E+10	-7.232666E-1	3.558960E-1	2.736664E-1	-1.770172E-1	-2.800560E-2	4.380226E-3	-4.802856E-1	3.154144E-1
3.736700E+10	-7.203369E-1	3.640747E-1	2.619781E-1	-1.775513E-1	-2.770233E-2	9.057999E-3	-4.791107E-1	3.157196E-1
3.759150E+10	-7.157898E-1	3.600159E-1	2.654419E-1	-1.831360E-1	-2.894115E-2	7.390022E-3	-4.714508E-1	3.202209E-1
3.781600E+10	-7.160645E-1	3.653870E-1	2.676392E-1	-1.835175E-1	-2.729511E-2	1.515865E-2	-4.644012E-1	3.276215E-1
3.804050E+10	-7.135925E-1	3.646851E-1	2.587128E-1	-1.811218E-1	-2.680016E-2	1.153278E-2	-4.574585E-1	3.319855E-1
3.826500E+10	-7.173767E-1	3.694458E-1	2.640991E-1	-1.804657E-1	-2.762890E-2	1.357746E-2	-4.532318E-1	3.446350E-1
3.848950E+10	-7.105103E-1	3.677673E-1	2.615051E-1	-1.904449E-1	-2.444363E-2	1.459885E-2	-4.508362E-1	3.470764E-1
3.871400E+10	-7.061462E-1	3.658447E-1	2.528076E-1	-1.879730E-1	-1.965332E-2	1.904488E-2	-4.416351E-1	3.468018E-1
3.893850E+10	-7.087097E-1	3.761902E-1	2.489929E-1	-1.875381E-1	-2.778149E-2	1.481438E-2	-4.325409E-1	3.517761E-1
3.916300E+10	-7.083130E-1	3.744507E-1	2.460632E-1	-1.942368E-1	-2.560520E-2	2.365971E-2	-4.330444E-1	3.569794E-1
