!Date: 10/28/2005, 12:46 PM

!Vgs = -3.000000E+0
!Vds = 2.000000E+1
!Ig = -3.666300E-5
!Id = 3.682000E-1

# HZ S RI R 50
1.000000E+8	9.701233E-1	-1.714172E-1	-1.640332E+1	8.662109E-1	-1.404524E-3	5.815506E-3	6.062317E-1	-3.689575E-2
3.245000E+8	8.054504E-1	-5.196838E-1	-1.497559E+1	5.165527E+0	7.141113E-3	1.820850E-2	4.479675E-1	-2.220154E-1
5.490000E+8	5.713196E-1	-7.480774E-1	-1.266455E+1	7.363770E+0	1.641369E-2	2.641010E-2	3.746490E-1	-2.996826E-1
7.735000E+8	3.295288E-1	-8.660278E-1	-1.023926E+1	8.410645E+0	2.583218E-2	2.968311E-2	2.696381E-1	-3.531494E-1
9.980000E+8	1.144714E-1	-9.049072E-1	-8.104980E+0	8.744141E+0	3.379440E-2	2.982521E-2	1.844482E-1	-3.567047E-1
1.222500E+9	-6.707764E-2	-9.016418E-1	-6.370117E+0	8.682617E+0	3.995323E-2	2.852249E-2	1.233368E-1	-3.594666E-1
1.447000E+9	-2.163391E-1	-8.743896E-1	-4.961914E+0	8.394043E+0	4.523087E-2	2.655411E-2	6.803894E-2	-3.522186E-1
1.671500E+9	-3.344421E-1	-8.347168E-1	-3.844727E+0	7.974609E+0	4.953575E-2	2.458572E-2	2.561951E-2	-3.429565E-1
1.896000E+9	-4.303894E-1	-7.862854E-1	-2.990234E+0	7.500000E+0	5.290604E-2	2.198982E-2	-9.841919E-3	-3.266144E-1
2.120500E+9	-5.047607E-1	-7.379456E-1	-2.313477E+0	7.060547E+0	5.541801E-2	1.917458E-2	-3.546143E-2	-3.144531E-1
2.345000E+9	-5.651245E-1	-6.885986E-1	-1.757568E+0	6.629883E+0	5.735016E-2	1.656914E-2	-5.741882E-2	-3.009796E-1
2.569500E+9	-6.111450E-1	-6.435547E-1	-1.312988E+0	6.219727E+0	5.862999E-2	1.398468E-2	-7.341003E-2	-2.903137E-1
2.794000E+9	-6.507874E-1	-6.043701E-1	-9.606934E-1	5.851562E+0	6.019402E-2	1.164436E-2	-8.737183E-2	-2.818909E-1
3.018500E+9	-6.828003E-1	-5.657349E-1	-6.589355E-1	5.505615E+0	6.135178E-2	9.317398E-3	-9.919739E-2	-2.733154E-1
3.243000E+9	-7.091064E-1	-5.314331E-1	-4.057617E-1	5.192871E+0	6.143570E-2	7.135391E-3	-1.100159E-1	-2.671356E-1
3.467500E+9	-7.327576E-1	-5.006409E-1	-1.943359E-1	4.905029E+0	6.207848E-2	5.617142E-3	-1.199951E-1	-2.616730E-1
3.692000E+9	-7.534485E-1	-4.702759E-1	-1.586914E-2	4.633057E+0	6.254578E-2	4.211426E-3	-1.273499E-1	-2.577209E-1
3.916500E+9	-7.684937E-1	-4.410400E-1	1.376953E-1	4.381348E+0	6.315994E-2	1.953125E-3	-1.380768E-1	-2.539215E-1
4.141000E+9	-7.829285E-1	-4.151611E-1	2.661133E-1	4.153076E+0	6.319046E-2	4.959106E-4	-1.447830E-1	-2.498474E-1
4.365500E+9	-7.940674E-1	-3.916626E-1	3.763428E-1	3.940063E+0	6.328964E-2	-1.045227E-3	-1.515961E-1	-2.471619E-1
4.590000E+9	-8.053894E-1	-3.696899E-1	4.725342E-1	3.737915E+0	6.349182E-2	-2.429962E-3	-1.592407E-1	-2.444229E-1
4.814500E+9	-8.139648E-1	-3.486328E-1	5.506592E-1	3.556030E+0	6.372452E-2	-3.818512E-3	-1.641388E-1	-2.428207E-1
5.039000E+9	-8.220215E-1	-3.288879E-1	6.219482E-1	3.384644E+0	6.365967E-2	-5.672455E-3	-1.713257E-1	-2.410507E-1
5.263500E+9	-8.294373E-1	-3.097534E-1	6.828613E-1	3.225708E+0	6.301117E-2	-7.156372E-3	-1.776886E-1	-2.381744E-1
5.488000E+9	-8.346252E-1	-2.936401E-1	7.353516E-1	3.078369E+0	6.306076E-2	-7.865906E-3	-1.826172E-1	-2.365494E-1
5.712500E+9	-8.403625E-1	-2.769165E-1	7.808838E-1	2.936401E+0	6.309891E-2	-9.578705E-3	-1.876984E-1	-2.357712E-1
5.937000E+9	-8.454285E-1	-2.604370E-1	8.211670E-1	2.806763E+0	6.324768E-2	-1.100540E-2	-1.933060E-1	-2.347107E-1
6.161500E+9	-8.497620E-1	-2.467651E-1	8.575439E-1	2.688843E+0	6.325912E-2	-1.239777E-2	-1.988907E-1	-2.330322E-1
6.386000E+9	-8.542480E-1	-2.323914E-1	8.906250E-1	2.570801E+0	6.278229E-2	-1.352310E-2	-2.018890E-1	-2.339249E-1
6.610500E+9	-8.563232E-1	-2.191162E-1	9.211426E-1	2.460327E+0	6.225204E-2	-1.476288E-2	-2.095566E-1	-2.351303E-1
6.835000E+9	-8.603516E-1	-2.069092E-1	9.450684E-1	2.355347E+0	6.235886E-2	-1.595879E-2	-2.145538E-1	-2.321548E-1
7.059500E+9	-8.623047E-1	-1.960754E-1	9.611816E-1	2.257446E+0	6.137848E-2	-1.677704E-2	-2.159119E-1	-2.338562E-1
7.284000E+9	-8.642883E-1	-1.838989E-1	9.802246E-1	2.161865E+0	6.106949E-2	-1.807594E-2	-2.252350E-1	-2.336960E-1
7.508500E+9	-8.675232E-1	-1.725159E-1	9.953613E-1	2.072876E+0	6.102371E-2	-1.964951E-2	-2.269897E-1	-2.315521E-1
7.733000E+9	-8.677979E-1	-1.615601E-1	1.007202E+0	1.990051E+0	6.032562E-2	-2.104568E-2	-2.333145E-1	-2.342529E-1
7.957500E+9	-8.705444E-1	-1.510620E-1	1.020813E+0	1.911072E+0	6.083870E-2	-2.116013E-2	-2.390213E-1	-2.337723E-1
8.182000E+9	-8.714905E-1	-1.404724E-1	1.032532E+0	1.834961E+0	6.037712E-2	-2.286720E-2	-2.446823E-1	-2.347107E-1
8.406500E+9	-8.726501E-1	-1.326599E-1	1.038269E+0	1.759216E+0	5.990219E-2	-2.395058E-2	-2.493057E-1	-2.321396E-1
8.631000E+9	-8.745117E-1	-1.219177E-1	1.047119E+0	1.687683E+0	5.857277E-2	-2.477646E-2	-2.553101E-1	-2.338409E-1
8.855500E+9	-8.744812E-1	-1.131287E-1	1.052002E+0	1.617981E+0	5.836105E-2	-2.532196E-2	-2.621155E-1	-2.319031E-1
9.080001E+9	-8.762512E-1	-1.055908E-1	1.054687E+0	1.555481E+0	5.766106E-2	-2.662086E-2	-2.652435E-1	-2.309875E-1
9.304500E+9	-8.765564E-1	-9.472656E-2	1.056641E+0	1.491089E+0	5.662346E-2	-2.787781E-2	-2.716522E-1	-2.315063E-1
9.529000E+9	-8.761597E-1	-8.853149E-2	1.057190E+0	1.431946E+0	5.610085E-2	-2.837372E-2	-2.776642E-1	-2.304840E-1
9.753500E+9	-8.773804E-1	-8.044434E-2	1.056519E+0	1.374329E+0	5.594444E-2	-2.952385E-2	-2.813873E-1	-2.295532E-1
9.978000E+9	-8.768616E-1	-7.299805E-2	1.055603E+0	1.320923E+0	5.560875E-2	-3.017044E-2	-2.857666E-1	-2.294464E-1
1.020250E+10	-8.780823E-1	-6.594849E-2	1.055481E+0	1.268250E+0	5.379295E-2	-3.170204E-2	-2.918549E-1	-2.280579E-1
1.042700E+10	-8.785706E-1	-5.822754E-2	1.052368E+0	1.217896E+0	5.355072E-2	-3.192139E-2	-2.959290E-1	-2.278595E-1
1.065150E+10	-8.778992E-1	-5.081177E-2	1.051270E+0	1.170044E+0	5.294418E-2	-3.175354E-2	-3.020020E-1	-2.275848E-1
1.087600E+10	-8.784485E-1	-4.373169E-2	1.046692E+0	1.123718E+0	5.240822E-2	-3.382301E-2	-3.072510E-1	-2.258453E-1
1.110050E+10	-8.779297E-1	-3.701782E-2	1.044861E+0	1.076416E+0	5.125618E-2	-3.403091E-2	-3.121796E-1	-2.255249E-1
1.132500E+10	-8.775635E-1	-3.045654E-2	1.039673E+0	1.034607E+0	5.097008E-2	-3.532600E-2	-3.158264E-1	-2.260437E-1
1.154950E+10	-8.776855E-1	-2.304077E-2	1.035156E+0	9.916382E-1	4.926109E-2	-3.612518E-2	-3.245697E-1	-2.236786E-1
1.177400E+10	-8.767090E-1	-1.788330E-2	1.029236E+0	9.517822E-1	4.916191E-2	-3.580856E-2	-3.285522E-1	-2.211609E-1
1.199850E+10	-8.777161E-1	-1.080322E-2	1.024353E+0	9.131470E-1	4.841042E-2	-3.709984E-2	-3.329010E-1	-2.226562E-1
1.222300E+10	-8.772583E-1	-5.615234E-3	1.017700E+0	8.746338E-1	4.731941E-2	-3.749084E-2	-3.386230E-1	-2.210846E-1
1.244750E+10	-8.757324E-1	2.746582E-4	1.009888E+0	8.364868E-1	4.679298E-2	-3.816605E-2	-3.432617E-1	-2.183228E-1
1.267200E+10	-8.765259E-1	6.713867E-3	1.002991E+0	8.028564E-1	4.628944E-2	-3.914261E-2	-3.467865E-1	-2.196655E-1
1.289650E+10	-8.747253E-1	1.181030E-2	9.945679E-1	7.691345E-1	4.625893E-2	-3.936577E-2	-3.552399E-1	-2.175140E-1
1.312100E+10	-8.747864E-1	1.684570E-2	9.868774E-1	7.355652E-1	4.421234E-2	-4.028702E-2	-3.600922E-1	-2.133484E-1
1.334550E+10	-8.752441E-1	2.261353E-2	9.796448E-1	7.054749E-1	4.462433E-2	-4.112053E-2	-3.618317E-1	-2.138367E-1
1.357000E+10	-8.728943E-1	2.764893E-2	9.716797E-1	6.738281E-1	4.376411E-2	-4.147720E-2	-3.695374E-1	-2.135620E-1
1.379450E+10	-8.743286E-1	3.210449E-2	9.641113E-1	6.459351E-1	4.162216E-2	-4.219437E-2	-3.751831E-1	-2.091370E-1
1.401900E+10	-8.720398E-1	3.775024E-2	9.562073E-1	6.209717E-1	4.175949E-2	-4.213905E-2	-3.761902E-1	-2.090912E-1
1.424350E+10	-8.710937E-1	4.330444E-2	9.473572E-1	5.914001E-1	4.063988E-2	-4.325867E-2	-3.838806E-1	-2.058411E-1
1.446800E+10	-8.721619E-1	4.846191E-2	9.414062E-1	5.637207E-1	3.930473E-2	-4.423904E-2	-3.878937E-1	-1.995697E-1
1.469250E+10	-8.709106E-1	5.398560E-2	9.316101E-1	5.388794E-1	3.847504E-2	-4.421425E-2	-3.901367E-1	-1.993103E-1
1.491700E+10	-8.691711E-1	5.841064E-2	9.233093E-1	5.132446E-1	3.784180E-2	-4.390526E-2	-3.970642E-1	-2.000427E-1
1.514150E+10	-8.684082E-1	6.393433E-2	9.131165E-1	4.886169E-1	3.626633E-2	-4.504776E-2	-4.028473E-1	-1.938782E-1
1.536600E+10	-8.681641E-1	6.802368E-2	9.047546E-1	4.645691E-1	3.638458E-2	-4.519463E-2	-4.037628E-1	-1.922455E-1
1.559050E+10	-8.670654E-1	7.238770E-2	8.945923E-1	4.401855E-1	3.436089E-2	-4.636383E-2	-4.111786E-1	-1.918793E-1
1.581500E+10	-8.652039E-1	7.675171E-2	8.847656E-1	4.192200E-1	3.407860E-2	-4.591370E-2	-4.165649E-1	-1.883698E-1
1.603950E+10	-8.637085E-1	8.370972E-2	8.769531E-1	3.973389E-1	3.282356E-2	-4.638863E-2	-4.192963E-1	-1.876678E-1
1.626400E+10	-8.640747E-1	8.740234E-2	8.672485E-1	3.782959E-1	3.200340E-2	-4.636955E-2	-4.267883E-1	-1.847076E-1
1.648850E+10	-8.634949E-1	9.124756E-2	8.565979E-1	3.594360E-1	3.123856E-2	-4.800797E-2	-4.300995E-1	-1.781616E-1
1.671300E+10	-8.617249E-1	9.597778E-2	8.468933E-1	3.386841E-1	2.939224E-2	-4.805946E-2	-4.340363E-1	-1.782532E-1
1.693750E+10	-8.623352E-1	9.930420E-2	8.388977E-1	3.217468E-1	2.973938E-2	-4.849625E-2	-4.396973E-1	-1.754150E-1
1.716200E+10	-8.602295E-1	1.043701E-1	8.290100E-1	3.029175E-1	2.772141E-2	-4.812241E-2	-4.438782E-1	-1.691132E-1
1.738650E+10	-8.587646E-1	1.086731E-1	8.216858E-1	2.867126E-1	2.673340E-2	-4.953194E-2	-4.462738E-1	-1.670380E-1
1.761100E+10	-8.588867E-1	1.133728E-1	8.116455E-1	2.711792E-1	2.603722E-2	-4.858398E-2	-4.514923E-1	-1.654816E-1
1.783550E+10	-8.558960E-1	1.167297E-1	8.012085E-1	2.527466E-1	2.455330E-2	-4.922485E-2	-4.577484E-1	-1.592102E-1
1.806000E+10	-8.577271E-1	1.209106E-1	7.928467E-1	2.392273E-1	2.389526E-2	-4.918671E-2	-4.585419E-1	-1.561584E-1
1.828450E+10	-8.544006E-1	1.251526E-1	7.831116E-1	2.235107E-1	2.373314E-2	-4.927635E-2	-4.622498E-1	-1.548767E-1
1.850900E+10	-8.538818E-1	1.286926E-1	7.738647E-1	2.070618E-1	2.250671E-2	-4.991913E-2	-4.686127E-1	-1.494751E-1
1.873350E+10	-8.536072E-1	1.336365E-1	7.653503E-1	1.929626E-1	2.214432E-2	-5.027580E-2	-4.685669E-1	-1.434326E-1
1.895800E+10	-8.501282E-1	1.379395E-1	7.536316E-1	1.796570E-1	2.093315E-2	-5.084801E-2	-4.739838E-1	-1.439056E-1
1.918250E+10	-8.495178E-1	1.411133E-1	7.466431E-1	1.653137E-1	1.953506E-2	-4.943275E-2	-4.791870E-1	-1.394958E-1
1.940700E+10	-8.488464E-1	1.455994E-1	7.356873E-1	1.520081E-1	1.887131E-2	-4.948616E-2	-4.811249E-1	-1.314087E-1
1.963150E+10	-8.476257E-1	1.476746E-1	7.262878E-1	1.394653E-1	1.726723E-2	-5.069351E-2	-4.830475E-1	-1.321869E-1
1.985600E+10	-8.457642E-1	1.518860E-1	7.167358E-1	1.289978E-1	1.734352E-2	-4.901886E-2	-4.900360E-1	-1.284485E-1
2.008050E+10	-8.444214E-1	1.549683E-1	7.074890E-1	1.153564E-1	1.570129E-2	-4.929924E-2	-4.918060E-1	-1.199341E-1
2.030500E+10	-8.443298E-1	1.589661E-1	6.999207E-1	1.047363E-1	1.557350E-2	-5.038834E-2	-4.926758E-1	-1.196136E-1
2.052950E+10	-8.434448E-1	1.607361E-1	6.895142E-1	9.460449E-2	1.172256E-2	-5.057335E-2	-4.995728E-1	-1.163483E-1
2.075400E+10	-8.428345E-1	1.656494E-1	6.842957E-1	8.663940E-2	1.181602E-2	-4.977417E-2	-5.028687E-1	-1.109009E-1
2.097850E+10	-8.397522E-1	1.683655E-1	6.749268E-1	7.531738E-2	9.815216E-3	-5.014610E-2	-5.013428E-1	-1.065369E-1
2.120300E+10	-8.384094E-1	1.708069E-1	6.629944E-1	6.564331E-2	9.349823E-3	-5.088997E-2	-5.078430E-1	-1.047363E-1
2.142750E+10	-8.385010E-1	1.752930E-1	6.566772E-1	5.358887E-2	7.656097E-3	-4.971313E-2	-5.136719E-1	-9.851074E-2
2.165200E+10	-8.398743E-1	1.767273E-1	6.493225E-1	4.467773E-2	8.926392E-3	-4.742050E-2	-5.136414E-1	-9.280396E-2
2.187650E+10	-8.364563E-1	1.826477E-1	6.382751E-1	3.921509E-2	6.151199E-3	-5.012703E-2	-5.187988E-1	-9.030151E-2
2.210100E+10	-8.352661E-1	1.862183E-1	6.308594E-1	2.673340E-2	4.888535E-3	-4.863739E-2	-5.219421E-1	-8.312988E-2
2.232550E+10	-8.327332E-1	1.893005E-1	6.222839E-1	1.998901E-2	4.150391E-3	-5.111504E-2	-5.204773E-1	-7.672119E-2
2.255000E+10	-8.330383E-1	1.936951E-1	6.130676E-1	1.309204E-2	2.693176E-3	-4.804993E-2	-5.261536E-1	-7.647705E-2
2.277450E+10	-8.298645E-1	1.973572E-1	6.052551E-1	4.882812E-3	1.928329E-3	-4.828835E-2	-5.291748E-1	-7.049561E-2
2.299900E+10	-8.298950E-1	2.002869E-1	5.988770E-1	-2.624512E-3	1.985550E-3	-4.921722E-2	-5.291748E-1	-6.686401E-2
2.322350E+10	-8.275146E-1	2.031860E-1	5.929565E-1	-1.248169E-2	-1.556396E-3	-4.885864E-2	-5.360107E-1	-6.359863E-2
2.344800E+10	-8.251953E-1	2.056274E-1	5.844116E-1	-1.733398E-2	-1.626968E-3	-4.875565E-2	-5.372009E-1	-5.435181E-2
2.367250E+10	-8.266602E-1	2.108459E-1	5.751038E-1	-2.410889E-2	-2.590179E-3	-4.827309E-2	-5.357971E-1	-4.891968E-2
2.389700E+10	-8.231506E-1	2.127686E-1	5.681152E-1	-3.234863E-2	-2.992630E-3	-4.673386E-2	-5.412903E-1	-4.736328E-2
2.412150E+10	-8.217773E-1	2.154541E-1	5.581665E-1	-3.890991E-2	-5.224228E-3	-4.573631E-2	-5.420227E-1	-3.735352E-2
2.434600E+10	-8.192444E-1	2.202148E-1	5.508728E-1	-4.470825E-2	-5.233765E-3	-4.608917E-2	-5.423889E-1	-3.552246E-2
2.457050E+10	-8.186951E-1	2.225952E-1	5.437622E-1	-4.974365E-2	-7.787704E-3	-4.525185E-2	-5.453491E-1	-3.213501E-2
2.479500E+10	-8.179321E-1	2.251892E-1	5.348816E-1	-5.581665E-2	-7.165909E-3	-4.561043E-2	-5.454407E-1	-2.340698E-2
2.501950E+10	-8.155212E-1	2.281189E-1	5.290527E-1	-6.222534E-2	-8.134842E-3	-4.363441E-2	-5.419617E-1	-2.197266E-2
2.524400E+10	-8.138733E-1	2.330017E-1	5.199890E-1	-6.896973E-2	-1.019859E-2	-4.283524E-2	-5.461731E-1	-1.806641E-2
2.546850E+10	-8.118286E-1	2.348022E-1	5.128784E-1	-6.961060E-2	-1.149559E-2	-4.214859E-2	-5.480957E-1	-1.000977E-2
2.569300E+10	-8.102417E-1	2.374268E-1	5.067139E-1	-7.391357E-2	-1.177406E-2	-4.192162E-2	-5.487976E-1	-1.028442E-2
2.591750E+10	-8.098145E-1	2.421265E-1	5.008240E-1	-8.081055E-2	-1.225853E-2	-4.103088E-2	-5.498047E-1	-5.187988E-3
2.614200E+10	-8.073425E-1	2.444763E-1	4.924469E-1	-8.169556E-2	-1.349258E-2	-4.048538E-2	-5.589294E-1	2.319336E-3
2.636650E+10	-8.064880E-1	2.448120E-1	4.876404E-1	-8.786011E-2	-1.412773E-2	-4.112244E-2	-5.614624E-1	9.643555E-3
2.659100E+10	-8.037109E-1	2.482910E-1	4.810181E-1	-9.222412E-2	-1.498795E-2	-3.969002E-2	-5.559998E-1	1.571655E-2
2.681550E+10	-8.006592E-1	2.501526E-1	4.748840E-1	-9.716797E-2	-1.579666E-2	-3.808022E-2	-5.616150E-1	1.605225E-2
2.704000E+10	-8.023682E-1	2.538452E-1	4.658051E-1	-9.867859E-2	-1.799393E-2	-3.750420E-2	-5.614929E-1	2.908325E-2
2.726450E+10	-7.980652E-1	2.603149E-1	4.635010E-1	-1.042786E-1	-1.873970E-2	-3.782463E-2	-5.557861E-1	3.030396E-2
2.748900E+10	-7.969971E-1	2.569885E-1	4.573059E-1	-1.110382E-1	-1.905632E-2	-3.884697E-2	-5.605164E-1	3.317261E-2
2.771350E+10	-7.925110E-1	2.642822E-1	4.481201E-1	-1.107178E-1	-1.866341E-2	-3.579140E-2	-5.607300E-1	4.162598E-2
2.793800E+10	-7.965088E-1	2.650146E-1	4.419250E-1	-1.159821E-1	-2.035522E-2	-3.220177E-2	-5.596313E-1	4.519653E-2
2.816250E+10	-7.941589E-1	2.651672E-1	4.359283E-1	-1.166229E-1	-2.092743E-2	-3.367615E-2	-5.650635E-1	5.120850E-2
2.838700E+10	-7.879028E-1	2.680664E-1	4.314423E-1	-1.203613E-1	-2.469254E-2	-3.309631E-2	-5.635071E-1	5.581665E-2
2.861150E+10	-7.899170E-1	2.739868E-1	4.259796E-1	-1.242676E-1	-2.358055E-2	-3.372192E-2	-5.624390E-1	6.320190E-2
2.883600E+10	-7.880249E-1	2.751160E-1	4.202118E-1	-1.266327E-1	-2.484798E-2	-2.993774E-2	-5.657959E-1	6.448364E-2
2.906050E+10	-7.866821E-1	2.783203E-1	4.149323E-1	-1.282196E-1	-2.531624E-2	-3.072643E-2	-5.633850E-1	7.281494E-2
2.928500E+10	-7.859802E-1	2.810669E-1	4.073029E-1	-1.323547E-1	-2.556515E-2	-2.964878E-2	-5.682373E-1	7.635498E-2
2.950950E+10	-7.815552E-1	2.867126E-1	4.051514E-1	-1.336517E-1	-2.614117E-2	-2.777672E-2	-5.683899E-1	8.123779E-2
2.973400E+10	-7.839355E-1	2.861938E-1	4.015503E-1	-1.349182E-1	-2.367115E-2	-2.631474E-2	-5.647278E-1	8.813477E-2
2.995850E+10	-7.762146E-1	2.895813E-1	3.936768E-1	-1.369476E-1	-2.636147E-2	-2.391911E-2	-5.715637E-1	9.280396E-2
3.018300E+10	-7.771301E-1	2.898254E-1	3.900146E-1	-1.429749E-1	-2.696037E-2	-2.699852E-2	-5.687256E-1	9.848022E-2
3.040750E+10	-7.734070E-1	2.934570E-1	3.867187E-1	-1.444397E-1	-2.665806E-2	-2.499580E-2	-5.705872E-1	1.072998E-1
3.063200E+10	-7.699585E-1	2.975769E-1	3.823853E-1	-1.490936E-1	-2.915287E-2	-2.217579E-2	-5.693970E-1	1.145325E-1
3.085650E+10	-7.712402E-1	2.957764E-1	3.782043E-1	-1.509399E-1	-2.811146E-2	-1.914406E-2	-5.722046E-1	1.158752E-1
3.108100E+10	-7.727661E-1	3.007812E-1	3.752136E-1	-1.541748E-1	-2.924252E-2	-1.683712E-2	-5.721741E-1	1.304626E-1
3.130550E+10	-7.676392E-1	3.021240E-1	3.638306E-1	-1.537476E-1	-3.038502E-2	-2.015972E-2	-5.630493E-1	1.299744E-1
3.153000E+10	-7.689209E-1	2.997131E-1	3.649139E-1	-1.551971E-1	-3.020477E-2	-1.666737E-2	-5.639648E-1	1.329041E-1
3.175450E+10	-7.693481E-1	3.078003E-1	3.542633E-1	-1.537018E-1	-3.237724E-2	-1.485825E-2	-5.669250E-1	1.458435E-1
3.197900E+10	-7.644348E-1	3.066101E-1	3.547516E-1	-1.617737E-1	-3.467560E-2	-1.609993E-2	-5.627136E-1	1.485901E-1
3.220350E+10	-7.668457E-1	3.125305E-1	3.526001E-1	-1.655426E-1	-3.658676E-2	-1.093483E-2	-5.632019E-1	1.534424E-1
3.242800E+10	-7.606812E-1	3.169250E-1	3.497162E-1	-1.618500E-1	-3.207588E-2	-1.378441E-2	-5.611267E-1	1.621704E-1
3.265250E+10	-7.572937E-1	3.185120E-1	3.421021E-1	-1.690369E-1	-3.282738E-2	-8.216858E-3	-5.604858E-1	1.642761E-1
3.287700E+10	-7.608032E-1	3.250427E-1	3.399506E-1	-1.700287E-1	-3.364754E-2	-1.156998E-2	-5.596924E-1	1.653442E-1
3.310150E+10	-7.572632E-1	3.229980E-1	3.312225E-1	-1.680603E-1	-3.141403E-2	-9.679794E-3	-5.575867E-1	1.791687E-1
3.332600E+10	-7.533569E-1	3.284607E-1	3.288879E-1	-1.741333E-1	-3.445244E-2	-5.514145E-3	-5.568848E-1	1.751709E-1
3.355050E+10	-7.519836E-1	3.255615E-1	3.308105E-1	-1.775208E-1	-3.390121E-2	-4.808426E-3	-5.569763E-1	1.841125E-1
3.377500E+10	-7.518005E-1	3.326416E-1	3.210144E-1	-1.745453E-1	-2.914143E-2	-3.433228E-3	-5.549316E-1	1.931763E-1
3.399950E+10	-7.504883E-1	3.323975E-1	3.169098E-1	-1.758575E-1	-3.350639E-2	-1.314163E-3	-5.598755E-1	1.952515E-1
3.422400E+10	-7.500305E-1	3.337402E-1	3.149719E-1	-1.791687E-1	-3.215599E-2	-4.806519E-4	-5.540466E-1	2.084045E-1
3.444850E+10	-7.453308E-1	3.362427E-1	3.089600E-1	-1.855621E-1	-3.340721E-2	9.841919E-4	-5.502930E-1	2.124939E-1
3.467300E+10	-7.416382E-1	3.374329E-1	3.179016E-1	-1.816406E-1	-3.191185E-2	-2.225876E-3	-5.529175E-1	2.226868E-1
3.489750E+10	-7.428589E-1	3.423462E-1	3.048706E-1	-1.843262E-1	-3.205681E-2	3.623962E-5	-5.523071E-1	2.299194E-1
3.512200E+10	-7.428894E-1	3.406677E-1	3.017578E-1	-1.887360E-1	-3.240585E-2	2.737045E-3	-5.473022E-1	2.266235E-1
3.534650E+10	-7.401733E-1	3.442383E-1	2.995300E-1	-1.882935E-1	-3.555870E-2	4.476547E-3	-5.471802E-1	2.339783E-1
3.557100E+10	-7.390747E-1	3.444214E-1	2.943268E-1	-1.920166E-1	-3.309631E-2	5.290985E-3	-5.397034E-1	2.450867E-1
3.579550E+10	-7.368469E-1	3.491516E-1	2.932129E-1	-1.936646E-1	-3.087521E-2	9.145737E-3	-5.387573E-1	2.555237E-1
3.602000E+10	-7.330627E-1	3.500671E-1	2.873077E-1	-1.924591E-1	-3.296471E-2	1.041031E-2	-5.402832E-1	2.582092E-1
3.624450E+10	-7.344666E-1	3.508301E-1	2.862701E-1	-1.955109E-1	-3.441238E-2	1.189423E-2	-5.330811E-1	2.601318E-1
3.646900E+10	-7.316895E-1	3.558350E-1	2.839661E-1	-2.003937E-1	-2.930450E-2	1.327324E-2	-5.306702E-1	2.738953E-1
3.669350E+10	-7.288513E-1	3.568726E-1	2.832947E-1	-1.963654E-1	-2.997684E-2	1.373386E-2	-5.245056E-1	2.682190E-1
3.691800E+10	-7.282715E-1	3.594971E-1	2.770996E-1	-2.009430E-1	-2.764225E-2	1.608086E-2	-5.231323E-1	2.868652E-1
3.714250E+10	-7.280884E-1	3.609619E-1	2.693481E-1	-2.047882E-1	-3.388596E-2	1.681709E-2	-5.190125E-1	2.957153E-1
3.736700E+10	-7.178650E-1	3.599854E-1	2.732544E-1	-2.081909E-1	-3.517723E-2	1.630020E-2	-5.171509E-1	3.000793E-1
3.759150E+10	-7.171936E-1	3.642883E-1	2.670441E-1	-2.065430E-1	-3.262329E-2	1.785469E-2	-5.127869E-1	2.995300E-1
3.781600E+10	-7.191467E-1	3.676453E-1	2.605591E-1	-2.087097E-1	-2.933788E-2	2.293682E-2	-5.101318E-1	3.106079E-1
3.804050E+10	-7.203979E-1	3.590393E-1	2.578583E-1	-2.085114E-1	-3.037834E-2	2.042675E-2	-4.990540E-1	3.184509E-1
3.826500E+10	-7.210083E-1	3.727112E-1	2.566986E-1	-2.128754E-1	-3.205681E-2	2.227020E-2	-4.966431E-1	3.256836E-1
3.848950E+10	-7.139282E-1	3.743286E-1	2.549438E-1	-2.116852E-1	-2.694035E-2	2.688503E-2	-4.959106E-1	3.300629E-1
3.871400E+10	-7.130127E-1	3.687744E-1	2.512970E-1	-2.134247E-1	-2.937508E-2	2.249908E-2	-4.901276E-1	3.363800E-1
3.893850E+10	-7.180176E-1	3.718567E-1	2.552795E-1	-2.205200E-1	-2.432442E-2	3.027248E-2	-4.816742E-1	3.412323E-1
3.916300E+10	-7.111511E-1	3.784180E-1	2.480011E-1	-2.251663E-1	-2.614212E-2	2.947044E-2	-4.811554E-1	3.364105E-1
