!Date: 10/28/2005, 12:46 PM

!Vgs = -6.000000E+0
!Vds = 7.500000E+0
!Ig = -6.736800E-5
!Id = 2.938000E-3

# HZ S RI R 50
1.000000E+8	9.898376E-1	-4.104614E-2	-1.193199E-1	1.010895E-2	-2.875328E-4	9.440422E-3	9.711914E-1	-1.260376E-2
3.245000E+8	9.770203E-1	-1.159973E-1	-1.159592E-1	4.678726E-2	5.651474E-3	3.534508E-2	9.477234E-1	-9.121704E-2
5.490000E+8	9.598083E-1	-1.882324E-1	-1.067123E-1	7.879639E-2	1.314926E-2	5.756378E-2	9.405212E-1	-1.465454E-1
7.735000E+8	9.380188E-1	-2.590332E-1	-9.294510E-2	1.082268E-1	2.300644E-2	7.775497E-2	9.229126E-1	-2.029114E-1
9.980000E+8	9.131165E-1	-3.235474E-1	-7.584381E-2	1.341705E-1	3.478241E-2	9.614944E-2	9.045410E-1	-2.519836E-1
1.222500E+9	8.829041E-1	-3.866577E-1	-5.722809E-2	1.582184E-1	4.840088E-2	1.125793E-1	8.835754E-1	-3.025513E-1
1.447000E+9	8.492737E-1	-4.458008E-1	-3.644562E-2	1.792374E-1	6.323242E-2	1.272583E-1	8.598022E-1	-3.503723E-1
1.671500E+9	8.119202E-1	-5.010681E-1	-1.480865E-2	1.984100E-1	7.889557E-2	1.411667E-1	8.330383E-1	-3.935547E-1
1.896000E+9	7.722168E-1	-5.509338E-1	9.735107E-3	2.147751E-1	9.731293E-2	1.536789E-1	8.085022E-1	-4.336548E-1
2.120500E+9	7.313538E-1	-5.973206E-1	3.643036E-2	2.268982E-1	1.166840E-1	1.616440E-1	7.815552E-1	-4.752808E-1
2.345000E+9	6.855774E-1	-6.408691E-1	6.324005E-2	2.361069E-1	1.368637E-1	1.675415E-1	7.511292E-1	-5.131531E-1
2.569500E+9	6.416016E-1	-6.770325E-1	8.924866E-2	2.411270E-1	1.554871E-1	1.704025E-1	7.209473E-1	-5.483704E-1
2.794000E+9	5.960999E-1	-7.117004E-1	1.142654E-1	2.450027E-1	1.750946E-1	1.726151E-1	6.895752E-1	-5.804138E-1
3.018500E+9	5.499878E-1	-7.412109E-1	1.392441E-1	2.457962E-1	1.933823E-1	1.715698E-1	6.553955E-1	-6.123352E-1
3.243000E+9	5.044861E-1	-7.676392E-1	1.642914E-1	2.441483E-1	2.121506E-1	1.690598E-1	6.212463E-1	-6.405334E-1
3.467500E+9	4.592590E-1	-7.913208E-1	1.864395E-1	2.411957E-1	2.288818E-1	1.655731E-1	5.879211E-1	-6.652222E-1
3.692000E+9	4.141235E-1	-8.106384E-1	2.088318E-1	2.360458E-1	2.456360E-1	1.606903E-1	5.531006E-1	-6.904297E-1
3.916500E+9	3.685608E-1	-8.270569E-1	2.303619E-1	2.289734E-1	2.613678E-1	1.535950E-1	5.175781E-1	-7.095337E-1
4.141000E+9	3.259277E-1	-8.409729E-1	2.505035E-1	2.208252E-1	2.763367E-1	1.468048E-1	4.848938E-1	-7.285461E-1
4.365500E+9	2.849426E-1	-8.533325E-1	2.689056E-1	2.114258E-1	2.900696E-1	1.382141E-1	4.513855E-1	-7.468872E-1
4.590000E+9	2.421265E-1	-8.634338E-1	2.860260E-1	2.005463E-1	3.033447E-1	1.284180E-1	4.158936E-1	-7.625122E-1
4.814500E+9	2.019348E-1	-8.703613E-1	3.024139E-1	1.884308E-1	3.157196E-1	1.182709E-1	3.837585E-1	-7.770081E-1
5.039000E+9	1.624146E-1	-8.763428E-1	3.175201E-1	1.754761E-1	3.267517E-1	1.068420E-1	3.502197E-1	-7.911072E-1
5.263500E+9	1.239014E-1	-8.782349E-1	3.307343E-1	1.618500E-1	3.369141E-1	9.510803E-2	3.154907E-1	-8.015442E-1
5.488000E+9	8.822632E-2	-8.805847E-1	3.427887E-1	1.477203E-1	3.453827E-1	8.320618E-2	2.848816E-1	-8.106995E-1
5.712500E+9	5.175781E-2	-8.817749E-1	3.540344E-1	1.331024E-1	3.529358E-1	7.064819E-2	2.528687E-1	-8.200989E-1
5.937000E+9	1.770020E-2	-8.796082E-1	3.629913E-1	1.179810E-1	3.603210E-1	5.683899E-2	2.206726E-1	-8.279419E-1
6.161500E+9	-1.361084E-2	-8.793335E-1	3.709717E-1	1.031036E-1	3.653412E-1	4.469299E-2	1.896973E-1	-8.341980E-1
6.386000E+9	-4.696655E-2	-8.772888E-1	3.773956E-1	8.868408E-2	3.702545E-1	3.126526E-2	1.581421E-1	-8.395081E-1
6.610500E+9	-7.604980E-2	-8.731384E-1	3.837128E-1	7.334900E-2	3.737183E-1	1.924133E-2	1.261902E-1	-8.444214E-1
6.835000E+9	-1.064148E-1	-8.694763E-1	3.885803E-1	5.863953E-2	3.769989E-1	6.134033E-3	9.609985E-2	-8.459778E-1
7.059500E+9	-1.331482E-1	-8.637390E-1	3.921204E-1	4.421997E-2	3.787231E-1	-4.928589E-3	6.979370E-2	-8.481140E-1
7.284000E+9	-1.609192E-1	-8.587952E-1	3.952942E-1	2.833557E-2	3.801727E-1	-1.878357E-2	3.848267E-2	-8.498230E-1
7.508500E+9	-1.883545E-1	-8.520203E-1	3.975677E-1	1.406860E-2	3.814697E-1	-3.111267E-2	1.016235E-2	-8.480530E-1
7.733000E+9	-2.128906E-1	-8.446655E-1	3.986969E-1	0.000000E+0	3.811340E-1	-4.309082E-2	-1.550293E-2	-8.488464E-1
7.957500E+9	-2.371826E-1	-8.385010E-1	3.991241E-1	-1.377869E-2	3.806610E-1	-5.429077E-2	-4.501343E-2	-8.471375E-1
8.182000E+9	-2.593994E-1	-8.308716E-1	3.990631E-1	-2.682495E-2	3.796997E-1	-6.585693E-2	-7.098389E-2	-8.464355E-1
8.406500E+9	-2.828369E-1	-8.233337E-1	3.980865E-1	-3.935242E-2	3.777771E-1	-7.707214E-2	-9.780884E-2	-8.414917E-1
8.631000E+9	-3.062134E-1	-8.145142E-1	3.965149E-1	-5.317688E-2	3.755646E-1	-8.871460E-2	-1.241455E-1	-8.391113E-1
8.855500E+9	-3.255920E-1	-8.066711E-1	3.947754E-1	-6.546021E-2	3.734894E-1	-9.909058E-2	-1.496582E-1	-8.335266E-1
9.080001E+9	-3.446960E-1	-7.994080E-1	3.926392E-1	-7.707214E-2	3.709106E-1	-1.088104E-1	-1.729431E-1	-8.283081E-1
9.304500E+9	-3.658447E-1	-7.893066E-1	3.895721E-1	-8.865356E-2	3.670807E-1	-1.188202E-1	-1.975403E-1	-8.230286E-1
9.529000E+9	-3.829346E-1	-7.817993E-1	3.863831E-1	-9.948730E-2	3.639221E-1	-1.289062E-1	-2.208252E-1	-8.158264E-1
9.753500E+9	-4.032593E-1	-7.723389E-1	3.822937E-1	-1.104279E-1	3.597717E-1	-1.372833E-1	-2.428284E-1	-8.085632E-1
9.978000E+9	-4.195251E-1	-7.635803E-1	3.778534E-1	-1.203461E-1	3.553925E-1	-1.462250E-1	-2.644653E-1	-8.030090E-1
1.020250E+10	-4.364624E-1	-7.550049E-1	3.734283E-1	-1.318970E-1	3.513641E-1	-1.552734E-1	-2.879333E-1	-7.944641E-1
1.042700E+10	-4.534302E-1	-7.451782E-1	3.689270E-1	-1.417236E-1	3.468628E-1	-1.633606E-1	-3.070679E-1	-7.871399E-1
1.065150E+10	-4.683838E-1	-7.356567E-1	3.636475E-1	-1.501465E-1	3.411560E-1	-1.713409E-1	-3.272400E-1	-7.789917E-1
1.087600E+10	-4.833069E-1	-7.270203E-1	3.587952E-1	-1.593628E-1	3.360901E-1	-1.788483E-1	-3.488159E-1	-7.707520E-1
1.110050E+10	-4.987488E-1	-7.170715E-1	3.535767E-1	-1.678467E-1	3.308716E-1	-1.863861E-1	-3.679810E-1	-7.614746E-1
1.132500E+10	-5.129089E-1	-7.075195E-1	3.476105E-1	-1.758270E-1	3.254852E-1	-1.930389E-1	-3.858948E-1	-7.540588E-1
1.154950E+10	-5.267639E-1	-6.976318E-1	3.418274E-1	-1.832886E-1	3.200531E-1	-2.002106E-1	-4.066772E-1	-7.428589E-1
1.177400E+10	-5.396118E-1	-6.880188E-1	3.369751E-1	-1.907043E-1	3.136902E-1	-2.056732E-1	-4.232483E-1	-7.312317E-1
1.199850E+10	-5.543518E-1	-6.797791E-1	3.310089E-1	-1.976929E-1	3.078156E-1	-2.120514E-1	-4.398499E-1	-7.249756E-1
1.222300E+10	-5.649109E-1	-6.703491E-1	3.254547E-1	-2.044983E-1	3.033905E-1	-2.181702E-1	-4.594116E-1	-7.130127E-1
1.244750E+10	-5.776367E-1	-6.611938E-1	3.176270E-1	-2.114258E-1	2.971649E-1	-2.237701E-1	-4.761047E-1	-7.006531E-1
1.267200E+10	-5.895691E-1	-6.512756E-1	3.116760E-1	-2.177277E-1	2.910461E-1	-2.283936E-1	-4.902344E-1	-6.936035E-1
1.289650E+10	-5.983582E-1	-6.417236E-1	3.053894E-1	-2.227631E-1	2.854309E-1	-2.332153E-1	-5.068359E-1	-6.821899E-1
1.312100E+10	-6.109009E-1	-6.329956E-1	2.995148E-1	-2.296600E-1	2.783508E-1	-2.386169E-1	-5.219116E-1	-6.675720E-1
1.334550E+10	-6.223755E-1	-6.236267E-1	2.928467E-1	-2.339935E-1	2.730865E-1	-2.431946E-1	-5.350037E-1	-6.593018E-1
1.357000E+10	-6.329346E-1	-6.126709E-1	2.868042E-1	-2.405853E-1	2.652283E-1	-2.471771E-1	-5.511169E-1	-6.501770E-1
1.379450E+10	-6.400757E-1	-6.054382E-1	2.796783E-1	-2.441864E-1	2.610779E-1	-2.511444E-1	-5.664978E-1	-6.333618E-1
1.401900E+10	-6.503296E-1	-5.963440E-1	2.741089E-1	-2.478943E-1	2.548218E-1	-2.545471E-1	-5.758057E-1	-6.245422E-1
1.424350E+10	-6.612244E-1	-5.866699E-1	2.674255E-1	-2.526855E-1	2.475433E-1	-2.593384E-1	-5.918274E-1	-6.130981E-1
1.446800E+10	-6.685486E-1	-5.778198E-1	2.613983E-1	-2.576294E-1	2.426605E-1	-2.622986E-1	-6.042175E-1	-5.972290E-1
1.469250E+10	-6.784668E-1	-5.679321E-1	2.546539E-1	-2.612610E-1	2.362976E-1	-2.659454E-1	-6.122131E-1	-5.878296E-1
1.491700E+10	-6.870728E-1	-5.599365E-1	2.466583E-1	-2.642822E-1	2.304993E-1	-2.684784E-1	-6.276550E-1	-5.773621E-1
1.514150E+10	-6.950989E-1	-5.509644E-1	2.415619E-1	-2.673645E-1	2.238312E-1	-2.719269E-1	-6.406860E-1	-5.613098E-1
1.536600E+10	-7.043762E-1	-5.397644E-1	2.357788E-1	-2.706146E-1	2.171173E-1	-2.739563E-1	-6.484070E-1	-5.487976E-1
1.559050E+10	-7.112122E-1	-5.312500E-1	2.278290E-1	-2.727814E-1	2.119598E-1	-2.769928E-1	-6.615295E-1	-5.386353E-1
1.581500E+10	-7.189331E-1	-5.218506E-1	2.217712E-1	-2.750854E-1	2.055206E-1	-2.781219E-1	-6.735535E-1	-5.224304E-1
1.603950E+10	-7.265625E-1	-5.142212E-1	2.149811E-1	-2.785950E-1	2.006531E-1	-2.794189E-1	-6.797791E-1	-5.119629E-1
1.626400E+10	-7.338562E-1	-5.060425E-1	2.078552E-1	-2.806549E-1	1.931458E-1	-2.824402E-1	-6.922302E-1	-4.995728E-1
1.648850E+10	-7.410889E-1	-4.964294E-1	2.025604E-1	-2.834473E-1	1.879578E-1	-2.846069E-1	-7.013550E-1	-4.852905E-1
1.671300E+10	-7.473450E-1	-4.859314E-1	1.962585E-1	-2.855682E-1	1.828613E-1	-2.857971E-1	-7.086792E-1	-4.735107E-1
1.693750E+10	-7.539062E-1	-4.794922E-1	1.907349E-1	-2.878265E-1	1.769714E-1	-2.865601E-1	-7.199402E-1	-4.615173E-1
1.716200E+10	-7.600098E-1	-4.706726E-1	1.852722E-1	-2.888336E-1	1.710052E-1	-2.894592E-1	-7.263489E-1	-4.457397E-1
1.738650E+10	-7.664795E-1	-4.626160E-1	1.778870E-1	-2.904816E-1	1.636658E-1	-2.890472E-1	-7.326355E-1	-4.339294E-1
1.761100E+10	-7.718811E-1	-4.536743E-1	1.735992E-1	-2.919159E-1	1.604614E-1	-2.901764E-1	-7.422180E-1	-4.233398E-1
1.783550E+10	-7.810364E-1	-4.443970E-1	1.664276E-1	-2.933044E-1	1.536407E-1	-2.911072E-1	-7.517090E-1	-4.069519E-1
1.806000E+10	-7.847595E-1	-4.359131E-1	1.611633E-1	-2.944641E-1	1.497955E-1	-2.939453E-1	-7.539062E-1	-3.951721E-1
1.828450E+10	-7.905884E-1	-4.274292E-1	1.558075E-1	-2.946625E-1	1.449585E-1	-2.933807E-1	-7.628174E-1	-3.840942E-1
1.850900E+10	-7.951050E-1	-4.187927E-1	1.506500E-1	-2.952118E-1	1.379089E-1	-2.930908E-1	-7.705383E-1	-3.702393E-1
1.873350E+10	-8.010254E-1	-4.093323E-1	1.441956E-1	-2.964325E-1	1.316681E-1	-2.961273E-1	-7.763367E-1	-3.535461E-1
1.895800E+10	-8.049011E-1	-4.023743E-1	1.395264E-1	-2.973785E-1	1.282959E-1	-2.947998E-1	-7.810364E-1	-3.432007E-1
1.918250E+10	-8.096313E-1	-3.950500E-1	1.315308E-1	-2.993622E-1	1.233978E-1	-2.967224E-1	-7.869263E-1	-3.321533E-1
1.940700E+10	-8.145447E-1	-3.852234E-1	1.279144E-1	-2.982941E-1	1.160736E-1	-2.958984E-1	-7.910156E-1	-3.135071E-1
1.963150E+10	-8.210449E-1	-3.766479E-1	1.220245E-1	-2.973480E-1	1.121979E-1	-2.973480E-1	-7.954102E-1	-3.040466E-1
1.985600E+10	-8.244324E-1	-3.688354E-1	1.174622E-1	-2.986755E-1	1.072845E-1	-2.954407E-1	-8.014221E-1	-2.904358E-1
2.008050E+10	-8.268433E-1	-3.621521E-1	1.121826E-1	-2.963867E-1	1.012726E-1	-2.968140E-1	-8.064880E-1	-2.728271E-1
2.030500E+10	-8.330383E-1	-3.536072E-1	1.060791E-1	-2.983398E-1	9.768677E-2	-2.965240E-1	-8.072205E-1	-2.644348E-1
2.052950E+10	-8.364868E-1	-3.455811E-1	1.006622E-1	-2.984314E-1	9.132385E-2	-2.952271E-1	-8.153687E-1	-2.510376E-1
2.075400E+10	-8.405457E-1	-3.383179E-1	9.762573E-2	-2.996979E-1	8.749390E-2	-2.955017E-1	-8.189392E-1	-2.371826E-1
2.097850E+10	-8.456116E-1	-3.291931E-1	9.249878E-2	-2.988739E-1	8.294678E-2	-2.951355E-1	-8.173218E-1	-2.236328E-1
2.120300E+10	-8.477783E-1	-3.204651E-1	8.757019E-2	-2.983551E-1	7.868958E-2	-2.933807E-1	-8.252869E-1	-2.157593E-1
2.142750E+10	-8.533020E-1	-3.123169E-1	8.155823E-2	-2.955170E-1	7.400513E-2	-2.939301E-1	-8.296204E-1	-2.011414E-1
2.165200E+10	-8.554993E-1	-3.042908E-1	7.606506E-2	-2.959442E-1	7.102966E-2	-2.921295E-1	-8.312683E-1	-1.870728E-1
2.187650E+10	-8.598633E-1	-2.980042E-1	7.466125E-2	-2.959442E-1	6.744385E-2	-2.932739E-1	-8.354187E-1	-1.763916E-1
2.210100E+10	-8.644104E-1	-2.863770E-1	6.756592E-2	-2.952728E-1	6.163025E-2	-2.911377E-1	-8.388977E-1	-1.598816E-1
2.232550E+10	-8.655090E-1	-2.770386E-1	6.427002E-2	-2.966919E-1	5.848694E-2	-2.908173E-1	-8.374634E-1	-1.480408E-1
2.255000E+10	-8.707275E-1	-2.720947E-1	5.912781E-2	-2.947693E-1	5.351257E-2	-2.919617E-1	-8.400269E-1	-1.363525E-1
2.277450E+10	-8.705444E-1	-2.624207E-1	5.508423E-2	-2.962036E-1	4.843140E-2	-2.920685E-1	-8.439026E-1	-1.210937E-1
2.299900E+10	-8.746643E-1	-2.572937E-1	5.085754E-2	-2.931976E-1	4.396057E-2	-2.900391E-1	-8.434143E-1	-1.074829E-1
2.322350E+10	-8.758545E-1	-2.488708E-1	4.512024E-2	-2.921753E-1	4.200745E-2	-2.892609E-1	-8.480225E-1	-9.771729E-2
2.344800E+10	-8.774109E-1	-2.428894E-1	4.306030E-2	-2.901306E-1	3.692627E-2	-2.867432E-1	-8.480835E-1	-8.053589E-2
2.367250E+10	-8.818359E-1	-2.344055E-1	3.924561E-2	-2.898712E-1	3.047180E-2	-2.874603E-1	-8.475037E-1	-6.842041E-2
2.389700E+10	-8.834229E-1	-2.264404E-1	3.498840E-2	-2.897949E-1	2.818298E-2	-2.870941E-1	-8.497314E-1	-5.755615E-2
2.412150E+10	-8.873596E-1	-2.223511E-1	3.115845E-2	-2.894592E-1	2.378845E-2	-2.848663E-1	-8.473816E-1	-3.933716E-2
2.434600E+10	-8.899536E-1	-2.136536E-1	2.586365E-2	-2.892761E-1	2.108765E-2	-2.860718E-1	-8.464661E-1	-3.005981E-2
2.457050E+10	-8.932495E-1	-2.049561E-1	2.288818E-2	-2.888336E-1	1.617432E-2	-2.839050E-1	-8.484802E-1	-1.718140E-2
2.479500E+10	-8.933411E-1	-1.965942E-1	1.858521E-2	-2.853394E-1	1.283264E-2	-2.839203E-1	-8.461304E-1	-1.434326E-3
2.501950E+10	-8.927917E-1	-1.925964E-1	1.307678E-2	-2.852325E-1	7.400513E-3	-2.830963E-1	-8.422546E-1	8.026123E-3
2.524400E+10	-8.987732E-1	-1.847229E-1	9.048462E-3	-2.839661E-1	3.387451E-3	-2.788849E-1	-8.420715E-1	1.925659E-2
2.546850E+10	-8.989258E-1	-1.752014E-1	6.622314E-3	-2.826080E-1	1.312256E-3	-2.787933E-1	-8.395996E-1	3.250122E-2
2.569300E+10	-9.032898E-1	-1.702271E-1	3.173828E-3	-2.794800E-1	-1.586914E-3	-2.770844E-1	-8.371582E-1	3.973389E-2
2.591750E+10	-9.050598E-1	-1.604004E-1	-1.586914E-3	-2.801056E-1	-4.470825E-3	-2.755127E-1	-8.393555E-1	5.389404E-2
2.614200E+10	-9.034424E-1	-1.524658E-1	-3.890991E-3	-2.778625E-1	-9.140015E-3	-2.740021E-1	-8.374023E-1	6.787109E-2
2.636650E+10	-9.064331E-1	-1.473389E-1	-7.736206E-3	-2.786865E-1	-1.173401E-2	-2.746124E-1	-8.354187E-1	8.212280E-2
2.659100E+10	-9.076233E-1	-1.390991E-1	-9.460449E-3	-2.765656E-1	-1.518250E-2	-2.721710E-1	-8.317871E-1	9.375000E-2
2.681550E+10	-9.080200E-1	-1.342163E-1	-1.489258E-2	-2.758636E-1	-2.005005E-2	-2.699890E-1	-8.310547E-1	1.027527E-1
2.704000E+10	-9.102173E-1	-1.251526E-1	-1.812744E-2	-2.730560E-1	-2.180481E-2	-2.715149E-1	-8.290100E-1	1.227417E-1
2.726450E+10	-9.125061E-1	-1.206970E-1	-2.244568E-2	-2.736053E-1	-2.632141E-2	-2.669067E-1	-8.211670E-1	1.300049E-1
2.748900E+10	-9.145203E-1	-1.133423E-1	-2.105713E-2	-2.701874E-1	-3.123474E-2	-2.710114E-1	-8.209839E-1	1.405640E-1
2.771350E+10	-9.145813E-1	-1.044006E-1	-2.914429E-2	-2.704620E-1	-3.256226E-2	-2.662048E-1	-8.164062E-1	1.535645E-1
2.793800E+10	-9.147644E-1	-9.829712E-2	-3.334045E-2	-2.671356E-1	-3.724670E-2	-2.646332E-1	-8.145447E-1	1.604309E-1
2.816250E+10	-9.185486E-1	-8.984375E-2	-3.407288E-2	-2.632294E-1	-3.845215E-2	-2.645416E-1	-8.123169E-1	1.768494E-1
2.838700E+10	-9.187317E-1	-8.401489E-2	-3.785706E-2	-2.652130E-1	-4.191589E-2	-2.615051E-1	-8.052673E-1	1.887207E-1
2.861150E+10	-9.190979E-1	-7.885742E-2	-4.214478E-2	-2.626953E-1	-4.421997E-2	-2.601166E-1	-8.002625E-1	1.985779E-1
2.883600E+10	-9.187012E-1	-7.034302E-2	-4.544067E-2	-2.637787E-1	-4.846191E-2	-2.589874E-1	-7.962036E-1	2.057190E-1
2.906050E+10	-9.226685E-1	-6.283569E-2	-4.786682E-2	-2.586060E-1	-5.108643E-2	-2.559204E-1	-7.934265E-1	2.168579E-1
2.928500E+10	-9.207153E-1	-5.441284E-2	-4.960632E-2	-2.560577E-1	-5.291748E-2	-2.543335E-1	-7.886963E-1	2.276306E-1
2.950950E+10	-9.239197E-1	-4.739380E-2	-5.053711E-2	-2.565155E-1	-5.422974E-2	-2.546844E-1	-7.867432E-1	2.411499E-1
2.973400E+10	-9.237061E-1	-4.321289E-2	-5.465698E-2	-2.534485E-1	-5.899811E-2	-2.487411E-1	-7.812805E-1	2.506714E-1
2.995850E+10	-9.222412E-1	-3.375244E-2	-6.011963E-2	-2.545776E-1	-6.349182E-2	-2.509155E-1	-7.777710E-1	2.637329E-1
3.018300E+10	-9.219971E-1	-2.825928E-2	-5.909729E-2	-2.530518E-1	-6.332397E-2	-2.488174E-1	-7.723999E-1	2.765808E-1
3.040750E+10	-9.248352E-1	-2.493286E-2	-6.324768E-2	-2.511902E-1	-6.699371E-2	-2.465286E-1	-7.668457E-1	2.862549E-1
3.063200E+10	-9.212036E-1	-1.635742E-2	-6.715393E-2	-2.516022E-1	-6.880188E-2	-2.472153E-1	-7.639160E-1	2.935486E-1
3.085650E+10	-9.242859E-1	-8.361816E-3	-6.832123E-2	-2.478333E-1	-7.228088E-2	-2.439499E-1	-7.559204E-1	3.102722E-1
3.108100E+10	-9.256897E-1	-4.272461E-3	-7.304382E-2	-2.446136E-1	-7.269287E-2	-2.454529E-1	-7.497253E-1	3.179626E-1
3.130550E+10	-9.226074E-1	1.831055E-4	-7.415771E-2	-2.455673E-1	-7.791138E-2	-2.389984E-1	-7.380676E-1	3.307495E-1
3.153000E+10	-9.260254E-1	8.361816E-3	-8.050537E-2	-2.425079E-1	-7.852173E-2	-2.434616E-1	-7.373047E-1	3.377991E-1
3.175450E+10	-9.214172E-1	1.690674E-2	-8.337402E-2	-2.414093E-1	-7.744598E-2	-2.379456E-1	-7.294006E-1	3.566284E-1
3.197900E+10	-9.251099E-1	2.273560E-2	-8.439636E-2	-2.404404E-1	-8.549500E-2	-2.338943E-1	-7.149963E-1	3.617554E-1
3.220350E+10	-9.251709E-1	2.944946E-2	-9.132385E-2	-2.359161E-1	-8.644104E-2	-2.331696E-1	-7.072754E-1	3.693848E-1
3.242800E+10	-9.290161E-1	3.607178E-2	-9.278107E-2	-2.364273E-1	-9.174347E-2	-2.315903E-1	-7.003784E-1	3.805237E-1
3.265250E+10	-9.258423E-1	4.727173E-2	-9.252930E-2	-2.367706E-1	-9.264374E-2	-2.308121E-1	-6.875305E-1	3.871460E-1
3.287700E+10	-9.287720E-1	5.538940E-2	-9.651947E-2	-2.319260E-1	-9.487152E-2	-2.313843E-1	-6.864929E-1	3.963928E-1
3.310150E+10	-9.274902E-1	5.541992E-2	-9.960937E-2	-2.287598E-1	-9.484100E-2	-2.236633E-1	-6.773071E-1	4.065552E-1
3.332600E+10	-9.223633E-1	6.558228E-2	-9.848022E-2	-2.290802E-1	-9.889221E-2	-2.241974E-1	-6.693115E-1	4.096069E-1
3.355050E+10	-9.250183E-1	7.141113E-2	-1.028366E-1	-2.218628E-1	-1.049500E-1	-2.238464E-1	-6.599426E-1	4.230042E-1
3.377500E+10	-9.243774E-1	7.934570E-2	-1.033096E-1	-2.252960E-1	-1.046066E-1	-2.223358E-1	-6.552734E-1	4.291687E-1
3.399950E+10	-9.214172E-1	8.520508E-2	-1.043930E-1	-2.196808E-1	-1.073456E-1	-2.220383E-1	-6.489258E-1	4.318848E-1
3.422400E+10	-9.218445E-1	8.877563E-2	-1.086960E-1	-2.184448E-1	-1.077042E-1	-2.220230E-1	-6.427307E-1	4.548645E-1
3.444850E+10	-9.234009E-1	9.228516E-2	-1.093597E-1	-2.222595E-1	-1.108398E-1	-2.177734E-1	-6.318665E-1	4.600220E-1
3.467300E+10	-9.194946E-1	1.026611E-1	-1.107483E-1	-2.202301E-1	-1.087418E-1	-2.157440E-1	-6.285095E-1	4.673462E-1
3.489750E+10	-9.205627E-1	1.116028E-1	-1.130447E-1	-2.121887E-1	-1.159363E-1	-2.136002E-1	-6.144104E-1	4.797668E-1
3.512200E+10	-9.195251E-1	1.169128E-1	-1.151428E-1	-2.185898E-1	-1.222382E-1	-2.149277E-1	-5.991211E-1	4.811707E-1
3.534650E+10	-9.221191E-1	1.168823E-1	-1.161041E-1	-2.118988E-1	-1.213455E-1	-2.099457E-1	-5.953674E-1	4.937134E-1
3.557100E+10	-9.190979E-1	1.249695E-1	-1.185684E-1	-2.135773E-1	-1.240311E-1	-2.095337E-1	-5.820923E-1	5.077209E-1
3.579550E+10	-9.179993E-1	1.301270E-1	-1.299973E-1	-2.111359E-1	-1.278610E-1	-2.048950E-1	-5.677795E-1	5.157471E-1
3.602000E+10	-9.169922E-1	1.414490E-1	-1.281204E-1	-2.075806E-1	-1.253738E-1	-2.069168E-1	-5.553589E-1	5.139160E-1
3.624450E+10	-9.158630E-1	1.506653E-1	-1.310501E-1	-2.061920E-1	-1.270142E-1	-2.044449E-1	-5.557556E-1	5.237122E-1
3.646900E+10	-9.136963E-1	1.566162E-1	-1.333160E-1	-2.050781E-1	-1.379852E-1	-2.025375E-1	-5.371094E-1	5.290527E-1
3.669350E+10	-9.125671E-1	1.580811E-1	-1.323395E-1	-2.036362E-1	-1.354446E-1	-1.987228E-1	-5.212402E-1	5.388489E-1
3.691800E+10	-9.086914E-1	1.681213E-1	-1.367950E-1	-2.012253E-1	-1.403656E-1	-1.960144E-1	-5.135803E-1	5.523987E-1
3.714250E+10	-9.104919E-1	1.687927E-1	-1.421356E-1	-1.997910E-1	-1.415482E-1	-1.959229E-1	-4.967651E-1	5.476379E-1
3.736700E+10	-9.086609E-1	1.796570E-1	-1.416092E-1	-1.926498E-1	-1.396790E-1	-1.945343E-1	-4.942627E-1	5.534668E-1
3.759150E+10	-9.018860E-1	1.842651E-1	-1.472778E-1	-1.928558E-1	-1.427002E-1	-1.940994E-1	-4.793091E-1	5.673218E-1
3.781600E+10	-9.056091E-1	1.932983E-1	-1.471558E-1	-1.945877E-1	-1.471024E-1	-1.926575E-1	-4.703064E-1	5.686646E-1
3.804050E+10	-9.052429E-1	1.881409E-1	-1.542358E-1	-1.889954E-1	-1.470947E-1	-1.898270E-1	-4.526062E-1	5.737610E-1
3.826500E+10	-9.012756E-1	1.999207E-1	-1.470337E-1	-1.870575E-1	-1.509094E-1	-1.856155E-1	-4.383240E-1	5.850830E-1
3.848950E+10	-8.979187E-1	2.090454E-1	-1.502457E-1	-1.827011E-1	-1.514130E-1	-1.839752E-1	-4.262390E-1	5.823669E-1
3.871400E+10	-8.990784E-1	2.093811E-1	-1.558609E-1	-1.849594E-1	-1.544037E-1	-1.836777E-1	-4.153442E-1	5.843506E-1
3.893850E+10	-8.964233E-1	2.168884E-1	-1.591568E-1	-1.809464E-1	-1.575089E-1	-1.744690E-1	-3.984375E-1	5.908203E-1
