!Date: 10/28/2005, 12:46 PM

!Vgs = 0.000000E+0
!Vds = 1.000000E+1
!Ig = -7.823800E-6
!Id = 9.130000E-1

# HZ S RI R 50
1.000000E+8	9.599609E-1	-1.905823E-1	-1.051563E+1	4.345703E-2	1.936436E-3	9.935379E-3	3.922882E-1	-4.331970E-2
3.245000E+8	7.685547E-1	-5.537415E-1	-9.444336E+0	3.440918E+0	1.241302E-2	3.016186E-2	1.376495E-1	-2.245712E-1
5.490000E+8	5.000305E-1	-7.828979E-1	-7.722168E+0	4.958496E+0	2.762222E-2	4.141235E-2	7.853699E-2	-2.748871E-1
7.735000E+8	2.428284E-1	-8.811951E-1	-6.034668E+0	5.529053E+0	4.255676E-2	4.478073E-2	-3.129578E-2	-3.299408E-1
9.980000E+8	2.377319E-2	-8.942261E-1	-4.616211E+0	5.579346E+0	5.429268E-2	4.439926E-2	-1.133270E-1	-3.114166E-1
1.222500E+9	-1.548767E-1	-8.698425E-1	-3.516846E+0	5.414307E+0	6.354141E-2	4.110718E-2	-1.646729E-1	-3.075714E-1
1.447000E+9	-2.936096E-1	-8.275452E-1	-2.670410E+0	5.127930E+0	7.048798E-2	3.752518E-2	-2.165070E-1	-2.892914E-1
1.671500E+9	-4.003906E-1	-7.776489E-1	-2.030762E+0	4.802979E+0	7.598495E-2	3.390503E-2	-2.496490E-1	-2.731171E-1
1.896000E+9	-4.841309E-1	-7.243958E-1	-1.545654E+0	4.477783E+0	8.082581E-2	3.022385E-2	-2.778931E-1	-2.539978E-1
2.120500E+9	-5.474854E-1	-6.736450E-1	-1.169678E+0	4.183838E+0	8.370972E-2	2.667236E-2	-2.981720E-1	-2.404175E-1
2.345000E+9	-5.985718E-1	-6.235046E-1	-8.604736E-1	3.901001E+0	8.670044E-2	2.251816E-2	-3.184814E-1	-2.220764E-1
2.569500E+9	-6.370850E-1	-5.791321E-1	-6.170654E-1	3.633911E+0	8.891678E-2	1.924515E-2	-3.288269E-1	-2.077942E-1
2.794000E+9	-6.701965E-1	-5.407715E-1	-4.272461E-1	3.405884E+0	9.014893E-2	1.581573E-2	-3.420868E-1	-1.974487E-1
3.018500E+9	-6.955872E-1	-5.043335E-1	-2.716064E-1	3.186890E+0	9.109497E-2	1.276398E-2	-3.491821E-1	-1.826935E-1
3.243000E+9	-7.169189E-1	-4.703979E-1	-1.409912E-1	2.996826E+0	9.177017E-2	9.780884E-3	-3.555908E-1	-1.769409E-1
3.467500E+9	-7.361450E-1	-4.414978E-1	-3.002930E-2	2.822754E+0	9.262466E-2	7.724762E-3	-3.665924E-1	-1.653442E-1
3.692000E+9	-7.518921E-1	-4.147034E-1	6.286621E-2	2.662842E+0	9.275818E-2	4.875183E-3	-3.671417E-1	-1.585693E-1
3.916500E+9	-7.648621E-1	-3.876953E-1	1.389160E-1	2.513306E+0	9.305573E-2	2.777100E-3	-3.772430E-1	-1.532593E-1
4.141000E+9	-7.758179E-1	-3.638306E-1	2.047119E-1	2.380981E+0	9.406662E-2	2.365112E-4	-3.799744E-1	-1.420288E-1
4.365500E+9	-7.845154E-1	-3.423157E-1	2.624512E-1	2.257080E+0	9.355927E-2	-2.014160E-3	-3.833008E-1	-1.403656E-1
4.590000E+9	-7.938232E-1	-3.230896E-1	3.110352E-1	2.141113E+0	9.404373E-2	-3.608704E-3	-3.901215E-1	-1.316986E-1
4.814500E+9	-8.012695E-1	-3.039246E-1	3.491211E-1	2.035156E+0	9.447098E-2	-6.156921E-3	-3.904877E-1	-1.262665E-1
5.039000E+9	-8.067932E-1	-2.859192E-1	3.856812E-1	1.936951E+0	9.380722E-2	-7.740021E-3	-3.950958E-1	-1.230011E-1
5.263500E+9	-8.121643E-1	-2.688599E-1	4.168701E-1	1.847412E+0	9.393692E-2	-1.004410E-2	-3.986053E-1	-1.167297E-1
5.488000E+9	-8.163757E-1	-2.543945E-1	4.442139E-1	1.763855E+0	9.372330E-2	-1.147461E-2	-4.004822E-1	-1.130981E-1
5.712500E+9	-8.213806E-1	-2.402344E-1	4.685059E-1	1.682861E+0	9.343338E-2	-1.324844E-2	-4.039001E-1	-1.087189E-1
5.937000E+9	-8.244324E-1	-2.250061E-1	4.888306E-1	1.607605E+0	9.345627E-2	-1.509857E-2	-4.066467E-1	-1.052856E-1
6.161500E+9	-8.280334E-1	-2.128296E-1	5.076294E-1	1.540588E+0	9.298325E-2	-1.681137E-2	-4.090271E-1	-9.925842E-2
6.386000E+9	-8.313904E-1	-1.998291E-1	5.241699E-1	1.473877E+0	9.242249E-2	-1.819992E-2	-4.086151E-1	-9.677124E-2
6.610500E+9	-8.334656E-1	-1.887817E-1	5.392456E-1	1.410889E+0	9.233475E-2	-2.017212E-2	-4.133911E-1	-9.620667E-2
6.835000E+9	-8.364258E-1	-1.775818E-1	5.514526E-1	1.350952E+0	9.190369E-2	-2.174377E-2	-4.141388E-1	-8.816528E-2
7.059500E+9	-8.381958E-1	-1.674500E-1	5.588989E-1	1.295654E+0	9.149933E-2	-2.323151E-2	-4.119110E-1	-9.068298E-2
7.284000E+9	-8.393555E-1	-1.570435E-1	5.673828E-1	1.244629E+0	9.084320E-2	-2.416992E-2	-4.182892E-1	-8.511353E-2
7.508500E+9	-8.422852E-1	-1.470947E-1	5.736694E-1	1.194397E+0	9.011459E-2	-2.584076E-2	-4.136047E-1	-8.381653E-2
7.733000E+9	-8.413086E-1	-1.369934E-1	5.806274E-1	1.148376E+0	9.003448E-2	-2.758789E-2	-4.222870E-1	-8.413696E-2
7.957500E+9	-8.440857E-1	-1.277771E-1	5.894775E-1	1.105347E+0	8.926392E-2	-2.873993E-2	-4.212036E-1	-7.821655E-2
8.182000E+9	-8.449097E-1	-1.183167E-1	5.957031E-1	1.063293E+0	8.941650E-2	-3.042603E-2	-4.272156E-1	-7.884216E-2
8.406500E+9	-8.455200E-1	-1.111450E-1	5.991211E-1	1.020203E+0	8.825684E-2	-3.120422E-2	-4.271545E-1	-7.196045E-2
8.631000E+9	-8.469849E-1	-1.023560E-1	6.038208E-1	9.794922E-1	8.796692E-2	-3.300095E-2	-4.285736E-1	-7.151794E-2
8.855500E+9	-8.474426E-1	-9.457397E-2	6.054382E-1	9.412842E-1	8.700562E-2	-3.415298E-2	-4.317627E-1	-6.832886E-2
9.080001E+9	-8.484192E-1	-8.776855E-2	6.075439E-1	9.063110E-1	8.597565E-2	-3.565598E-2	-4.312897E-1	-6.439209E-2
9.304500E+9	-8.487244E-1	-7.806396E-2	6.081848E-1	8.720703E-1	8.540726E-2	-3.673553E-2	-4.325714E-1	-6.402588E-2
9.529000E+9	-8.486328E-1	-7.290649E-2	6.098022E-1	8.384094E-1	8.536530E-2	-3.827667E-2	-4.369507E-1	-5.992126E-2
9.753500E+9	-8.491211E-1	-6.549072E-2	6.110840E-1	8.063354E-1	8.383179E-2	-3.870010E-2	-4.363861E-1	-5.693054E-2
9.978000E+9	-8.498840E-1	-5.841064E-2	6.107788E-1	7.767334E-1	8.305359E-2	-4.018784E-2	-4.382782E-1	-5.665588E-2
1.020250E+10	-8.503418E-1	-5.242920E-2	6.100464E-1	7.469788E-1	8.207703E-2	-4.170609E-2	-4.406281E-1	-5.178833E-2
1.042700E+10	-8.504333E-1	-4.519653E-2	6.099548E-1	7.188416E-1	8.111191E-2	-4.251480E-2	-4.400024E-1	-5.035400E-2
1.065150E+10	-8.500977E-1	-3.848267E-2	6.085510E-1	6.915283E-1	8.031082E-2	-4.417419E-2	-4.428558E-1	-4.991150E-2
1.087600E+10	-8.511047E-1	-3.259277E-2	6.075439E-1	6.661682E-1	7.968903E-2	-4.462433E-2	-4.441528E-1	-4.618835E-2
1.110050E+10	-8.507996E-1	-2.590942E-2	6.074524E-1	6.402283E-1	7.882309E-2	-4.548264E-2	-4.454803E-1	-4.325867E-2
1.132500E+10	-8.503113E-1	-2.072144E-2	6.049500E-1	6.164246E-1	7.815552E-2	-4.721451E-2	-4.467926E-1	-4.260254E-2
1.154950E+10	-8.504333E-1	-1.416016E-2	6.030579E-1	5.911560E-1	7.717514E-2	-4.745865E-2	-4.502258E-1	-3.813171E-2
1.177400E+10	-8.490295E-1	-8.331299E-3	5.998535E-1	5.688171E-1	7.651901E-2	-4.825974E-2	-4.508057E-1	-3.642273E-2
1.199850E+10	-8.504639E-1	-3.204346E-3	5.991821E-1	5.466614E-1	7.516861E-2	-4.855347E-2	-4.534454E-1	-3.479004E-2
1.222300E+10	-8.497925E-1	2.655029E-3	5.953064E-1	5.258484E-1	7.447815E-2	-4.988098E-2	-4.540100E-1	-3.314209E-2
1.244750E+10	-8.486938E-1	7.843018E-3	5.919495E-1	5.050049E-1	7.342148E-2	-5.076981E-2	-4.554749E-1	-2.940369E-2
1.267200E+10	-8.499756E-1	1.296997E-2	5.892944E-1	4.844055E-1	7.234573E-2	-5.206299E-2	-4.567566E-1	-2.906799E-2
1.289650E+10	-8.485718E-1	1.785278E-2	5.847168E-1	4.652405E-1	7.217789E-2	-5.281830E-2	-4.606171E-1	-2.722168E-2
1.312100E+10	-8.476562E-1	2.270508E-2	5.819092E-1	4.468384E-1	7.068253E-2	-5.402374E-2	-4.617004E-1	-2.218628E-2
1.334550E+10	-8.471680E-1	2.725220E-2	5.778809E-1	4.291687E-1	6.970215E-2	-5.445099E-2	-4.620972E-1	-2.059937E-2
1.357000E+10	-8.467102E-1	3.097534E-2	5.751648E-1	4.107971E-1	6.854248E-2	-5.414581E-2	-4.634552E-1	-1.959229E-2
1.379450E+10	-8.471985E-1	3.686523E-2	5.692749E-1	3.948059E-1	6.888199E-2	-5.587769E-2	-4.669189E-1	-1.669312E-2
1.401900E+10	-8.467712E-1	4.177856E-2	5.678101E-1	3.805847E-1	6.782532E-2	-5.682755E-2	-4.662628E-1	-1.548767E-2
1.424350E+10	-8.450012E-1	4.653931E-2	5.628052E-1	3.627930E-1	6.502151E-2	-5.783844E-2	-4.693451E-1	-1.159668E-2
1.446800E+10	-8.462219E-1	5.249023E-2	5.590820E-1	3.480835E-1	6.434631E-2	-5.733871E-2	-4.706268E-1	-6.347656E-3
1.469250E+10	-8.437500E-1	5.722046E-2	5.537109E-1	3.328552E-1	6.371689E-2	-5.797195E-2	-4.671326E-1	-4.364014E-3
1.491700E+10	-8.430176E-1	6.109619E-2	5.505066E-1	3.173523E-1	6.268692E-2	-5.932999E-2	-4.721832E-1	-5.020142E-3
1.514150E+10	-8.431091E-1	6.521606E-2	5.458069E-1	3.050842E-1	6.183052E-2	-6.020355E-2	-4.746704E-1	-3.967285E-4
1.536600E+10	-8.419495E-1	7.049561E-2	5.412903E-1	2.899475E-1	6.046295E-2	-5.992699E-2	-4.719849E-1	2.075195E-3
1.559050E+10	-8.409119E-1	7.388306E-2	5.364075E-1	2.768555E-1	5.879784E-2	-6.011200E-2	-4.759827E-1	1.602173E-3
1.581500E+10	-8.400269E-1	7.827759E-2	5.325928E-1	2.636108E-1	5.850220E-2	-6.180763E-2	-4.779358E-1	5.981445E-3
1.603950E+10	-8.408508E-1	8.309937E-2	5.276489E-1	2.514038E-1	5.687714E-2	-6.242180E-2	-4.782104E-1	8.956909E-3
1.626400E+10	-8.386841E-1	8.749390E-2	5.224915E-1	2.405396E-1	5.653000E-2	-6.302261E-2	-4.810333E-1	1.022339E-2
1.648850E+10	-8.382874E-1	9.118652E-2	5.169983E-1	2.279358E-1	5.519485E-2	-6.274033E-2	-4.825592E-1	1.377869E-2
1.671300E+10	-8.375549E-1	9.515381E-2	5.137939E-1	2.167358E-1	5.418396E-2	-6.383896E-2	-4.831085E-1	1.710510E-2
1.693750E+10	-8.369141E-1	9.906006E-2	5.099792E-1	2.063904E-1	5.339050E-2	-6.435013E-2	-4.842987E-1	1.820374E-2
1.716200E+10	-8.356018E-1	1.037292E-1	5.037231E-1	1.955566E-1	5.250168E-2	-6.427765E-2	-4.861908E-1	2.258301E-2
1.738650E+10	-8.355103E-1	1.088562E-1	4.997711E-1	1.861115E-1	5.082703E-2	-6.556702E-2	-4.864502E-1	2.645874E-2
1.761100E+10	-8.354797E-1	1.117554E-1	4.952698E-1	1.755371E-1	4.922104E-2	-6.640625E-2	-4.873810E-1	2.619934E-2
1.783550E+10	-8.327942E-1	1.158142E-1	4.895935E-1	1.651306E-1	4.785538E-2	-6.509781E-2	-4.914093E-1	3.385925E-2
1.806000E+10	-8.329468E-1	1.208801E-1	4.850464E-1	1.555939E-1	4.727936E-2	-6.552887E-2	-4.885712E-1	3.782654E-2
1.828450E+10	-8.299866E-1	1.234131E-1	4.811096E-1	1.474457E-1	4.765320E-2	-6.673050E-2	-4.899750E-1	3.582764E-2
1.850900E+10	-8.304749E-1	1.252136E-1	4.765625E-1	1.378174E-1	4.551315E-2	-6.553650E-2	-4.939270E-1	4.112244E-2
1.873350E+10	-8.309021E-1	1.299744E-1	4.701233E-1	1.282501E-1	4.428101E-2	-6.794739E-2	-4.919128E-1	4.809570E-2
1.895800E+10	-8.276062E-1	1.332703E-1	4.648590E-1	1.213989E-1	4.318237E-2	-6.791306E-2	-4.918365E-1	4.664612E-2
1.918250E+10	-8.268127E-1	1.373291E-1	4.614716E-1	1.131134E-1	4.346085E-2	-6.794357E-2	-4.967499E-1	4.890442E-2
1.940700E+10	-8.260803E-1	1.416016E-1	4.565277E-1	1.029205E-1	4.173660E-2	-6.627274E-2	-4.949036E-1	5.824280E-2
1.963150E+10	-8.233643E-1	1.445618E-1	4.510498E-1	9.652710E-2	3.910828E-2	-6.821823E-2	-4.938965E-1	5.685425E-2
1.985600E+10	-8.244629E-1	1.481934E-1	4.454193E-1	8.943176E-2	3.902435E-2	-6.951141E-2	-4.993896E-1	5.892944E-2
2.008050E+10	-8.230896E-1	1.512756E-1	4.405060E-1	8.215332E-2	3.585052E-2	-6.816483E-2	-4.985962E-1	6.556702E-2
2.030500E+10	-8.226624E-1	1.549988E-1	4.367676E-1	7.743835E-2	3.779984E-2	-6.989670E-2	-4.955444E-1	6.698608E-2
2.052950E+10	-8.204041E-1	1.571045E-1	4.317932E-1	6.869507E-2	3.478241E-2	-6.810760E-2	-5.000916E-1	6.869507E-2
2.075400E+10	-8.195496E-1	1.619873E-1	4.280701E-1	6.159973E-2	3.492355E-2	-6.768799E-2	-5.006104E-1	7.501221E-2
2.097850E+10	-8.186951E-1	1.661682E-1	4.233704E-1	5.726624E-2	3.341675E-2	-6.889725E-2	-4.985657E-1	7.810974E-2
2.120300E+10	-8.166809E-1	1.661377E-1	4.156647E-1	5.079651E-2	3.108978E-2	-6.814575E-2	-5.028076E-1	7.852173E-2
2.142750E+10	-8.184204E-1	1.701355E-1	4.141083E-1	4.431152E-2	3.061676E-2	-6.846619E-2	-5.039673E-1	8.627319E-2
2.165200E+10	-8.156128E-1	1.752930E-1	4.078674E-1	3.810120E-2	2.983093E-2	-7.038879E-2	-5.015869E-1	8.810425E-2
2.187650E+10	-8.138123E-1	1.788025E-1	4.043579E-1	3.244019E-2	2.809906E-2	-7.024002E-2	-5.043945E-1	9.100342E-2
2.210100E+10	-8.138428E-1	1.824646E-1	4.001160E-1	2.500916E-2	2.697754E-2	-6.881714E-2	-5.052185E-1	9.658813E-2
2.232550E+10	-8.105469E-1	1.847534E-1	3.958588E-1	2.067566E-2	2.531815E-2	-6.836700E-2	-5.019836E-1	1.026306E-1
2.255000E+10	-8.117676E-1	1.894531E-1	3.910980E-1	1.541138E-2	2.423859E-2	-6.948471E-2	-5.050354E-1	1.006775E-1
2.277450E+10	-8.079834E-1	1.919861E-1	3.862000E-1	9.597778E-3	2.273560E-2	-6.949997E-2	-5.038452E-1	1.097717E-1
2.299900E+10	-8.082886E-1	1.954041E-1	3.816681E-1	5.935669E-3	2.477264E-2	-6.925583E-2	-5.023804E-1	1.108704E-1
2.322350E+10	-8.092346E-1	1.979065E-1	3.780518E-1	-8.087158E-4	2.122879E-2	-6.854630E-2	-5.044250E-1	1.124878E-1
2.344800E+10	-8.054199E-1	1.997986E-1	3.733978E-1	-3.631592E-3	2.032089E-2	-7.037354E-2	-5.059509E-1	1.189880E-1
2.367250E+10	-8.055420E-1	2.049866E-1	3.680420E-1	-7.827759E-3	1.936340E-2	-6.950760E-2	-5.013733E-1	1.243591E-1
2.389700E+10	-8.022156E-1	2.088623E-1	3.660126E-1	-1.358032E-2	1.895523E-2	-6.820297E-2	-5.051270E-1	1.251526E-1
2.412150E+10	-8.023987E-1	2.102966E-1	3.591003E-1	-1.768494E-2	1.572037E-2	-6.903458E-2	-5.026245E-1	1.330872E-1
2.434600E+10	-7.983093E-1	2.153015E-1	3.569794E-1	-2.265930E-2	1.389694E-2	-6.797791E-2	-4.990845E-1	1.346436E-1
2.457050E+10	-7.984924E-1	2.161255E-1	3.525848E-1	-2.600098E-2	1.424026E-2	-6.862640E-2	-5.017700E-1	1.367798E-1
2.479500E+10	-7.972412E-1	2.206726E-1	3.462982E-1	-2.896118E-2	1.343155E-2	-6.783295E-2	-4.999237E-1	1.465302E-1
2.501950E+10	-7.962036E-1	2.243347E-1	3.450623E-1	-3.042603E-2	9.460449E-3	-6.732559E-2	-4.946442E-1	1.447144E-1
2.524400E+10	-7.948608E-1	2.271423E-1	3.406525E-1	-3.598022E-2	9.082794E-3	-6.634903E-2	-4.975739E-1	1.478882E-1
2.546850E+10	-7.935486E-1	2.300415E-1	3.341064E-1	-3.675842E-2	8.903503E-3	-6.666183E-2	-4.950409E-1	1.553345E-1
2.569300E+10	-7.905273E-1	2.321167E-1	3.326111E-1	-4.179382E-2	8.338928E-3	-6.429291E-2	-4.950562E-1	1.542206E-1
2.591750E+10	-7.894592E-1	2.355652E-1	3.286896E-1	-4.476929E-2	8.342743E-3	-6.589508E-2	-4.930573E-1	1.569214E-1
2.614200E+10	-7.886047E-1	2.384033E-1	3.245850E-1	-4.597473E-2	5.825043E-3	-6.380463E-2	-4.980469E-1	1.647186E-1
2.636650E+10	-7.859192E-1	2.402954E-1	3.216553E-1	-5.152893E-2	5.405426E-3	-6.434250E-2	-4.958496E-1	1.690979E-1
2.659100E+10	-7.834473E-1	2.442627E-1	3.181152E-1	-5.470276E-2	3.475189E-3	-6.289673E-2	-4.915466E-1	1.740417E-1
2.681550E+10	-7.829590E-1	2.435303E-1	3.140411E-1	-5.651855E-2	2.616882E-3	-6.228065E-2	-4.942932E-1	1.756439E-1
2.704000E+10	-7.817688E-1	2.494812E-1	3.078766E-1	-5.899048E-2	2.593994E-3	-6.365967E-2	-4.938812E-1	1.850739E-1
2.726450E+10	-7.792358E-1	2.504272E-1	3.079224E-1	-6.335449E-2	6.790161E-4	-6.519699E-2	-4.848022E-1	1.870880E-1
2.748900E+10	-7.759705E-1	2.517700E-1	3.027039E-1	-6.506348E-2	-5.626678E-4	-6.200027E-2	-4.896240E-1	1.874847E-1
2.771350E+10	-7.768555E-1	2.534790E-1	2.968597E-1	-6.709290E-2	-1.110077E-3	-6.251907E-2	-4.852448E-1	1.937866E-1
2.793800E+10	-7.745972E-1	2.578735E-1	2.959747E-1	-7.383728E-2	-2.172470E-3	-6.101227E-2	-4.839478E-1	1.949615E-1
2.816250E+10	-7.745972E-1	2.617187E-1	2.881622E-1	-7.318115E-2	-2.101898E-3	-6.262589E-2	-4.845428E-1	1.999817E-1
2.838700E+10	-7.718811E-1	2.625122E-1	2.903290E-1	-7.398987E-2	-5.657196E-3	-5.869102E-2	-4.791565E-1	2.057343E-1
2.861150E+10	-7.709045E-1	2.655334E-1	2.850189E-1	-7.975769E-2	-5.533218E-3	-5.741501E-2	-4.781036E-1	2.100067E-1
2.883600E+10	-7.700500E-1	2.693481E-1	2.818604E-1	-8.027649E-2	-3.683090E-3	-5.852318E-2	-4.773254E-1	2.084961E-1
2.906050E+10	-7.682190E-1	2.733459E-1	2.810974E-1	-8.122253E-2	-6.975174E-3	-5.917358E-2	-4.762726E-1	2.133026E-1
2.928500E+10	-7.649841E-1	2.763062E-1	2.799377E-1	-8.146667E-2	-1.044655E-2	-5.417252E-2	-4.721985E-1	2.168579E-1
2.950950E+10	-7.652588E-1	2.788086E-1	2.776184E-1	-8.305359E-2	-7.415771E-3	-5.481148E-2	-4.770966E-1	2.242126E-1
2.973400E+10	-7.616577E-1	2.793579E-1	2.739563E-1	-8.862305E-2	-1.022339E-2	-5.200958E-2	-4.756470E-1	2.263031E-1
2.995850E+10	-7.594604E-1	2.806396E-1	2.697754E-1	-8.804321E-2	-1.363373E-2	-5.206680E-2	-4.722443E-1	2.311554E-1
3.018300E+10	-7.590332E-1	2.836914E-1	2.677155E-1	-8.975220E-2	-1.084709E-2	-5.036354E-2	-4.735107E-1	2.384338E-1
3.040750E+10	-7.554932E-1	2.857056E-1	2.645264E-1	-9.455872E-2	-1.388741E-2	-5.148888E-2	-4.698181E-1	2.403564E-1
3.063200E+10	-7.543030E-1	2.896729E-1	2.602997E-1	-9.800720E-2	-1.163483E-2	-5.210114E-2	-4.706421E-1	2.510223E-1
3.085650E+10	-7.575073E-1	2.909241E-1	2.577667E-1	-9.786987E-2	-1.073647E-2	-4.902649E-2	-4.710846E-1	2.524719E-1
3.108100E+10	-7.537537E-1	2.933350E-1	2.560577E-1	-9.889221E-2	-1.457787E-2	-4.804993E-2	-4.608612E-1	2.564087E-1
3.130550E+10	-7.491150E-1	2.965088E-1	2.491379E-1	-1.025085E-1	-1.235962E-2	-4.615974E-2	-4.588013E-1	2.617645E-1
3.153000E+10	-7.545776E-1	2.980957E-1	2.521362E-1	-1.047974E-1	-1.755905E-2	-4.444695E-2	-4.570465E-1	2.591553E-1
3.175450E+10	-7.427368E-1	3.006897E-1	2.461243E-1	-1.048737E-1	-1.396942E-2	-4.713440E-2	-4.612885E-1	2.708740E-1
3.197900E+10	-7.455444E-1	3.031921E-1	2.402267E-1	-1.056976E-1	-1.800156E-2	-4.398346E-2	-4.477539E-1	2.643280E-1
3.220350E+10	-7.432861E-1	3.081360E-1	2.412796E-1	-1.080399E-1	-1.769829E-2	-4.635811E-2	-4.523315E-1	2.789154E-1
3.242800E+10	-7.439270E-1	3.044739E-1	2.438889E-1	-1.131287E-1	-1.986313E-2	-4.438210E-2	-4.456024E-1	2.786865E-1
3.265250E+10	-7.420654E-1	3.109131E-1	2.400055E-1	-1.117249E-1	-1.692581E-2	-3.851128E-2	-4.393158E-1	2.803345E-1
3.287700E+10	-7.415771E-1	3.153381E-1	2.413406E-1	-1.159363E-1	-1.955986E-2	-3.958130E-2	-4.444275E-1	2.822113E-1
3.310150E+10	-7.396240E-1	3.137817E-1	2.352829E-1	-1.147156E-1	-1.853180E-2	-4.023743E-2	-4.328613E-1	2.841034E-1
3.332600E+10	-7.371521E-1	3.176880E-1	2.305145E-1	-1.162949E-1	-2.066040E-2	-3.657341E-2	-4.299164E-1	2.885590E-1
3.355050E+10	-7.326355E-1	3.192139E-1	2.315598E-1	-1.185226E-1	-1.935768E-2	-3.575897E-2	-4.309845E-1	2.902374E-1
3.377500E+10	-7.319031E-1	3.228760E-1	2.263031E-1	-1.193237E-1	-1.902580E-2	-3.514099E-2	-4.232788E-1	2.940369E-1
3.399950E+10	-7.311096E-1	3.251648E-1	2.214355E-1	-1.221619E-1	-2.018929E-2	-3.346252E-2	-4.293213E-1	2.990570E-1
3.422400E+10	-7.301636E-1	3.262939E-1	2.226410E-1	-1.211472E-1	-2.128029E-2	-3.219604E-2	-4.229889E-1	3.115387E-1
3.444850E+10	-7.303772E-1	3.284607E-1	2.242355E-1	-1.270218E-1	-1.872635E-2	-3.246689E-2	-4.167786E-1	3.101807E-1
3.467300E+10	-7.290649E-1	3.312378E-1	2.257996E-1	-1.245117E-1	-1.727295E-2	-3.165627E-2	-4.242249E-1	3.140564E-1
3.489750E+10	-7.257385E-1	3.302612E-1	2.200012E-1	-1.257401E-1	-1.828957E-2	-3.339005E-2	-4.124298E-1	3.226929E-1
3.512200E+10	-7.246094E-1	3.323975E-1	2.145615E-1	-1.294556E-1	-2.060795E-2	-2.830124E-2	-4.048920E-1	3.245392E-1
3.534650E+10	-7.222595E-1	3.359680E-1	2.142639E-1	-1.308975E-1	-2.119827E-2	-3.117275E-2	-4.054260E-1	3.281403E-1
3.557100E+10	-7.164307E-1	3.335571E-1	2.123413E-1	-1.368027E-1	-1.824856E-2	-2.988052E-2	-3.968048E-1	3.343201E-1
3.579550E+10	-7.196655E-1	3.413086E-1	2.073364E-1	-1.338120E-1	-1.399803E-2	-3.145599E-2	-3.906860E-1	3.324738E-1
3.602000E+10	-7.190552E-1	3.439026E-1	2.044907E-1	-1.383591E-1	-2.309322E-2	-2.231979E-2	-3.839417E-1	3.369141E-1
3.624450E+10	-7.137146E-1	3.433228E-1	2.011032E-1	-1.377029E-1	-2.170753E-2	-2.321815E-2	-3.894958E-1	3.367615E-1
3.646900E+10	-7.117310E-1	3.480835E-1	2.072906E-1	-1.395416E-1	-2.293777E-2	-2.649117E-2	-3.765869E-1	3.482208E-1
3.669350E+10	-7.114868E-1	3.457947E-1	1.997986E-1	-1.430206E-1	-1.967049E-2	-2.445030E-2	-3.745728E-1	3.451080E-1
3.691800E+10	-7.075500E-1	3.487854E-1	1.965561E-1	-1.462708E-1	-2.036190E-2	-2.565575E-2	-3.694763E-1	3.561401E-1
3.714250E+10	-7.031860E-1	3.495178E-1	1.961517E-1	-1.465378E-1	-1.979637E-2	-2.021217E-2	-3.612213E-1	3.626251E-1
3.736700E+10	-7.061157E-1	3.535767E-1	1.950760E-1	-1.463547E-1	-2.352238E-2	-2.273273E-2	-3.608246E-1	3.536682E-1
3.759150E+10	-7.045593E-1	3.503418E-1	1.903534E-1	-1.515427E-1	-2.321053E-2	-1.747513E-2	-3.556366E-1	3.655090E-1
3.781600E+10	-6.996765E-1	3.580017E-1	1.872711E-1	-1.483994E-1	-2.382183E-2	-2.051544E-2	-3.505859E-1	3.643341E-1
3.804050E+10	-7.016296E-1	3.559265E-1	1.899261E-1	-1.547318E-1	-2.197742E-2	-1.772785E-2	-3.446960E-1	3.729706E-1
3.826500E+10	-6.935425E-1	3.591003E-1	1.881714E-1	-1.565628E-1	-1.811409E-2	-1.374531E-2	-3.371429E-1	3.741608E-1
3.848950E+10	-6.976929E-1	3.651733E-1	1.869431E-1	-1.611710E-1	-1.744175E-2	-1.925278E-2	-3.277435E-1	3.792267E-1
3.871400E+10	-6.950073E-1	3.553162E-1	1.825333E-1	-1.617126E-1	-2.122307E-2	-7.535934E-3	-3.166504E-1	3.709869E-1
3.893850E+10	-6.951294E-1	3.684387E-1	1.832123E-1	-1.603851E-1	-1.537132E-2	-1.432896E-2	-3.201447E-1	3.836670E-1
3.916300E+10	-6.904297E-1	3.671875E-1	1.789780E-1	-1.606522E-1	-1.842499E-2	-1.134586E-2	-3.163605E-1	3.780365E-1
