!Date: 10/28/2005, 12:46 PM

!Vgs = -3.000000E+0
!Vds = 1.500000E+1
!Ig = -3.207600E-5
!Id = 3.706800E-1

# HZ S RI R 50
1.000000E+8	9.704285E-1	-1.853333E-1	-1.665430E+1	9.531250E-1	2.031326E-4	7.941246E-3	5.677795E-1	-4.800415E-2
3.245000E+8	7.932739E-1	-5.362549E-1	-1.503418E+1	5.368652E+0	8.274078E-3	1.974201E-2	3.969727E-1	-2.348633E-1
5.490000E+8	5.460205E-1	-7.640381E-1	-1.255859E+1	7.583984E+0	1.814651E-2	2.722645E-2	3.149872E-1	-3.112183E-1
7.735000E+8	2.958679E-1	-8.757324E-1	-1.005371E+1	8.564453E+0	2.752876E-2	3.050709E-2	2.055969E-1	-3.615112E-1
9.980000E+8	7.745361E-2	-9.065552E-1	-7.883301E+0	8.810547E+0	3.573990E-2	3.061867E-2	1.176605E-1	-3.604279E-1
1.222500E+9	-1.036987E-1	-8.973694E-1	-6.145020E+0	8.680176E+0	4.222488E-2	2.869987E-2	5.519104E-2	-3.595123E-1
1.447000E+9	-2.506714E-1	-8.643494E-1	-4.755371E+0	8.341797E+0	4.761696E-2	2.664566E-2	-9.155273E-5	-3.493195E-1
1.671500E+9	-3.658752E-1	-8.212891E-1	-3.663818E+0	7.885742E+0	5.164528E-2	2.467728E-2	-4.209900E-2	-3.371124E-1
1.896000E+9	-4.591370E-1	-7.700500E-1	-2.833984E+0	7.393311E+0	5.506516E-2	2.164268E-2	-7.672119E-2	-3.193970E-1
2.120500E+9	-5.298157E-1	-7.203064E-1	-2.183350E+0	6.943115E+0	5.771828E-2	1.889610E-2	-1.016235E-1	-3.050690E-1
2.345000E+9	-5.878296E-1	-6.704102E-1	-1.650391E+0	6.501709E+0	5.992126E-2	1.632118E-2	-1.232910E-1	-2.895203E-1
2.569500E+9	-6.308899E-1	-6.250000E-1	-1.225830E+0	6.087646E+0	6.101418E-2	1.375961E-2	-1.392670E-1	-2.777557E-1
2.794000E+9	-6.692810E-1	-5.861206E-1	-8.955078E-1	5.719238E+0	6.236076E-2	1.141930E-2	-1.521454E-1	-2.670898E-1
3.018500E+9	-6.983337E-1	-5.482178E-1	-6.071777E-1	5.375000E+0	6.272507E-2	9.128571E-3	-1.630859E-1	-2.570496E-1
3.243000E+9	-7.234497E-1	-5.131226E-1	-3.686523E-1	5.064697E+0	6.332779E-2	6.771088E-3	-1.734314E-1	-2.505646E-1
3.467500E+9	-7.457275E-1	-4.831848E-1	-1.706543E-1	4.780273E+0	6.373978E-2	5.355835E-3	-1.826019E-1	-2.427216E-1
3.692000E+9	-7.654114E-1	-4.535217E-1	2.441406E-4	4.511230E+0	6.444168E-2	3.704071E-3	-1.898193E-1	-2.378082E-1
3.916500E+9	-7.806396E-1	-4.243469E-1	1.411133E-1	4.268555E+0	6.475067E-2	1.541138E-3	-1.990356E-1	-2.325974E-1
4.141000E+9	-7.929993E-1	-3.997192E-1	2.622070E-1	4.042969E+0	6.504822E-2	5.340576E-5	-2.058334E-1	-2.273407E-1
4.365500E+9	-8.029480E-1	-3.764343E-1	3.679199E-1	3.835449E+0	6.494141E-2	-1.674652E-3	-2.117844E-1	-2.236786E-1
4.590000E+9	-8.137512E-1	-3.545532E-1	4.580078E-1	3.640991E+0	6.531143E-2	-3.498077E-3	-2.182465E-1	-2.200546E-1
4.814500E+9	-8.228760E-1	-3.340759E-1	5.307617E-1	3.460937E+0	6.574631E-2	-4.680634E-3	-2.227402E-1	-2.171326E-1
5.039000E+9	-8.291321E-1	-3.147583E-1	5.972900E-1	3.296021E+0	6.515884E-2	-5.970001E-3	-2.294693E-1	-2.149429E-1
5.263500E+9	-8.354797E-1	-2.960815E-1	6.552734E-1	3.140747E+0	6.529999E-2	-7.675171E-3	-2.352066E-1	-2.113113E-1
5.488000E+9	-8.406067E-1	-2.798462E-1	7.027588E-1	2.997925E+0	6.551361E-2	-8.983612E-3	-2.391205E-1	-2.085419E-1
5.712500E+9	-8.468933E-1	-2.642517E-1	7.462158E-1	2.859741E+0	6.487656E-2	-1.055527E-2	-2.441483E-1	-2.065811E-1
5.937000E+9	-8.507996E-1	-2.475281E-1	7.827148E-1	2.734863E+0	6.479645E-2	-1.173782E-2	-2.488937E-1	-2.048264E-1
6.161500E+9	-8.552246E-1	-2.348328E-1	8.183594E-1	2.620117E+0	6.480026E-2	-1.297379E-2	-2.535553E-1	-2.019196E-1
6.386000E+9	-8.586426E-1	-2.203369E-1	8.487549E-1	2.506348E+0	6.439209E-2	-1.438141E-2	-2.559204E-1	-2.012634E-1
6.610500E+9	-8.613586E-1	-2.077942E-1	8.778076E-1	2.400757E+0	6.424713E-2	-1.599503E-2	-2.624664E-1	-2.018280E-1
6.835000E+9	-8.645020E-1	-1.953735E-1	9.003906E-1	2.298462E+0	6.333923E-2	-1.692581E-2	-2.670593E-1	-1.976776E-1
7.059500E+9	-8.661804E-1	-1.845398E-1	9.149170E-1	2.204712E+0	6.365585E-2	-1.826477E-2	-2.674561E-1	-1.991730E-1
7.284000E+9	-8.681030E-1	-1.730652E-1	9.328613E-1	2.114014E+0	6.280899E-2	-1.937485E-2	-2.758331E-1	-1.977234E-1
7.508500E+9	-8.711548E-1	-1.617432E-1	9.471436E-1	2.026855E+0	6.256485E-2	-2.012634E-2	-2.762756E-1	-1.953583E-1
7.733000E+9	-8.717346E-1	-1.504211E-1	9.584351E-1	1.945801E+0	6.204605E-2	-2.106094E-2	-2.818298E-1	-1.981964E-1
7.957500E+9	-8.737183E-1	-1.403503E-1	9.714966E-1	1.870605E+0	6.160927E-2	-2.287674E-2	-2.867584E-1	-1.949005E-1
8.182000E+9	-8.744507E-1	-1.304016E-1	9.824829E-1	1.797913E+0	6.140327E-2	-2.310944E-2	-2.923431E-1	-1.961060E-1
8.406500E+9	-8.752136E-1	-1.222534E-1	9.895630E-1	1.725525E+0	6.031227E-2	-2.488518E-2	-2.961884E-1	-1.926270E-1
8.631000E+9	-8.773804E-1	-1.126404E-1	9.966431E-1	1.654785E+0	6.055832E-2	-2.574921E-2	-3.008881E-1	-1.935120E-1
8.855500E+9	-8.773193E-1	-1.038208E-1	1.001709E+0	1.589478E+0	5.947113E-2	-2.691841E-2	-3.063202E-1	-1.917725E-1
9.080001E+9	-8.781433E-1	-9.640503E-2	1.004395E+0	1.528992E+0	5.908012E-2	-2.769852E-2	-3.080597E-1	-1.894684E-1
9.304500E+9	-8.781128E-1	-8.615112E-2	1.005310E+0	1.468201E+0	5.764008E-2	-2.893829E-2	-3.129730E-1	-1.894684E-1
9.529000E+9	-8.784180E-1	-8.001709E-2	1.006470E+0	1.409851E+0	5.768013E-2	-3.018188E-2	-3.195190E-1	-1.878204E-1
9.753500E+9	-8.791809E-1	-7.192993E-2	1.007141E+0	1.355042E+0	5.680847E-2	-3.062057E-2	-3.215027E-1	-1.857605E-1
9.978000E+9	-8.790283E-1	-6.457520E-2	1.006287E+0	1.303955E+0	5.653000E-2	-3.148270E-2	-3.260193E-1	-1.865845E-1
1.020250E+10	-8.806763E-1	-5.737305E-2	1.005676E+0	1.253113E+0	5.561638E-2	-3.212929E-2	-3.310547E-1	-1.839294E-1
1.042700E+10	-8.807678E-1	-4.968262E-2	1.004639E+0	1.204529E+0	5.555725E-2	-3.340340E-2	-3.343048E-1	-1.835480E-1
1.065150E+10	-8.801880E-1	-4.312134E-2	1.001465E+0	1.158813E+0	5.409813E-2	-3.382301E-2	-3.377228E-1	-1.842346E-1
1.087600E+10	-8.807373E-1	-3.576660E-2	9.994507E-1	1.114441E+0	5.279922E-2	-3.426361E-2	-3.429413E-1	-1.822052E-1
1.110050E+10	-8.803101E-1	-2.862549E-2	9.978638E-1	1.069397E+0	5.255699E-2	-3.568077E-2	-3.466034E-1	-1.796875E-1
1.132500E+10	-8.796082E-1	-2.294922E-2	9.929810E-1	1.027832E+0	5.176163E-2	-3.598022E-2	-3.501129E-1	-1.802673E-1
1.154950E+10	-8.805847E-1	-1.605225E-2	9.898376E-1	9.855652E-1	5.058861E-2	-3.628731E-2	-3.572693E-1	-1.772156E-1
1.177400E+10	-8.783264E-1	-9.674072E-3	9.843140E-1	9.489746E-1	5.006981E-2	-3.823662E-2	-3.593292E-1	-1.753693E-1
1.199850E+10	-8.791504E-1	-4.211426E-3	9.802246E-1	9.117126E-1	4.943085E-2	-3.772354E-2	-3.631287E-1	-1.755066E-1
1.222300E+10	-8.787842E-1	2.075195E-3	9.737244E-1	8.742371E-1	4.849052E-2	-3.857231E-2	-3.683014E-1	-1.743469E-1
1.244750E+10	-8.781433E-1	7.171631E-3	9.661255E-1	8.384399E-1	4.733467E-2	-3.932953E-2	-3.719482E-1	-1.709595E-1
1.267200E+10	-8.779907E-1	1.370239E-2	9.610596E-1	8.053284E-1	4.776573E-2	-3.991127E-2	-3.757935E-1	-1.712036E-1
1.289650E+10	-8.767090E-1	1.837158E-2	9.519653E-1	7.711487E-1	4.660034E-2	-4.078674E-2	-3.825836E-1	-1.704102E-1
1.312100E+10	-8.771057E-1	2.416992E-2	9.454041E-1	7.408752E-1	4.500008E-2	-4.161835E-2	-3.858490E-1	-1.646423E-1
1.334550E+10	-8.773804E-1	2.947998E-2	9.387817E-1	7.117004E-1	4.504013E-2	-4.253197E-2	-3.878784E-1	-1.652985E-1
1.357000E+10	-8.750305E-1	3.338623E-2	9.327698E-1	6.804504E-1	4.379082E-2	-4.257393E-2	-3.940887E-1	-1.651001E-1
1.379450E+10	-8.746033E-1	3.955078E-2	9.241638E-1	6.540527E-1	4.265785E-2	-4.415512E-2	-3.988495E-1	-1.591492E-1
1.401900E+10	-8.739319E-1	4.486084E-2	9.169006E-1	6.288452E-1	4.173851E-2	-4.459000E-2	-4.008789E-1	-1.602020E-1
1.424350E+10	-8.742371E-1	5.010986E-2	9.094849E-1	6.000977E-1	4.127312E-2	-4.461479E-2	-4.067841E-1	-1.569672E-1
1.446800E+10	-8.728638E-1	5.541992E-2	9.031372E-1	5.747375E-1	3.969193E-2	-4.442024E-2	-4.087677E-1	-1.526794E-1
1.469250E+10	-8.715820E-1	6.018066E-2	8.947754E-1	5.506287E-1	3.926468E-2	-4.548264E-2	-4.104614E-1	-1.506958E-1
1.491700E+10	-8.708496E-1	6.439209E-2	8.866577E-1	5.247498E-1	3.830910E-2	-4.472351E-2	-4.173126E-1	-1.513977E-1
1.514150E+10	-8.697815E-1	6.939697E-2	8.767090E-1	5.008240E-1	3.716660E-2	-4.656982E-2	-4.209900E-1	-1.449738E-1
1.536600E+10	-8.682861E-1	7.455444E-2	8.685913E-1	4.780884E-1	3.684998E-2	-4.611969E-2	-4.214783E-1	-1.432495E-1
1.559050E+10	-8.687134E-1	7.965088E-2	8.621216E-1	4.562378E-1	3.521156E-2	-4.563522E-2	-4.278259E-1	-1.440735E-1
1.581500E+10	-8.672485E-1	8.337402E-2	8.522339E-1	4.341736E-1	3.460503E-2	-4.670334E-2	-4.329681E-1	-1.394501E-1
1.603950E+10	-8.672485E-1	8.871460E-2	8.445129E-1	4.151306E-1	3.421402E-2	-4.877472E-2	-4.354095E-1	-1.374969E-1
1.626400E+10	-8.653564E-1	9.298706E-2	8.340759E-1	3.950500E-1	3.244591E-2	-4.767418E-2	-4.420166E-1	-1.359406E-1
1.648850E+10	-8.653259E-1	9.710693E-2	8.258362E-1	3.763123E-1	3.241348E-2	-4.897308E-2	-4.423065E-1	-1.310730E-1
1.671300E+10	-8.635559E-1	1.015625E-1	8.166199E-1	3.564758E-1	3.116798E-2	-4.813766E-2	-4.457703E-1	-1.293945E-1
1.693750E+10	-8.634033E-1	1.051025E-1	8.090820E-1	3.396606E-1	3.032112E-2	-4.915810E-2	-4.506378E-1	-1.270294E-1
1.716200E+10	-8.619385E-1	1.100769E-1	7.995605E-1	3.228455E-1	2.921486E-2	-4.993820E-2	-4.550018E-1	-1.206970E-1
1.738650E+10	-8.602905E-1	1.153564E-1	7.916260E-1	3.080750E-1	2.726364E-2	-4.919815E-2	-4.552307E-1	-1.180878E-1
1.761100E+10	-8.600769E-1	1.175537E-1	7.837219E-1	2.908630E-1	2.776718E-2	-5.050278E-2	-4.622498E-1	-1.170044E-1
1.783550E+10	-8.598022E-1	1.221619E-1	7.727051E-1	2.748718E-1	2.471924E-2	-4.876900E-2	-4.665070E-1	-1.097260E-1
1.806000E+10	-8.580627E-1	1.275024E-1	7.659912E-1	2.601624E-1	2.457047E-2	-5.035973E-2	-4.660339E-1	-1.077576E-1
1.828450E+10	-8.569946E-1	1.312561E-1	7.583313E-1	2.449341E-1	2.300644E-2	-4.960060E-2	-4.697266E-1	-1.054382E-1
1.850900E+10	-8.569336E-1	1.350098E-1	7.508850E-1	2.310791E-1	2.296066E-2	-4.988480E-2	-4.753723E-1	-1.022644E-1
1.873350E+10	-8.536987E-1	1.392822E-1	7.414551E-1	2.157288E-1	2.198029E-2	-4.934502E-2	-4.777222E-1	-9.671021E-2
1.895800E+10	-8.528442E-1	1.427612E-1	7.309875E-1	2.030334E-1	2.115440E-2	-4.956818E-2	-4.794617E-1	-9.840393E-2
1.918250E+10	-8.508911E-1	1.464539E-1	7.234497E-1	1.885376E-1	1.996803E-2	-5.026627E-2	-4.837494E-1	-9.219360E-2
1.940700E+10	-8.501892E-1	1.510925E-1	7.133179E-1	1.764832E-1	1.911926E-2	-5.086136E-2	-4.840698E-1	-8.570862E-2
1.963150E+10	-8.487854E-1	1.531677E-1	7.046204E-1	1.640015E-1	1.649284E-2	-5.010796E-2	-4.863434E-1	-8.496094E-2
1.985600E+10	-8.476562E-1	1.585693E-1	6.969604E-1	1.538391E-1	1.631546E-2	-5.111313E-2	-4.922028E-1	-8.154297E-2
2.008050E+10	-8.481445E-1	1.595764E-1	6.884155E-1	1.406860E-1	1.649094E-2	-5.267143E-2	-4.954529E-1	-7.408142E-2
2.030500E+10	-8.453064E-1	1.648865E-1	6.803894E-1	1.320801E-1	1.292610E-2	-5.052948E-2	-4.954681E-1	-7.548523E-2
2.052950E+10	-8.454590E-1	1.674500E-1	6.731567E-1	1.204529E-1	1.371002E-2	-5.133820E-2	-4.997559E-1	-7.086182E-2
2.075400E+10	-8.423157E-1	1.709900E-1	6.640930E-1	1.111755E-1	1.149750E-2	-5.086136E-2	-5.029602E-1	-6.439209E-2
2.097850E+10	-8.416443E-1	1.749573E-1	6.562805E-1	1.007385E-1	9.700775E-3	-5.133820E-2	-5.018005E-1	-5.941772E-2
2.120300E+10	-8.396301E-1	1.771851E-1	6.474609E-1	9.002686E-2	1.015663E-2	-5.091286E-2	-5.063782E-1	-5.935669E-2
2.142750E+10	-8.396912E-1	1.809387E-1	6.405334E-1	7.913208E-2	8.552551E-3	-4.948807E-2	-5.119019E-1	-5.316162E-2
2.165200E+10	-8.385620E-1	1.858215E-1	6.334229E-1	7.080078E-2	7.410049E-3	-5.037117E-2	-5.106201E-1	-4.946899E-2
2.187650E+10	-8.359375E-1	1.888428E-1	6.232605E-1	6.350708E-2	7.181168E-3	-5.075264E-2	-5.161743E-1	-4.760742E-2
2.210100E+10	-8.360901E-1	1.944885E-1	6.143188E-1	5.291748E-2	7.003784E-3	-4.979706E-2	-5.195007E-1	-3.991699E-2
2.232550E+10	-8.329773E-1	1.954651E-1	6.076050E-1	4.690552E-2	4.259109E-3	-4.954529E-2	-5.193481E-1	-3.442383E-2
2.255000E+10	-8.336182E-1	1.991577E-1	5.985413E-1	3.753662E-2	3.709793E-3	-4.933548E-2	-5.222778E-1	-3.225708E-2
2.277450E+10	-8.318176E-1	2.048035E-1	5.921936E-1	3.097534E-2	2.149582E-3	-4.828262E-2	-5.233765E-1	-2.560425E-2
2.299900E+10	-8.315125E-1	2.064819E-1	5.860291E-1	2.304077E-2	1.361847E-3	-4.902077E-2	-5.252686E-1	-2.221680E-2
2.322350E+10	-8.290405E-1	2.105103E-1	5.806580E-1	1.361084E-2	6.103516E-5	-4.965401E-2	-5.285950E-1	-1.950073E-2
2.344800E+10	-8.281555E-1	2.113037E-1	5.715027E-1	1.132202E-2	-8.258820E-4	-4.692650E-2	-5.311279E-1	-1.071167E-2
2.367250E+10	-8.263550E-1	2.155762E-1	5.629883E-1	2.471924E-3	-1.359940E-3	-4.848099E-2	-5.288086E-1	-7.781982E-3
2.389700E+10	-8.235168E-1	2.213745E-1	5.573120E-1	-5.187988E-3	-2.180099E-3	-4.935265E-2	-5.326538E-1	-4.455566E-3
2.412150E+10	-8.241577E-1	2.219849E-1	5.487671E-1	-1.171875E-2	-3.551483E-3	-4.793739E-2	-5.324707E-1	3.723145E-3
2.434600E+10	-8.200378E-1	2.271423E-1	5.415955E-1	-1.791382E-2	-5.983353E-3	-4.747581E-2	-5.300903E-1	7.781982E-3
2.457050E+10	-8.198242E-1	2.291870E-1	5.355835E-1	-2.316284E-2	-5.008698E-3	-4.436874E-2	-5.376892E-1	8.209229E-3
2.479500E+10	-8.195190E-1	2.319946E-1	5.290833E-1	-2.798462E-2	-7.867813E-3	-4.571533E-2	-5.348511E-1	1.785278E-2
2.501950E+10	-8.164978E-1	2.358398E-1	5.207214E-1	-3.524780E-2	-8.016586E-3	-4.635811E-2	-5.335083E-1	1.727295E-2
2.524400E+10	-8.153687E-1	2.385864E-1	5.131836E-1	-4.080200E-2	-1.077271E-2	-4.419708E-2	-5.357666E-1	2.270508E-2
2.546850E+10	-8.126831E-1	2.434387E-1	5.060120E-1	-4.473877E-2	-9.401321E-3	-4.304695E-2	-5.368042E-1	2.798462E-2
2.569300E+10	-8.120422E-1	2.438660E-1	5.010986E-1	-4.547119E-2	-1.130104E-2	-4.114914E-2	-5.364685E-1	2.908325E-2
2.591750E+10	-8.117981E-1	2.485046E-1	4.954987E-1	-5.313110E-2	-1.121521E-2	-4.365349E-2	-5.411072E-1	3.201294E-2
2.614200E+10	-8.084717E-1	2.502136E-1	4.886169E-1	-5.400085E-2	-1.329613E-2	-4.157829E-2	-5.434875E-1	3.973389E-2
2.636650E+10	-8.066406E-1	2.525330E-1	4.815521E-1	-6.062317E-2	-1.486397E-2	-4.100418E-2	-5.459290E-1	4.586792E-2
2.659100E+10	-8.035583E-1	2.551880E-1	4.751892E-1	-6.723022E-2	-1.558304E-2	-3.980637E-2	-5.417175E-1	5.157471E-2
2.681550E+10	-8.029175E-1	2.556458E-1	4.726257E-1	-6.919861E-2	-1.590919E-2	-4.167747E-2	-5.472107E-1	5.331421E-2
2.704000E+10	-8.022766E-1	2.622375E-1	4.640656E-1	-6.941223E-2	-1.857376E-2	-3.894234E-2	-5.472107E-1	6.546021E-2
2.726450E+10	-7.987671E-1	2.630920E-1	4.613953E-1	-7.769775E-2	-1.805878E-2	-3.806686E-2	-5.430298E-1	6.478882E-2
2.748900E+10	-7.975159E-1	2.662354E-1	4.558258E-1	-7.868958E-2	-1.687622E-2	-3.949928E-2	-5.448303E-1	7.055664E-2
2.771350E+10	-7.944946E-1	2.671204E-1	4.465179E-1	-8.644104E-2	-2.027893E-2	-3.687096E-2	-5.489502E-1	7.794189E-2
2.793800E+10	-7.915955E-1	2.709351E-1	4.416046E-1	-9.025574E-2	-2.133179E-2	-3.664970E-2	-5.445557E-1	7.888794E-2
2.816250E+10	-7.930298E-1	2.696228E-1	4.369049E-1	-9.080505E-2	-2.059746E-2	-3.323555E-2	-5.480957E-1	8.200073E-2
2.838700E+10	-7.906189E-1	2.766724E-1	4.301605E-1	-9.379578E-2	-2.012444E-2	-3.474998E-2	-5.474854E-1	8.889771E-2
2.861150E+10	-7.891846E-1	2.810059E-1	4.269104E-1	-9.603882E-2	-2.424240E-2	-3.338623E-2	-5.468445E-1	9.347534E-2
2.883600E+10	-7.887573E-1	2.809753E-1	4.222870E-1	-9.799194E-2	-2.372932E-2	-2.840233E-2	-5.478821E-1	9.667969E-2
2.906050E+10	-7.874146E-1	2.852783E-1	4.167328E-1	-1.011353E-1	-2.473354E-2	-2.862930E-2	-5.494995E-1	1.054993E-1
2.928500E+10	-7.845764E-1	2.882996E-1	4.143829E-1	-1.033173E-1	-2.574539E-2	-2.852535E-2	-5.451965E-1	1.075134E-1
2.950950E+10	-7.839050E-1	2.915955E-1	4.082642E-1	-1.076508E-1	-2.436829E-2	-2.686882E-2	-5.506897E-1	1.102905E-1
2.973400E+10	-7.829285E-1	2.938843E-1	4.038849E-1	-1.113434E-1	-2.545357E-2	-2.474785E-2	-5.501099E-1	1.168823E-1
2.995850E+10	-7.781372E-1	2.952576E-1	3.984375E-1	-1.103058E-1	-2.606964E-2	-2.369308E-2	-5.453491E-1	1.250916E-1
3.018300E+10	-7.759705E-1	2.964478E-1	3.947601E-1	-1.160278E-1	-2.813435E-2	-2.454472E-2	-5.494995E-1	1.320801E-1
3.040750E+10	-7.779846E-1	2.995605E-1	3.910065E-1	-1.177521E-1	-2.935791E-2	-2.265835E-2	-5.515137E-1	1.399536E-1
3.063200E+10	-7.723694E-1	2.998657E-1	3.871460E-1	-1.211548E-1	-2.853870E-2	-2.365971E-2	-5.499878E-1	1.410217E-1
3.085650E+10	-7.716980E-1	3.045349E-1	3.828735E-1	-1.207581E-1	-3.099251E-2	-2.213860E-2	-5.514221E-1	1.514587E-1
3.108100E+10	-7.720032E-1	3.113708E-1	3.806610E-1	-1.221771E-1	-3.112984E-2	-2.253056E-2	-5.473633E-1	1.556702E-1
3.130550E+10	-7.681580E-1	3.096008E-1	3.745880E-1	-1.234894E-1	-3.019142E-2	-1.970482E-2	-5.421143E-1	1.578369E-1
3.153000E+10	-7.710876E-1	3.125305E-1	3.723297E-1	-1.303406E-1	-2.967453E-2	-1.670647E-2	-5.481567E-1	1.640320E-1
3.175450E+10	-7.675781E-1	3.134155E-1	3.650055E-1	-1.322784E-1	-3.076553E-2	-1.494408E-2	-5.461426E-1	1.721191E-1
3.197900E+10	-7.662048E-1	3.168640E-1	3.596802E-1	-1.371155E-1	-2.903461E-2	-1.690388E-2	-5.400085E-1	1.725159E-1
3.220350E+10	-7.626038E-1	3.208008E-1	3.571472E-1	-1.400909E-1	-3.096771E-2	-1.798725E-2	-5.454712E-1	1.845093E-1
3.242800E+10	-7.638245E-1	3.203125E-1	3.572845E-1	-1.416016E-1	-3.519630E-2	-1.652718E-2	-5.405884E-1	1.875610E-1
3.265250E+10	-7.601624E-1	3.239136E-1	3.515167E-1	-1.426849E-1	-3.630447E-2	-1.019859E-2	-5.402527E-1	1.920776E-1
3.287700E+10	-7.556763E-1	3.289490E-1	3.515015E-1	-1.416168E-1	-3.178406E-2	-8.243561E-3	-5.421753E-1	1.952820E-1
3.310150E+10	-7.560120E-1	3.302002E-1	3.460999E-1	-1.423492E-1	-3.416252E-2	-9.260178E-3	-5.399170E-1	2.035522E-1
3.332600E+10	-7.539673E-1	3.316040E-1	3.422852E-1	-1.504211E-1	-3.372192E-2	-9.120941E-3	-5.399170E-1	2.030640E-1
3.355050E+10	-7.517700E-1	3.341064E-1	3.403931E-1	-1.509247E-1	-3.425789E-2	-7.028580E-3	-5.399475E-1	2.092285E-1
3.377500E+10	-7.502747E-1	3.376465E-1	3.385620E-1	-1.495667E-1	-3.095531E-2	-4.642487E-3	-5.319519E-1	2.177429E-1
3.399950E+10	-7.458191E-1	3.398437E-1	3.326111E-1	-1.498260E-1	-3.643990E-2	-6.681442E-3	-5.354614E-1	2.220154E-1
3.422400E+10	-7.471008E-1	3.417053E-1	3.281097E-1	-1.530151E-1	-3.053570E-2	-2.647400E-3	-5.314636E-1	2.322388E-1
3.444850E+10	-7.458496E-1	3.411560E-1	3.244171E-1	-1.635132E-1	-2.985573E-2	-1.976013E-3	-5.333252E-1	2.333069E-1
3.467300E+10	-7.430115E-1	3.434448E-1	3.326721E-1	-1.564178E-1	-3.190422E-2	9.155273E-4	-5.328064E-1	2.377930E-1
3.489750E+10	-7.415161E-1	3.460999E-1	3.226318E-1	-1.596222E-1	-3.364944E-2	2.307892E-3	-5.256042E-1	2.540894E-1
3.512200E+10	-7.366638E-1	3.446960E-1	3.162384E-1	-1.644897E-1	-3.380203E-2	2.225876E-3	-5.232239E-1	2.511292E-1
3.534650E+10	-7.401733E-1	3.477478E-1	3.137054E-1	-1.632080E-1	-3.508759E-2	3.219604E-3	-5.235291E-1	2.577515E-1
3.557100E+10	-7.364502E-1	3.492432E-1	3.141174E-1	-1.655731E-1	-3.292274E-2	1.005363E-2	-5.161438E-1	2.723083E-1
3.579550E+10	-7.333984E-1	3.548279E-1	3.151855E-1	-1.696320E-1	-3.137016E-2	6.908417E-3	-5.168762E-1	2.741699E-1
3.602000E+10	-7.360535E-1	3.555298E-1	3.031616E-1	-1.723175E-1	-3.552818E-2	1.102638E-2	-5.151672E-1	2.801514E-1
3.624450E+10	-7.332153E-1	3.578186E-1	3.017883E-1	-1.703796E-1	-2.976513E-2	9.044647E-3	-5.138245E-1	2.816162E-1
3.646900E+10	-7.290955E-1	3.630981E-1	2.990570E-1	-1.748962E-1	-2.825356E-2	1.240540E-2	-5.130615E-1	2.941284E-1
3.669350E+10	-7.271423E-1	3.608093E-1	3.027496E-1	-1.785736E-1	-2.941036E-2	1.264191E-2	-5.044861E-1	2.956848E-1
3.691800E+10	-7.270813E-1	3.630066E-1	2.979889E-1	-1.853333E-1	-2.908611E-2	1.508522E-2	-5.044861E-1	3.087158E-1
3.714250E+10	-7.236633E-1	3.641052E-1	2.917175E-1	-1.838074E-1	-3.214264E-2	1.734924E-2	-4.964447E-1	3.113556E-1
3.736700E+10	-7.206116E-1	3.682556E-1	2.889557E-1	-1.868286E-1	-3.213310E-2	1.827812E-2	-4.945984E-1	3.160400E-1
3.759150E+10	-7.210693E-1	3.684082E-1	2.852325E-1	-1.854401E-1	-2.837086E-2	2.158070E-2	-4.915466E-1	3.224182E-1
3.781600E+10	-7.163391E-1	3.695679E-1	2.849274E-1	-1.867065E-1	-2.391529E-2	2.183342E-2	-4.903564E-1	3.260498E-1
3.804050E+10	-7.223816E-1	3.670959E-1	2.802277E-1	-1.877136E-1	-3.085327E-2	2.151871E-2	-4.819183E-1	3.315735E-1
3.826500E+10	-7.152710E-1	3.743896E-1	2.826996E-1	-1.887970E-1	-2.696419E-2	1.919079E-2	-4.674072E-1	3.439941E-1
3.848950E+10	-7.115784E-1	3.761292E-1	2.804413E-1	-1.978455E-1	-2.589703E-2	2.247715E-2	-4.747620E-1	3.474426E-1
3.871400E+10	-7.146301E-1	3.768921E-1	2.702637E-1	-1.947327E-1	-2.952194E-2	2.526474E-2	-4.686584E-1	3.513794E-1
3.893850E+10	-7.103271E-1	3.835754E-1	2.719116E-1	-2.007599E-1	-2.611828E-2	2.588177E-2	-4.586334E-1	3.610077E-1
3.916300E+10	-7.163391E-1	3.804321E-1	2.679443E-1	-2.008362E-1	-2.350807E-2	2.344990E-2	-4.598389E-1	3.556213E-1
