!Date: 10/28/2005, 12:46 PM

!Vgs = -7.000000E+0
!Vds = 2.000000E+1
!Ig = -1.434900E-4
!Id = 3.281100E-3

# HZ S RI R 50
1.000000E+8	9.894409E-1	-3.668213E-2	-1.268616E-1	4.844666E-3	1.383305E-3	8.606434E-3	9.651184E-1	-7.812500E-3
3.245000E+8	9.785461E-1	-1.031494E-1	-1.271133E-1	3.594208E-2	4.894257E-3	2.713490E-2	9.420471E-1	-8.364868E-2
5.490000E+8	9.649658E-1	-1.664734E-1	-1.206551E-1	6.361389E-2	9.941101E-3	4.456139E-2	9.370422E-1	-1.331787E-1
7.735000E+8	9.479065E-1	-2.297363E-1	-1.109619E-1	8.966446E-2	1.695442E-2	6.041908E-2	9.219666E-1	-1.835327E-1
9.980000E+8	9.282837E-1	-2.876892E-1	-9.872818E-2	1.132507E-1	2.560043E-2	7.546616E-2	9.064331E-1	-2.276001E-1
1.222500E+9	9.039917E-1	-3.454285E-1	-8.473969E-2	1.346054E-1	3.500366E-2	8.892822E-2	8.892212E-1	-2.740173E-1
1.447000E+9	8.774109E-1	-4.001465E-1	-6.974030E-2	1.543045E-1	4.502869E-2	1.014633E-1	8.701477E-1	-3.177185E-1
1.671500E+9	8.473816E-1	-4.523315E-1	-5.339813E-2	1.728821E-1	5.644226E-2	1.135826E-1	8.469543E-1	-3.579102E-1
1.896000E+9	8.148804E-1	-5.000610E-1	-3.336334E-2	1.893311E-1	7.011414E-2	1.250000E-1	8.275146E-1	-3.949280E-1
2.120500E+9	7.815247E-1	-5.455627E-1	-1.217651E-2	2.033691E-1	8.483887E-2	1.338806E-1	8.057556E-1	-4.346008E-1
2.345000E+9	7.431030E-1	-5.891724E-1	9.269714E-3	2.142715E-1	1.006393E-1	1.399612E-1	7.798767E-1	-4.714966E-1
2.569500E+9	7.057800E-1	-6.264648E-1	3.046417E-2	2.229156E-1	1.151962E-1	1.437225E-1	7.551270E-1	-5.064697E-1
2.794000E+9	6.673279E-1	-6.634827E-1	5.132294E-2	2.294922E-1	1.299973E-1	1.480789E-1	7.285461E-1	-5.385437E-1
3.018500E+9	6.274414E-1	-6.950073E-1	7.305145E-2	2.337952E-1	1.449509E-1	1.490021E-1	6.992187E-1	-5.708313E-1
3.243000E+9	5.871887E-1	-7.251282E-1	9.450531E-2	2.362518E-1	1.600418E-1	1.494675E-1	6.692200E-1	-6.005859E-1
3.467500E+9	5.465393E-1	-7.522583E-1	1.153336E-1	2.375031E-1	1.738892E-1	1.492691E-1	6.394653E-1	-6.264038E-1
3.692000E+9	5.061035E-1	-7.763672E-1	1.359863E-1	2.366791E-1	1.882706E-1	1.471252E-1	6.083069E-1	-6.528625E-1
3.916500E+9	4.642944E-1	-7.972412E-1	1.558456E-1	2.343979E-1	2.020340E-1	1.439056E-1	5.760498E-1	-6.752319E-1
4.141000E+9	4.246216E-1	-8.153992E-1	1.749573E-1	2.309418E-1	2.155609E-1	1.412964E-1	5.474854E-1	-6.962280E-1
4.365500E+9	3.860168E-1	-8.324890E-1	1.933670E-1	2.258301E-1	2.285156E-1	1.357193E-1	5.166626E-1	-7.170410E-1
4.590000E+9	3.445129E-1	-8.478088E-1	2.108154E-1	2.193375E-1	2.405014E-1	1.295166E-1	4.836426E-1	-7.351990E-1
4.814500E+9	3.059692E-1	-8.588867E-1	2.278442E-1	2.119980E-1	2.523193E-1	1.238403E-1	4.536133E-1	-7.512207E-1
5.039000E+9	2.676086E-1	-8.698730E-1	2.440567E-1	2.031860E-1	2.633362E-1	1.154785E-1	4.218750E-1	-7.683411E-1
5.263500E+9	2.295837E-1	-8.766174E-1	2.587891E-1	1.936035E-1	2.733917E-1	1.073761E-1	3.900146E-1	-7.815857E-1
5.488000E+9	1.934814E-1	-8.829346E-1	2.722626E-1	1.830292E-1	2.826385E-1	9.855652E-2	3.611145E-1	-7.937622E-1
5.712500E+9	1.566467E-1	-8.881531E-1	2.852478E-1	1.718445E-1	2.916718E-1	8.950806E-2	3.298645E-1	-8.062134E-1
5.937000E+9	1.224976E-1	-8.900757E-1	2.969666E-1	1.600037E-1	2.985687E-1	7.968140E-2	2.978821E-1	-8.166504E-1
6.161500E+9	9.066772E-2	-8.931274E-1	3.069611E-1	1.481323E-1	3.063507E-1	6.974792E-2	2.696533E-1	-8.255310E-1
6.386000E+9	5.587769E-2	-8.948975E-1	3.168793E-1	1.362000E-1	3.120575E-1	5.854797E-2	2.381897E-1	-8.341980E-1
6.610500E+9	2.563477E-2	-8.948059E-1	3.254242E-1	1.235352E-1	3.169556E-1	4.856873E-2	2.066345E-1	-8.420105E-1
6.835000E+9	-5.737305E-3	-8.939209E-1	3.325653E-1	1.116486E-1	3.216858E-1	3.845215E-2	1.774902E-1	-8.462524E-1
7.059500E+9	-3.436279E-2	-8.910522E-1	3.389587E-1	9.890747E-2	3.251648E-1	2.912903E-2	1.512451E-1	-8.496704E-1
7.284000E+9	-6.359863E-2	-8.888550E-1	3.450317E-1	8.486938E-2	3.288574E-1	1.777649E-2	1.199036E-1	-8.546143E-1
7.508500E+9	-9.161377E-2	-8.853149E-1	3.504639E-1	7.164001E-2	3.318176E-1	7.186890E-3	9.140015E-2	-8.552246E-1
7.733000E+9	-1.187439E-1	-8.801880E-1	3.547821E-1	5.891418E-2	3.332520E-1	-2.258301E-3	6.552124E-2	-8.580017E-1
7.957500E+9	-1.443787E-1	-8.754883E-1	3.574371E-1	4.592896E-2	3.349457E-1	-1.368713E-2	3.701782E-2	-8.594360E-1
8.182000E+9	-1.685486E-1	-8.707581E-1	3.603973E-1	3.416443E-2	3.360291E-1	-2.319336E-2	1.071167E-2	-8.596802E-1
8.406500E+9	-1.929626E-1	-8.646851E-1	3.624268E-1	2.107239E-2	3.363342E-1	-3.312683E-2	-1.724243E-2	-8.573303E-1
8.631000E+9	-2.182312E-1	-8.583679E-1	3.634949E-1	9.735107E-3	3.367767E-1	-4.335022E-2	-4.309082E-2	-8.584595E-1
8.855500E+9	-2.400208E-1	-8.525085E-1	3.641205E-1	-3.173828E-3	3.359680E-1	-5.299377E-2	-6.872559E-2	-8.552551E-1
9.080001E+9	-2.618103E-1	-8.461914E-1	3.649139E-1	-1.437378E-2	3.352966E-1	-6.205750E-2	-9.387207E-2	-8.511047E-1
9.304500E+9	-2.838135E-1	-8.366394E-1	3.639069E-1	-2.597046E-2	3.341064E-1	-7.258606E-2	-1.175232E-1	-8.480835E-1
9.529000E+9	-3.037415E-1	-8.306885E-1	3.628235E-1	-3.726196E-2	3.323822E-1	-8.033752E-2	-1.433411E-1	-8.436890E-1
9.753500E+9	-3.257751E-1	-8.226318E-1	3.617401E-1	-4.869080E-2	3.308716E-1	-8.900452E-2	-1.644592E-1	-8.374329E-1
9.978000E+9	-3.428345E-1	-8.137817E-1	3.604279E-1	-5.825806E-2	3.280182E-1	-9.796143E-2	-1.867371E-1	-8.342285E-1
1.020250E+10	-3.616028E-1	-8.065491E-1	3.588715E-1	-7.005310E-2	3.256989E-1	-1.063538E-1	-2.113342E-1	-8.283691E-1
1.042700E+10	-3.800049E-1	-7.982483E-1	3.555298E-1	-7.931519E-2	3.224792E-1	-1.141357E-1	-2.325745E-1	-8.218384E-1
1.065150E+10	-3.969727E-1	-7.892761E-1	3.523407E-1	-8.920288E-2	3.191986E-1	-1.224976E-1	-2.526550E-1	-8.156433E-1
1.087600E+10	-4.139404E-1	-7.806702E-1	3.496399E-1	-9.846497E-2	3.160095E-1	-1.298370E-1	-2.745361E-1	-8.088074E-1
1.110050E+10	-4.299927E-1	-7.717896E-1	3.462067E-1	-1.084900E-1	3.119049E-1	-1.372528E-1	-2.966309E-1	-8.016663E-1
1.132500E+10	-4.461670E-1	-7.636414E-1	3.426208E-1	-1.174774E-1	3.078613E-1	-1.434937E-1	-3.141785E-1	-7.952576E-1
1.154950E+10	-4.619751E-1	-7.534790E-1	3.389740E-1	-1.253357E-1	3.042908E-1	-1.508789E-1	-3.366394E-1	-7.858276E-1
1.177400E+10	-4.761047E-1	-7.459412E-1	3.345184E-1	-1.336975E-1	3.012085E-1	-1.569214E-1	-3.529358E-1	-7.761536E-1
1.199850E+10	-4.920959E-1	-7.368469E-1	3.297119E-1	-1.411896E-1	2.975311E-1	-1.636200E-1	-3.713684E-1	-7.703857E-1
1.222300E+10	-5.046692E-1	-7.272644E-1	3.251495E-1	-1.485748E-1	2.926178E-1	-1.697845E-1	-3.914490E-1	-7.609863E-1
1.244750E+10	-5.184937E-1	-7.178040E-1	3.211365E-1	-1.568146E-1	2.879181E-1	-1.763153E-1	-4.100037E-1	-7.489929E-1
1.267200E+10	-5.315247E-1	-7.087708E-1	3.156433E-1	-1.637115E-1	2.836914E-1	-1.818695E-1	-4.240112E-1	-7.420959E-1
1.289650E+10	-5.432739E-1	-6.995239E-1	3.103333E-1	-1.698303E-1	2.780304E-1	-1.864471E-1	-4.433899E-1	-7.319336E-1
1.312100E+10	-5.563049E-1	-6.912842E-1	3.066101E-1	-1.764679E-1	2.734833E-1	-1.924896E-1	-4.600830E-1	-7.200012E-1
1.334550E+10	-5.681458E-1	-6.817932E-1	3.008118E-1	-1.828461E-1	2.693024E-1	-1.975098E-1	-4.735718E-1	-7.123413E-1
1.357000E+10	-5.814514E-1	-6.713867E-1	2.953796E-1	-1.895905E-1	2.628937E-1	-2.022247E-1	-4.907227E-1	-7.027283E-1
1.379450E+10	-5.891113E-1	-6.640625E-1	2.903290E-1	-1.954041E-1	2.596436E-1	-2.075958E-1	-5.062561E-1	-6.898193E-1
1.401900E+10	-5.999756E-1	-6.543274E-1	2.857361E-1	-2.002411E-1	2.541656E-1	-2.111511E-1	-5.171814E-1	-6.813049E-1
1.424350E+10	-6.107788E-1	-6.450806E-1	2.784424E-1	-2.048187E-1	2.488480E-1	-2.151718E-1	-5.345459E-1	-6.682434E-1
1.446800E+10	-6.217041E-1	-6.372681E-1	2.734985E-1	-2.104492E-1	2.437744E-1	-2.191620E-1	-5.484009E-1	-6.551208E-1
1.469250E+10	-6.300354E-1	-6.276855E-1	2.679291E-1	-2.146759E-1	2.387848E-1	-2.234650E-1	-5.591736E-1	-6.455994E-1
1.491700E+10	-6.403503E-1	-6.189880E-1	2.626343E-1	-2.204437E-1	2.340851E-1	-2.266464E-1	-5.737610E-1	-6.358948E-1
1.514150E+10	-6.495361E-1	-6.098022E-1	2.568512E-1	-2.244263E-1	2.287598E-1	-2.299347E-1	-5.884705E-1	-6.212158E-1
1.536600E+10	-6.587830E-1	-5.997925E-1	2.510071E-1	-2.283325E-1	2.214890E-1	-2.327042E-1	-5.985107E-1	-6.102905E-1
1.559050E+10	-6.676025E-1	-5.910034E-1	2.444687E-1	-2.332687E-1	2.172394E-1	-2.361145E-1	-6.131287E-1	-6.012573E-1
1.581500E+10	-6.754456E-1	-5.809631E-1	2.388611E-1	-2.369537E-1	2.121353E-1	-2.393341E-1	-6.242065E-1	-5.857239E-1
1.603950E+10	-6.860352E-1	-5.738831E-1	2.323151E-1	-2.387314E-1	2.070999E-1	-2.426758E-1	-6.337585E-1	-5.758667E-1
1.626400E+10	-6.925354E-1	-5.648193E-1	2.284012E-1	-2.427139E-1	2.021713E-1	-2.453537E-1	-6.475830E-1	-5.637207E-1
1.648850E+10	-7.012634E-1	-5.546265E-1	2.219772E-1	-2.466278E-1	1.953430E-1	-2.475739E-1	-6.571350E-1	-5.489807E-1
1.671300E+10	-7.072449E-1	-5.464478E-1	2.167816E-1	-2.501068E-1	1.917343E-1	-2.493668E-1	-6.664429E-1	-5.391846E-1
1.693750E+10	-7.149658E-1	-5.388184E-1	2.103577E-1	-2.538605E-1	1.872253E-1	-2.523651E-1	-6.768188E-1	-5.263977E-1
1.716200E+10	-7.220459E-1	-5.293579E-1	2.055664E-1	-2.542725E-1	1.816254E-1	-2.536316E-1	-6.859131E-1	-5.112305E-1
1.738650E+10	-7.291260E-1	-5.203857E-1	1.980743E-1	-2.582703E-1	1.754608E-1	-2.560730E-1	-6.951599E-1	-4.992676E-1
1.761100E+10	-7.375183E-1	-5.128174E-1	1.937103E-1	-2.591553E-1	1.703491E-1	-2.570038E-1	-7.055664E-1	-4.906006E-1
1.783550E+10	-7.447205E-1	-5.034180E-1	1.867981E-1	-2.616730E-1	1.657410E-1	-2.596741E-1	-7.137451E-1	-4.736633E-1
1.806000E+10	-7.507019E-1	-4.956055E-1	1.832886E-1	-2.638550E-1	1.615295E-1	-2.613678E-1	-7.195435E-1	-4.630737E-1
1.828450E+10	-7.571106E-1	-4.853821E-1	1.770325E-1	-2.651520E-1	1.563568E-1	-2.625122E-1	-7.274170E-1	-4.527893E-1
1.850900E+10	-7.624817E-1	-4.780579E-1	1.715698E-1	-2.665558E-1	1.513214E-1	-2.635498E-1	-7.386780E-1	-4.374695E-1
1.873350E+10	-7.695618E-1	-4.698181E-1	1.669922E-1	-2.686310E-1	1.461182E-1	-2.642212E-1	-7.440186E-1	-4.235229E-1
1.895800E+10	-7.747803E-1	-4.601135E-1	1.598663E-1	-2.691040E-1	1.421967E-1	-2.664185E-1	-7.523193E-1	-4.144592E-1
1.918250E+10	-7.802429E-1	-4.525146E-1	1.556702E-1	-2.710876E-1	1.364441E-1	-2.666016E-1	-7.595215E-1	-4.004822E-1
1.940700E+10	-7.855530E-1	-4.433289E-1	1.506042E-1	-2.733459E-1	1.316986E-1	-2.667694E-1	-7.627563E-1	-3.838196E-1
1.963150E+10	-7.910156E-1	-4.356689E-1	1.448669E-1	-2.734222E-1	1.278687E-1	-2.693024E-1	-7.681885E-1	-3.744812E-1
1.985600E+10	-7.961426E-1	-4.272766E-1	1.381073E-1	-2.734070E-1	1.223297E-1	-2.682037E-1	-7.767334E-1	-3.612976E-1
2.008050E+10	-8.009338E-1	-4.197388E-1	1.343384E-1	-2.745056E-1	1.180115E-1	-2.696228E-1	-7.808838E-1	-3.454590E-1
2.030500E+10	-8.043518E-1	-4.098511E-1	1.312103E-1	-2.759857E-1	1.130066E-1	-2.704163E-1	-7.843323E-1	-3.360291E-1
2.052950E+10	-8.114319E-1	-4.019470E-1	1.247711E-1	-2.747192E-1	1.077728E-1	-2.688293E-1	-7.930298E-1	-3.237000E-1
2.075400E+10	-8.154907E-1	-3.975220E-1	1.203308E-1	-2.774963E-1	1.029053E-1	-2.705078E-1	-7.964478E-1	-3.080139E-1
2.097850E+10	-8.211670E-1	-3.869629E-1	1.153870E-1	-2.765808E-1	9.764099E-2	-2.711029E-1	-7.984009E-1	-2.967224E-1
2.120300E+10	-8.237000E-1	-3.786926E-1	1.100006E-1	-2.759552E-1	9.414673E-2	-2.719421E-1	-8.045959E-1	-2.866821E-1
2.142750E+10	-8.308716E-1	-3.708191E-1	1.055450E-1	-2.785645E-1	8.900452E-2	-2.703247E-1	-8.113403E-1	-2.710876E-1
2.165200E+10	-8.345337E-1	-3.624878E-1	9.918213E-2	-2.783661E-1	8.627319E-2	-2.706451E-1	-8.141479E-1	-2.605591E-1
2.187650E+10	-8.367615E-1	-3.533325E-1	9.698486E-2	-2.785645E-1	8.262634E-2	-2.698822E-1	-8.180847E-1	-2.476196E-1
2.210100E+10	-8.419800E-1	-3.441467E-1	9.191895E-2	-2.769165E-1	7.899475E-2	-2.689667E-1	-8.245850E-1	-2.312622E-1
2.232550E+10	-8.435364E-1	-3.360901E-1	8.662415E-2	-2.787323E-1	7.360840E-2	-2.707672E-1	-8.261414E-1	-2.176819E-1
2.255000E+10	-8.493958E-1	-3.293152E-1	8.296204E-2	-2.793732E-1	6.877136E-2	-2.727814E-1	-8.298035E-1	-2.091064E-1
2.277450E+10	-8.504639E-1	-3.173523E-1	7.862854E-2	-2.788849E-1	6.584167E-2	-2.702026E-1	-8.343811E-1	-1.904297E-1
2.299900E+10	-8.554687E-1	-3.139343E-1	7.238770E-2	-2.772827E-1	5.973816E-2	-2.695923E-1	-8.336182E-1	-1.800537E-1
2.322350E+10	-8.576965E-1	-3.026733E-1	7.002258E-2	-2.794189E-1	5.839539E-2	-2.690582E-1	-8.382568E-1	-1.685486E-1
2.344800E+10	-8.602600E-1	-2.980042E-1	6.417847E-2	-2.789612E-1	5.526733E-2	-2.702637E-1	-8.408508E-1	-1.536255E-1
2.367250E+10	-8.641663E-1	-2.863464E-1	5.963135E-2	-2.760925E-1	4.914856E-2	-2.707977E-1	-8.410950E-1	-1.388245E-1
2.389700E+10	-8.657532E-1	-2.810974E-1	5.607605E-2	-2.771454E-1	4.598999E-2	-2.699432E-1	-8.425598E-1	-1.284485E-1
2.412150E+10	-8.678894E-1	-2.748413E-1	5.177307E-2	-2.763519E-1	4.121399E-2	-2.684326E-1	-8.437805E-1	-1.122437E-1
2.434600E+10	-8.703918E-1	-2.675171E-1	4.867554E-2	-2.757263E-1	4.040527E-2	-2.665710E-1	-8.453979E-1	-1.015320E-1
2.457050E+10	-8.738708E-1	-2.626343E-1	4.402161E-2	-2.759399E-1	3.453064E-2	-2.675934E-1	-8.471069E-1	-8.792114E-2
2.479500E+10	-8.768005E-1	-2.539978E-1	4.188538E-2	-2.745514E-1	2.976990E-2	-2.672882E-1	-8.456421E-1	-7.150269E-2
2.501950E+10	-8.777771E-1	-2.485962E-1	3.659058E-2	-2.769775E-1	2.595520E-2	-2.672882E-1	-8.430176E-1	-6.268311E-2
2.524400E+10	-8.837891E-1	-2.397156E-1	3.233337E-2	-2.755890E-1	2.206421E-2	-2.660370E-1	-8.460388E-1	-4.873657E-2
2.546850E+10	-8.849182E-1	-2.295227E-1	2.888489E-2	-2.705994E-1	1.901245E-2	-2.627106E-1	-8.417358E-1	-3.680420E-2
2.569300E+10	-8.865356E-1	-2.239685E-1	2.502441E-2	-2.695770E-1	1.606750E-2	-2.636566E-1	-8.416443E-1	-2.725220E-2
2.591750E+10	-8.909302E-1	-2.157288E-1	1.976013E-2	-2.705994E-1	1.266479E-2	-2.613373E-1	-8.437805E-1	-1.553345E-2
2.614200E+10	-8.910522E-1	-2.097778E-1	1.829529E-2	-2.667236E-1	9.826660E-3	-2.617493E-1	-8.446655E-1	-3.051758E-4
2.636650E+10	-8.945312E-1	-2.018738E-1	1.390076E-2	-2.685242E-1	5.920410E-3	-2.602997E-1	-8.462830E-1	1.419067E-2
2.659100E+10	-8.952332E-1	-1.950989E-1	1.167297E-2	-2.683105E-1	3.173828E-3	-2.605591E-1	-8.383789E-1	2.487183E-2
2.681550E+10	-8.974304E-1	-1.888428E-1	7.644653E-3	-2.666016E-1	-3.662109E-4	-2.593384E-1	-8.406067E-1	3.576660E-2
2.704000E+10	-8.988342E-1	-1.801453E-1	9.765625E-4	-2.661743E-1	-4.806519E-3	-2.580109E-1	-8.404236E-1	5.267334E-2
2.726450E+10	-8.995056E-1	-1.742249E-1	-1.525879E-3	-2.686462E-1	-4.806519E-3	-2.591400E-1	-8.296509E-1	6.408691E-2
2.748900E+10	-9.023132E-1	-1.654968E-1	-2.517700E-3	-2.653809E-1	-8.102417E-3	-2.575684E-1	-8.324890E-1	7.208252E-2
2.771350E+10	-9.032898E-1	-1.565552E-1	-7.492065E-3	-2.640076E-1	-1.435852E-2	-2.553406E-1	-8.305054E-1	8.566284E-2
2.793800E+10	-9.055481E-1	-1.543884E-1	-1.216125E-2	-2.649536E-1	-1.832581E-2	-2.525940E-1	-8.298340E-1	9.860229E-2
2.816250E+10	-9.073181E-1	-1.468811E-1	-1.478577E-2	-2.606201E-1	-2.009583E-2	-2.544861E-1	-8.264771E-1	1.082153E-1
2.838700E+10	-9.075623E-1	-1.380310E-1	-1.763916E-2	-2.601929E-1	-2.456665E-2	-2.518311E-1	-8.223572E-1	1.223450E-1
2.861150E+10	-9.128723E-1	-1.316223E-1	-2.380371E-2	-2.575684E-1	-2.778625E-2	-2.502594E-1	-8.184509E-1	1.331177E-1
2.883600E+10	-9.130249E-1	-1.255798E-1	-2.424622E-2	-2.564392E-1	-2.910614E-2	-2.488861E-1	-8.141785E-1	1.400452E-1
2.906050E+10	-9.149170E-1	-1.175537E-1	-2.883911E-2	-2.543488E-1	-3.514862E-2	-2.481537E-1	-8.134155E-1	1.570129E-1
2.928500E+10	-9.159851E-1	-1.105957E-1	-2.923584E-2	-2.554626E-1	-3.647614E-2	-2.453232E-1	-8.064270E-1	1.667480E-1
2.950950E+10	-9.141235E-1	-1.031799E-1	-3.332520E-2	-2.504883E-1	-4.091644E-2	-2.458954E-1	-8.045959E-1	1.760559E-1
2.973400E+10	-9.162292E-1	-9.933472E-2	-3.666687E-2	-2.505798E-1	-3.937531E-2	-2.438889E-1	-8.043518E-1	1.839905E-1
2.995850E+10	-9.165649E-1	-8.541870E-2	-3.744507E-2	-2.510834E-1	-3.910828E-2	-2.453995E-1	-8.007812E-1	1.978760E-1
3.018300E+10	-9.170837E-1	-8.047485E-2	-4.273987E-2	-2.490616E-1	-4.642487E-2	-2.399063E-1	-7.959595E-1	2.101440E-1
3.040750E+10	-9.196472E-1	-7.833862E-2	-4.426575E-2	-2.459106E-1	-4.903412E-2	-2.404556E-1	-7.917175E-1	2.225952E-1
3.063200E+10	-9.190369E-1	-6.887817E-2	-4.825592E-2	-2.482224E-1	-5.397034E-2	-2.395477E-1	-7.861633E-1	2.370605E-1
3.085650E+10	-9.182739E-1	-6.338501E-2	-5.135345E-2	-2.473984E-1	-5.354309E-2	-2.374496E-1	-7.858276E-1	2.465515E-1
3.108100E+10	-9.212341E-1	-5.584717E-2	-5.234528E-2	-2.447891E-1	-5.896759E-2	-2.360687E-1	-7.757874E-1	2.586060E-1
3.130550E+10	-9.191895E-1	-5.038452E-2	-5.781555E-2	-2.409821E-1	-5.796814E-2	-2.363205E-1	-7.638550E-1	2.724915E-1
3.153000E+10	-9.204712E-1	-4.241943E-2	-5.834961E-2	-2.454300E-1	-6.397247E-2	-2.323380E-1	-7.669373E-1	2.782288E-1
3.175450E+10	-9.233093E-1	-3.576660E-2	-6.358337E-2	-2.389679E-1	-6.534576E-2	-2.327805E-1	-7.596130E-1	2.921448E-1
3.197900E+10	-9.243164E-1	-3.143311E-2	-6.573486E-2	-2.376022E-1	-7.012177E-2	-2.327576E-1	-7.465210E-1	3.062439E-1
3.220350E+10	-9.234924E-1	-2.160645E-2	-6.867218E-2	-2.392349E-1	-7.493591E-2	-2.325974E-1	-7.423706E-1	3.113403E-1
3.242800E+10	-9.246826E-1	-1.602173E-2	-7.357025E-2	-2.324524E-1	-7.353973E-2	-2.295074E-1	-7.352295E-1	3.273010E-1
3.265250E+10	-9.247742E-1	-7.446289E-3	-7.257080E-2	-2.338562E-1	-7.581329E-2	-2.287903E-1	-7.255554E-1	3.327332E-1
3.287700E+10	-9.271545E-1	-2.410889E-3	-7.739258E-2	-2.324982E-1	-8.104706E-2	-2.232513E-1	-7.269592E-1	3.421021E-1
3.310150E+10	-9.252014E-1	1.525879E-4	-8.037567E-2	-2.284546E-1	-8.333588E-2	-2.249908E-1	-7.119141E-1	3.507385E-1
3.332600E+10	-9.230652E-1	1.129150E-2	-8.207703E-2	-2.240601E-1	-8.356476E-2	-2.183075E-1	-7.080078E-1	3.546753E-1
3.355050E+10	-9.238586E-1	2.035522E-2	-8.348846E-2	-2.260361E-1	-8.429718E-2	-2.200241E-1	-7.032166E-1	3.664246E-1
3.377500E+10	-9.245911E-1	2.716064E-2	-8.327484E-2	-2.276764E-1	-8.726501E-2	-2.146149E-1	-6.961670E-1	3.731079E-1
3.399950E+10	-9.244690E-1	3.280640E-2	-8.889008E-2	-2.248840E-1	-9.023285E-2	-2.176743E-1	-6.895752E-1	3.784485E-1
3.422400E+10	-9.261475E-1	4.055786E-2	-8.929443E-2	-2.227020E-1	-9.091187E-2	-2.152634E-1	-6.827698E-1	3.999329E-1
3.444850E+10	-9.242249E-1	4.702759E-2	-9.175873E-2	-2.214966E-1	-9.249878E-2	-2.115402E-1	-6.746826E-1	4.058228E-1
3.467300E+10	-9.263000E-1	5.026245E-2	-9.292603E-2	-2.212219E-1	-9.262848E-2	-2.153168E-1	-6.707764E-1	4.137878E-1
3.489750E+10	-9.274597E-1	5.889893E-2	-9.787750E-2	-2.199631E-1	-9.542847E-2	-2.102280E-1	-6.580200E-1	4.274292E-1
3.512200E+10	-9.245911E-1	6.466675E-2	-1.008453E-1	-2.159805E-1	-1.005478E-1	-2.111282E-1	-6.474304E-1	4.306335E-1
3.534650E+10	-9.219666E-1	6.976318E-2	-1.022873E-1	-2.152100E-1	-1.022034E-1	-2.107239E-1	-6.379700E-1	4.447632E-1
3.557100E+10	-9.183655E-1	7.485962E-2	-1.072464E-1	-2.176743E-1	-1.053467E-1	-2.100296E-1	-6.233826E-1	4.611206E-1
3.579550E+10	-9.211426E-1	8.285522E-2	-1.095047E-1	-2.144928E-1	-1.101227E-1	-2.098465E-1	-6.157227E-1	4.600830E-1
3.602000E+10	-9.226685E-1	9.020996E-2	-1.079941E-1	-2.104721E-1	-1.088715E-1	-2.056885E-1	-6.093445E-1	4.691162E-1
3.624450E+10	-9.195251E-1	9.912109E-2	-1.134567E-1	-2.085571E-1	-1.163406E-1	-2.049103E-1	-6.056519E-1	4.784851E-1
3.646900E+10	-9.181213E-1	1.061707E-1	-1.163254E-1	-2.076874E-1	-1.125183E-1	-2.005386E-1	-5.861206E-1	4.878235E-1
3.669350E+10	-9.158936E-1	1.078491E-1	-1.218872E-1	-2.102661E-1	-1.168213E-1	-2.003708E-1	-5.767212E-1	4.922485E-1
3.691800E+10	-9.161987E-1	1.145630E-1	-1.229935E-1	-2.030411E-1	-1.223526E-1	-2.029572E-1	-5.680542E-1	5.085754E-1
3.714250E+10	-9.140015E-1	1.174316E-1	-1.234207E-1	-1.980057E-1	-1.257248E-1	-2.010117E-1	-5.579834E-1	5.148926E-1
3.736700E+10	-9.134216E-1	1.270752E-1	-1.273117E-1	-1.980820E-1	-1.289062E-1	-1.947708E-1	-5.467224E-1	5.109253E-1
3.759150E+10	-9.160461E-1	1.294861E-1	-1.304245E-1	-1.973572E-1	-1.271057E-1	-1.934891E-1	-5.361938E-1	5.238037E-1
3.781600E+10	-9.125671E-1	1.416016E-1	-1.333847E-1	-1.964493E-1	-1.297684E-1	-1.902161E-1	-5.272217E-1	5.293884E-1
3.804050E+10	-9.151001E-1	1.426697E-1	-1.315689E-1	-1.933136E-1	-1.306076E-1	-1.900864E-1	-5.122375E-1	5.398560E-1
3.826500E+10	-9.105530E-1	1.529541E-1	-1.354523E-1	-1.964264E-1	-1.350250E-1	-1.900635E-1	-4.947205E-1	5.491638E-1
3.848950E+10	-9.098206E-1	1.586914E-1	-1.351089E-1	-1.924744E-1	-1.358490E-1	-1.869965E-1	-4.856262E-1	5.513916E-1
3.871400E+10	-9.071045E-1	1.611328E-1	-1.417770E-1	-1.885834E-1	-1.389313E-1	-1.818542E-1	-4.664917E-1	5.565186E-1
3.893850E+10	-9.109497E-1	1.658630E-1	-1.417389E-1	-1.863174E-1	-1.389465E-1	-1.824112E-1	-4.506226E-1	5.559387E-1
