!Date: 10/28/2005, 12:46 PM

!Vgs = -7.000000E+0
!Vds = 1.250000E+1
!Ig = -1.270800E-4
!Id = 2.204600E-3

# HZ S RI R 50
1.000000E+8	9.895630E-1	-3.823853E-2	-5.215073E-2	6.311417E-3	2.427101E-3	8.810043E-3	9.808044E-1	-7.507324E-3
3.245000E+8	9.782410E-1	-1.044006E-1	-5.032349E-2	3.521729E-2	5.496025E-3	3.096485E-2	9.566040E-1	-8.599854E-2
5.490000E+8	9.639282E-1	-1.683655E-1	-4.422569E-2	6.032372E-2	1.141548E-2	5.150032E-2	9.506226E-1	-1.383972E-1
7.735000E+8	9.464111E-1	-2.322998E-1	-3.472900E-2	8.288193E-2	2.009583E-2	6.974792E-2	9.347229E-1	-1.926575E-1
9.980000E+8	9.261780E-1	-2.909851E-1	-2.271652E-2	1.035652E-1	3.021622E-2	8.658600E-2	9.184570E-1	-2.391663E-1
1.222500E+9	9.015198E-1	-3.488770E-1	-8.926392E-3	1.221466E-1	4.106140E-2	1.018410E-1	8.998413E-1	-2.883606E-1
1.447000E+9	8.738403E-1	-4.042358E-1	5.775452E-3	1.389008E-1	5.352020E-2	1.152649E-1	8.778076E-1	-3.346252E-1
1.671500E+9	8.430481E-1	-4.561157E-1	2.088928E-2	1.550751E-1	6.645203E-2	1.291046E-1	8.537903E-1	-3.765869E-1
1.896000E+9	8.100891E-1	-5.042114E-1	4.004669E-2	1.697769E-1	8.251953E-2	1.414490E-1	8.323364E-1	-4.156189E-1
2.120500E+9	7.758484E-1	-5.493774E-1	5.970764E-2	1.805801E-1	9.963226E-2	1.504822E-1	8.078003E-1	-4.568787E-1
2.345000E+9	7.370911E-1	-5.931702E-1	8.086395E-2	1.892090E-1	1.178894E-1	1.571960E-1	7.800903E-1	-4.945374E-1
2.569500E+9	6.990662E-1	-6.297302E-1	1.010590E-1	1.948395E-1	1.347961E-1	1.617661E-1	7.521057E-1	-5.304871E-1
2.794000E+9	6.591492E-1	-6.658325E-1	1.208649E-1	1.995392E-1	1.521149E-1	1.649323E-1	7.233582E-1	-5.634460E-1
3.018500E+9	6.188049E-1	-6.979980E-1	1.408691E-1	2.015991E-1	1.688919E-1	1.659470E-1	6.919250E-1	-5.959778E-1
3.243000E+9	5.781250E-1	-7.268066E-1	1.607513E-1	2.017593E-1	1.858673E-1	1.658096E-1	6.600952E-1	-6.257629E-1
3.467500E+9	5.378418E-1	-7.533264E-1	1.796036E-1	2.009506E-1	2.014389E-1	1.642685E-1	6.282043E-1	-6.516724E-1
3.692000E+9	4.966431E-1	-7.766418E-1	1.982040E-1	1.986847E-1	2.183990E-1	1.617508E-1	5.944824E-1	-6.786499E-1
3.916500E+9	4.544678E-1	-7.966309E-1	2.164764E-1	1.939926E-1	2.326355E-1	1.572113E-1	5.598755E-1	-7.000732E-1
4.141000E+9	4.147644E-1	-8.150330E-1	2.336807E-1	1.898499E-1	2.478561E-1	1.522980E-1	5.293884E-1	-7.206421E-1
4.365500E+9	3.766174E-1	-8.314819E-1	2.497940E-1	1.824799E-1	2.617950E-1	1.457214E-1	4.969482E-1	-7.409363E-1
4.590000E+9	3.351135E-1	-8.456726E-1	2.657928E-1	1.744537E-1	2.754364E-1	1.380310E-1	4.616394E-1	-7.582397E-1
4.814500E+9	2.967529E-1	-8.562012E-1	2.799072E-1	1.656799E-1	2.879486E-1	1.299896E-1	4.299927E-1	-7.737427E-1
5.039000E+9	2.585144E-1	-8.666687E-1	2.940521E-1	1.555023E-1	2.997589E-1	1.205292E-1	3.972473E-1	-7.900696E-1
5.263500E+9	2.206421E-1	-8.729858E-1	3.067017E-1	1.453857E-1	3.107300E-1	1.108398E-1	3.632812E-1	-8.016052E-1
5.488000E+9	1.855774E-1	-8.788452E-1	3.181915E-1	1.341705E-1	3.204346E-1	1.006470E-1	3.329773E-1	-8.125610E-1
5.712500E+9	1.491089E-1	-8.844299E-1	3.292389E-1	1.220093E-1	3.296051E-1	8.950806E-2	3.008118E-1	-8.242493E-1
5.937000E+9	1.154785E-1	-8.853149E-1	3.386230E-1	1.093903E-1	3.376007E-1	7.717896E-2	2.681885E-1	-8.337402E-1
6.161500E+9	8.334351E-2	-8.884277E-1	3.462982E-1	9.709167E-2	3.448334E-1	6.629944E-2	2.376404E-1	-8.417053E-1
6.386000E+9	4.922485E-2	-8.891602E-1	3.537445E-1	8.384705E-2	3.500214E-1	5.424500E-2	2.056274E-1	-8.483276E-1
6.610500E+9	1.953125E-2	-8.893433E-1	3.602448E-1	7.124329E-2	3.556519E-1	4.226685E-2	1.729736E-1	-8.546448E-1
6.835000E+9	-1.202393E-2	-8.881531E-1	3.661957E-1	5.841064E-2	3.604736E-1	3.092957E-2	1.431580E-1	-8.577576E-1
7.059500E+9	-3.961182E-2	-8.849182E-1	3.701630E-1	4.605103E-2	3.637390E-1	1.968384E-2	1.157837E-1	-8.606567E-1
7.284000E+9	-6.896973E-2	-8.823242E-1	3.742676E-1	3.234863E-2	3.660736E-1	7.141113E-3	8.377075E-2	-8.634949E-1
7.508500E+9	-9.722900E-2	-8.794861E-1	3.769989E-1	1.989746E-2	3.686523E-1	-5.142212E-3	5.493164E-2	-8.625183E-1
7.733000E+9	-1.232605E-1	-8.732910E-1	3.788757E-1	6.958008E-3	3.694153E-1	-1.638794E-2	2.917480E-2	-8.639221E-1
7.957500E+9	-1.491394E-1	-8.692017E-1	3.810425E-1	-5.523682E-3	3.701935E-1	-2.803040E-2	-5.187988E-4	-8.639832E-1
8.182000E+9	-1.729126E-1	-8.643494E-1	3.827362E-1	-1.707458E-2	3.716125E-1	-3.845215E-2	-2.709961E-2	-8.632812E-1
8.406500E+9	-1.973877E-1	-8.583069E-1	3.823700E-1	-3.031921E-2	3.714142E-1	-5.020142E-2	-5.395508E-2	-8.608704E-1
8.631000E+9	-2.221375E-1	-8.524780E-1	3.821411E-1	-4.223633E-2	3.706055E-1	-6.063843E-2	-8.142090E-2	-8.590698E-1
8.855500E+9	-2.427979E-1	-8.460999E-1	3.807526E-1	-5.314636E-2	3.691406E-1	-7.171631E-2	-1.069336E-1	-8.547974E-1
9.080001E+9	-2.641907E-1	-8.402710E-1	3.801270E-1	-6.459045E-2	3.676605E-1	-8.116150E-2	-1.316833E-1	-8.496704E-1
9.304500E+9	-2.860413E-1	-8.320618E-1	3.776855E-1	-7.507324E-2	3.650208E-1	-9.219360E-2	-1.570435E-1	-8.457947E-1
9.529000E+9	-3.063965E-1	-8.247375E-1	3.759918E-1	-8.601379E-2	3.632202E-1	-1.015930E-1	-1.804199E-1	-8.389587E-1
9.753500E+9	-3.272400E-1	-8.167419E-1	3.737183E-1	-9.620667E-2	3.598175E-1	-1.113129E-1	-2.027893E-1	-8.327637E-1
9.978000E+9	-3.450623E-1	-8.085022E-1	3.700104E-1	-1.070251E-1	3.572845E-1	-1.204529E-1	-2.243652E-1	-8.278809E-1
1.020250E+10	-3.638916E-1	-8.017273E-1	3.667908E-1	-1.167450E-1	3.544159E-1	-1.295471E-1	-2.487488E-1	-8.206482E-1
1.042700E+10	-3.817139E-1	-7.927856E-1	3.629913E-1	-1.266937E-1	3.501434E-1	-1.380463E-1	-2.692261E-1	-8.135986E-1
1.065150E+10	-3.985291E-1	-7.838745E-1	3.593292E-1	-1.357574E-1	3.466644E-1	-1.466980E-1	-2.904358E-1	-8.065796E-1
1.087600E+10	-4.152832E-1	-7.755432E-1	3.546906E-1	-1.436462E-1	3.417511E-1	-1.543579E-1	-3.115845E-1	-7.979736E-1
1.110050E+10	-4.321289E-1	-7.673035E-1	3.504181E-1	-1.524353E-1	3.377838E-1	-1.627808E-1	-3.319092E-1	-7.900391E-1
1.132500E+10	-4.468384E-1	-7.580261E-1	3.451996E-1	-1.605988E-1	3.324127E-1	-1.694641E-1	-3.500366E-1	-7.821655E-1
1.154950E+10	-4.632874E-1	-7.485046E-1	3.404694E-1	-1.679840E-1	3.279877E-1	-1.767731E-1	-3.721313E-1	-7.718201E-1
1.177400E+10	-4.778137E-1	-7.405090E-1	3.368073E-1	-1.757812E-1	3.231201E-1	-1.837158E-1	-3.883972E-1	-7.613831E-1
1.199850E+10	-4.929504E-1	-7.318115E-1	3.317261E-1	-1.831970E-1	3.177185E-1	-1.904449E-1	-4.066772E-1	-7.553406E-1
1.222300E+10	-5.054932E-1	-7.224426E-1	3.263550E-1	-1.903381E-1	3.128204E-1	-1.964569E-1	-4.266663E-1	-7.449646E-1
1.244750E+10	-5.198975E-1	-7.143860E-1	3.201447E-1	-1.972351E-1	3.078308E-1	-2.032928E-1	-4.428101E-1	-7.327271E-1
1.267200E+10	-5.327759E-1	-7.048035E-1	3.151398E-1	-2.028961E-1	3.023224E-1	-2.091827E-1	-4.580688E-1	-7.241211E-1
1.289650E+10	-5.442200E-1	-6.963501E-1	3.084869E-1	-2.085266E-1	2.969055E-1	-2.141266E-1	-4.761963E-1	-7.130432E-1
1.312100E+10	-5.567322E-1	-6.867676E-1	3.028259E-1	-2.153320E-1	2.908783E-1	-2.196655E-1	-4.920959E-1	-6.995239E-1
1.334550E+10	-5.683899E-1	-6.784363E-1	2.976685E-1	-2.206268E-1	2.858582E-1	-2.247772E-1	-5.053101E-1	-6.917114E-1
1.357000E+10	-5.821533E-1	-6.676025E-1	2.920685E-1	-2.259521E-1	2.787476E-1	-2.309113E-1	-5.222473E-1	-6.832886E-1
1.379450E+10	-5.903625E-1	-6.605835E-1	2.849121E-1	-2.305450E-1	2.743988E-1	-2.331390E-1	-5.381470E-1	-6.667786E-1
1.401900E+10	-5.999756E-1	-6.519470E-1	2.803802E-1	-2.355194E-1	2.689209E-1	-2.393799E-1	-5.484924E-1	-6.569519E-1
1.424350E+10	-6.121216E-1	-6.419983E-1	2.738800E-1	-2.406006E-1	2.627869E-1	-2.427521E-1	-5.655823E-1	-6.468506E-1
1.446800E+10	-6.215210E-1	-6.346741E-1	2.677917E-1	-2.451782E-1	2.581329E-1	-2.475891E-1	-5.771484E-1	-6.320496E-1
1.469250E+10	-6.318970E-1	-6.242065E-1	2.622070E-1	-2.488251E-1	2.520447E-1	-2.511749E-1	-5.879211E-1	-6.230774E-1
1.491700E+10	-6.417542E-1	-6.150208E-1	2.555389E-1	-2.534180E-1	2.459869E-1	-2.557678E-1	-6.034241E-1	-6.115112E-1
1.514150E+10	-6.505737E-1	-6.066284E-1	2.492981E-1	-2.563629E-1	2.391815E-1	-2.583618E-1	-6.158447E-1	-5.951843E-1
1.536600E+10	-6.616516E-1	-5.971985E-1	2.428284E-1	-2.610626E-1	2.336884E-1	-2.609711E-1	-6.244202E-1	-5.850220E-1
1.559050E+10	-6.694641E-1	-5.886841E-1	2.385406E-1	-2.628021E-1	2.281647E-1	-2.647247E-1	-6.387329E-1	-5.738220E-1
1.581500E+10	-6.776733E-1	-5.790710E-1	2.305298E-1	-2.649841E-1	2.216644E-1	-2.666321E-1	-6.507874E-1	-5.586853E-1
1.603950E+10	-6.858215E-1	-5.709229E-1	2.247620E-1	-2.704163E-1	2.152863E-1	-2.700500E-1	-6.586914E-1	-5.489807E-1
1.626400E+10	-6.947937E-1	-5.617371E-1	2.190552E-1	-2.728577E-1	2.107239E-1	-2.724304E-1	-6.714783E-1	-5.367737E-1
1.648850E+10	-7.017517E-1	-5.534668E-1	2.126770E-1	-2.741089E-1	2.042542E-1	-2.749023E-1	-6.811829E-1	-5.210876E-1
1.671300E+10	-7.109070E-1	-5.433655E-1	2.073669E-1	-2.771759E-1	1.987457E-1	-2.772064E-1	-6.892395E-1	-5.120239E-1
1.693750E+10	-7.170105E-1	-5.366821E-1	2.007904E-1	-2.790375E-1	1.932068E-1	-2.796783E-1	-7.009277E-1	-4.975281E-1
1.716200E+10	-7.243347E-1	-5.264587E-1	1.963348E-1	-2.821198E-1	1.867981E-1	-2.810211E-1	-7.072754E-1	-4.824524E-1
1.738650E+10	-7.325745E-1	-5.180359E-1	1.890106E-1	-2.830048E-1	1.808319E-1	-2.834473E-1	-7.144470E-1	-4.700012E-1
1.761100E+10	-7.387085E-1	-5.095215E-1	1.845398E-1	-2.841339E-1	1.764984E-1	-2.835693E-1	-7.241821E-1	-4.609070E-1
1.783550E+10	-7.468262E-1	-5.010986E-1	1.772003E-1	-2.868347E-1	1.699829E-1	-2.851105E-1	-7.334595E-1	-4.435425E-1
1.806000E+10	-7.521973E-1	-4.930420E-1	1.722870E-1	-2.889862E-1	1.653900E-1	-2.872772E-1	-7.397156E-1	-4.328003E-1
1.828450E+10	-7.583923E-1	-4.831238E-1	1.676178E-1	-2.888336E-1	1.612549E-1	-2.872772E-1	-7.469482E-1	-4.213562E-1
1.850900E+10	-7.656555E-1	-4.754028E-1	1.620178E-1	-2.902069E-1	1.552582E-1	-2.891846E-1	-7.554932E-1	-4.077454E-1
1.873350E+10	-7.709961E-1	-4.656372E-1	1.566772E-1	-2.920990E-1	1.491547E-1	-2.913666E-1	-7.616272E-1	-3.910828E-1
1.895800E+10	-7.763977E-1	-4.583435E-1	1.510773E-1	-2.920380E-1	1.439209E-1	-2.920074E-1	-7.665405E-1	-3.828125E-1
1.918250E+10	-7.815552E-1	-4.500427E-1	1.464691E-1	-2.940369E-1	1.380463E-1	-2.919159E-1	-7.763367E-1	-3.700256E-1
1.940700E+10	-7.870178E-1	-4.421997E-1	1.384277E-1	-2.958832E-1	1.347198E-1	-2.937622E-1	-7.785950E-1	-3.522339E-1
1.963150E+10	-7.951355E-1	-4.337463E-1	1.335754E-1	-2.970581E-1	1.285553E-1	-2.919922E-1	-7.835388E-1	-3.442078E-1
1.985600E+10	-7.985840E-1	-4.246216E-1	1.293030E-1	-2.958069E-1	1.232605E-1	-2.930603E-1	-7.912598E-1	-3.286133E-1
2.008050E+10	-8.040771E-1	-4.173584E-1	1.235199E-1	-2.944336E-1	1.179962E-1	-2.938385E-1	-7.956848E-1	-3.138733E-1
2.030500E+10	-8.066101E-1	-4.084167E-1	1.181793E-1	-2.942047E-1	1.121521E-1	-2.933655E-1	-7.970276E-1	-3.031006E-1
2.052950E+10	-8.126221E-1	-4.022827E-1	1.127777E-1	-2.974396E-1	1.074066E-1	-2.947998E-1	-8.048706E-1	-2.900696E-1
2.075400E+10	-8.186646E-1	-3.931274E-1	1.091309E-1	-2.975464E-1	1.044312E-1	-2.945404E-1	-8.096924E-1	-2.769470E-1
2.097850E+10	-8.228760E-1	-3.841248E-1	1.033630E-1	-2.963104E-1	9.881592E-2	-2.941132E-1	-8.100891E-1	-2.643433E-1
2.120300E+10	-8.259888E-1	-3.753967E-1	9.976196E-2	-2.968903E-1	9.391785E-2	-2.933502E-1	-8.152466E-1	-2.534180E-1
2.142750E+10	-8.327026E-1	-3.684998E-1	9.426880E-2	-2.967529E-1	8.903503E-2	-2.946930E-1	-8.214111E-1	-2.394714E-1
2.165200E+10	-8.370972E-1	-3.599243E-1	8.886719E-2	-2.951050E-1	8.493042E-2	-2.942352E-1	-8.236084E-1	-2.258301E-1
2.187650E+10	-8.393860E-1	-3.513794E-1	8.740234E-2	-2.965546E-1	8.122253E-2	-2.941742E-1	-8.271790E-1	-2.151794E-1
2.210100E+10	-8.464050E-1	-3.407593E-1	8.187866E-2	-2.968140E-1	7.453918E-2	-2.920990E-1	-8.318481E-1	-1.990356E-1
2.232550E+10	-8.471985E-1	-3.339844E-1	7.609558E-2	-2.949982E-1	7.247925E-2	-2.936401E-1	-8.336792E-1	-1.853333E-1
2.255000E+10	-8.529053E-1	-3.250122E-1	7.104492E-2	-2.966461E-1	6.672668E-2	-2.920380E-1	-8.372498E-1	-1.760254E-1
2.277450E+10	-8.542175E-1	-3.176270E-1	6.822205E-2	-2.951202E-1	6.265259E-2	-2.927399E-1	-8.401794E-1	-1.599121E-1
2.299900E+10	-8.594360E-1	-3.084412E-1	6.318665E-2	-2.951813E-1	5.944824E-2	-2.928619E-1	-8.396301E-1	-1.484070E-1
2.322350E+10	-8.619690E-1	-3.005981E-1	5.752563E-2	-2.941742E-1	5.499268E-2	-2.930756E-1	-8.462524E-1	-1.367798E-1
2.344800E+10	-8.625793E-1	-2.940979E-1	5.236816E-2	-2.926331E-1	5.102539E-2	-2.897186E-1	-8.467102E-1	-1.210022E-1
2.367250E+10	-8.678894E-1	-2.854309E-1	4.789734E-2	-2.923279E-1	4.582214E-2	-2.884674E-1	-8.462524E-1	-1.043396E-1
2.389700E+10	-8.661804E-1	-2.777710E-1	4.444885E-2	-2.941132E-1	3.984070E-2	-2.898254E-1	-8.467102E-1	-9.634399E-2
2.412150E+10	-8.708496E-1	-2.721252E-1	4.161072E-2	-2.900543E-1	3.713989E-2	-2.882538E-1	-8.471680E-1	-7.843018E-2
2.434600E+10	-8.728333E-1	-2.655029E-1	3.645325E-2	-2.911530E-1	3.317261E-2	-2.877350E-1	-8.462830E-1	-6.961060E-2
2.457050E+10	-8.768311E-1	-2.584229E-1	3.251648E-2	-2.903137E-1	2.922058E-2	-2.886810E-1	-8.480835E-1	-5.661011E-2
2.479500E+10	-8.801575E-1	-2.491455E-1	3.012085E-2	-2.889404E-1	2.642822E-2	-2.868195E-1	-8.464661E-1	-3.790283E-2
2.501950E+10	-8.806458E-1	-2.430115E-1	2.429199E-2	-2.880249E-1	2.209473E-2	-2.854156E-1	-8.424683E-1	-3.030396E-2
2.524400E+10	-8.849792E-1	-2.362671E-1	1.971436E-2	-2.874146E-1	1.939392E-2	-2.837219E-1	-8.439026E-1	-1.892090E-2
2.546850E+10	-8.884583E-1	-2.261963E-1	1.556396E-2	-2.846832E-1	1.315308E-2	-2.823181E-1	-8.425293E-1	-4.608154E-3
2.569300E+10	-8.901062E-1	-2.215881E-1	1.295471E-2	-2.838898E-1	1.039124E-2	-2.804413E-1	-8.416138E-1	4.272461E-3
2.591750E+10	-8.932495E-1	-2.112122E-1	8.605957E-3	-2.856903E-1	7.110596E-3	-2.804108E-1	-8.433838E-1	1.565552E-2
2.614200E+10	-8.941650E-1	-2.058716E-1	6.729126E-3	-2.794189E-1	4.959106E-3	-2.799377E-1	-8.426208E-1	2.951050E-2
2.636650E+10	-8.984985E-1	-1.983032E-1	3.082275E-3	-2.811584E-1	1.770020E-3	-2.767029E-1	-8.431702E-1	4.577637E-2
2.659100E+10	-8.986206E-1	-1.921082E-1	-1.586914E-3	-2.808075E-1	-3.524780E-3	-2.775574E-1	-8.360596E-1	5.725098E-2
2.681550E+10	-9.000854E-1	-1.868896E-1	-3.906250E-3	-2.789001E-1	-6.439209E-3	-2.761993E-1	-8.392334E-1	6.472778E-2
2.704000E+10	-9.024963E-1	-1.762085E-1	-7.812500E-3	-2.764435E-1	-8.834839E-3	-2.740479E-1	-8.365479E-1	8.679199E-2
2.726450E+10	-9.031067E-1	-1.703491E-1	-1.078796E-2	-2.775726E-1	-1.504517E-2	-2.746124E-1	-8.268433E-1	9.182739E-2
2.748900E+10	-9.072266E-1	-1.647339E-1	-1.574707E-2	-2.748108E-1	-1.672363E-2	-2.720947E-1	-8.233948E-1	1.031494E-1
2.771350E+10	-9.102478E-1	-1.551208E-1	-1.947021E-2	-2.759552E-1	-2.217102E-2	-2.709656E-1	-8.246460E-1	1.150208E-1
2.793800E+10	-9.127197E-1	-1.518860E-1	-2.311707E-2	-2.727814E-1	-2.120972E-2	-2.730408E-1	-8.244019E-1	1.288147E-1
2.816250E+10	-9.123535E-1	-1.398010E-1	-2.537537E-2	-2.727509E-1	-2.996826E-2	-2.677460E-1	-8.190002E-1	1.375122E-1
2.838700E+10	-9.100952E-1	-1.330566E-1	-3.053284E-2	-2.708130E-1	-3.160095E-2	-2.690887E-1	-8.160095E-1	1.506958E-1
2.861150E+10	-9.119568E-1	-1.273499E-1	-3.407288E-2	-2.712555E-1	-3.431702E-2	-2.682495E-1	-8.113708E-1	1.615295E-1
2.883600E+10	-9.174500E-1	-1.196899E-1	-3.390503E-2	-2.706604E-1	-3.599548E-2	-2.656860E-1	-8.067017E-1	1.689758E-1
2.906050E+10	-9.166870E-1	-1.136169E-1	-3.939819E-2	-2.639923E-1	-4.116821E-2	-2.621460E-1	-8.066711E-1	1.824646E-1
2.928500E+10	-9.176636E-1	-1.044617E-1	-4.356384E-2	-2.632904E-1	-4.360962E-2	-2.608643E-1	-8.006287E-1	1.915588E-1
2.950950E+10	-9.189758E-1	-9.866333E-2	-4.396057E-2	-2.591095E-1	-4.631042E-2	-2.581329E-1	-8.016357E-1	2.026062E-1
2.973400E+10	-9.198608E-1	-9.411621E-2	-4.699707E-2	-2.621460E-1	-4.827881E-2	-2.575378E-1	-7.948914E-1	2.158203E-1
2.995850E+10	-9.212952E-1	-8.148193E-2	-4.769897E-2	-2.571716E-1	-5.078125E-2	-2.560883E-1	-7.908020E-1	2.301025E-1
3.018300E+10	-9.183350E-1	-7.543945E-2	-5.213928E-2	-2.584991E-1	-5.430603E-2	-2.540588E-1	-7.883606E-1	2.422180E-1
3.040750E+10	-9.207153E-1	-7.247925E-2	-5.664062E-2	-2.585602E-1	-5.827332E-2	-2.537079E-1	-7.787170E-1	2.519836E-1
3.063200E+10	-9.197083E-1	-6.433105E-2	-5.895996E-2	-2.530823E-1	-6.028748E-2	-2.530670E-1	-7.761841E-1	2.653198E-1
3.085650E+10	-9.250488E-1	-5.703735E-2	-6.178284E-2	-2.533264E-1	-5.989075E-2	-2.527924E-1	-7.709961E-1	2.742310E-1
3.108100E+10	-9.220581E-1	-5.410767E-2	-6.488037E-2	-2.507935E-1	-6.577301E-2	-2.482986E-1	-7.678833E-1	2.848206E-1
3.130550E+10	-9.216309E-1	-4.412842E-2	-6.877136E-2	-2.518311E-1	-6.961060E-2	-2.507477E-1	-7.553406E-1	2.966919E-1
3.153000E+10	-9.250183E-1	-3.958130E-2	-6.948853E-2	-2.495804E-1	-6.958771E-2	-2.455597E-1	-7.534180E-1	3.090515E-1
3.175450E+10	-9.234924E-1	-3.012085E-2	-7.588196E-2	-2.467728E-1	-7.366943E-2	-2.466812E-1	-7.443848E-1	3.192749E-1
3.197900E+10	-9.272156E-1	-2.304077E-2	-7.573700E-2	-2.472992E-1	-8.029938E-2	-2.468796E-1	-7.324524E-1	3.287354E-1
3.220350E+10	-9.262390E-1	-1.696777E-2	-7.903290E-2	-2.433777E-1	-8.577728E-2	-2.440872E-1	-7.274170E-1	3.382874E-1
3.242800E+10	-9.272156E-1	-1.321411E-2	-8.381653E-2	-2.407837E-1	-7.920074E-2	-2.396698E-1	-7.218628E-1	3.519592E-1
3.265250E+10	-9.264526E-1	-3.143311E-3	-8.558655E-2	-2.442856E-1	-8.923340E-2	-2.391968E-1	-7.089844E-1	3.604736E-1
3.287700E+10	-9.260254E-1	7.019043E-4	-8.382416E-2	-2.385101E-1	-8.411407E-2	-2.351456E-1	-7.124939E-1	3.603821E-1
3.310150E+10	-9.268188E-1	1.162720E-2	-9.526825E-2	-2.373657E-1	-9.181976E-2	-2.315903E-1	-6.981506E-1	3.783875E-1
3.332600E+10	-9.263611E-1	1.815796E-2	-9.283447E-2	-2.308884E-1	-9.503174E-2	-2.340851E-1	-6.871948E-1	3.822021E-1
3.355050E+10	-9.273376E-1	2.383423E-2	-9.494019E-2	-2.302322E-1	-9.622192E-2	-2.318039E-1	-6.854553E-1	3.906250E-1
3.377500E+10	-9.281311E-1	3.112793E-2	-9.484100E-2	-2.303619E-1	-9.930420E-2	-2.259598E-1	-6.754456E-1	4.012451E-1
3.399950E+10	-9.267883E-1	3.814697E-2	-9.933472E-2	-2.286301E-1	-9.613800E-2	-2.282181E-1	-6.688232E-1	4.108276E-1
3.422400E+10	-9.284973E-1	4.464722E-2	-1.017609E-1	-2.314529E-1	-9.937286E-2	-2.269363E-1	-6.718445E-1	4.265747E-1
3.444850E+10	-9.315186E-1	5.123901E-2	-1.034317E-1	-2.218475E-1	-1.001740E-1	-2.283173E-1	-6.535034E-1	4.353943E-1
3.467300E+10	-9.247131E-1	5.636597E-2	-1.065750E-1	-2.277145E-1	-1.073761E-1	-2.234802E-1	-6.495667E-1	4.425964E-1
3.489750E+10	-9.251099E-1	6.390381E-2	-1.050262E-1	-2.257614E-1	-1.071625E-1	-2.221298E-1	-6.425476E-1	4.493713E-1
3.512200E+10	-9.277954E-1	7.211304E-2	-1.075363E-1	-2.213821E-1	-1.100693E-1	-2.167892E-1	-6.297607E-1	4.553223E-1
3.534650E+10	-9.298096E-1	7.510376E-2	-1.088943E-1	-2.250595E-1	-1.160507E-1	-2.204514E-1	-6.218567E-1	4.704590E-1
3.557100E+10	-9.225464E-1	7.940674E-2	-1.155624E-1	-2.143173E-1	-1.142349E-1	-2.185974E-1	-6.058960E-1	4.825134E-1
3.579550E+10	-9.257507E-1	8.496094E-2	-1.172485E-1	-2.163315E-1	-1.187897E-1	-2.149811E-1	-6.004333E-1	4.850159E-1
3.602000E+10	-9.310608E-1	9.390259E-2	-1.233749E-1	-2.154465E-1	-1.188507E-1	-2.114639E-1	-5.939636E-1	4.866638E-1
3.624450E+10	-9.215088E-1	9.994507E-2	-1.210403E-1	-2.128143E-1	-1.211700E-1	-2.119827E-1	-5.817566E-1	5.025635E-1
3.646900E+10	-9.219055E-1	1.110535E-1	-1.247635E-1	-2.146149E-1	-1.269836E-1	-2.098465E-1	-5.744934E-1	5.072327E-1
3.669350E+10	-9.198914E-1	1.148376E-1	-1.283035E-1	-2.173615E-1	-1.254349E-1	-2.091827E-1	-5.566406E-1	5.130920E-1
3.691800E+10	-9.183960E-1	1.197815E-1	-1.330185E-1	-2.100525E-1	-1.315536E-1	-2.083359E-1	-5.424194E-1	5.242004E-1
3.714250E+10	-9.199219E-1	1.247559E-1	-1.341782E-1	-2.064362E-1	-1.325989E-1	-2.058029E-1	-5.265198E-1	5.292969E-1
3.736700E+10	-9.151306E-1	1.294556E-1	-1.355133E-1	-2.044220E-1	-1.390686E-1	-2.055817E-1	-5.261230E-1	5.322876E-1
3.759150E+10	-9.171448E-1	1.396179E-1	-1.375351E-1	-2.024689E-1	-1.354980E-1	-1.995239E-1	-5.036316E-1	5.456848E-1
3.781600E+10	-9.129639E-1	1.514282E-1	-1.389618E-1	-1.975555E-1	-1.420593E-1	-1.996994E-1	-5.058594E-1	5.450439E-1
3.804050E+10	-9.109497E-1	1.536865E-1	-1.407700E-1	-1.998825E-1	-1.419525E-1	-1.996841E-1	-4.860535E-1	5.585937E-1
3.826500E+10	-9.137573E-1	1.603088E-1	-1.468353E-1	-1.926117E-1	-1.478195E-1	-1.975403E-1	-4.765320E-1	5.665283E-1
3.848950E+10	-9.125977E-1	1.666565E-1	-1.472092E-1	-2.014847E-1	-1.496735E-1	-1.976929E-1	-4.599609E-1	5.671692E-1
3.871400E+10	-9.138794E-1	1.666565E-1	-1.528168E-1	-1.957474E-1	-1.538773E-1	-1.899643E-1	-4.458008E-1	5.708008E-1
3.893850E+10	-9.112854E-1	1.766357E-1	-1.512680E-1	-1.892014E-1	-1.468506E-1	-1.862488E-1	-4.341431E-1	5.706482E-1
