!Date: 10/28/2005, 12:46 PM

!Vgs = -1.000000E+0
!Vds = 7.500000E+0
!Ig = -1.401300E-5
!Id = 7.648600E-1

# HZ S RI R 50
1.000000E+8	9.624634E-1	-2.027283E-1	-1.172510E+1	3.212891E-1	1.444817E-4	1.004028E-2	3.236542E-1	-5.972290E-2
3.245000E+8	7.464905E-1	-5.874634E-1	-1.031396E+1	3.965332E+0	1.224136E-2	2.832699E-2	8.515167E-2	-2.263565E-1
5.490000E+8	4.552002E-1	-8.129883E-1	-8.273926E+0	5.587891E+0	2.703285E-2	3.823662E-2	1.579285E-2	-2.741089E-1
7.735000E+8	1.836548E-1	-8.990173E-1	-6.360840E+0	6.138672E+0	4.092789E-2	4.053688E-2	-9.129333E-2	-3.192444E-1
9.980000E+8	-3.924561E-2	-9.001465E-1	-4.804443E+0	6.117920E+0	5.126762E-2	3.959465E-2	-1.707916E-1	-2.998657E-1
1.222500E+9	-2.167664E-1	-8.663025E-1	-3.618408E+0	5.871826E+0	5.953979E-2	3.635979E-2	-2.196503E-1	-2.915344E-1
1.447000E+9	-3.518372E-1	-8.163452E-1	-2.718506E+0	5.514893E+0	6.597519E-2	3.252411E-2	-2.674103E-1	-2.720795E-1
1.671500E+9	-4.542542E-1	-7.619019E-1	-2.049561E+0	5.137939E+0	7.079697E-2	2.921295E-2	-2.983704E-1	-2.552185E-1
1.896000E+9	-5.337524E-1	-7.056885E-1	-1.547607E+0	4.767578E+0	7.426071E-2	2.603912E-2	-3.248291E-1	-2.355194E-1
2.120500E+9	-5.939331E-1	-6.531982E-1	-1.161377E+0	4.438232E+0	7.717896E-2	2.230835E-2	-3.434906E-1	-2.207642E-1
2.345000E+9	-6.410217E-1	-6.017761E-1	-8.476562E-1	4.123779E+0	7.937622E-2	1.887894E-2	-3.610840E-1	-2.025299E-1
2.569500E+9	-6.764526E-1	-5.578918E-1	-6.026611E-1	3.836914E+0	8.015442E-2	1.525497E-2	-3.704529E-1	-1.888123E-1
2.794000E+9	-7.069092E-1	-5.199890E-1	-4.119873E-1	3.587646E+0	8.220291E-2	1.251984E-2	-3.822021E-1	-1.775665E-1
3.018500E+9	-7.306824E-1	-4.830627E-1	-2.534180E-1	3.351440E+0	8.280563E-2	1.013565E-2	-3.884277E-1	-1.639252E-1
3.243000E+9	-7.503967E-1	-4.495239E-1	-1.232910E-1	3.146362E+0	8.307648E-2	7.091522E-3	-3.941498E-1	-1.565552E-1
3.467500E+9	-7.676392E-1	-4.208374E-1	-1.269531E-2	2.963379E+0	8.382797E-2	4.730225E-3	-4.021149E-1	-1.463776E-1
3.692000E+9	-7.823486E-1	-3.936462E-1	8.081055E-2	2.792480E+0	8.401489E-2	3.467560E-3	-4.043579E-1	-1.395264E-1
3.916500E+9	-7.943726E-1	-3.676147E-1	1.555176E-1	2.636353E+0	8.456421E-2	6.752014E-4	-4.124451E-1	-1.335449E-1
4.141000E+9	-8.044434E-1	-3.438721E-1	2.216797E-1	2.494751E+0	8.447647E-2	-1.113892E-3	-4.148712E-1	-1.235657E-1
4.365500E+9	-8.111267E-1	-3.230896E-1	2.786865E-1	2.364014E+0	8.452606E-2	-3.902435E-3	-4.182892E-1	-1.198425E-1
4.590000E+9	-8.198547E-1	-3.037109E-1	3.266602E-1	2.240845E+0	8.489227E-2	-4.714966E-3	-4.230804E-1	-1.126404E-1
4.814500E+9	-8.270264E-1	-2.857666E-1	3.649902E-1	2.130371E+0	8.483505E-2	-6.927490E-3	-4.244385E-1	-1.067505E-1
5.039000E+9	-8.316345E-1	-2.676392E-1	4.001465E-1	2.028564E+0	8.452606E-2	-8.747101E-3	-4.280701E-1	-1.033630E-1
5.263500E+9	-8.367615E-1	-2.507019E-1	4.311523E-1	1.934448E+0	8.467484E-2	-1.029587E-2	-4.304199E-1	-9.721375E-2
5.488000E+9	-8.397522E-1	-2.366333E-1	4.585571E-1	1.846985E+0	8.456802E-2	-1.181030E-2	-4.327393E-1	-9.317017E-2
5.712500E+9	-8.447876E-1	-2.227478E-1	4.824829E-1	1.761108E+0	8.415604E-2	-1.323700E-2	-4.347382E-1	-8.941650E-2
5.937000E+9	-8.474426E-1	-2.071838E-1	5.017700E-1	1.683044E+0	8.406067E-2	-1.493073E-2	-4.371338E-1	-8.480835E-2
6.161500E+9	-8.507690E-1	-1.962585E-1	5.206299E-1	1.613159E+0	8.363342E-2	-1.662827E-2	-4.398804E-1	-7.882690E-2
6.386000E+9	-8.537598E-1	-1.832581E-1	5.364990E-1	1.544800E+0	8.318329E-2	-1.800919E-2	-4.386139E-1	-7.637024E-2
6.610500E+9	-8.551941E-1	-1.723328E-1	5.515137E-1	1.479797E+0	8.316422E-2	-1.947403E-2	-4.431152E-1	-7.446289E-2
6.835000E+9	-8.583374E-1	-1.609802E-1	5.636597E-1	1.415955E+0	8.279419E-2	-2.091980E-2	-4.435272E-1	-6.689453E-2
7.059500E+9	-8.596191E-1	-1.510620E-1	5.708008E-1	1.359253E+0	8.192062E-2	-2.227020E-2	-4.414825E-1	-6.823730E-2
7.284000E+9	-8.610535E-1	-1.412964E-1	5.786133E-1	1.305054E+0	8.149338E-2	-2.384949E-2	-4.478607E-1	-6.378174E-2
7.508500E+9	-8.633118E-1	-1.314087E-1	5.849609E-1	1.252869E+0	8.144760E-2	-2.531433E-2	-4.427490E-1	-6.156921E-2
7.733000E+9	-8.629456E-1	-1.210327E-1	5.913696E-1	1.205078E+0	8.065796E-2	-2.582932E-2	-4.501495E-1	-6.144714E-2
7.957500E+9	-8.647156E-1	-1.118469E-1	6.004028E-1	1.159546E+0	8.010101E-2	-2.744675E-2	-4.495239E-1	-5.603027E-2
8.182000E+9	-8.652649E-1	-1.027832E-1	6.063232E-1	1.117065E+0	7.962799E-2	-2.892685E-2	-4.549103E-1	-5.570984E-2
8.406500E+9	-8.657227E-1	-9.655762E-2	6.093750E-1	1.072449E+0	7.909775E-2	-3.025055E-2	-4.539032E-1	-4.873657E-2
8.631000E+9	-8.675842E-1	-8.731079E-2	6.140747E-1	1.030334E+0	7.802963E-2	-3.153610E-2	-4.547577E-1	-4.850769E-2
8.855500E+9	-8.670044E-1	-7.968140E-2	6.160583E-1	9.905090E-1	7.770920E-2	-3.268433E-2	-4.584656E-1	-4.473877E-2
9.080001E+9	-8.674927E-1	-7.315063E-2	6.182251E-1	9.539490E-1	7.699966E-2	-3.344345E-2	-4.576263E-1	-4.048157E-2
9.304500E+9	-8.679810E-1	-6.250000E-2	6.185303E-1	9.187622E-1	7.625961E-2	-3.500366E-2	-4.591675E-1	-3.889465E-2
9.529000E+9	-8.677979E-1	-5.761719E-2	6.203308E-1	8.835754E-1	7.566452E-2	-3.583527E-2	-4.608765E-1	-3.585815E-2
9.753500E+9	-8.689880E-1	-5.084229E-2	6.201172E-1	8.507996E-1	7.398605E-2	-3.667450E-2	-4.613190E-1	-3.297424E-2
9.978000E+9	-8.678284E-1	-4.370117E-2	6.194763E-1	8.194275E-1	7.363129E-2	-3.866577E-2	-4.625549E-1	-3.198242E-2
1.020250E+10	-8.690796E-1	-3.756714E-2	6.195679E-1	7.894287E-1	7.335281E-2	-3.885269E-2	-4.647369E-1	-2.677917E-2
1.042700E+10	-8.698425E-1	-3.015137E-2	6.192627E-1	7.597656E-1	7.193756E-2	-3.984833E-2	-4.636230E-1	-2.616882E-2
1.065150E+10	-8.684692E-1	-2.404785E-2	6.173096E-1	7.325134E-1	7.118225E-2	-4.116058E-2	-4.663239E-1	-2.507019E-2
1.087600E+10	-8.693542E-1	-1.809692E-2	6.167603E-1	7.056274E-1	6.999969E-2	-4.241562E-2	-4.675140E-1	-2.107239E-2
1.110050E+10	-8.690491E-1	-1.193237E-2	6.156921E-1	6.790161E-1	6.930923E-2	-4.312515E-2	-4.681702E-1	-1.773071E-2
1.132500E+10	-8.684692E-1	-6.256104E-3	6.128540E-1	6.541748E-1	6.896210E-2	-4.323196E-2	-4.691315E-1	-1.742554E-2
1.154950E+10	-8.684998E-1	1.037598E-3	6.120605E-1	6.292419E-1	6.782913E-2	-4.393768E-2	-4.719543E-1	-1.359558E-2
1.177400E+10	-8.678589E-1	6.103516E-3	6.098022E-1	6.063538E-1	6.677628E-2	-4.572678E-2	-4.719696E-1	-1.017761E-2
1.199850E+10	-8.670959E-1	1.135254E-2	6.073303E-1	5.838013E-1	6.605530E-2	-4.640961E-2	-4.734802E-1	-9.094238E-3
1.222300E+10	-8.675842E-1	1.739502E-2	6.036987E-1	5.610352E-1	6.519699E-2	-4.703522E-2	-4.743652E-1	-8.270264E-3
1.244750E+10	-8.666077E-1	2.172852E-2	5.994263E-1	5.390625E-1	6.378174E-2	-4.759216E-2	-4.760590E-1	-3.860474E-3
1.267200E+10	-8.672485E-1	2.743530E-2	5.963440E-1	5.194092E-1	6.353760E-2	-4.845810E-2	-4.756927E-1	-2.334595E-3
1.289650E+10	-8.651428E-1	3.234863E-2	5.934143E-1	4.993286E-1	6.250000E-2	-4.929352E-2	-4.801025E-1	-8.850098E-4
1.312100E+10	-8.657532E-1	3.738403E-2	5.895996E-1	4.798584E-1	6.164932E-2	-4.974365E-2	-4.800873E-1	4.425049E-3
1.334550E+10	-8.652344E-1	4.257202E-2	5.863037E-1	4.620361E-1	6.084442E-2	-5.049515E-2	-4.804230E-1	5.310059E-3
1.357000E+10	-8.631897E-1	4.541016E-2	5.814819E-1	4.433594E-1	5.912971E-2	-5.092049E-2	-4.823761E-1	4.745483E-3
1.379450E+10	-8.647156E-1	5.191040E-2	5.770874E-1	4.263000E-1	5.812645E-2	-5.271339E-2	-4.851685E-1	1.104736E-2
1.401900E+10	-8.623657E-1	5.737305E-2	5.740662E-1	4.129333E-1	5.912018E-2	-5.377579E-2	-4.831390E-1	1.103210E-2
1.424350E+10	-8.635559E-1	6.060791E-2	5.694275E-1	3.929138E-1	5.653954E-2	-5.380249E-2	-4.864807E-1	1.420593E-2
1.446800E+10	-8.623047E-1	6.524658E-2	5.657654E-1	3.787537E-1	5.581665E-2	-5.272865E-2	-4.863739E-1	2.088928E-2
1.469250E+10	-8.605957E-1	7.092285E-2	5.620422E-1	3.625488E-1	5.472374E-2	-5.408669E-2	-4.845886E-1	2.239990E-2
1.491700E+10	-8.593445E-1	7.513428E-2	5.576172E-1	3.480835E-1	5.332565E-2	-5.489349E-2	-4.877777E-1	2.099609E-2
1.514150E+10	-8.598633E-1	8.001709E-2	5.520325E-1	3.335876E-1	5.188560E-2	-5.484772E-2	-4.891663E-1	2.696228E-2
1.536600E+10	-8.580933E-1	8.456421E-2	5.483093E-1	3.183594E-1	5.060005E-2	-5.590439E-2	-4.870911E-1	2.835083E-2
1.559050E+10	-8.587036E-1	8.959961E-2	5.430603E-1	3.063660E-1	5.069160E-2	-5.680084E-2	-4.904938E-1	2.970886E-2
1.581500E+10	-8.559875E-1	9.381104E-2	5.378418E-1	2.924194E-1	4.949760E-2	-5.603409E-2	-4.922485E-1	3.321838E-2
1.603950E+10	-8.558044E-1	9.811401E-2	5.347595E-1	2.799988E-1	4.962730E-2	-5.640030E-2	-4.911804E-1	3.535461E-2
1.626400E+10	-8.547668E-1	1.018372E-1	5.290222E-1	2.677917E-1	4.804230E-2	-5.758286E-2	-4.943237E-1	3.639221E-2
1.648850E+10	-8.543396E-1	1.056519E-1	5.233154E-1	2.563171E-1	4.712677E-2	-5.680466E-2	-4.952087E-1	4.129028E-2
1.671300E+10	-8.525696E-1	1.104126E-1	5.192871E-1	2.432556E-1	4.705238E-2	-5.849266E-2	-4.953918E-1	4.434204E-2
1.693750E+10	-8.518372E-1	1.138000E-1	5.148315E-1	2.329407E-1	4.371834E-2	-5.926323E-2	-4.964447E-1	4.515076E-2
1.716200E+10	-8.504639E-1	1.180420E-1	5.101318E-1	2.222290E-1	4.380989E-2	-5.942154E-2	-4.993134E-1	5.012512E-2
1.738650E+10	-8.500671E-1	1.240845E-1	5.055847E-1	2.132568E-1	4.229736E-2	-5.942535E-2	-4.960480E-1	5.383301E-2
1.761100E+10	-8.491516E-1	1.266479E-1	5.003662E-1	2.024536E-1	4.109573E-2	-5.913925E-2	-5.002136E-1	5.300903E-2
1.783550E+10	-8.484802E-1	1.313782E-1	4.939117E-1	1.916351E-1	4.031181E-2	-6.043625E-2	-5.016174E-1	5.920410E-2
1.806000E+10	-8.468933E-1	1.351318E-1	4.906921E-1	1.827545E-1	3.950310E-2	-6.071854E-2	-5.003357E-1	6.417847E-2
1.828450E+10	-8.445435E-1	1.383362E-1	4.866028E-1	1.739502E-1	3.835869E-2	-6.000137E-2	-5.007629E-1	6.283569E-2
1.850900E+10	-8.441162E-1	1.413574E-1	4.823303E-1	1.657410E-1	3.733253E-2	-6.129837E-2	-5.036316E-1	6.735229E-2
1.873350E+10	-8.441772E-1	1.459961E-1	4.784546E-1	1.549835E-1	3.650284E-2	-6.190491E-2	-5.021667E-1	7.333374E-2
1.895800E+10	-8.409119E-1	1.485596E-1	4.718170E-1	1.473541E-1	3.569794E-2	-6.099701E-2	-5.022278E-1	7.315063E-2
1.918250E+10	-8.400269E-1	1.532898E-1	4.675446E-1	1.381226E-1	3.473663E-2	-6.171608E-2	-5.065613E-1	7.684326E-2
1.940700E+10	-8.384094E-1	1.570435E-1	4.629517E-1	1.283264E-1	3.225899E-2	-6.205368E-2	-5.033264E-1	8.328247E-2
1.963150E+10	-8.390503E-1	1.614380E-1	4.585114E-1	1.228180E-1	3.160477E-2	-6.115341E-2	-5.013733E-1	8.145142E-2
1.985600E+10	-8.381348E-1	1.646423E-1	4.512177E-1	1.149445E-1	3.115845E-2	-6.220245E-2	-5.062866E-1	8.590698E-2
2.008050E+10	-8.370667E-1	1.661377E-1	4.474945E-1	1.061249E-1	2.865219E-2	-6.306839E-2	-5.062256E-1	9.255981E-2
2.030500E+10	-8.353271E-1	1.704102E-1	4.426117E-1	1.008301E-1	2.774811E-2	-6.363297E-2	-5.034180E-1	9.442139E-2
2.052950E+10	-8.339844E-1	1.734619E-1	4.378204E-1	9.445190E-2	2.698517E-2	-6.315231E-2	-5.068665E-1	9.515381E-2
2.075400E+10	-8.330078E-1	1.768494E-1	4.343414E-1	8.728027E-2	2.543259E-2	-6.275940E-2	-5.068054E-1	1.015015E-1
2.097850E+10	-8.319397E-1	1.798401E-1	4.284363E-1	8.288574E-2	2.414894E-2	-6.201172E-2	-5.029297E-1	1.029968E-1
2.120300E+10	-8.295593E-1	1.826172E-1	4.226837E-1	7.577515E-2	2.336693E-2	-6.114006E-2	-5.080261E-1	1.019897E-1
2.142750E+10	-8.296509E-1	1.867676E-1	4.199829E-1	7.037354E-2	2.228165E-2	-6.287384E-2	-5.105286E-1	1.088867E-1
2.165200E+10	-8.284912E-1	1.916199E-1	4.163818E-1	6.411743E-2	2.052307E-2	-6.215096E-2	-5.075684E-1	1.132507E-1
2.187650E+10	-8.269958E-1	1.933289E-1	4.118500E-1	5.984497E-2	2.075386E-2	-6.245995E-2	-5.103760E-1	1.170654E-1
2.210100E+10	-8.232117E-1	1.972046E-1	4.070587E-1	5.337524E-2	1.940918E-2	-6.080246E-2	-5.124512E-1	1.230164E-1
2.232550E+10	-8.244324E-1	2.004700E-1	4.002991E-1	4.803467E-2	1.921463E-2	-6.142807E-2	-5.071716E-1	1.257019E-1
2.255000E+10	-8.240356E-1	2.036438E-1	3.992767E-1	4.078674E-2	1.751137E-2	-6.084824E-2	-5.094299E-1	1.260681E-1
2.277450E+10	-8.204041E-1	2.081604E-1	3.956604E-1	3.701782E-2	1.519775E-2	-6.016541E-2	-5.080566E-1	1.330261E-1
2.299900E+10	-8.202820E-1	2.108154E-1	3.895416E-1	3.158569E-2	1.492691E-2	-6.031036E-2	-5.072021E-1	1.343384E-1
2.322350E+10	-8.187866E-1	2.156982E-1	3.873596E-1	2.700806E-2	1.414871E-2	-6.244087E-2	-5.097656E-1	1.388855E-1
2.344800E+10	-8.175354E-1	2.162781E-1	3.821564E-1	2.122498E-2	1.281357E-2	-6.115723E-2	-5.124817E-1	1.443481E-1
2.367250E+10	-8.165894E-1	2.205811E-1	3.777161E-1	1.774597E-2	1.189613E-2	-5.946350E-2	-5.049133E-1	1.475525E-1
2.389700E+10	-8.128662E-1	2.224426E-1	3.737946E-1	1.292419E-2	8.710861E-3	-6.062317E-2	-5.092163E-1	1.494141E-1
2.412150E+10	-8.119812E-1	2.270813E-1	3.665771E-1	8.010864E-3	7.261276E-3	-6.050873E-2	-5.065308E-1	1.577454E-1
2.434600E+10	-8.112488E-1	2.304077E-1	3.640289E-1	4.714966E-3	8.111954E-3	-5.865669E-2	-5.034180E-1	1.580811E-1
2.457050E+10	-8.087769E-1	2.335205E-1	3.608551E-1	9.155273E-5	5.489349E-3	-6.024742E-2	-5.056458E-1	1.609497E-1
2.479500E+10	-8.078003E-1	2.362366E-1	3.558807E-1	-1.876831E-3	4.467010E-3	-5.954361E-2	-5.036316E-1	1.680603E-1
2.501950E+10	-8.062744E-1	2.389526E-1	3.529816E-1	-4.425049E-3	2.624512E-3	-5.551720E-2	-4.968872E-1	1.683350E-1
2.524400E+10	-8.050537E-1	2.402039E-1	3.495483E-1	-9.201050E-3	1.621246E-3	-5.672073E-2	-5.008850E-1	1.720581E-1
2.546850E+10	-8.028564E-1	2.469788E-1	3.448486E-1	-1.214600E-2	1.396179E-3	-5.710793E-2	-4.976959E-1	1.763000E-1
2.569300E+10	-8.001404E-1	2.460632E-1	3.406677E-1	-1.266479E-2	9.632111E-4	-5.609322E-2	-4.949799E-1	1.759186E-1
2.591750E+10	-7.994385E-1	2.524109E-1	3.387909E-1	-1.869202E-2	-1.182556E-4	-5.617142E-2	-4.984741E-1	1.820831E-1
2.614200E+10	-7.965088E-1	2.540588E-1	3.349457E-1	-1.963806E-2	-4.291534E-4	-5.474281E-2	-5.012817E-1	1.860352E-1
2.636650E+10	-7.962341E-1	2.557983E-1	3.334656E-1	-2.445984E-2	-1.882553E-3	-5.502701E-2	-4.997253E-1	1.925659E-1
2.659100E+10	-7.939148E-1	2.592163E-1	3.274078E-1	-2.705383E-2	-1.583099E-3	-5.353355E-2	-4.935913E-1	1.945190E-1
2.681550E+10	-7.915955E-1	2.614136E-1	3.265228E-1	-2.940369E-2	-4.623413E-3	-5.415154E-2	-4.956055E-1	1.970367E-1
2.704000E+10	-7.912903E-1	2.643433E-1	3.193512E-1	-3.199768E-2	-5.399704E-3	-5.241776E-2	-4.967499E-1	2.057190E-1
2.726450E+10	-7.861938E-1	2.672119E-1	3.203583E-1	-3.564453E-2	-4.966736E-3	-5.200958E-2	-4.883270E-1	2.074432E-1
2.748900E+10	-7.866821E-1	2.696838E-1	3.145599E-1	-3.651428E-2	-7.774353E-3	-5.112076E-2	-4.907684E-1	2.088928E-1
2.771350E+10	-7.868652E-1	2.723694E-1	3.124084E-1	-4.199219E-2	-9.372711E-3	-5.103111E-2	-4.872131E-1	2.122650E-1
2.793800E+10	-7.850647E-1	2.718201E-1	3.124390E-1	-4.556274E-2	-8.239746E-3	-4.772758E-2	-4.919434E-1	2.180023E-1
2.816250E+10	-7.835999E-1	2.756958E-1	3.046265E-1	-4.675293E-2	-1.105309E-2	-4.910088E-2	-4.879456E-1	2.191925E-1
2.838700E+10	-7.797241E-1	2.783508E-1	3.041992E-1	-4.637146E-2	-1.025963E-2	-4.903603E-2	-4.865570E-1	2.239532E-1
2.861150E+10	-7.781677E-1	2.821655E-1	2.997742E-1	-5.062866E-2	-1.272392E-2	-4.856682E-2	-4.829559E-1	2.285919E-1
2.883600E+10	-7.770386E-1	2.859497E-1	2.987823E-1	-5.245972E-2	-1.240540E-2	-4.635429E-2	-4.841766E-1	2.281036E-1
2.906050E+10	-7.761536E-1	2.877197E-1	2.956238E-1	-5.268860E-2	-1.447487E-2	-4.457092E-2	-4.802551E-1	2.361145E-1
2.928500E+10	-7.752991E-1	2.899780E-1	2.922363E-1	-5.982971E-2	-1.303291E-2	-4.292488E-2	-4.785461E-1	2.363281E-1
2.950950E+10	-7.694397E-1	2.929077E-1	2.918701E-1	-5.912781E-2	-1.466942E-2	-4.597664E-2	-4.796600E-1	2.402039E-1
2.973400E+10	-7.729187E-1	2.950134E-1	2.900696E-1	-6.243896E-2	-1.231003E-2	-4.182625E-2	-4.806671E-1	2.460022E-1
2.995850E+10	-7.675476E-1	2.966614E-1	2.849884E-1	-5.891418E-2	-1.305008E-2	-4.022598E-2	-4.779663E-1	2.509613E-1
3.018300E+10	-7.659302E-1	2.983398E-1	2.851105E-1	-6.324768E-2	-1.514053E-2	-3.781128E-2	-4.765625E-1	2.591095E-1
3.040750E+10	-7.621460E-1	3.016968E-1	2.857208E-1	-6.501770E-2	-1.498985E-2	-3.717995E-2	-4.737396E-1	2.600861E-1
3.063200E+10	-7.620850E-1	3.025818E-1	2.791443E-1	-6.893921E-2	-1.712036E-2	-3.694725E-2	-4.738007E-1	2.678070E-1
3.085650E+10	-7.585449E-1	3.083801E-1	2.766113E-1	-6.938171E-2	-2.130890E-2	-3.659821E-2	-4.677124E-1	2.705688E-1
3.108100E+10	-7.592468E-1	3.079834E-1	2.756348E-1	-7.235718E-2	-1.739311E-2	-3.355217E-2	-4.634399E-1	2.747803E-1
3.130550E+10	-7.538147E-1	3.089294E-1	2.686920E-1	-7.710266E-2	-2.055931E-2	-3.697395E-2	-4.625702E-1	2.786560E-1
3.153000E+10	-7.588806E-1	3.152161E-1	2.753296E-1	-7.809448E-2	-1.963043E-2	-3.005505E-2	-4.617615E-1	2.777863E-1
3.175450E+10	-7.528381E-1	3.093567E-1	2.682953E-1	-8.178711E-2	-1.875210E-2	-2.917576E-2	-4.596710E-1	2.881165E-1
3.197900E+10	-7.537537E-1	3.177490E-1	2.709503E-1	-8.033752E-2	-1.789284E-2	-2.948856E-2	-4.538269E-1	2.885590E-1
3.220350E+10	-7.538757E-1	3.166504E-1	2.683258E-1	-8.631897E-2	-1.781559E-2	-2.882385E-2	-4.480286E-1	2.968292E-1
3.242800E+10	-7.497559E-1	3.202820E-1	2.665863E-1	-8.615112E-2	-2.119255E-2	-2.716827E-2	-4.501495E-1	3.017578E-1
3.265250E+10	-7.474976E-1	3.258362E-1	2.617950E-1	-8.985901E-2	-2.395344E-2	-3.031635E-2	-4.405212E-1	3.007202E-1
3.287700E+10	-7.449646E-1	3.268127E-1	2.622223E-1	-9.140015E-2	-2.156067E-2	-2.264214E-2	-4.468231E-1	3.059235E-1
3.310150E+10	-7.459717E-1	3.274841E-1	2.621765E-1	-8.874512E-2	-2.218246E-2	-2.488232E-2	-4.395142E-1	3.080292E-1
3.332600E+10	-7.430725E-1	3.320618E-1	2.574158E-1	-9.759521E-2	-2.151394E-2	-2.396297E-2	-4.361877E-1	3.115997E-1
3.355050E+10	-7.373047E-1	3.310242E-1	2.557678E-1	-9.562683E-2	-1.919937E-2	-2.314091E-2	-4.359894E-1	3.131561E-1
3.377500E+10	-7.393799E-1	3.355103E-1	2.561493E-1	-9.321594E-2	-2.196693E-2	-1.852894E-2	-4.304810E-1	3.177185E-1
3.399950E+10	-7.373352E-1	3.370972E-1	2.531738E-1	-9.742737E-2	-2.028465E-2	-1.838493E-2	-4.319000E-1	3.230133E-1
3.422400E+10	-7.331543E-1	3.398437E-1	2.524414E-1	-1.003113E-1	-1.887798E-2	-1.745605E-2	-4.271698E-1	3.313904E-1
3.444850E+10	-7.364197E-1	3.400269E-1	2.513733E-1	-1.043091E-1	-1.744938E-2	-1.712036E-2	-4.197235E-1	3.292542E-1
3.467300E+10	-7.326965E-1	3.426208E-1	2.551575E-1	-1.037598E-1	-2.322960E-2	-1.620579E-2	-4.213104E-1	3.353271E-1
3.489750E+10	-7.315979E-1	3.447876E-1	2.453690E-1	-1.096649E-1	-2.270794E-2	-1.849747E-2	-4.146118E-1	3.481140E-1
3.512200E+10	-7.251892E-1	3.470459E-1	2.476883E-1	-1.135254E-1	-2.140617E-2	-1.619434E-2	-4.084320E-1	3.471680E-1
3.534650E+10	-7.298279E-1	3.450928E-1	2.480164E-1	-1.142120E-1	-2.092266E-2	-1.163673E-2	-4.094849E-1	3.484802E-1
3.557100E+10	-7.245789E-1	3.451538E-1	2.434921E-1	-1.232986E-1	-1.758671E-2	-1.318169E-2	-4.019165E-1	3.593903E-1
3.579550E+10	-7.215881E-1	3.467102E-1	2.417145E-1	-1.167679E-1	-1.501751E-2	-1.146221E-2	-3.955078E-1	3.594208E-1
3.602000E+10	-7.210388E-1	3.516541E-1	2.434692E-1	-1.219177E-1	-2.110672E-2	-8.417130E-3	-3.971710E-1	3.616486E-1
3.624450E+10	-7.221680E-1	3.613281E-1	2.398758E-1	-1.218491E-1	-2.463245E-2	-5.327225E-3	-3.944092E-1	3.604889E-1
3.646900E+10	-7.202454E-1	3.574219E-1	2.351303E-1	-1.264572E-1	-2.007008E-2	-4.806519E-3	-3.838043E-1	3.747559E-1
3.669350E+10	-7.146606E-1	3.588867E-1	2.367783E-1	-1.295700E-1	-1.940155E-2	-1.072788E-2	-3.817291E-1	3.773651E-1
3.691800E+10	-7.177734E-1	3.579407E-1	2.337418E-1	-1.310349E-1	-1.610565E-2	-5.895615E-3	-3.725739E-1	3.750916E-1
3.714250E+10	-7.146912E-1	3.600464E-1	2.294464E-1	-1.373749E-1	-1.789665E-2	-2.370834E-3	-3.628693E-1	3.853149E-1
3.736700E+10	-7.098694E-1	3.619080E-1	2.272415E-1	-1.388474E-1	-1.738834E-2	-5.728722E-3	-3.610077E-1	3.822327E-1
3.759150E+10	-7.107239E-1	3.651428E-1	2.260666E-1	-1.380386E-1	-1.742840E-2	-2.551079E-3	-3.611603E-1	3.830109E-1
3.781600E+10	-7.065125E-1	3.621216E-1	2.222290E-1	-1.427994E-1	-1.595402E-2	3.441811E-3	-3.509521E-1	3.915710E-1
3.804050E+10	-7.087097E-1	3.660583E-1	2.251587E-1	-1.401596E-1	-1.310062E-2	2.023697E-3	-3.446503E-1	3.915710E-1
3.826500E+10	-7.097168E-1	3.717346E-1	2.303772E-1	-1.447449E-1	-1.710224E-2	-1.850128E-4	-3.420410E-1	4.003906E-1
3.848950E+10	-6.995544E-1	3.715210E-1	2.216644E-1	-1.546326E-1	-1.537752E-2	2.875328E-4	-3.314819E-1	4.002380E-1
3.871400E+10	-7.063904E-1	3.703003E-1	2.190170E-1	-1.576385E-1	-1.099300E-2	6.899834E-4	-3.255463E-1	4.056854E-1
3.893850E+10	-7.003479E-1	3.757935E-1	2.188110E-1	-1.538467E-1	-1.402283E-2	5.718231E-3	-3.198547E-1	4.070587E-1
3.916300E+10	-7.059021E-1	3.720703E-1	2.172699E-1	-1.629486E-1	-1.137304E-2	5.575180E-3	-3.183136E-1	4.037781E-1
