!Date: 10/28/2005, 12:46 PM

!Vgs = -2.000000E+0
!Vds = 2.000000E+1
!Ig = -3.907600E-5
!Id = 5.455600E-1

# HZ S RI R 50
1.000000E+8	9.600830E-1	-1.726379E-1	-1.491797E+1	4.067383E-1	1.383543E-3	5.455256E-3	6.122131E-1	-1.583862E-2
3.245000E+8	8.096924E-1	-5.056763E-1	-1.375049E+1	4.640137E+0	7.837296E-3	1.949692E-2	4.243317E-1	-2.205811E-1
5.490000E+8	5.823364E-1	-7.336426E-1	-1.169287E+1	6.670410E+0	1.740074E-2	2.844810E-2	3.608093E-1	-2.927856E-1
7.735000E+8	3.479919E-1	-8.544312E-1	-9.497559E+0	7.640625E+0	2.741051E-2	3.158379E-2	2.554779E-1	-3.507690E-1
9.980000E+8	1.365967E-1	-8.972473E-1	-7.546387E+0	7.979248E+0	3.549194E-2	3.220749E-2	1.692200E-1	-3.520966E-1
1.222500E+9	-4.391479E-2	-8.968506E-1	-5.953857E+0	7.950684E+0	4.257202E-2	3.082085E-2	1.099701E-1	-3.576202E-1
1.447000E+9	-1.930847E-1	-8.727417E-1	-4.660645E+0	7.699951E+0	4.820061E-2	2.888489E-2	5.255127E-2	-3.497772E-1
1.671500E+9	-3.118591E-1	-8.353271E-1	-3.634766E+0	7.334961E+0	5.281639E-2	2.666664E-2	1.094055E-2	-3.401337E-1
1.896000E+9	-4.086304E-1	-7.886658E-1	-2.842041E+0	6.918213E+0	5.680847E-2	2.412605E-2	-2.458191E-2	-3.245697E-1
2.120500E+9	-4.839172E-1	-7.415161E-1	-2.208252E+0	6.525879E+0	5.946159E-2	2.123070E-2	-5.000305E-2	-3.134766E-1
2.345000E+9	-5.454712E-1	-6.932678E-1	-1.685303E+0	6.136475E+0	6.184578E-2	1.848221E-2	-7.371521E-2	-2.997894E-1
2.569500E+9	-5.912170E-1	-6.488342E-1	-1.270264E+0	5.761719E+0	6.348038E-2	1.554108E-2	-8.976746E-2	-2.883301E-1
2.794000E+9	-6.320801E-1	-6.101074E-1	-9.365234E-1	5.429199E+0	6.475449E-2	1.327515E-2	-1.043854E-1	-2.804871E-1
3.018500E+9	-6.653442E-1	-5.723267E-1	-6.542969E-1	5.109131E+0	6.578827E-2	1.140213E-2	-1.161041E-1	-2.701416E-1
3.243000E+9	-6.916199E-1	-5.371704E-1	-4.165039E-1	4.822998E+0	6.632614E-2	8.800507E-3	-1.272430E-1	-2.651978E-1
3.467500E+9	-7.164001E-1	-5.069275E-1	-2.153320E-1	4.558105E+0	6.698608E-2	6.927490E-3	-1.372375E-1	-2.581482E-1
3.692000E+9	-7.375183E-1	-4.766235E-1	-4.711914E-2	4.308105E+0	6.740570E-2	5.146027E-3	-1.442413E-1	-2.541046E-1
3.916500E+9	-7.537231E-1	-4.480286E-1	9.741211E-2	4.077393E+0	6.830215E-2	3.314972E-3	-1.554108E-1	-2.504120E-1
4.141000E+9	-7.680969E-1	-4.227600E-1	2.182617E-1	3.866699E+0	6.845474E-2	1.323700E-3	-1.626892E-1	-2.447586E-1
4.365500E+9	-7.803955E-1	-3.993530E-1	3.256836E-1	3.668457E+0	6.808090E-2	-2.021790E-4	-1.687164E-1	-2.426529E-1
4.590000E+9	-7.918701E-1	-3.770447E-1	4.161377E-1	3.482666E+0	6.846619E-2	-1.831055E-3	-1.760788E-1	-2.391968E-1
4.814500E+9	-8.010559E-1	-3.558655E-1	4.898682E-1	3.314697E+0	6.892395E-2	-3.753662E-3	-1.811142E-1	-2.366867E-1
5.039000E+9	-8.088379E-1	-3.361511E-1	5.573730E-1	3.157104E+0	6.847763E-2	-5.218506E-3	-1.883392E-1	-2.350082E-1
5.263500E+9	-8.168030E-1	-3.175964E-1	6.174316E-1	3.009399E+0	6.880569E-2	-6.713867E-3	-1.941986E-1	-2.317352E-1
5.488000E+9	-8.220825E-1	-3.003845E-1	6.677246E-1	2.872925E+0	6.851578E-2	-8.083344E-3	-1.999207E-1	-2.303467E-1
5.712500E+9	-8.284302E-1	-2.844238E-1	7.109375E-1	2.740601E+0	6.837463E-2	-9.231567E-3	-2.046356E-1	-2.287827E-1
5.937000E+9	-8.338623E-1	-2.672119E-1	7.506104E-1	2.619995E+0	6.858444E-2	-1.088715E-2	-2.102127E-1	-2.278976E-1
6.161500E+9	-8.375244E-1	-2.546997E-1	7.856445E-1	2.509888E+0	6.798935E-2	-1.240158E-2	-2.157745E-1	-2.253647E-1
6.386000E+9	-8.422852E-1	-2.393188E-1	8.161621E-1	2.401001E+0	6.826782E-2	-1.349258E-2	-2.180939E-1	-2.255783E-1
6.610500E+9	-8.445129E-1	-2.265320E-1	8.455811E-1	2.297607E+0	6.789398E-2	-1.549149E-2	-2.256622E-1	-2.271271E-1
6.835000E+9	-8.486633E-1	-2.145081E-1	8.684082E-1	2.199829E+0	6.730652E-2	-1.622009E-2	-2.304764E-1	-2.228775E-1
7.059500E+9	-8.511658E-1	-2.031250E-1	8.835449E-1	2.109009E+0	6.667709E-2	-1.738358E-2	-2.313385E-1	-2.254486E-1
7.284000E+9	-8.528442E-1	-1.918640E-1	9.020996E-1	2.021484E+0	6.623459E-2	-1.821899E-2	-2.404480E-1	-2.240448E-1
7.508500E+9	-8.562012E-1	-1.795654E-1	9.157104E-1	1.938354E+0	6.694031E-2	-1.968384E-2	-2.409592E-1	-2.223892E-1
7.733000E+9	-8.572388E-1	-1.692505E-1	9.279785E-1	1.861877E+0	6.503296E-2	-2.054214E-2	-2.489853E-1	-2.253113E-1
7.957500E+9	-8.593445E-1	-1.582336E-1	9.420776E-1	1.788696E+0	6.550980E-2	-2.225113E-2	-2.524414E-1	-2.234802E-1
8.182000E+9	-8.610535E-1	-1.475525E-1	9.544067E-1	1.718262E+0	6.545258E-2	-2.301407E-2	-2.595367E-1	-2.254333E-1
8.406500E+9	-8.616638E-1	-1.393433E-1	9.603271E-1	1.646851E+0	6.470108E-2	-2.430725E-2	-2.631073E-1	-2.220306E-1
8.631000E+9	-8.636475E-1	-1.298523E-1	9.692993E-1	1.580444E+0	6.412506E-2	-2.561569E-2	-2.693939E-1	-2.230988E-1
8.855500E+9	-8.645325E-1	-1.211853E-1	9.721680E-1	1.515625E+0	6.391144E-2	-2.655411E-2	-2.749176E-1	-2.214355E-1
9.080001E+9	-8.655701E-1	-1.127930E-1	9.767456E-1	1.457458E+0	6.218529E-2	-2.746201E-2	-2.781677E-1	-2.201538E-1
9.304500E+9	-8.658447E-1	-1.022949E-1	9.791870E-1	1.399170E+0	6.155968E-2	-2.864075E-2	-2.832947E-1	-2.208862E-1
9.529000E+9	-8.660889E-1	-9.655762E-2	9.799194E-1	1.343140E+0	6.164551E-2	-2.946281E-2	-2.905273E-1	-2.190247E-1
9.753500E+9	-8.681030E-1	-8.761597E-2	9.805908E-1	1.289490E+0	6.070709E-2	-3.023720E-2	-2.936096E-1	-2.172241E-1
9.978000E+9	-8.674622E-1	-8.010864E-2	9.804077E-1	1.239197E+0	5.960846E-2	-3.143120E-2	-2.980347E-1	-2.188721E-1
1.020250E+10	-8.685303E-1	-7.342529E-2	9.793091E-1	1.191284E+0	5.924034E-2	-3.238297E-2	-3.040924E-1	-2.160797E-1
1.042700E+10	-8.693542E-1	-6.640625E-2	9.791870E-1	1.144104E+0	5.858994E-2	-3.359222E-2	-3.074341E-1	-2.159424E-1
1.065150E+10	-8.688965E-1	-5.825806E-2	9.763184E-1	1.098572E+0	5.803871E-2	-3.385353E-2	-3.129883E-1	-2.164764E-1
1.087600E+10	-8.693237E-1	-5.139160E-2	9.748535E-1	1.056519E+0	5.766678E-2	-3.465462E-2	-3.179779E-1	-2.146912E-1
1.110050E+10	-8.690796E-1	-4.449463E-2	9.718628E-1	1.013306E+0	5.641556E-2	-3.529167E-2	-3.217163E-1	-2.126160E-1
1.132500E+10	-8.684692E-1	-3.921509E-2	9.686584E-1	9.725342E-1	5.558968E-2	-3.602028E-2	-3.260803E-1	-2.133484E-1
1.154950E+10	-8.691406E-1	-3.112793E-2	9.654846E-1	9.330750E-1	5.501747E-2	-3.761673E-2	-3.335724E-1	-2.110443E-1
1.177400E+10	-8.682861E-1	-2.590942E-2	9.591370E-1	8.962402E-1	5.417442E-2	-3.774834E-2	-3.373718E-1	-2.082367E-1
1.199850E+10	-8.678589E-1	-1.834106E-2	9.559021E-1	8.601074E-1	5.361938E-2	-3.809166E-2	-3.418427E-1	-2.094116E-1
1.222300E+10	-8.679504E-1	-1.290894E-2	9.495239E-1	8.236084E-1	5.270576E-2	-3.946114E-2	-3.469543E-1	-2.085266E-1
1.244750E+10	-8.676453E-1	-7.141113E-3	9.425049E-1	7.886047E-1	5.196953E-2	-4.028702E-2	-3.518982E-1	-2.051849E-1
1.267200E+10	-8.679199E-1	-9.155273E-4	9.369812E-1	7.565918E-1	5.131149E-2	-4.097939E-2	-3.555298E-1	-2.051544E-1
1.289650E+10	-8.669434E-1	4.211426E-3	9.294739E-1	7.256470E-1	5.084610E-2	-4.110718E-2	-3.622589E-1	-2.044678E-1
1.312100E+10	-8.666382E-1	8.789062E-3	9.225159E-1	6.947632E-1	4.961967E-2	-4.218674E-2	-3.673401E-1	-1.995392E-1
1.334550E+10	-8.672485E-1	1.437378E-2	9.165955E-1	6.654663E-1	4.837608E-2	-4.318237E-2	-3.716125E-1	-1.997833E-1
1.357000E+10	-8.644714E-1	1.889038E-2	9.091797E-1	6.362610E-1	4.838562E-2	-4.306984E-2	-3.768005E-1	-2.015533E-1
1.379450E+10	-8.654785E-1	2.563477E-2	9.019165E-1	6.096191E-1	4.694748E-2	-4.444122E-2	-3.827362E-1	-1.951752E-1
1.401900E+10	-8.645325E-1	3.009033E-2	8.954468E-1	5.854187E-1	4.655266E-2	-4.504395E-2	-3.835602E-1	-1.955261E-1
1.424350E+10	-8.630371E-1	3.601074E-2	8.866577E-1	5.564270E-1	4.492378E-2	-4.539680E-2	-3.918457E-1	-1.915436E-1
1.446800E+10	-8.635559E-1	4.083252E-2	8.806763E-1	5.322571E-1	4.411888E-2	-4.554939E-2	-3.956299E-1	-1.862488E-1
1.469250E+10	-8.623047E-1	4.586792E-2	8.728333E-1	5.088196E-1	4.356003E-2	-4.592896E-2	-3.973694E-1	-1.857605E-1
1.491700E+10	-8.609009E-1	5.093384E-2	8.642883E-1	4.845276E-1	4.272652E-2	-4.736519E-2	-4.036102E-1	-1.872253E-1
1.514150E+10	-8.618164E-1	5.581665E-2	8.544312E-1	4.612732E-1	4.119110E-2	-4.600906E-2	-4.078827E-1	-1.808624E-1
1.536600E+10	-8.601685E-1	6.039429E-2	8.475647E-1	4.393005E-1	4.047203E-2	-4.769516E-2	-4.088593E-1	-1.784973E-1
1.559050E+10	-8.588562E-1	6.481934E-2	8.386536E-1	4.185486E-1	4.107857E-2	-4.775238E-2	-4.173737E-1	-1.789703E-1
1.581500E+10	-8.574219E-1	6.970215E-2	8.298645E-1	3.963318E-1	3.905106E-2	-4.845810E-2	-4.228516E-1	-1.743927E-1
1.603950E+10	-8.577271E-1	7.482910E-2	8.223572E-1	3.788757E-1	3.852654E-2	-4.957771E-2	-4.251251E-1	-1.717072E-1
1.626400E+10	-8.567810E-1	7.919312E-2	8.141174E-1	3.593750E-1	3.677750E-2	-4.850960E-2	-4.309540E-1	-1.707916E-1
1.648850E+10	-8.556519E-1	8.291626E-2	8.041077E-1	3.404541E-1	3.653336E-2	-4.936028E-2	-4.338074E-1	-1.648407E-1
1.671300E+10	-8.544922E-1	8.798218E-2	7.954407E-1	3.209839E-1	3.551483E-2	-5.019379E-2	-4.389954E-1	-1.635284E-1
1.693750E+10	-8.536072E-1	9.149170E-2	7.867126E-1	3.045959E-1	3.380775E-2	-5.049515E-2	-4.428101E-1	-1.622620E-1
1.716200E+10	-8.543396E-1	9.655762E-2	7.776794E-1	2.879333E-1	3.317833E-2	-5.022812E-2	-4.466858E-1	-1.556854E-1
1.738650E+10	-8.517151E-1	1.012878E-1	7.721863E-1	2.724304E-1	3.215027E-2	-5.152130E-2	-4.496307E-1	-1.533661E-1
1.761100E+10	-8.510742E-1	1.056824E-1	7.610168E-1	2.583008E-1	3.188133E-2	-5.056953E-2	-4.550323E-1	-1.518250E-1
1.783550E+10	-8.500366E-1	1.097107E-1	7.531128E-1	2.413330E-1	3.027725E-2	-5.095673E-2	-4.611969E-1	-1.443176E-1
1.806000E+10	-8.489380E-1	1.123962E-1	7.460022E-1	2.276917E-1	2.751160E-2	-5.189896E-2	-4.616394E-1	-1.421509E-1
1.828450E+10	-8.479309E-1	1.169434E-1	7.366333E-1	2.133484E-1	2.844620E-2	-5.210304E-2	-4.651794E-1	-1.412811E-1
1.850900E+10	-8.482361E-1	1.200867E-1	7.281494E-1	1.973572E-1	2.668953E-2	-5.182457E-2	-4.714966E-1	-1.360016E-1
1.873350E+10	-8.468018E-1	1.253052E-1	7.197571E-1	1.838989E-1	2.590942E-2	-5.300903E-2	-4.713898E-1	-1.304932E-1
1.895800E+10	-8.426819E-1	1.284180E-1	7.098389E-1	1.714783E-1	2.564430E-2	-5.200195E-2	-4.749603E-1	-1.301575E-1
1.918250E+10	-8.435059E-1	1.318665E-1	7.030029E-1	1.577759E-1	2.511597E-2	-5.166245E-2	-4.810791E-1	-1.276398E-1
1.940700E+10	-8.422852E-1	1.355896E-1	6.923218E-1	1.452026E-1	2.293015E-2	-5.211258E-2	-4.835968E-1	-1.179810E-1
1.963150E+10	-8.417664E-1	1.387634E-1	6.859436E-1	1.339417E-1	2.280235E-2	-5.354691E-2	-4.847870E-1	-1.196136E-1
1.985600E+10	-8.394470E-1	1.423645E-1	6.762085E-1	1.216431E-1	2.073669E-2	-5.313873E-2	-4.898071E-1	-1.137695E-1
2.008050E+10	-8.376465E-1	1.455688E-1	6.675415E-1	1.113586E-1	1.992798E-2	-5.396271E-2	-4.936371E-1	-1.079559E-1
2.030500E+10	-8.366699E-1	1.502380E-1	6.594238E-1	1.022034E-1	1.825714E-2	-5.342102E-2	-4.956360E-1	-1.049652E-1
2.052950E+10	-8.370667E-1	1.534729E-1	6.511841E-1	9.121704E-2	1.715088E-2	-5.202675E-2	-5.014648E-1	-1.011353E-1
2.075400E+10	-8.349915E-1	1.556091E-1	6.432190E-1	8.190918E-2	1.670456E-2	-5.336189E-2	-5.013733E-1	-9.793091E-2
2.097850E+10	-8.330994E-1	1.597900E-1	6.351624E-1	7.147217E-2	1.480865E-2	-5.277634E-2	-5.017090E-1	-9.265137E-2
2.120300E+10	-8.321228E-1	1.608887E-1	6.274414E-1	6.179810E-2	1.317596E-2	-5.269051E-2	-5.074158E-1	-9.301758E-2
2.142750E+10	-8.327026E-1	1.667480E-1	6.183167E-1	5.484009E-2	1.312256E-2	-5.231476E-2	-5.136108E-1	-8.370972E-2
2.165200E+10	-8.314209E-1	1.714172E-1	6.107483E-1	4.473877E-2	1.213074E-2	-5.219650E-2	-5.125122E-1	-8.096313E-2
2.187650E+10	-8.278198E-1	1.747437E-1	6.029358E-1	3.765869E-2	1.215744E-2	-5.124664E-2	-5.159607E-1	-7.940674E-2
2.210100E+10	-8.278503E-1	1.794128E-1	5.946960E-1	2.600098E-2	1.024818E-2	-5.225945E-2	-5.231323E-1	-6.991577E-2
2.232550E+10	-8.283691E-1	1.818848E-1	5.870361E-1	1.876831E-2	9.389877E-3	-5.282402E-2	-5.206909E-1	-6.417847E-2
2.255000E+10	-8.262329E-1	1.850586E-1	5.794067E-1	1.119995E-2	8.014679E-3	-5.071449E-2	-5.272522E-1	-6.283569E-2
2.277450E+10	-8.242798E-1	1.880493E-1	5.731506E-1	3.387451E-3	6.567001E-3	-5.311394E-2	-5.262451E-1	-5.612183E-2
2.299900E+10	-8.227844E-1	1.915894E-1	5.651855E-1	-3.753662E-3	6.404877E-3	-5.016899E-2	-5.275269E-1	-5.191040E-2
2.322350E+10	-8.225708E-1	1.933594E-1	5.597229E-1	-1.342773E-2	6.441116E-3	-5.076408E-2	-5.325317E-1	-5.062866E-2
2.344800E+10	-8.208923E-1	1.968689E-1	5.509644E-1	-1.690674E-2	5.163193E-3	-5.229187E-2	-5.342712E-1	-4.125977E-2
2.367250E+10	-8.186951E-1	2.022400E-1	5.431519E-1	-2.450562E-2	3.837585E-3	-5.170059E-2	-5.335388E-1	-3.634644E-2
2.389700E+10	-8.168030E-1	2.040100E-1	5.360413E-1	-3.106689E-2	9.918213E-4	-5.150414E-2	-5.397644E-1	-3.375244E-2
2.412150E+10	-8.167419E-1	2.084351E-1	5.287170E-1	-3.817749E-2	7.991791E-4	-5.066490E-2	-5.372620E-1	-2.227783E-2
2.434600E+10	-8.155518E-1	2.110291E-1	5.206604E-1	-4.357910E-2	-9.174347E-4	-5.112267E-2	-5.342712E-1	-2.297974E-2
2.457050E+10	-8.134460E-1	2.141724E-1	5.137634E-1	-4.962158E-2	-1.213074E-3	-5.002213E-2	-5.418091E-1	-1.895142E-2
2.479500E+10	-8.124084E-1	2.185974E-1	5.055847E-1	-5.325317E-2	-3.067017E-3	-5.009079E-2	-5.424500E-1	-9.765625E-3
2.501950E+10	-8.099060E-1	2.187500E-1	5.004272E-1	-5.941772E-2	-5.308151E-3	-4.839706E-2	-5.391846E-1	-8.972168E-3
2.524400E+10	-8.090515E-1	2.236328E-1	4.923859E-1	-6.561279E-2	-3.211975E-3	-4.682541E-2	-5.426941E-1	-5.004883E-3
2.546850E+10	-8.081665E-1	2.285156E-1	4.866028E-1	-6.787109E-2	-7.419586E-3	-4.724503E-2	-5.434570E-1	2.166748E-3
2.569300E+10	-8.044739E-1	2.284851E-1	4.803009E-1	-7.107544E-2	-7.396698E-3	-4.612923E-2	-5.450134E-1	3.204346E-3
2.591750E+10	-8.055420E-1	2.347412E-1	4.741211E-1	-7.809448E-2	-6.334305E-3	-4.658890E-2	-5.496521E-1	7.843018E-3
2.614200E+10	-8.033142E-1	2.349548E-1	4.669189E-1	-8.120728E-2	-8.377075E-3	-4.584694E-2	-5.506897E-1	1.705933E-2
2.636650E+10	-8.019409E-1	2.354431E-1	4.582520E-1	-8.638000E-2	-1.080132E-2	-4.437065E-2	-5.517578E-1	2.227783E-2
2.659100E+10	-8.001099E-1	2.417297E-1	4.551697E-1	-8.923340E-2	-1.077461E-2	-4.500389E-2	-5.492554E-1	2.713013E-2
2.681550E+10	-7.971497E-1	2.427673E-1	4.495850E-1	-9.291077E-2	-1.287460E-2	-4.439354E-2	-5.538635E-1	2.978516E-2
2.704000E+10	-7.989197E-1	2.452087E-1	4.385376E-1	-9.597778E-2	-1.283073E-2	-4.305649E-2	-5.566711E-1	4.006958E-2
2.726450E+10	-7.951660E-1	2.494812E-1	4.370270E-1	-1.017151E-1	-1.222038E-2	-4.376030E-2	-5.487976E-1	4.208374E-2
2.748900E+10	-7.919006E-1	2.512512E-1	4.312744E-1	-1.068420E-1	-1.493645E-2	-4.192734E-2	-5.534058E-1	4.696655E-2
2.771350E+10	-7.931519E-1	2.541809E-1	4.227142E-1	-1.078644E-1	-1.430130E-2	-3.978729E-2	-5.570679E-1	5.389404E-2
2.793800E+10	-7.908325E-1	2.554321E-1	4.170532E-1	-1.120148E-1	-1.568222E-2	-4.062653E-2	-5.555115E-1	5.871582E-2
2.816250E+10	-7.905884E-1	2.578125E-1	4.124908E-1	-1.164856E-1	-1.474380E-2	-3.983498E-2	-5.555420E-1	5.834961E-2
2.838700E+10	-7.868347E-1	2.617493E-1	4.075165E-1	-1.153259E-1	-1.784134E-2	-3.763008E-2	-5.560303E-1	7.244873E-2
2.861150E+10	-7.869263E-1	2.642212E-1	4.026794E-1	-1.211395E-1	-2.078819E-2	-3.677177E-2	-5.548401E-1	7.415771E-2
2.883600E+10	-7.848816E-1	2.671204E-1	3.953705E-1	-1.248016E-1	-2.039719E-2	-3.551102E-2	-5.567322E-1	7.644653E-2
2.906050E+10	-7.844849E-1	2.692566E-1	3.900299E-1	-1.265411E-1	-2.124977E-2	-3.413963E-2	-5.555725E-1	8.493042E-2
2.928500E+10	-7.813416E-1	2.728882E-1	3.872528E-1	-1.288757E-1	-2.441406E-2	-3.297043E-2	-5.538635E-1	8.703613E-2
2.950950E+10	-7.798462E-1	2.761536E-1	3.829956E-1	-1.295319E-1	-2.207375E-2	-3.318596E-2	-5.596008E-1	9.408569E-2
2.973400E+10	-7.761536E-1	2.787170E-1	3.786621E-1	-1.342621E-1	-2.109241E-2	-2.979946E-2	-5.607300E-1	9.991455E-2
2.995850E+10	-7.753296E-1	2.799072E-1	3.735352E-1	-1.353149E-1	-2.320004E-2	-3.005314E-2	-5.601501E-1	1.073608E-1
3.018300E+10	-7.701416E-1	2.823181E-1	3.684540E-1	-1.396484E-1	-2.414799E-2	-2.822685E-2	-5.581665E-1	1.151428E-1
3.040750E+10	-7.716064E-1	2.856140E-1	3.632812E-1	-1.401672E-1	-2.444267E-2	-2.654266E-2	-5.586243E-1	1.164856E-1
3.063200E+10	-7.711182E-1	2.892761E-1	3.588715E-1	-1.448364E-1	-2.706718E-2	-2.787685E-2	-5.599365E-1	1.283264E-1
3.085650E+10	-7.674255E-1	2.899780E-1	3.536377E-1	-1.468506E-1	-2.515411E-2	-2.807140E-2	-5.573120E-1	1.333923E-1
3.108100E+10	-7.649536E-1	2.909546E-1	3.528595E-1	-1.461639E-1	-2.557850E-2	-2.464676E-2	-5.576172E-1	1.407471E-1
3.130550E+10	-7.614746E-1	2.942200E-1	3.442841E-1	-1.497040E-1	-2.657890E-2	-2.280426E-2	-5.526123E-1	1.423035E-1
3.153000E+10	-7.624207E-1	2.945251E-1	3.463593E-1	-1.549072E-1	-2.757168E-2	-2.452087E-2	-5.539246E-1	1.398315E-1
3.175450E+10	-7.610779E-1	2.998962E-1	3.354187E-1	-1.526184E-1	-2.776051E-2	-2.618122E-2	-5.534363E-1	1.557617E-1
3.197900E+10	-7.621460E-1	3.018494E-1	3.349762E-1	-1.571198E-1	-3.175163E-2	-2.359772E-2	-5.440979E-1	1.573486E-1
3.220350E+10	-7.631531E-1	3.075256E-1	3.297424E-1	-1.599731E-1	-3.174210E-2	-2.239037E-2	-5.508423E-1	1.661682E-1
3.242800E+10	-7.593384E-1	3.081055E-1	3.241272E-1	-1.569977E-1	-2.682877E-2	-2.063751E-2	-5.493774E-1	1.741943E-1
3.265250E+10	-7.572632E-1	3.118286E-1	3.203430E-1	-1.571655E-1	-2.729702E-2	-1.835823E-2	-5.440063E-1	1.802368E-1
3.287700E+10	-7.561035E-1	3.144531E-1	3.147125E-1	-1.634674E-1	-2.644730E-2	-1.717472E-2	-5.469666E-1	1.779480E-1
3.310150E+10	-7.530823E-1	3.130188E-1	3.146210E-1	-1.628418E-1	-2.779865E-2	-1.469135E-2	-5.447388E-1	1.864929E-1
3.332600E+10	-7.496033E-1	3.177490E-1	3.099060E-1	-1.686859E-1	-3.240967E-2	-1.788902E-2	-5.422974E-1	1.935730E-1
3.355050E+10	-7.471924E-1	3.164978E-1	3.068848E-1	-1.703949E-1	-2.851105E-2	-1.410675E-2	-5.422668E-1	1.992187E-1
3.377500E+10	-7.490540E-1	3.240356E-1	2.998810E-1	-1.703796E-1	-2.972507E-2	-1.461601E-2	-5.365295E-1	2.007141E-1
3.399950E+10	-7.443542E-1	3.269348E-1	2.979736E-1	-1.692047E-1	-3.123283E-2	-9.431839E-3	-5.439453E-1	2.119446E-1
3.422400E+10	-7.431641E-1	3.266907E-1	2.926025E-1	-1.700745E-1	-3.306389E-2	-1.302528E-2	-5.378418E-1	2.128906E-1
3.444850E+10	-7.457275E-1	3.266296E-1	2.909393E-1	-1.781006E-1	-3.000927E-2	-1.190472E-2	-5.307617E-1	2.193604E-1
3.467300E+10	-7.418823E-1	3.284912E-1	2.982788E-1	-1.777191E-1	-3.039646E-2	-6.941795E-3	-5.375671E-1	2.235413E-1
3.489750E+10	-7.400513E-1	3.323364E-1	2.843781E-1	-1.769409E-1	-2.802086E-2	-4.622459E-3	-5.351868E-1	2.364807E-1
3.512200E+10	-7.356567E-1	3.336487E-1	2.790833E-1	-1.769409E-1	-3.048325E-2	-4.153252E-3	-5.296631E-1	2.362976E-1
3.534650E+10	-7.391052E-1	3.363342E-1	2.829742E-1	-1.793976E-1	-3.098297E-2	-2.103806E-3	-5.305481E-1	2.500610E-1
3.557100E+10	-7.317200E-1	3.403625E-1	2.738495E-1	-1.835022E-1	-2.998829E-2	-2.155304E-3	-5.234680E-1	2.530823E-1
3.579550E+10	-7.337952E-1	3.433228E-1	2.714691E-1	-1.827545E-1	-3.290749E-2	-2.510071E-3	-5.223694E-1	2.571411E-1
3.602000E+10	-7.325745E-1	3.424683E-1	2.714539E-1	-1.912384E-1	-3.084564E-2	-2.101898E-3	-5.157166E-1	2.604980E-1
3.624450E+10	-7.284546E-1	3.497314E-1	2.671661E-1	-1.846161E-1	-3.248215E-2	-1.710892E-3	-5.150146E-1	2.692871E-1
3.646900E+10	-7.293701E-1	3.469238E-1	2.614594E-1	-1.947327E-1	-2.891731E-2	3.251076E-3	-5.112000E-1	2.772522E-1
3.669350E+10	-7.256470E-1	3.485413E-1	2.603149E-1	-1.923065E-1	-3.034592E-2	2.178192E-3	-5.103760E-1	2.810364E-1
3.691800E+10	-7.249146E-1	3.504944E-1	2.565918E-1	-1.912231E-1	-2.846146E-2	3.974915E-3	-5.018311E-1	2.885132E-1
3.714250E+10	-7.208252E-1	3.533630E-1	2.526245E-1	-1.946106E-1	-2.757072E-2	6.656647E-3	-4.979248E-1	2.923889E-1
3.736700E+10	-7.180176E-1	3.560486E-1	2.491379E-1	-1.954269E-1	-3.331375E-2	7.375717E-3	-4.924469E-1	2.965851E-1
3.759150E+10	-7.181702E-1	3.556213E-1	2.461319E-1	-1.954346E-1	-2.915859E-2	5.731583E-3	-4.955902E-1	3.044434E-1
3.781600E+10	-7.131653E-1	3.596191E-1	2.416000E-1	-1.964264E-1	-3.000736E-2	3.067017E-3	-4.857788E-1	3.119659E-1
3.804050E+10	-7.127380E-1	3.580933E-1	2.348099E-1	-1.979065E-1	-3.052616E-2	1.405430E-2	-4.810333E-1	3.194885E-1
3.826500E+10	-7.133484E-1	3.583984E-1	2.385712E-1	-1.997375E-1	-2.311611E-2	1.325798E-2	-4.762115E-1	3.266449E-1
3.848950E+10	-7.052307E-1	3.591614E-1	2.367783E-1	-2.050629E-1	-2.678204E-2	9.392738E-3	-4.692230E-1	3.268280E-1
3.871400E+10	-7.068787E-1	3.599854E-1	2.337189E-1	-2.056885E-1	-2.740574E-2	1.363564E-2	-4.661255E-1	3.372955E-1
3.893850E+10	-7.112122E-1	3.659973E-1	2.306900E-1	-2.036743E-1	-2.887917E-2	1.412392E-2	-4.539032E-1	3.401642E-1
3.916300E+10	-7.096252E-1	3.711243E-1	2.266464E-1	-2.105026E-1	-2.708721E-2	1.644421E-2	-4.560699E-1	3.436890E-1
